! TOUCHSTONE file generated by CST MICROWAVE STUDIO
! Date and time: Sun Jun 20 22:38:12 2021
! Project name: HIPS_d_sweep.cst
! Parameters = {fmax=120; fmin=75; b=0.46; d=25.1; a=0.63; phi=0; theta=0}
! Header version: 2018
! Port assignment regex: !\s*Touchstone port\s*([0-9]+)\s*=\s*(CST MWS port|CST DS port)\s*([0-9]+|Zmin|Zmax)\s*\(\"(.*)\"\)(\s*mode\s*([0-9]+))?.*
! Touchstone port assignment:
! Touchstone port 1 = CST MWS port Zmin ("") mode 1
! Touchstone port 2 = CST MWS port Zmin ("") mode 2
! Touchstone port 3 = CST MWS port Zmax ("") mode 1
! Touchstone port 4 = CST MWS port Zmax ("") mode 2
! S-Parameters are not renormalized. Unphysical impedance of 0 will be written to the file.
# GHz S MA R 0
75                             0               0                0               0         0.167902         69.7381         0.964641         162.781
                               0               0                0               0         0.964753          162.77         0.167833         69.7404
                               0               0                0               0         0.195826         70.5935         0.053935         34.1879
                               0               0                0               0        0.0539628          34.166         0.195827         70.6058
75.045                         0               0                0               0         0.163455         68.8474         0.964895         161.979
                               0               0                0               0         0.965314         161.952         0.163331         68.8332
                               0               0                0               0         0.197057         69.8654        0.0536586         33.3962
                               0               0                0               0        0.0530602          33.599         0.197031         69.9256
75.09                          0               0                0               0         0.159462         67.8977         0.965263         161.092
                               0               0                0               0          0.96576         161.059         0.159328          67.879
                               0               0                0               0         0.198345         69.0599        0.0532578         32.4472
                               0               0                0               0        0.0522515         32.8773         0.198307         69.1351
75.135                         0               0                0               0         0.155912          66.883         0.965669          160.12
                               0               0                0               0         0.966104          160.09         0.155794         66.8671
                               0               0                0               0         0.199697         68.1747        0.0526468         31.3082
                               0               0                0               0        0.0515369         32.0086         0.199661         68.2412
75.18                          0               0                0               0         0.152795         65.7987         0.966058         159.066
                               0               0                0               0         0.966355         159.044         0.152706         65.7892
                               0               0                0               0         0.201113         67.2077        0.0515881         30.1368
                               0               0                0               0        0.0509143         30.9994         0.201094         67.2505
75.225                         0               0                0               0         0.150099         64.6415         0.966385          157.93
                               0               0                0               0         0.966519         157.919          0.15004         64.6393
                               0               0                0               0         0.202593         66.1575         0.050361         29.8873
                               0               0                0               0          0.05038         29.8544         0.202599         66.1688
75.27                          0               0                0               0         0.147813         63.4098         0.966622         156.717
                               0               0                0               0         0.966602         156.716         0.147778         63.4138
                               0               0                0               0         0.204129         65.0232        0.0503886         29.6389
                               0               0                0               0        0.0499288         28.5774         0.204164         65.0015
75.315                         0               0                0               0         0.145922         62.1032         0.966749         155.427
                               0               0                0               0         0.966609         155.435         0.145904         62.1112
                               0               0                0               0         0.205712         63.8043        0.0504779         28.2928
                               0               0                0               0        0.0495546         27.1705         0.205771         63.7532
75.36                          0               0                0               0         0.144414         60.7228         0.966759         154.064
                               0               0                0               0         0.966542         154.079         0.144404         60.7318
                               0               0                0               0         0.207327         62.5009        0.0502843         26.5886
                               0               0                0               0        0.0492501         25.6352         0.207402         62.4278
75.405                         0               0                0               0         0.143275          59.271         0.966651          152.63
                               0               0                0               0         0.966405         152.648         0.143264         59.2781
                               0               0                0               0         0.208952         61.1139        0.0499692         24.7357
                               0               0                0               0        0.0490072          23.972         0.209034         61.0287
75.45                          0               0                0               0         0.142492         57.7511         0.966434         151.128
                               0               0                0               0         0.966203         151.145         0.142472         57.7535
                               0               0                0               0         0.210565         59.6452        0.0496187         22.7614
                               0               0                0               0         0.048817         22.1812         0.210643          59.559
75.495                         0               0                0               0         0.142051         56.1675         0.966117          149.56
                               0               0                0               0          0.96594         149.573         0.142017         56.1629
                               0               0                0               0         0.212138         58.0974        0.0492709          20.669
                               0               0                0               0        0.0486703         20.2627         0.212205         58.0214
75.54                          0               0                0               0         0.141937         54.5252         0.965719         147.928
                               0               0                0               0         0.965622         147.936         0.141887         54.5121
                               0               0                0               0          0.21364         56.4742        0.0489437          18.461
                               0               0                0               0        0.0485572         18.2165         0.213692         56.4187
75.585                         0               0                0               0         0.142138         52.8298         0.965259         146.237
                               0               0                0               0         0.965259         146.237          0.14207         52.8072
                               0               0                0               0          0.21504         54.7804        0.0486452         16.1418
                               0               0                0               0        0.0484677         16.0432          0.21508         54.7534
75.63                          0               0                0               0          0.14264         51.0867         0.964756         144.489
                               0               0                0               0         0.964859         144.479         0.142555         51.0549
                               0               0                0               0         0.216308         53.0215        0.0483778         13.7163
                               0               0                0               0        0.0483917         13.7434         0.216343         53.0283
75.675                         0               0                0               0         0.143427         49.3017         0.964233         142.686
                               0               0                0               0         0.964436         142.667         0.143328         49.2614
                               0               0                0               0         0.217416         51.2039        0.0481405         11.1895
                               0               0                0               0        0.0483193         11.3186         0.217456         51.2462
75.72                          0               0                0               0         0.144486         47.4802          0.96371         140.832
                               0               0                0               0         0.964001         140.804         0.144376          47.433
                               0               0                0               0         0.218337         49.3343        0.0479293         8.56574
                               0               0                0               0        0.0482409         8.77073         0.218395         49.4104
75.765                         0               0                0               0         0.145802         45.6274         0.963208         138.931
                               0               0                0               0         0.963569         138.895         0.145684         45.5752
                               0               0                0               0          0.21905         47.4194        0.0477388         5.84816
                               0               0                0               0        0.0481477         6.10203         0.219137         47.5242
75.81                          0               0                0               0          0.14736         43.7479         0.962743         136.985
                               0               0                0               0         0.963152         136.944         0.147238          43.693
                               0               0                0               0         0.219539         45.4657        0.0475619         3.03871
                               0               0                0               0        0.0480315         3.31525         0.219661         45.5912
75.855                         0               0                0               0         0.149144         41.8458         0.962331         134.998
                               0               0                0               0         0.962766         134.954         0.149022         41.7907
                               0               0                0               0          0.21979          43.479        0.0473907        0.137994
                               0               0                0               0        0.0478851          0.4132          0.21995         43.6153
75.9                           0               0                0               0         0.151139         39.9245         0.961984         132.973
                               0               0                0               0         0.962421         132.929          0.15102         39.8716
                               0               0                0               0         0.219794         41.4642        0.0472167        -2.85461
                               0               0                0               0        0.0477024        -2.60132         0.219985         41.6006
75.945                         0               0                0               0         0.153329          37.987          0.96171         130.914
                               0               0                0               0         0.962127         130.873         0.153214         37.9382
                               0               0                0               0         0.219543         39.4253        0.0470307        -5.94083
                               0               0                0               0         0.047478        -5.72579         0.219754         39.5516
75.99                          0               0                0               0         0.155698         36.0354         0.961511         128.825
                               0               0                0               0         0.961892         128.788         0.155587         35.9925
                               0               0                0               0         0.219031         37.3652        0.0468235        -9.12335
                               0               0                0               0        0.0472079         -8.9581         0.219243         37.4726
76.035                         0               0                0               0         0.158229         34.0715         0.961387         126.709
                               0               0                0               0         0.961721         126.678         0.158123         34.0354
                               0               0                0               0          0.21825          35.286        0.0465853        -12.4056
                               0               0                0               0        0.0468886        -12.2967         0.218443         35.3684
76.08                          0               0                0               0         0.160905         32.0964         0.961334         124.571
                               0               0                0               0         0.961613         124.546         0.160802         32.0675
                               0               0                0               0         0.217191         33.1893        0.0463065        -15.7916
                               0               0                0               0        0.0465178        -15.7409         0.217347         33.2436
76.125                         0               0                0               0         0.163708         30.1105         0.961339         122.413
                               0               0                0               0         0.961565         122.395         0.163605         30.0887
                               0               0                0               0         0.215845         31.0766        0.0459777        -19.2856
                               0               0                0               0        0.0460935        -19.2904         0.215949         31.1031
76.17                          0               0                0               0          0.16662         28.1141          0.96139         120.239
                               0               0                0               0         0.961569         120.228         0.166516         28.0986
                               0               0                0               0           0.2142         28.9491        0.0455892        -22.8924
                               0               0                0               0        0.0456144         -22.946         0.214246         28.9516
76.215                         0               0                0               0         0.169623          26.107         0.961466         118.054
                               0               0                0               0         0.961611         118.047         0.169513         26.0963
                               0               0                0               0         0.212244          26.809        0.0451322        -26.6165
                               0               0                0               0        0.0450795         -26.709         0.212236         26.7939
76.26                          0               0                0               0         0.172697         24.0886         0.961545         115.859
                               0               0                0               0         0.961676         115.856         0.172579         24.0808
                               0               0                0               0         0.209965         24.6588        0.0445981        -30.4627
                               0               0                0               0        0.0444883        -30.5815         0.209919         24.6346
76.305                         0               0                0               0         0.175823         22.0582         0.961601         113.659
                               0               0                0               0          0.96174         113.657         0.175693         22.0511
                               0               0                0               0          0.20735          22.502         0.043979        -34.4354
                               0               0                0               0        0.0438402        -34.5658         0.207295         22.4785
76.35                          0               0                0               0         0.178981          20.015         0.961602         111.457
                               0               0                0               0         0.961779         111.452         0.178836         20.0059
                               0               0                0               0         0.204392         20.3431        0.0432681        -38.5391
                               0               0                0               0         0.043135        -38.6652         0.204367         20.3303
76.395                         0               0                0               0          0.18215         17.9578         0.961518         109.255
                               0               0                0               0         0.961761         109.246         0.181986         17.9443
                               0               0                0               0         0.201085         18.1879        0.0424597        -42.7781
                               0               0                0               0        0.0423728        -42.8828         0.201139         18.1946
76.44                          0               0                0               0         0.185309         15.8857         0.961314         107.057
                               0               0                0               0         0.961652          107.04         0.185125         15.8653
