! TOUCHSTONE file generated by CST MICROWAVE STUDIO
! Date and time: Sun Jun 20 22:36:47 2021
! Project name: HIPS_d_sweep.cst
! Parameters = {fmax=120; fmin=75; b=0.46; d=16.25; a=0.63; phi=0; theta=0}
! Header version: 2018
! Port assignment regex: !\s*Touchstone port\s*([0-9]+)\s*=\s*(CST MWS port|CST DS port)\s*([0-9]+|Zmin|Zmax)\s*\(\"(.*)\"\)(\s*mode\s*([0-9]+))?.*
! Touchstone port assignment:
! Touchstone port 1 = CST MWS port Zmin ("") mode 1
! Touchstone port 2 = CST MWS port Zmin ("") mode 2
! Touchstone port 3 = CST MWS port Zmax ("") mode 1
! Touchstone port 4 = CST MWS port Zmax ("") mode 2
! S-Parameters are not renormalized. Unphysical impedance of 0 will be written to the file.
# GHz S MA R 0
75                             0               0                0               0         0.427736         179.632         0.886008         87.4248
                               0               0                0               0         0.886256         87.4164         0.427659         179.632
                               0               0                0               0         0.140349         15.6866         0.110274         33.5115
                               0               0                0               0         0.110406         33.5267         0.140219         15.6716
75.045                         0               0                0               0         0.431053         179.022         0.886334         86.9192
                               0               0                0               0         0.886317         86.8984         0.430809         178.974
                               0               0                0               0         0.139164         15.5382         0.110641         32.6496
                               0               0                0               0          0.11104         32.7274         0.139058         15.5156
75.09                          0               0                0               0         0.433946         178.377         0.886119          86.347
                               0               0                0               0         0.885982         86.3159         0.433625         178.296
                               0               0                0               0         0.137886         15.3483         0.110943         31.7137
                               0               0                0               0         0.111511         31.8521         0.137796         15.3212
75.135                         0               0                0               0         0.436433          177.69         0.885518         85.7067
                               0               0                0               0         0.885368         85.6685         0.436099         177.591
                               0               0                0               0         0.136521         15.1179         0.111187         30.6993
                               0               0                0               0         0.111834         30.8879          0.13644         15.0887
75.18                          0               0                0               0         0.438542         176.957         0.884677         84.9987
                               0               0                0               0         0.884583         84.9573         0.438232         176.853
                               0               0                0               0         0.135074         14.8484         0.111376         29.6029
                               0               0                0               0         0.112032         29.8252         0.134996          14.819
75.225                         0               0                0               0         0.440303         176.175          0.88372         84.2251
                               0               0                0               0         0.883721         84.1843         0.440033         176.076
                               0               0                0               0         0.133547         14.5413         0.111516         28.4214
                               0               0                0               0         0.112128         28.6582         0.133467         14.5131
75.27                          0               0                0               0         0.441749         175.342         0.882751         83.3894
                               0               0                0               0         0.882857         83.3523         0.441521         175.255
                               0               0                0               0         0.131943         14.1986         0.111614         27.1529
                               0               0                0               0         0.112146         27.3849         0.131858         14.1726
75.315                         0               0                0               0         0.442914         174.456         0.881852         82.4958
                               0               0                0               0         0.882056         82.4645         0.442719         174.387
                               0               0                0               0         0.130263         13.8225         0.111674          25.796
                               0               0                0               0         0.112108         26.0062         0.130169         13.7994
75.36                          0               0                0               0         0.443831         173.518         0.881083         81.5486
                               0               0                0               0         0.881363         81.5247         0.443657         173.469
                               0               0                0               0         0.128505         13.4153         0.111702         24.3504
                               0               0                0               0         0.112033         24.5257         0.128402         13.3956
75.405                         0               0                0               0         0.444529         172.529         0.880483         80.5526
                               0               0                0               0         0.880811         80.5364         0.444365         172.499
                               0               0                0               0         0.126669         12.9796         0.111702         22.8163
                               0               0                0               0         0.111934         22.9487         0.126557         12.9636
75.45                          0               0                0               0         0.445034         171.491         0.880076          79.512
                               0               0                0               0         0.880423         79.5034         0.444872         171.478
                               0               0                0               0         0.124754         12.5183         0.111676         21.1949
                               0               0                0               0         0.111822         21.2815         0.124633          12.506
75.495                         0               0                0               0         0.445369         170.404         0.879873         78.4312
                               0               0                0               0         0.880207          78.429         0.445206         170.405
                               0               0                0               0         0.122757         12.0346         0.111626         19.4878
                               0               0                0               0         0.111704         19.5312         0.122629          12.026
75.54                          0               0                0               0         0.445551         169.272         0.879872         77.3139
                               0               0                0               0         0.880166         77.3165         0.445392         169.281
                               0               0                0               0         0.120676         11.5319         0.111554         17.6975
                               0               0                0               0         0.111581         17.7047         0.120542         11.5267
75.585                         0               0                0               0         0.445594         168.098         0.880063         76.1633
                               0               0                0               0         0.880294         76.1689         0.445451          168.11
                               0               0                0               0         0.118507         11.0142         0.111459         15.8267
                               0               0                0               0         0.111453         15.8086         0.118371          11.012
75.63                          0               0                0               0         0.445507         166.884         0.880429         74.9826
                               0               0                0               0         0.880581         74.9888           0.4454         166.893
                               0               0                0               0         0.116249         10.4858         0.111339         13.8788
                               0               0                0               0         0.111318         13.8492         0.116114          10.486
75.675                         0               0                0               0         0.445298         165.633         0.880949          73.774
                               0               0                0               0         0.881011         73.7786         0.445249         165.634
                               0               0                0               0         0.113899         9.95166         0.111192         11.8574
                               0               0                0               0         0.111169          11.832         0.113767         9.95327
75.72                          0               0                0               0         0.444969         164.348         0.881597         72.5396
                               0               0                0               0         0.881566         72.5404         0.445005         164.335
                               0               0                0               0         0.111455         9.41726         0.111014         9.76677
                               0               0                0               0         0.111001         9.76206         0.111329         9.41922
75.765                         0               0                0               0         0.444521         163.032         0.882347         71.2812
                               0               0                0               0         0.882224         71.2758         0.444672         163.001
                               0               0                0               0         0.108915         8.88889         0.110802         7.61118
                               0               0                0               0         0.110806         7.64352         0.108798         8.88982
75.81                          0               0                0               0         0.443954         161.686         0.883169         69.9997
                               0               0                0               0         0.882965         69.9863         0.444249         161.635
                               0               0                0               0         0.106278         8.37357          0.11055         5.39535
                               0               0                0               0         0.110577         5.47991         0.106174         8.37187
75.855                         0               0                0               0         0.443264         160.313         0.884034         68.6962
                               0               0                0               0         0.883768          68.673         0.443732         160.239
                               0               0                0               0         0.103546         7.87927         0.110255         3.12422
                               0               0                0               0         0.110305         3.27397         0.103455         7.87313
75.9                           0               0                0               0         0.442448         158.916         0.884916          67.371
                               0               0                0               0         0.884611         67.3369         0.443114         158.818
                               0               0                0               0          0.10072         7.41487         0.109911        0.802934
                               0               0                0               0         0.109982         1.02767         0.100642         7.40241
75.945                         0               0                0               0         0.441503         157.496         0.885789          66.024
                               0               0                0               0         0.885477         65.9786         0.442386         157.375
                               0               0                0               0        0.0978026         6.99028         0.109515        -1.56318
                               0               0                0               0           0.1096        -1.25792        0.0977388         6.96969
75.99                          0               0                0               0         0.440425         156.053         0.886633         64.6549
                               0               0                0               0         0.886353         64.5985         0.441539         155.912
                               0               0                0               0        0.0947998         6.61648         0.109062        -3.96868
                               0               0                0               0         0.109154        -3.58268        0.0947478         6.58625
76.035                         0               0                0               0         0.439213         154.589         0.887438         63.2629
                               0               0                0               0         0.887229         63.1968          0.44056         154.433
                               0               0                0               0        0.0917183          6.3055         0.108552        -6.40811
                               0               0                0               0         0.108636        -5.94753        0.0916748         6.26477
76.08                          0               0                0               0         0.437869         153.105         0.888204         61.8472
                               0               0                0               0         0.888106         61.7737         0.439437         152.941
                               0               0                0               0        0.0885667          6.0704         0.107983        -8.87604
                               0               0                0               0         0.108047        -8.35442        0.0885276         6.01935
76.125                         0               0                0               0         0.436399           151.6         0.888948         60.4066
                               0               0                0               0         0.888993         60.3297         0.438158         151.437
                               0               0                0               0        0.0853559         5.92525         0.107355        -11.3673
                               0               0                0               0         0.107385        -10.8061         0.085316         5.86562
76.17                          0               0                0               0         0.434816         150.074         0.889708         58.9409
                               0               0                0               0          0.88991         58.8654         0.436708         149.924
                               0               0                0               0        0.0820982         5.88509         0.106673        -13.8771
                               0               0                0               0         0.106659        -13.3056        0.0820522         5.82059
76.215                         0               0                0               0          0.43314         148.528          0.89054          57.451
                               0               0                0               0         0.890886         57.3823         0.435076         148.401
                               0               0                0               0        0.0788077         5.96595          0.10594        -16.4012
                               0               0                0               0         0.105879         -15.855        0.0787509         5.90262
76.26                          0               0                0               0         0.431398         146.962         0.891516         55.9399
                               0               0                0               0         0.891961         55.8831         0.433254         146.868
                               0               0                0               0        0.0754996         6.18502         0.105164        -18.9364
                               0               0                0               0         0.105063        -18.4534         0.075429         6.13122
76.305                         0               0                0               0         0.429626         145.379         0.892703         54.4135
                               0               0                0               0         0.893171         54.3721         0.431243         145.324
                               0               0                0               0        0.0721903         6.56104         0.104352        -21.4805
                               0               0                0               0         0.104232        -21.0957        0.0721053         6.52693
76.35                          0               0                0               0          0.42786         143.782         0.894138         52.8808
                               0               0                0               0         0.894538         52.8553         0.429066         143.763
                               0               0                0               0        0.0688974         7.11501         0.103513        -24.0326
                               0               0                0               0         0.103403         -23.771        0.0688003         7.11126
76.395                         0               0                0               0         0.426132         142.178         0.895798         51.3522
                               0               0                0               0         0.896055         51.3399         0.426782         142.181
                               0               0                0               0        0.0656397         7.87126         0.102656        -26.5932
                               0               0                0               0         0.102586        -26.4633        0.0655361         7.90701
76.44                          0               0                0               0         0.424461         140.575         0.897595         49.8374
                               0               0                0               0         0.897677         49.8333         0.424505         140.575
