! TOUCHSTONE file generated by CST MICROWAVE STUDIO
! Date and time: Sun Jun 20 22:37:27 2021
! Project name: HIPS_d_sweep.cst
! Parameters = {fmax=120; fmin=75; b=0.46; d=21; a=0.63; phi=0; theta=0}
! Header version: 2018
! Port assignment regex: !\s*Touchstone port\s*([0-9]+)\s*=\s*(CST MWS port|CST DS port)\s*([0-9]+|Zmin|Zmax)\s*\(\"(.*)\"\)(\s*mode\s*([0-9]+))?.*
! Touchstone port assignment:
! Touchstone port 1 = CST MWS port Zmin ("") mode 1
! Touchstone port 2 = CST MWS port Zmin ("") mode 2
! Touchstone port 3 = CST MWS port Zmax ("") mode 1
! Touchstone port 4 = CST MWS port Zmax ("") mode 2
! S-Parameters are not renormalized. Unphysical impedance of 0 will be written to the file.
# GHz S MA R 0
75                             0               0                0               0         0.117826         3.22597         0.978438        -90.8617
                               0               0                0               0         0.978413        -90.8729          0.11788         3.20524
                               0               0                0               0         0.160205         1.34299        0.0547744         19.5925
                               0               0                0               0        0.0548466          19.623         0.160282         1.32759
75.045                         0               0                0               0         0.121513         2.34612         0.978362        -91.5617
                               0               0                0               0         0.978301        -91.5735         0.121551         2.35255
                               0               0                0               0         0.158301        0.762605        0.0553759         19.0887
                               0               0                0               0        0.0554463         19.0845         0.158377        0.748246
75.09                          0               0                0               0         0.124886         1.43848         0.978283        -92.3316
                               0               0                0               0         0.978207        -92.3436         0.124915         1.45622
                               0               0                0               0         0.156207        0.110808           0.0559         18.4338
                               0               0                0               0         0.055969         18.4158         0.156284       0.0966217
75.135                         0               0                0               0         0.127927        0.489842         0.978223        -93.1711
                               0               0                0               0         0.978147         -93.183         0.127955        0.508058
                               0               0                0               0         0.153925       -0.612333        0.0563483         17.6294
                               0               0                0               0        0.0564152         17.6119         0.154003       -0.627009
75.18                          0               0                0               0         0.130623       -0.510351         0.978203        -94.0799
                               0               0                0               0         0.978134        -94.0915         0.130659       -0.498241
                               0               0                0               0         0.151453        -1.40645         0.056722         16.6782
                               0               0                0               0        0.0567854           16.67         0.151532        -1.42211
75.225                         0               0                0               0         0.132968        -1.57005         0.978238        -95.0572
                               0               0                0               0         0.978182        -95.0683         0.133018        -1.56719
                               0               0                0               0         0.148789        -2.27092         0.057021         15.5837
                               0               0                0               0        0.0570798         15.5893         0.148871        -2.28787
75.27                          0               0                0               0         0.134962        -2.69479          0.97834         -96.102
                               0               0                0               0         0.978297        -96.1126         0.135029        -2.70168
                               0               0                0               0         0.145931        -3.20483        0.0572448         14.3502
                               0               0                0               0        0.0572983         14.3704         0.146015        -3.22328
75.315                         0               0                0               0         0.136607        -3.88793         0.978519        -97.2131
                               0               0                0               0         0.978488        -97.2231         0.136692        -3.90311
                               0               0                0               0         0.142875        -4.20702        0.0573922         12.9825
                               0               0                0               0        0.0574401         13.0157         0.142961        -4.22703
75.36                          0               0                0               0          0.13791        -5.15095          0.97878         -98.389
                               0               0                0               0         0.978756        -98.3986         0.138011        -5.17166
                               0               0                0               0         0.139615        -5.27605        0.0574613         11.4858
                               0               0                0               0        0.0575039         11.5289         0.139703        -5.29759
75.405                         0               0                0               0         0.138878         -6.4837         0.979123        -99.6279
                               0               0                0               0         0.979103        -99.6373         0.138992        -6.50643
                               0               0                0               0         0.136148        -6.41017        0.0574499         9.86574
                               0               0                0               0        0.0574879         9.91449         0.136237        -6.43309
75.45                          0               0                0               0         0.139522        -7.88474         0.979549        -100.928
                               0               0                0               0         0.979527        -100.937         0.139644        -7.90566
                               0               0                0               0         0.132467         -7.6073        0.0573554         8.12805
                               0               0                0               0        0.0573899         8.17796         0.132557         -7.6314
75.495                         0               0                0               0         0.139854        -9.35158         0.980053        -102.287
                               0               0                0               0         0.980024        -102.297         0.139976        -9.36695
                               0               0                0               0         0.128569        -8.86502        0.0571752         6.27871
                               0               0                0               0        0.0572075          6.3254          0.12866        -8.88999
75.54                          0               0                0               0         0.139886         -10.881         0.980627        -103.703
                               0               0                0               0         0.980587        -103.713         0.140001        -10.8874
                               0               0                0               0          0.12445        -10.1805        0.0569069         4.32377
                               0               0                0               0        0.0569382         4.36334         0.124541         -10.206
75.585                         0               0                0               0         0.139631        -12.4692         0.981264        -105.174
                               0               0                0               0         0.981209        -105.184         0.139731         -12.464
                               0               0                0               0         0.120105        -11.5504        0.0565481         2.26929
                               0               0                0               0        0.0565798         2.29859         0.120196         -11.576
75.63                          0               0                0               0         0.139101        -14.1122         0.981952        -106.696
                               0               0                0               0          0.98188        -106.706         0.139181        -14.0934
                               0               0                0               0         0.115532         -12.971         0.056097        0.121265
                               0               0                0               0        0.0561302        0.138081         0.115623        -12.9964
75.675                         0               0                0               0          0.13831        -15.8057         0.982682        -108.267
                               0               0                0               0         0.982592        -108.278         0.138364        -15.7724
                               0               0                0               0         0.110732         -14.438        0.0555522        -2.11445
                               0               0                0               0        0.0555879        -2.11134         0.110822        -14.4628
75.72                          0               0                0               0          0.13727        -17.5459         0.983441        -109.884
                               0               0                0               0         0.983332        -109.896         0.137294        -17.4979
                               0               0                0               0         0.105704        -15.9466        0.0549131        -4.43225
                               0               0                0               0        0.0549518        -4.44302         0.105794        -15.9704
75.765                         0               0                0               0         0.135995        -19.3287         0.984219        -111.545
                               0               0                0               0         0.984093        -111.557         0.135987        -19.2671
                               0               0                0               0         0.100452        -17.4913        0.0541795        -6.82681
                               0               0                0               0        0.0542217        -6.85067         0.100542        -17.5138
75.81                          0               0                0               0         0.134496        -21.1508         0.985006        -113.246
                               0               0                0               0         0.984866        -113.258         0.134457        -21.0777
                               0               0                0               0        0.0949789         -19.066        0.0533524        -9.29326
                               0               0                0               0        0.0533981        -9.32853        0.0950692        -19.0871
75.855                         0               0                0               0         0.132786        -23.0092         0.985795        -114.984
                               0               0                0               0         0.985643        -114.996         0.132718        -22.9274
                               0               0                0               0        0.0892925        -20.6638        0.0524333        -11.8272
                               0               0                0               0         0.052482        -11.8715        0.0893833        -20.6835
75.9                           0               0                0               0         0.130878        -24.9015         0.986579        -116.756
                               0               0                0               0         0.986419        -116.769         0.130786        -24.8148
                               0               0                0               0        0.0834009        -22.2769        0.0514244        -14.4247
                               0               0                0               0        0.0514753        -14.4751        0.0834928        -22.2954
75.945                         0               0                0               0         0.128783         -26.826         0.987357        -118.559
                               0               0                0               0         0.987193        -118.572         0.128676        -26.7386
                               0               0                0               0        0.0773147        -23.8963        0.0503291        -17.0827
                               0               0                0               0        0.0503808        -17.1359        0.0774078         -23.914
75.99                          0               0                0               0         0.126516        -28.7817         0.988129         -120.39
                               0               0                0               0         0.987964        -120.402         0.126401        -28.6982
                               0               0                0               0         0.071046        -25.5114         0.049151        -19.7986
                               0               0                0               0        0.0492017        -19.8513        0.0711405         -25.529
76.035                         0               0                0               0         0.124089        -30.7682         0.988898        -122.245
                               0               0                0               0         0.988735        -122.257         0.123979        -30.6931
                               0               0                0               0        0.0646082         -27.109        0.0478948        -22.5704
                               0               0                0               0        0.0479421        -22.6198        0.0647045        -27.1278
76.08                          0               0                0               0         0.121517        -32.7858         0.989671        -124.122
                               0               0                0               0         0.989514        -124.133         0.121424         -32.723
                               0               0                0               0        0.0580165        -28.6719        0.0465654        -25.3969
                               0               0                0               0        0.0466066        -25.4405        0.0581143        -28.6935
76.125                         0               0                0               0         0.118818        -34.8351         0.990457        -126.017
                               0               0                0               0         0.990307        -126.027         0.118754        -34.7876
                               0               0                0               0        0.0512866        -30.1759        0.0451684        -28.2774
                               0               0                0               0        0.0452005        -28.3137        0.0513859        -30.2027
76.17                          0               0                0               0         0.116009        -36.9166         0.991266        -127.926
                               0               0                0               0         0.991123        -127.935         0.115986        -36.8862
                               0               0                0               0        0.0444356        -31.5837        0.0437098        -31.2113
                               0               0                0               0        0.0437297        -31.2402        0.0445359        -31.6192
76.215                         0               0                0               0         0.113111        -39.0304         0.992107        -129.847
                               0               0                0               0          0.99197        -129.856         0.113138         -39.017
                               0               0                0               0        0.0374814        -32.8317        0.0421958        -34.1985
                               0               0                0               0        0.0422008        -34.2213        0.0375822        -32.8809
76.26                          0               0                0               0         0.110146        -41.1753         0.992985        -131.776
                               0               0                0               0         0.992854        -131.784          0.11023        -41.1769
                               0               0                0               0        0.0304438        -33.7981        0.0406328        -37.2385
                               0               0                0               0        0.0406208        -37.2582        0.0305446        -33.8693
76.305                         0               0                0               0         0.107138        -43.3482           0.9939         -133.71
                               0               0                0               0         0.993772        -133.717          0.10728        -43.3611
                               0               0                0               0        0.0233465        -34.2118        0.0390274        -40.3304
                               0               0                0               0        0.0389974        -40.3514        0.0234461         -34.321
76.35                          0               0                0               0         0.104112        -45.5426         0.994842        -135.645
                               0               0                0               0         0.994714        -135.651         0.104307        -45.5617
                               0               0                0               0        0.0162245        -33.3226        0.0373859        -43.4724
                               0               0                0               0        0.0373384        -43.5003        0.0163213        -33.5092
76.395                         0               0                0               0         0.101089        -47.7483         0.995787        -137.577
                               0               0                0               0         0.995658        -137.583         0.101329        -47.7681
                               0               0                0               0       0.00916715        -28.0647        0.0357144        -46.6613
                               0               0                0               0        0.0356515        -46.7021       0.00925564        -28.4819
76.44                          0               0                0               0        0.0980913        -49.9509         0.996696        -139.504
                               0               0                0               0         0.996563         -139.51        0.0983604        -49.9662
