! TOUCHSTONE file generated by CST MICROWAVE STUDIO
! Date and time: Sun Jun 20 22:36:57 2021
! Project name: HIPS_d_sweep.cst
! Parameters = {fmax=120; fmin=75; b=0.46; d=17.4; a=0.63; phi=0; theta=0}
! Header version: 2018
! Port assignment regex: !\s*Touchstone port\s*([0-9]+)\s*=\s*(CST MWS port|CST DS port)\s*([0-9]+|Zmin|Zmax)\s*\(\"(.*)\"\)(\s*mode\s*([0-9]+))?.*
! Touchstone port assignment:
! Touchstone port 1 = CST MWS port Zmin ("") mode 1
! Touchstone port 2 = CST MWS port Zmin ("") mode 2
! Touchstone port 3 = CST MWS port Zmax ("") mode 1
! Touchstone port 4 = CST MWS port Zmax ("") mode 2
! S-Parameters are not renormalized. Unphysical impedance of 0 will be written to the file.
# GHz S MA R 0
75                             0               0                0               0         0.341239         47.6175         0.916881        -43.4099
                               0               0                0               0         0.916744        -43.4084         0.341314         47.6157
                               0               0                0               0         0.192676         49.6068        0.0762854         117.047
                               0               0                0               0        0.0762932          117.06         0.192696         49.6018
75.045                         0               0                0               0         0.343614         47.1142         0.917905        -43.9412
                               0               0                0               0         0.917658        -43.9363         0.343774         47.0744
                               0               0                0               0         0.192163         49.2015        0.0768601         116.262
                               0               0                0               0        0.0768211         116.214         0.192202         49.1987
75.09                          0               0                0               0         0.345792          46.547         0.918294        -44.5327
                               0               0                0               0         0.917959        -44.5264         0.346022         46.4802
                               0               0                0               0         0.191676         48.7202        0.0774098         115.322
                               0               0                0               0        0.0773428         115.228         0.191727         48.7198
75.135                         0               0                0               0         0.347776         45.9152         0.918158         -45.189
                               0               0                0               0          0.91776        -45.1827         0.348061         45.8312
                               0               0                0               0          0.19123         48.1683        0.0779491         114.231
                               0               0                0               0        0.0778688         114.103         0.191287         48.1697
75.18                          0               0                0               0         0.349568         45.2187         0.917615        -45.9132
                               0               0                0               0          0.91718        -45.9079         0.349891         45.1258
                               0               0                0               0         0.190836         47.5509        0.0784908         112.992
                               0               0                0               0        0.0784078         112.844         0.190895         47.5538
75.225                         0               0                0               0         0.351171         44.4579         0.916785        -46.7065
                               0               0                0               0         0.916336        -46.7026         0.351515         44.3631
                               0               0                0               0         0.190498         46.8734        0.0790458          111.61
                               0               0                0               0        0.0789674         111.454         0.190556         46.8771
75.27                          0               0                0               0         0.352589         43.6337          0.91578        -47.5687
                               0               0                0               0         0.915341        -47.5665         0.352936         43.5425
                               0               0                0               0         0.190217         46.1406        0.0796227         110.094
                               0               0                0               0        0.0795533          109.94         0.190272         46.1445
75.315                         0               0                0               0         0.353824         42.7474         0.914706        -48.4982
                               0               0                0               0         0.914292        -48.4975         0.354159         42.6643
                               0               0                0               0         0.189989         45.3569        0.0802276         108.449
                               0               0                0               0        0.0801694         108.307         0.190038         45.3606
75.36                          0               0                0               0         0.354879         41.8007          0.91365        -49.4924
                               0               0                0               0         0.913276        -49.4928         0.355189         41.7289
                               0               0                0               0         0.189807         44.5262        0.0808647         106.685
                               0               0                0               0        0.0808182          106.56         0.189851         44.5292
75.405                         0               0                0               0         0.355756         40.7958         0.912687        -50.5475
                               0               0                0               0         0.912361        -50.5487          0.35603         40.7377
                               0               0                0               0         0.189664         43.6517        0.0815355          104.81
                               0               0                0               0        0.0815001         104.708         0.189702         43.6537
75.45                          0               0                0               0         0.356457         39.7352         0.911872        -51.6597
                               0               0                0               0         0.911599        -51.6612         0.356688         39.6921
                               0               0                0               0         0.189549         42.7362        0.0822399         102.833
                               0               0                0               0        0.0822143         102.757         0.189581          42.737
75.495                         0               0                0               0         0.356984         38.6217         0.911246        -52.8243
                               0               0                0               0         0.911028        -52.8258         0.357167         38.5942
                               0               0                0               0         0.189452          41.782        0.0829755          100.76
                               0               0                0               0        0.0829583         100.713         0.189477         41.7815
75.54                          0               0                0               0          0.35734         37.4586         0.910833        -54.0368
                               0               0                0               0         0.910668         -54.038         0.357471         37.4467
                               0               0                0               0          0.18936         40.7912        0.0837386         98.6014
                               0               0                0               0         0.083728         98.5829         0.189378         40.7892
75.585                         0               0                0               0         0.357525         36.2491         0.910644        -55.2928
                               0               0                0               0         0.910529        -55.2933         0.357606         36.2522
                               0               0                0               0          0.18926         39.7653        0.0845239          96.364
                               0               0                0               0        0.0845185         96.3739         0.189273          39.762
75.63                          0               0                0               0         0.357542         34.9969         0.910679        -56.5879
                               0               0                0               0          0.91061        -56.5876         0.357575         35.0139
                               0               0                0               0          0.18914         38.7058        0.0853249         94.0555
                               0               0                0               0        0.0853234         94.0925         0.189146         38.7012
75.675                         0               0                0               0         0.357394         33.7056         0.910929        -57.9179
                               0               0                0               0         0.910899        -57.9168         0.357383         33.7352
                               0               0                0               0         0.188985         37.6141        0.0861342         91.6832
                               0               0                0               0        0.0861356          91.745         0.188986         37.6083
75.72                          0               0                0               0         0.357083          32.379         0.911375        -59.2791
                               0               0                0               0         0.911379        -59.2772         0.357033         32.4198
                               0               0                0               0         0.188781         36.4914        0.0869435         89.2541
                               0               0                0               0        0.0869473          89.338         0.188778         36.4846
75.765                         0               0                0               0         0.356613         31.0212         0.911996        -60.6679
                               0               0                0               0         0.912028        -60.6653         0.356532         31.0714
                               0               0                0               0         0.188516          35.339        0.0877441          86.775
                               0               0                0               0        0.0877501         86.8777         0.188508         35.3314
75.81                          0               0                0               0         0.355986          29.636         0.912764         -62.081
                               0               0                0               0         0.912817        -62.0779         0.355882         29.6938
                               0               0                0               0         0.188176         34.1583        0.0885272         84.2525
                               0               0                0               0        0.0885352         84.3706         0.188163           34.15
75.855                         0               0                0               0          0.35521         28.2274          0.91365        -63.5157
                               0               0                0               0         0.913718        -63.5123         0.355089         28.2909
                               0               0                0               0         0.187746         32.9507        0.0892835          81.693
                               0               0                0               0        0.0892938         81.8228          0.18773          32.942
75.9                           0               0                0               0         0.354287         26.7991          0.91462        -64.9692
                               0               0                0               0         0.914699        -64.9657         0.354158         26.8667
                               0               0                0               0         0.187215         31.7179        0.0900043         79.1027
                               0               0                0               0        0.0900171         79.2406         0.187195          31.709
75.945                         0               0                0               0         0.353226         25.3549         0.915644        -66.4391
                               0               0                0               0         0.915728        -66.4357         0.353095         25.4249
                               0               0                0               0         0.186569         30.4618         0.090681         76.4879
                               0               0                0               0        0.0906966         76.6302         0.186546         30.4529
75.99                          0               0                0               0         0.352032         23.8986         0.916689        -67.9231
                               0               0                0               0         0.916774        -67.9202         0.351907         23.9693
                               0               0                0               0         0.185796         29.1845        0.0913057         73.8546
                               0               0                0               0        0.0913244         73.9977         0.185771         29.1759
76.035                         0               0                0               0         0.350714         22.4336         0.917723        -69.4193
                               0               0                0               0         0.917805         -69.417         0.350601         22.5036
                               0               0                0               0         0.184886         27.8886        0.0918713         71.2085
                               0               0                0               0        0.0918931         71.3491          0.18486         27.8804
76.08                          0               0                0               0          0.34928         20.9632         0.918715        -70.9258
                               0               0                0               0         0.918791        -70.9244         0.349184         21.0313
                               0               0                0               0         0.183828         26.5766        0.0923714         68.5556
                               0               0                0               0        0.0923965         68.6906         0.183801         26.5691
76.125                         0               0                0               0         0.347739         19.4906         0.919638        -72.4407
                               0               0                0               0         0.919704        -72.4404         0.347665         19.5556
                               0               0                0               0         0.182615         25.2518        0.0928008         65.9013
                               0               0                0               0        0.0928289         66.0278         0.182588         25.2451
76.17                          0               0                0               0         0.346101         18.0186         0.920463        -73.9623
                               0               0                0               0         0.920517        -73.9634         0.346051         18.0797
                               0               0                0               0          0.18124         23.9175        0.0931554          63.251
                               0               0                0               0        0.0931861         63.3665         0.181212         23.9117
76.215                         0               0                0               0         0.344375           16.55         0.921166        -75.4892
                               0               0                0               0         0.921206        -75.4918         0.344353         16.6064
                               0               0                0               0         0.179696         22.5773        0.0934321         60.6098
                               0               0                0               0        0.0934649         60.7121         0.179669         22.5725
76.26                          0               0                0               0         0.342572         15.0871         0.921725        -77.0196
                               0               0                0               0          0.92175         -77.024          0.34258         15.1384
                               0               0                0               0         0.177982         21.2352        0.0936292         57.9825
                               0               0                0               0        0.0936632         58.0697         0.177956         21.2315
76.305                         0               0                0               0         0.340703         13.6321          0.92212        -78.5523
                               0               0                0               0         0.922128        -78.5584          0.34074         13.6781
                               0               0                0               0         0.176094         19.8954         0.093746         55.3737
                               0               0                0               0        0.0937803         55.4443          0.17607         19.8928
76.35                          0               0                0               0         0.338777         12.1871         0.922334        -80.0856
                               0               0                0               0         0.922323        -80.0936         0.338845         12.2275
                               0               0                0               0         0.174035         18.5622        0.0937829         52.7874
                               0               0                0               0        0.0938164         52.8402         0.174013         18.5608
76.395                         0               0                0               0         0.336806         10.7538         0.922353        -81.6181
                               0               0                0               0         0.922323        -81.6282         0.336904         10.7885
                               0               0                0               0         0.171806         17.2402        0.0937415         50.2273
                               0               0                0               0        0.0937731         50.2616         0.171787           17.24
76.44                          0               0                0               0         0.334799         9.33345         0.922166        -83.1486
                               0               0                0               0         0.922116        -83.1607         0.334927         9.36283
