! TOUCHSTONE file generated by CST MICROWAVE STUDIO
! Date and time: Sun Jun 20 22:37:46 2021
! Project name: HIPS_d_sweep.cst
! Parameters = {fmax=120; fmin=75; b=0.46; d=22.8; a=0.63; phi=0; theta=0}
! Header version: 2018
! Port assignment regex: !\s*Touchstone port\s*([0-9]+)\s*=\s*(CST MWS port|CST DS port)\s*([0-9]+|Zmin|Zmax)\s*\(\"(.*)\"\)(\s*mode\s*([0-9]+))?.*
! Touchstone port assignment:
! Touchstone port 1 = CST MWS port Zmin ("") mode 1
! Touchstone port 2 = CST MWS port Zmin ("") mode 2
! Touchstone port 3 = CST MWS port Zmax ("") mode 1
! Touchstone port 4 = CST MWS port Zmax ("") mode 2
! S-Parameters are not renormalized. Unphysical impedance of 0 will be written to the file.
# GHz S MA R 0
75                             0               0                0               0       0.00646553        -40.0442         0.996767         64.7625
                               0               0                0               0         0.996539         64.7541       0.00642289        -39.7076
                               0               0                0               0        0.0808372        -25.4689        0.0224179        -26.8654
                               0               0                0               0        0.0224218        -26.8507        0.0808893        -25.4921
75.045                         0               0                0               0       0.00270489        -64.9042            0.997         63.9957
                               0               0                0               0         0.996813         63.9898       0.00262129        -66.3353
                               0               0                0               0        0.0783787        -26.1931          0.02291        -26.7478
                               0               0                0               0        0.0229354        -26.6519        0.0784314        -26.2156
75.09                          0               0                0               0        0.0022848        -159.609         0.997223         63.1542
                               0               0                0               0         0.997048          63.149       0.00237757        -161.739
                               0               0                0               0        0.0756129        -26.9833        0.0232597        -26.8847
                               0               0                0               0        0.0232914        -26.7722        0.0756653        -27.0064
75.135                         0               0                0               0       0.00500825         171.006         0.997438         62.2371
                               0               0                0               0         0.997258         62.2313         0.005115         170.548
                               0               0                0               0        0.0725422        -27.8439        0.0234743        -27.2507
                               0               0                0               0         0.023503        -27.1526        0.0725937        -27.8687
75.18                          0               0                0               0       0.00764035         162.702         0.997649         61.2439
                               0               0                0               0         0.997458         61.2369       0.00771999         162.394
                               0               0                0               0        0.0691691        -28.7785        0.0235599        -27.8256
                               0               0                0               0        0.0235811        -27.7519        0.0692193        -28.8056
75.225                         0               0                0               0        0.0099096         158.351         0.997864         60.1746
                               0               0                0               0         0.997659         60.1663       0.00995862          158.04
                               0               0                0               0         0.065496        -29.7905        0.0235213         -28.593
                               0               0                0               0        0.0235343        -28.5414        0.0655448        -29.8205
75.27                          0               0                0               0        0.0117928         155.334         0.998086         59.0295
                               0               0                0               0         0.997874         59.0201        0.0118188         155.006
                               0               0                0               0        0.0615253        -30.8829        0.0233624        -29.5399
                               0               0                0               0        0.0233691        -29.5005        0.0615729        -30.9162
75.315                         0               0                0               0         0.013294         152.902         0.998321         57.8096
                               0               0                0               0          0.99811         57.7996         0.013311         152.574
                               0               0                0               0        0.0572598         -32.059         0.023086        -30.6555
                               0               0                0               0        0.0230904        -30.6142        0.0573062        -32.0959
75.36                          0               0                0               0        0.0144226         150.761         0.998573          56.516
                               0               0                0               0         0.998374         56.5063        0.0144482         150.456
                               0               0                0               0        0.0527024        -33.3225        0.0226941        -31.9309
                               0               0                0               0        0.0227017        -31.8721        0.0527481        -33.3632
75.405                         0               0                0               0        0.0151891         148.769         0.998847         55.1506
                               0               0                0               0         0.998669         55.1419        0.0152425         148.513
                               0               0                0               0        0.0478569        -34.6781        0.0221882        -33.3588
                               0               0                0               0        0.0222054        -33.2666        0.0479022        -34.7227
75.45                          0               0                0               0        0.0156042         146.845         0.999142         53.7155
                               0               0                0               0         0.998997         53.7085        0.0157044         146.665
                               0               0                0               0        0.0427276        -36.1324        0.0215691        -34.9328
                               0               0                0               0        0.0216026        -34.7924         0.042773        -36.1814
75.495                         0               0                0               0        0.0156783         144.939         0.999459         52.2131
                               0               0                0               0         0.999357         52.2087        0.0158429         144.864
                               0               0                0               0        0.0373202        -37.6965        0.0208375        -36.6476
                               0               0                0               0        0.0208941         -36.446        0.0373662        -37.7503
75.54                          0               0                0               0        0.0154218         143.015         0.999795         50.6465
                               0               0                0               0         0.999742         50.6453        0.0156658         143.075
                               0               0                0               0        0.0316417          -39.39        0.0199939        -38.4983
                               0               0                0               0        0.0200798        -38.2249        0.0316889        -39.4499
75.585                         0               0                0               0         0.014845         141.043                1         49.0187
                               0               0                0               0                1         49.0211          0.01518         141.271
                               0               0                0               0        0.0257009        -41.2534        0.0190386        -40.4804
                               0               0                0               0        0.0191593        -40.1272        0.0257498        -41.3216
75.63                          0               0                0               0        0.0139585         138.994                1         47.3333
                               0               0                0               0                1         47.3397        0.0143922         139.431
                               0               0                0               0        0.0195088        -43.3831        0.0179725        -42.5896
                               0               0                0               0        0.0181322        -42.1517        0.0195599        -43.4643
75.675                         0               0                0               0        0.0127735         136.835                1          45.594
                               0               0                0               0                1         45.6043        0.0133087         137.532
                               0               0                0               0        0.0130797        -46.0779        0.0167966        -44.8212
                               0               0                0               0        0.0169979         -44.297        0.0131335        -46.1839
75.72                          0               0                0               0        0.0113018         134.514                1         43.8047
                               0               0                0               0                1         43.8189        0.0119366         135.547
                               0               0                0               0        0.0064378         -50.916        0.0155128        -47.1702
                               0               0                0               0        0.0157564        -46.5614       0.00649534        -51.0823
75.765                         0               0                0               0       0.00955635         131.946                1         41.9696
                               0               0                0               0                1         41.9872        0.0102836          133.44
                               0               0                0               0       0.00081724        -171.446        0.0141238        -49.6308
                               0               0                0               0        0.0144082        -48.9424       0.00080526        -167.116
75.81                          0               0                0               0       0.00755189         128.939                1         40.0928
                               0               0                0               0                1         40.1134       0.00835907          131.14
                               0               0                0               0       0.00755011         136.414        0.0126331        -52.1961
                               0               0                0               0        0.0129548         -51.436       0.00749129         136.619
75.855                         0               0                0               0       0.00530636         124.943                1         38.1787
                               0               0                0               0                1         38.2014       0.00617395         128.477
                               0               0                0               0        0.0147561         131.945        0.0110459        -54.8572
                               0               0                0               0        0.0113986        -54.0362        0.0146935         132.037
75.9                           0               0                0               0       0.00284958         117.355                1         36.2315
                               0               0                0               0                1         36.2555       0.00374248         124.804
                               0               0                0               0        0.0221124         129.051       0.00936857         -57.602
                               0               0                0               0       0.00974389         -56.733        0.0220471          129.11
75.945                         0               0                0               0      0.000576821         46.4018                1         34.2555
                               0               0                0               0                1         34.2799       0.00109639         112.892
                               0               0                0               0        0.0295848         126.538        0.0076089        -60.4122
                               0               0                0               0       0.00799642         -59.509        0.0295177         126.583
75.99                          0               0                0               0       0.00284221        -44.2764                1          32.255
                               0               0                0               0                1         32.2788       0.00183708        -47.5079
                               0               0                0               0        0.0371431         124.158       0.00577641        -63.2542
                               0               0                0               0       0.00616405          -62.33        0.0370751         124.196
76.035                         0               0                0               0       0.00586303        -52.6866                1         30.2342
                               0               0                0               0                1         30.2564       0.00490376        -54.9382
                               0               0                0               0        0.0447563         121.828       0.00388208        -66.0422
                               0               0                0               0       0.00425672        -65.1083        0.0446884         121.863
76.08                          0               0                0               0       0.00904672        -57.1521                1         28.1971
                               0               0                0               0                1         28.2167       0.00815004        -58.5602
                               0               0                0               0        0.0523928         119.518       0.00193844        -68.3781
                               0               0                0               0       0.00228664        -67.4732        0.0523263         119.551
76.125                         0               0                0               0        0.0123521        -60.6843                1         26.1476
                               0               0                0               0                1         26.1638        0.0115418        -61.5842
                               0               0                0               0        0.0600205         117.213      6.67113e-05         56.2026
                               0               0                0               0      0.000274363        -58.2697        0.0599566         117.245
76.17                          0               0                0               0        0.0157485        -63.8796         0.999966         24.0896
                               0               0                0               0                1         24.1014        0.0150486         -64.444
                               0               0                0               0        0.0676073          114.91       0.00204439         102.303
                               0               0                0               0       0.00178801         102.232        0.0675474         114.941
76.215                         0               0                0               0        0.0192063        -66.9317         0.999003         22.0265
                               0               0                0               0         0.999181         22.0334        0.0186384        -67.2611
                               0               0                0               0        0.0751219         112.606       0.00405215         99.8003
                               0               0                0               0       0.00385649         100.066        0.0750673         112.638
76.26                          0               0                0               0        0.0226957        -69.9191          0.99783         19.9618
                               0               0                0               0         0.997946         19.9632        0.0222774        -70.0792
                               0               0                0               0        0.0825341         110.305       0.00605156         96.8052
                               0               0                0               0       0.00592391         97.0689         0.082486         110.336
76.305                         0               0                0               0        0.0261874        -72.8772          0.99644         17.8986
                               0               0                0               0         0.996486         17.8942        0.0259311        -72.9147
                               0               0                0               0        0.0898152         108.008       0.00802765         93.6849
                               0               0                0               0       0.00797192         93.8777        0.0897749         108.039
76.35                          0               0                0               0        0.0296523        -75.8218         0.994827         15.8398
                               0               0                0               0         0.994799         15.8294        0.0295648         -75.772
                               0               0                0               0         0.096939          105.72       0.00996623         90.5231
                               0               0                0               0       0.00998298          90.619        0.0969073          105.75
76.395                         0               0                0               0         0.033063         -78.759         0.992988         13.7882
                               0               0                0               0         0.992883         13.7719        0.0331448        -78.6494
                               0               0                0               0         0.103881         103.442        0.0118542         87.3549
                               0               0                0               0        0.0119407         87.3433         0.103859         103.472
76.44                          0               0                0               0        0.0363936        -81.6897         0.990923         11.7463
                               0               0                0               0          0.99074         11.7241        0.0366391        -81.5421
