! TOUCHSTONE file generated by CST MICROWAVE STUDIO
! Date and time: Sun Jun 20 22:38:00 2021
! Project name: HIPS_d_sweep.cst
! Parameters = {fmax=120; fmin=75; b=0.46; d=24.1; a=0.63; phi=0; theta=0}
! Header version: 2018
! Port assignment regex: !\s*Touchstone port\s*([0-9]+)\s*=\s*(CST MWS port|CST DS port)\s*([0-9]+|Zmin|Zmax)\s*\(\"(.*)\"\)(\s*mode\s*([0-9]+))?.*
! Touchstone port assignment:
! Touchstone port 1 = CST MWS port Zmin ("") mode 1
! Touchstone port 2 = CST MWS port Zmin ("") mode 2
! Touchstone port 3 = CST MWS port Zmax ("") mode 1
! Touchstone port 4 = CST MWS port Zmax ("") mode 2
! S-Parameters are not renormalized. Unphysical impedance of 0 will be written to the file.
# GHz S MA R 0
75                             0               0                0               0        0.0944376        -174.785         0.979006        -82.4757
                               0               0                0               0         0.978926        -82.4774        0.0944154         -174.91
                               0               0                0               0         0.178871         6.89434        0.0278663        -30.7493
                               0               0                0               0        0.0278761         -30.784         0.178816           6.884
75.045                         0               0                0               0        0.0904908        -176.035         0.979871        -83.2597
                               0               0                0               0         0.979798        -83.2624          0.09014        -176.228
                               0               0                0               0         0.177178         6.12088        0.0274799        -29.8371
                               0               0                0               0        0.0274944        -29.8599         0.177124         6.10976
75.09                          0               0                0               0        0.0868305        -177.066         0.980602        -84.1244
                               0               0                0               0         0.980533        -84.1274        0.0864205        -177.293
                               0               0                0               0          0.17525         5.27269        0.0270655        -29.1495
                               0               0                0               0        0.0270795        -29.1689         0.175196         5.26124
75.135                         0               0                0               0        0.0835124        -177.977         0.981248        -85.0698
                               0               0                0               0         0.981177        -85.0726        0.0831942        -178.207
                               0               0                0               0         0.173085         4.34736        0.0266268        -28.6991
                               0               0                0               0        0.0266373        -28.7196          0.17303         4.33588
75.18                          0               0                0               0        0.0805743        -178.864         0.981847        -86.0953
                               0               0                0               0         0.981774        -86.0977        0.0804047        -179.065
                               0               0                0               0         0.170681         3.34311        0.0261653        -28.4975
                               0               0                0               0        0.0261709        -28.5208         0.170624         3.33174
75.225                         0               0                0               0        0.0780462          -179.8         0.982434        -87.2002
                               0               0                0               0         0.982359        -87.2022        0.0780116        -179.949
                               0               0                0               0         0.168034         2.25875        0.0256797        -28.5558
                               0               0                0               0        0.0256804         -28.581         0.167974          2.2475
75.27                          0               0                0               0        0.0759533          179.16         0.983036        -88.3833
                               0               0                0               0          0.98296         -88.385        0.0759971         179.066
                               0               0                0               0         0.165136         1.09369        0.0251668        -28.8841
                               0               0                0               0        0.0251634        -28.9093         0.165075         1.08247
75.315                         0               0                0               0        0.0743155         177.987         0.983672         -89.643
                               0               0                0               0         0.983597        -89.6446        0.0743686         177.926
                               0               0                0               0         0.161982        -0.15206         0.024621        -29.4921
                               0               0                0               0        0.0246153        -29.5148          0.16192       -0.163431
75.36                          0               0                0               0        0.0731439         176.679         0.984355        -90.9777
                               0               0                0               0         0.984283        -90.9795        0.0731544           176.6
                               0               0                0               0         0.158565        -1.47786        0.0240355        -30.3884
                               0               0                0               0        0.0240293        -30.4065         0.158502        -1.48963
75.405                         0               0                0               0        0.0724375         175.249         0.985091        -92.3855
                               0               0                0               0         0.985024        -92.3877        0.0723926          175.09
                               0               0                0               0         0.154876        -2.88242        0.0234021        -31.5805
                               0               0                0               0        0.0233971         -31.593         0.154813        -2.89491
75.45                          0               0                0               0        0.0721819         173.726         0.985876         -93.864
                               0               0                0               0         0.985819         -93.867        0.0721137         173.433
                               0               0                0               0         0.150908        -4.36378        0.0227122        -33.0754
                               0               0                0               0        0.0227098        -33.0822         0.150846        -4.37736
75.495                         0               0                0               0        0.0723506         172.139         0.986705         -95.411
                               0               0                0               0         0.986659        -95.4151        0.0723234         171.691
                               0               0                0               0         0.146652        -5.91926        0.0219574        -34.8792
                               0               0                0               0        0.0219582        -34.8817         0.146593        -5.93432
75.54                          0               0                0               0        0.0729081         170.518         0.987565        -97.0239
                               0               0                0               0         0.987531        -97.0293        0.0729942         169.931
                               0               0                0               0         0.142104        -7.54544          0.02113        -36.9988
                               0               0                0               0        0.0211338        -36.9991         0.142047         -7.5624
75.585                         0               0                0               0         0.073814         168.884         0.988437           -98.7
                               0               0                0               0         0.988416        -98.7067        0.0740686         168.207
                               0               0                0               0         0.137258        -9.23811        0.0202238        -39.4426
                               0               0                0               0        0.0202294        -39.4434         0.137203        -9.25738
75.63                          0               0                0               0        0.0750269         167.248           0.9893        -100.436
                               0               0                0               0         0.989291        -100.445        0.0754727         166.548
                               0               0                0               0         0.132111        -10.9923        0.0192348        -42.2238
                               0               0                0               0        0.0192404        -42.2277         0.132059        -11.0142
75.675                         0               0                0               0        0.0765079         165.615         0.990132         -102.23
                               0               0                0               0         0.990133         -102.24         0.077131         164.956
                               0               0                0               0         0.126663        -12.8023        0.0181614        -45.3632
                               0               0                0               0        0.0181645        -45.3722         0.126614        -12.8272
75.72                          0               0                0               0        0.0782218         163.982         0.990907        -104.078
                               0               0                0               0         0.990915        -104.088        0.0789775         163.417
                               0               0                0               0         0.120918        -14.6616        0.0170048         -48.895
                               0               0                0               0        0.0170031        -48.9105          0.12087        -14.6896
75.765                         0               0                0               0        0.0801386         162.341         0.991602        -105.976
                               0               0                0               0         0.991614        -105.988         0.080962         161.901
                               0               0                0               0         0.114881        -16.5631        0.0157696        -52.8746
                               0               0                0               0        0.0157609        -52.8973         0.114833        -16.5942
75.81                          0               0                0               0        0.0822337         160.684         0.992195        -107.921
                               0               0                0               0         0.992206        -107.934        0.0830507         160.377
                               0               0                0               0         0.108561         -18.499        0.0144638        -57.3907
                               0               0                0               0        0.0144467        -57.4217         0.108512         -18.533
75.855                         0               0                0               0        0.0844878         158.998         0.992669        -109.911
                               0               0                0               0         0.992676        -109.922        0.0852257         158.813
                               0               0                0               0          0.10197        -20.4611        0.0130998        -62.5854
                               0               0                0               0        0.0130737         -62.627          0.10192        -20.4974
75.9                           0               0                0               0        0.0868866         157.271         0.993012         -111.94
                               0               0                0               0         0.993014        -111.951        0.0874834         157.181
                               0               0                0               0        0.0951223        -22.4405        0.0116961        -68.6857
                               0               0                0               0        0.0116616        -68.7435        0.0950692        -22.4785
75.945                         0               0                0               0        0.0894209         155.492         0.993222        -114.005
                               0               0                0               0         0.993218        -114.014        0.0898341         155.457
                               0               0                0               0        0.0880343         -24.428        0.0102807        -76.0564
                               0               0                0               0        0.0102399        -76.1425        0.0879775        -24.4667
75.99                          0               0                0               0        0.0920871          153.65         0.993305        -116.102
                               0               0                0               0         0.993297        -116.109        0.0923016         153.625
                               0               0                0               0        0.0807237        -26.4138       0.00889944        -85.2813
                               0               0                0               0       0.00885593        -85.4172        0.0806625        -26.4519
76.035                         0               0                0               0        0.0948876         151.735          0.99328        -118.227
                               0               0                0               0         0.993273        -118.232        0.0949218         151.677
                               0               0                0               0        0.0732085        -28.3871       0.00762974        -97.2486
                               0               0                0               0       0.00758905         -97.465        0.0731428        -28.4232
76.08                          0               0                0               0        0.0978312         149.744         0.993177        -120.376
                               0               0                0               0         0.993178        -120.378        0.0977395         149.621
                               0               0                0               0        0.0655072        -30.3354       0.00660475        -113.055
                               0               0                0               0       0.00657451        -113.375         0.065437        -30.3681
76.125                         0               0                0               0         0.100934         147.674         0.993036        -122.545
                               0               0                0               0         0.993054        -122.545         0.100799         147.477
                               0               0                0               0        0.0576379        -32.2428       0.00602661        -133.131
                               0               0                0               0       0.00601471        -133.515        0.0575637        -32.2706
76.17                          0               0                0               0         0.104216         145.533         0.992904        -124.731
                               0               0                0               0         0.992948        -124.729         0.104127         145.281
                               0               0                0               0        0.0496188         -34.086       0.00609858        -155.408
                               0               0                0               0       0.00610743         -155.72        0.0495413        -34.1081
76.215                         0               0                0               0         0.107698         143.336         0.992834        -126.929
                               0               0                0               0         0.992911        -126.925         0.107718         143.075
                               0               0                0               0        0.0414684        -35.8264       0.00686316        -175.772
                               0               0                0               0       0.00688633        -175.905        0.0413889        -35.8427
76.26                          0               0                0               0         0.111388         141.111          0.99287        -129.135
                               0               0                0               0         0.992984        -129.132         0.111523         140.894
                               0               0                0               0        0.0332076        -37.3879       0.00817504         168.109
                               0               0                0               0       0.00820344         168.146        0.0331277        -37.3993
76.305                         0               0                0               0         0.115266          138.89         0.993043        -131.345
                               0               0                0               0         0.993191        -131.344         0.115456         138.757
                               0               0                0               0        0.0248613          -38.59       0.00984785         155.937
                               0               0                0               0       0.00987576         156.085        0.0247829        -38.5995
76.35                          0               0                0               0         0.119268         136.701         0.993357        -133.557
                               0               0                0               0          0.99353        -133.558         0.119412         136.662
                               0               0                0               0        0.0164638        -38.8743        0.0117409         146.591
                               0               0                0               0        0.0117669         146.804        0.0163889        -38.8875
76.395                         0               0                0               0         0.123293         134.558          0.99378        -135.765
                               0               0                0               0         0.993964         -135.77         0.123296         134.586
                               0               0                0               0       0.00808682        -35.3385        0.0137596         139.119
                               0               0                0               0        0.0137851         139.365       0.00801713        -35.3516
76.44                          0               0                0               0         0.127218         132.449         0.994239        -137.966
                               0               0                0               0         0.994413        -137.976         0.127037         132.503
