! TOUCHSTONE file generated by CST MICROWAVE STUDIO
! Date and time: Sun Jun 20 22:36:57 2021
! Project name: HIPS_d_sweep.cst
! Parameters = {fmax=120; fmin=75; b=0.46; d=17.45; a=0.63; phi=0; theta=0}
! Header version: 2018
! Port assignment regex: !\s*Touchstone port\s*([0-9]+)\s*=\s*(CST MWS port|CST DS port)\s*([0-9]+|Zmin|Zmax)\s*\(\"(.*)\"\)(\s*mode\s*([0-9]+))?.*
! Touchstone port assignment:
! Touchstone port 1 = CST MWS port Zmin ("") mode 1
! Touchstone port 2 = CST MWS port Zmin ("") mode 2
! Touchstone port 3 = CST MWS port Zmax ("") mode 1
! Touchstone port 4 = CST MWS port Zmax ("") mode 2
! S-Parameters are not renormalized. Unphysical impedance of 0 will be written to the file.
# GHz S MA R 0
75                             0               0                0               0         0.338529         42.3533         0.917189        -49.0255
                               0               0                0               0         0.917238        -49.0111         0.338659         42.3524
                               0               0                0               0         0.194665         44.8349        0.0791904         105.706
                               0               0                0               0        0.0791766         105.709         0.194672         44.7992
75.045                         0               0                0               0          0.34044         41.5652         0.917944        -49.7581
                               0               0                0               0          0.91837        -49.7656         0.340367          41.628
                               0               0                0               0         0.194328         44.1062        0.0798914         104.184
                               0               0                0               0        0.0794126         103.843         0.194353         44.0737
75.09                          0               0                0               0         0.342298         40.7625         0.918473        -50.5137
                               0               0                0               0         0.919258        -50.5374         0.342022         40.8782
                               0               0                0               0         0.193983          43.376        0.0806029         102.658
                               0               0                0               0        0.0797052         102.022         0.194022          43.346
75.135                         0               0                0               0         0.344092         39.9447         0.918776        -51.2947
                               0               0                0               0         0.919887        -51.3289         0.343621         40.1022
                               0               0                0               0         0.193626         42.6433        0.0813222         101.128
                               0               0                0               0        0.0800569         100.242         0.193677         42.6153
75.18                          0               0                0               0         0.345811         39.1114         0.918856        -52.1033
                               0               0                0               0         0.920247        -52.1428         0.345157         39.2992
                               0               0                0               0         0.193254         41.9075        0.0820462         99.5935
                               0               0                0               0        0.0804702         98.5011         0.193313         41.8807
75.225                         0               0                0               0         0.347443         38.2617         0.918722         -52.942
                               0               0                0               0         0.920335        -52.9817         0.346626         38.4686
                               0               0                0               0         0.192862         41.1674        0.0827708         98.0541
                               0               0                0               0        0.0809471         96.7969         0.192927         41.1412
75.27                          0               0                0               0         0.348973          37.395         0.918388        -53.8133
                               0               0                0               0         0.920149        -53.8488         0.348023         37.6098
                               0               0                0               0         0.192444         40.4219        0.0834907          96.509
                               0               0                0               0        0.0814897         95.1281         0.192512         40.3958
75.315                         0               0                0               0         0.350388         36.5103         0.917871        -54.7194
                               0               0                0               0           0.9197        -54.7474         0.349341         36.7224
                               0               0                0               0         0.191995         39.6698        0.0841993         94.9571
                               0               0                0               0        0.0820995         93.4942         0.192063         39.6431
75.36                          0               0                0               0         0.351671         35.6064         0.917194        -55.6626
                               0               0                0               0         0.919002        -55.6806         0.350573         35.8059
                               0               0                0               0         0.191505         38.9096        0.0848884         93.3966
                               0               0                0               0        0.0827773         91.8962         0.191571         38.8817
75.405                         0               0                0               0         0.352806         34.6821         0.916384         -56.645
                               0               0                0               0         0.918082        -56.6517          0.35171         34.8601
                               0               0                0               0         0.190967         38.1392         0.085548         91.8247
                               0               0                0               0        0.0835226          90.337         0.191028         38.1096
75.45                          0               0                0               0         0.353777         33.7358         0.915473        -57.6684
                               0               0                0               0         0.916974        -57.6638         0.352743         33.8847
                               0               0                0               0         0.190369         37.3564        0.0861661         90.2373
                               0               0                0               0        0.0843328         88.8227         0.190424         37.3242
75.495                         0               0                0               0         0.354564         32.7655         0.914498        -58.7344
                               0               0                0               0         0.915722        -58.7197         0.353662         32.8798
                               0               0                0               0         0.189701          36.558         0.086729         88.6281
                               0               0                0               0        0.0852002         87.3636         0.189748         36.5225
75.54                          0               0                0               0         0.355152         31.7688         0.913497        -59.8439
                               0               0                0               0         0.914379        -59.8216         0.354454         31.8452
                               0               0                0               0         0.188951         35.7398        0.0872214         86.9881
                               0               0                0               0        0.0861086         85.9762         0.188989         35.7003
75.585                         0               0                0               0         0.355525         30.7431         0.912511        -60.9979
                               0               0                0               0         0.913007        -60.9712         0.355106         30.7809
                               0               0                0               0         0.188107         34.8967        0.0876287         85.3041
                               0               0                0               0        0.0870234         84.6861         0.188137         34.8525
75.63                          0               0                0               0         0.355668          29.685         0.911583        -62.1965
                               0               0                0               0         0.911669        -62.1693           0.3556          29.687
                               0               0                0               0          0.18716          34.022        0.0879384         83.5583
                               0               0                0               0        0.0878726         83.5288         0.187184         33.9723
75.675                         0               0                0               0          0.35557         28.5908         0.910755        -63.4393
                               0               0                0               0         0.910433        -63.4159         0.355919         28.5634
                               0               0                0               0         0.186105         33.1076        0.0881451         81.7279
                               0               0                0               0        0.0885092          82.545         0.186125         33.0521
75.72                          0               0                0               0         0.355226         27.4563         0.910067        -64.7257
                               0               0                0               0         0.909366        -64.7099         0.356043         27.4097
                               0               0                0               0         0.184944         32.1444        0.0882554         79.7861
                               0               0                0               0        0.0886449         81.7469         0.184965         32.0831
75.765                         0               0                0               0         0.354637         26.2771         0.909556        -66.0543
                               0               0                0               0         0.908529        -66.0493         0.355947          26.225
                               0               0                0               0         0.183688         31.1233        0.0882932         77.7055
                               0               0                0               0        0.0878048         80.9989         0.183714         31.0568
75.81                          0               0                0               0         0.353812         25.0484         0.909258        -67.4231
                               0               0                0               0         0.907975        -67.4312         0.355607         25.0077
                               0               0                0               0         0.182361         30.0363        0.0883024         75.4641
                               0               0                0               0        0.0855904         79.7626         0.182395          29.966
75.855                         0               0                0               0         0.352768         23.7658         0.909198          -68.83
                               0               0                0               0         0.907746        -68.8518         0.354998         23.7552
                               0               0                0               0         0.180993         28.8792        0.0883435          73.053
                               0               0                0               0        0.0826742          77.108         0.181038         28.8068
75.9                           0               0                0               0         0.351535         22.4256         0.909401        -70.2719
                               0               0                0               0          0.90787        -70.3069         0.354097         22.4628
                               0               0                0               0          0.17962         27.6529        0.0884819         70.4832
                               0               0                0               0         0.081053         72.9075         0.179676         27.5807
75.945                         0               0                0               0          0.35015         21.0254         0.909881        -71.7459
                               0               0                0               0         0.908361        -71.7916         0.352889         21.1242
                               0               0                0               0         0.178272         26.3643        0.0887716         67.7855
                               0               0                0               0        0.0816302         68.4199         0.178336         26.2943
75.99                          0               0                0               0          0.34866         19.5645         0.910646        -73.2483
                               0               0                0               0         0.909216         -73.301         0.351375         19.7303
                               0               0                0               0         0.176964         25.0253          0.08924         65.0047
                               0               0                0               0        0.0835095         64.5655         0.177033          24.959
76.035                         0               0                0               0         0.347116         18.0447         0.911695        -74.7752
                               0               0                0               0         0.910419        -74.8303         0.349585         18.2703
                               0               0                0               0         0.175695         23.6506        0.0898821          62.188
                               0               0                0               0        0.0857245         61.3574         0.175763         23.5887
76.08                          0               0                0               0          0.34557         16.4705         0.913018        -76.3228
                               0               0                0               0         0.911939        -76.3747         0.347588         16.7336
                               0               0                0               0         0.174443         22.2543        0.0906656         59.3746
                               0               0                0               0        0.0878417         58.5453         0.174507         22.1969
76.125                         0               0                0               0         0.344067         14.8492         0.914597        -77.8868
                               0               0                0               0         0.913733        -77.9299         0.345501         15.1134
                               0               0                0               0         0.173176         20.8483        0.0915416           56.59
                               0               0                0               0         0.089737         55.9338         0.173231         20.7948
76.17                          0               0                0               0         0.342643         13.1906         0.916406         -79.463
                               0               0                0               0         0.915748        -79.4921         0.343474         13.4117
                               0               0                0               0         0.171853         19.4407        0.0924572         53.8463
                               0               0                0               0        0.0913953         53.4103         0.171899         19.3904
76.215                         0               0                0               0         0.341318         11.5062         0.918407        -81.0472
                               0               0                0               0         0.917927        -81.0579          0.34166         11.6442
                               0               0                0               0         0.170434         18.0366        0.0933631         51.1455
                               0               0                0               0         0.092829         50.9155         0.170471         17.9887
76.26                          0               0                0               0           0.3401         9.80806         0.920557        -82.6352
                               0               0                0               0         0.920205        -82.6244         0.340164         9.83878
                               0               0                0               0         0.168886         16.6388        0.0942185         48.4838
                               0               0                0               0        0.0940525         48.4201         0.168915         16.5926
76.305                         0               0                0               0         0.338976         8.10827         0.922801         -84.223
                               0               0                0               0         0.922517        -84.1895         0.339007         8.03016
                               0               0                0               0         0.167179         15.2488        0.0949913         45.8549
                               0               0                0               0        0.0950766         45.9112           0.1672         15.2038
76.35                          0               0                0               0         0.337925          6.4177         0.925077         -85.807
                               0               0                0               0         0.924795        -85.7512         0.338123         6.24975
                               0               0                0               0         0.165291         13.8679        0.0956575         43.2527
                               0               0                0               0        0.0959081          43.385         0.165307         13.8238
76.395                         0               0                0               0         0.336915          4.7455         0.927319        -87.3838
                               0               0                0               0         0.926975        -87.3079         0.337391         4.51875
                               0               0                0               0         0.163208          12.498        0.0962003         40.6722
                               0               0                0               0        0.0965513         40.8431         0.163219         12.4544
76.44                          0               0                0               0         0.335911         3.09884         0.929452        -88.9506
                               0               0                0               0         0.928995        -88.8586         0.336682         2.84648
