! TOUCHSTONE file generated by CST MICROWAVE STUDIO
! Date and time: Sun Jun 20 22:38:03 2021
! Project name: HIPS_d_sweep.cst
! Parameters = {fmax=120; fmin=75; b=0.46; d=24.3; a=0.63; phi=0; theta=0}
! Header version: 2018
! Port assignment regex: !\s*Touchstone port\s*([0-9]+)\s*=\s*(CST MWS port|CST DS port)\s*([0-9]+|Zmin|Zmax)\s*\(\"(.*)\"\)(\s*mode\s*([0-9]+))?.*
! Touchstone port assignment:
! Touchstone port 1 = CST MWS port Zmin ("") mode 1
! Touchstone port 2 = CST MWS port Zmin ("") mode 2
! Touchstone port 3 = CST MWS port Zmax ("") mode 1
! Touchstone port 4 = CST MWS port Zmax ("") mode 2
! S-Parameters are not renormalized. Unphysical impedance of 0 will be written to the file.
# GHz S MA R 0
75                             0               0                0               0          0.11063         164.324         0.987455        -105.285
                               0               0                0               0         0.987515        -105.292         0.110655         164.337
                               0               0                0               0         0.112087        -15.5944        0.0141758        -78.0047
                               0               0                0               0        0.0141915        -78.1075         0.112086        -15.5974
75.045                         0               0                0               0         0.106193         163.112         0.988711        -106.067
                               0               0                0               0         0.988751        -106.068         0.106247         163.234
                               0               0                0               0         0.109623        -16.4358        0.0136426        -76.4749
                               0               0                0               0        0.0136662        -76.5802         0.109603        -16.4349
75.09                          0               0                0               0         0.102319         162.005         0.989672         -106.94
                               0               0                0               0         0.989694        -106.938          0.10239         162.182
                               0               0                0               0         0.106886        -17.3416        0.0131145        -75.2227
                               0               0                0               0         0.013144        -75.3348         0.106855        -17.3383
75.135                         0               0                0               0        0.0989803         160.964          0.99041        -107.903
                               0               0                0               0         0.990418          -107.9        0.0990582         161.156
                               0               0                0               0         0.103867        -18.3145        0.0125834        -74.3101
                               0               0                0               0        0.0126163        -74.4326         0.103832        -18.3101
75.18                          0               0                0               0        0.0961506         159.949         0.990987        -108.954
                               0               0                0               0          0.99099        -108.951         0.096226          160.13
                               0               0                0               0         0.100559        -19.3564        0.0120392         -73.803
                               0               0                0               0        0.0120725        -73.9375         0.100523        -19.3523
75.225                         0               0                0               0        0.0938028         158.928         0.991453         -110.09
                               0               0                0               0         0.991461        -110.089        0.0938702         159.081
                               0               0                0               0        0.0969516        -20.4691        0.0114704        -73.7714
                               0               0                0               0        0.0115014        -73.9172        0.0969196        -20.4665
75.27                          0               0                0               0        0.0919114         157.873         0.991851        -111.309
                               0               0                0               0          0.99187         -111.31        0.0919687          157.99
                               0               0                0               0        0.0930387        -21.6531        0.0108654        -74.2923
                               0               0                0               0        0.0108918        -74.4469         0.093012        -21.6534
75.315                         0               0                0               0        0.0904538          156.76         0.992209        -112.609
                               0               0                0               0         0.992247        -112.611        0.0905014         156.839
                               0               0                0               0        0.0888137        -22.9085        0.0102135        -75.4569
                               0               0                0               0        0.0102337        -75.6161         0.088793        -22.9129
75.36                          0               0                0               0        0.0894098         155.571         0.992549        -113.986
                               0               0                0               0         0.992609         -113.99        0.0894497         155.615
                               0               0                0               0        0.0842715        -24.2342       0.00950647        -77.3825
                               0               0                0               0       0.00951976        -77.5421        0.0842568        -24.2437
75.405                         0               0                0               0        0.0887614         154.293         0.992884        -115.437
                               0               0                0               0         0.992968        -115.442        0.0887968         154.308
                               0               0                0               0        0.0794092        -25.6279       0.00874014        -80.2344
                               0               0                0               0       0.00874659        -80.3916        0.0793994        -25.6433
75.45                          0               0                0               0        0.0884931         152.919         0.993219        -116.959
                               0               0                0               0         0.993325        -116.965        0.0885267         152.913
                               0               0                0               0        0.0742262        -27.0858       0.00791704         -84.263
                               0               0                0               0       0.00791752        -84.4183        0.0742198        -27.1079
75.495                         0               0                0               0        0.0885904         151.445         0.993553        -118.549
                               0               0                0               0         0.993677        -118.556        0.0886246         151.426
                               0               0                0               0        0.0687243        -28.6021       0.00705025        -89.8666
                               0               0                0               0        0.0070463        -90.0257        0.0687194        -28.6315
75.54                          0               0                0               0        0.0890396         149.873         0.993878        -120.205
                               0               0                0               0         0.994016        -120.211        0.0890757         149.848
                               0               0                0               0        0.0629084        -30.1687       0.00617058        -97.6894
                               0               0                0               0       0.00616441        -97.8652        0.0629033        -30.2055
75.585                         0               0                0               0        0.0898273         148.209         0.994184        -121.922
                               0               0                0               0         0.994331        -121.928        0.0898654         148.182
                               0               0                0               0        0.0567869        -31.7736       0.00534015        -108.729
                               0               0                0               0       0.00533473        -108.941          0.05678        -31.8179
75.63                          0               0                0               0        0.0909389         146.458         0.994458        -123.698
                               0               0                0               0         0.994607        -123.703        0.0909782         146.435
                               0               0                0               0        0.0503715         -33.399       0.00467417        -124.208
                               0               0                0               0       0.00467349        -124.469        0.0503615        -33.4509
75.675                         0               0                0               0        0.0923591         144.629         0.994686        -125.529
                               0               0                0               0         0.994831        -125.534        0.0923981         144.611
                               0               0                0               0        0.0436772        -35.0172       0.00435247        -144.436
                               0               0                0               0       0.00436084        -144.713        0.0436636        -35.0772
75.72                          0               0                0               0        0.0940708         142.731         0.994851        -127.413
                               0               0                0               0         0.994988        -127.417        0.0941076         142.718
                               0               0                0               0        0.0367229         -36.581       0.00455025        -166.651
                               0               0                0               0       0.00456956        -166.853        0.0367055        -36.6501
75.765                         0               0                0               0        0.0960549         140.773         0.994941        -129.346
                               0               0                0               0         0.995067        -129.349        0.0960877         140.764
                               0               0                0               0        0.0295306        -37.9989       0.00529349         173.735
                               0               0                0               0       0.00532184         173.659        0.0295099        -38.0801
75.81                          0               0                0               0        0.0982909         138.762         0.994942        -131.326
                               0               0                0               0         0.995058        -131.328        0.0983182         138.754
                               0               0                0               0        0.0221265        -39.0593       0.00646124         158.666
                               0               0                0               0       0.00649559         158.697        0.0221031        -39.1601
75.855                         0               0                0               0         0.100756         136.705         0.994847        -133.348
                               0               0                0               0         0.994953         -133.35         0.100777         136.695
                               0               0                0               0        0.0145442        -39.1078       0.00791711         147.428
                               0               0                0               0       0.00795517         147.528        0.0145185        -39.2491
75.9                           0               0                0               0         0.103427         134.607         0.994649         -135.41
                               0               0                0               0         0.994751        -135.411         0.103441         134.592
                               0               0                0               0       0.00685775        -34.5302       0.00956758         138.791
                               0               0                0               0       0.00960773          138.93       0.00682807        -34.7932
75.945                         0               0                0               0         0.106278         132.471         0.994347        -137.507
                               0               0                0               0         0.994451        -137.508         0.106286          132.45
                               0               0                0               0       0.00192826         79.9885        0.0113555          131.83
                               0               0                0               0        0.0113962         131.988       0.00191372         81.2024
75.99                          0               0                0               0         0.109283           130.3         0.993943        -139.635
                               0               0                0               0         0.994054        -139.636         0.109286         130.271
                               0               0                0               0       0.00936406          119.41        0.0132446         125.954
                               0               0                0               0        0.0132844         126.119       0.00937916         119.665
76.035                         0               0                0               0         0.112414         128.097         0.993443         -141.79
                               0               0                0               0         0.993565         -141.79         0.112414         128.058
                               0               0                0               0        0.0174181         121.481          0.01521         120.796
                               0               0                0               0        0.0152472          120.96        0.0174358         121.623
76.08                          0               0                0               0         0.115646         125.863         0.992851        -143.967
                               0               0                0               0         0.992986        -143.967         0.115645         125.814
                               0               0                0               0        0.0255668         120.842        0.0172328         116.123
                               0               0                0               0        0.0172655         116.283        0.0255857         120.946
76.125                         0               0                0               0         0.118951         123.598         0.992174        -146.161
                               0               0                0               0         0.992321         -146.16          0.11895         123.542
                               0               0                0               0        0.0337594         119.428        0.0192968         111.786
                               0               0                0               0        0.0193231          111.94        0.0337796         119.512
76.17                          0               0                0               0         0.122302         121.306         0.991414        -148.366
                               0               0                0               0         0.991567        -148.365         0.122305         121.244
                               0               0                0               0        0.0419647          117.68        0.0213875         107.687
                               0               0                0               0        0.0214059         107.833        0.0419863         117.752
76.215                         0               0                0               0         0.125673         118.988         0.990571        -150.578
                               0               0                0               0         0.990722        -150.577         0.125682         118.922
                               0               0                0               0        0.0501552         115.755        0.0234909         103.759
                               0               0                0               0        0.0235004         103.897        0.0501778         115.817
76.26                          0               0                0               0          0.12904         116.649         0.989642        -152.791
                               0               0                0               0         0.989782        -152.791         0.129058         116.582
                               0               0                0               0        0.0583033         113.724        0.0255931          99.959
                               0               0                0               0        0.0255933         100.089        0.0583256         113.777
76.305                         0               0                0               0          0.13238         114.294          0.98862        -155.002
                               0               0                0               0         0.988744        -155.003         0.132409         114.228
                               0               0                0               0        0.0663801         111.625        0.0276803         96.2594
                               0               0                0               0        0.0276718         96.3813        0.0664001         111.671
76.35                          0               0                0               0         0.135672          111.93         0.987501        -157.207
                               0               0                0               0         0.987609         -157.21         0.135715         111.868
                               0               0                0               0        0.0743549         109.484        0.0297389         92.6458
                               0               0                0               0        0.0297232         92.7584        0.0743702         109.523
76.395                         0               0                0               0           0.1389         109.567         0.986291        -159.404
                               0               0                0               0         0.986391         -159.41         0.138958         109.509
                               0               0                0               0        0.0821954         107.322        0.0317565         89.1131
                               0               0                0               0        0.0317356         89.2141        0.0822044         107.356
76.44                          0               0                0               0          0.14205         107.218         0.985015        -161.594
                               0               0                0               0          0.98512        -161.602         0.142123         107.164
