! TOUCHSTONE file generated by CST MICROWAVE STUDIO
! Date and time: Sun Jun 20 22:36:46 2021
! Project name: HIPS_d_sweep.cst
! Parameters = {fmax=120; fmin=75; b=0.46; d=16.15; a=0.63; phi=0; theta=0}
! Header version: 2018
! Port assignment regex: !\s*Touchstone port\s*([0-9]+)\s*=\s*(CST MWS port|CST DS port)\s*([0-9]+|Zmin|Zmax)\s*\(\"(.*)\"\)(\s*mode\s*([0-9]+))?.*
! Touchstone port assignment:
! Touchstone port 1 = CST MWS port Zmin ("") mode 1
! Touchstone port 2 = CST MWS port Zmin ("") mode 2
! Touchstone port 3 = CST MWS port Zmax ("") mode 1
! Touchstone port 4 = CST MWS port Zmax ("") mode 2
! S-Parameters are not renormalized. Unphysical impedance of 0 will be written to the file.
# GHz S MA R 0
75                             0               0                0               0         0.428653        -169.099         0.882815         98.6459
                               0               0                0               0         0.882783         98.6388         0.428575        -169.101
                               0               0                0               0         0.158276         22.9913         0.108397         52.5407
                               0               0                0               0         0.108369         52.5434         0.158321         22.9834
75.045                         0               0                0               0         0.431458        -169.692         0.882067            98.1
                               0               0                0               0         0.882053         98.0903         0.431387         -169.69
                               0               0                0               0          0.15712         22.7558         0.108788         51.7307
                               0               0                0               0         0.108759         51.7424         0.157167         22.7469
75.09                          0               0                0               0          0.43399        -170.319         0.881156         97.4958
                               0               0                0               0         0.881149          97.485         0.433919        -170.315
                               0               0                0               0         0.155911         22.4768         0.109126         50.8368
                               0               0                0               0         0.109095          50.852          0.15596         22.4676
75.135                         0               0                0               0         0.436247        -170.985         0.880156         96.8337
                               0               0                0               0         0.880148         96.8227         0.436174        -170.981
                               0               0                0               0         0.154653          22.155         0.109418         49.8552
                               0               0                0               0         0.109386         49.8694         0.154702         22.1458
75.18                          0               0                0               0         0.438234        -171.694         0.879134         96.1146
                               0               0                0               0         0.879117         96.1041         0.438158        -171.689
                               0               0                0               0         0.153349         21.7913         0.109672          48.783
                               0               0                0               0         0.109639         48.7929         0.153398         21.7825
75.225                         0               0                0               0         0.439961        -172.448         0.878151         95.3402
                               0               0                0               0         0.878118         95.3306         0.439881        -172.444
                               0               0                0               0            0.152         21.3869         0.109896         47.6185
                               0               0                0               0         0.109865         47.6218         0.152049         21.3786
75.27                          0               0                0               0          0.44144         -173.25         0.877255         94.5124
                               0               0                0               0         0.877203          94.504         0.441358        -173.247
                               0               0                0               0         0.150608          20.943         0.110099         46.3607
                               0               0                0               0          0.11007         46.3564         0.150656         20.9353
75.315                         0               0                0               0         0.442687        -174.102         0.876488         93.6336
                               0               0                0               0         0.876415         93.6265         0.442604        -174.102
                               0               0                0               0         0.149171         20.4609         0.110287           45.01
                               0               0                0               0         0.110261         44.9976         0.149218          20.454
75.36                          0               0                0               0          0.44372        -175.006         0.875879         92.7064
                               0               0                0               0         0.875787         92.7005         0.443637        -175.007
                               0               0                0               0         0.147689         19.9422         0.110467         43.5674
                               0               0                0               0         0.110444         43.5474         0.147735         19.9359
75.405                         0               0                0               0         0.444556        -175.962          0.87545         91.7335
                               0               0                0               0         0.875342         91.7288         0.444475        -175.965
                               0               0                0               0         0.146158         19.3884         0.110641         42.0346
                               0               0                0               0         0.110622         42.0082         0.146204         19.3828
75.45                          0               0                0               0         0.445213         -176.97         0.875216         90.7175
                               0               0                0               0         0.875097         90.7139         0.445135        -176.974
                               0               0                0               0         0.144577         18.8012         0.110815         40.4142
                               0               0                0               0         0.110797         40.3829         0.144622         18.7961
75.495                         0               0                0               0         0.445708        -178.029         0.875182         89.6612
                               0               0                0               0         0.875058         89.6586         0.445634        -178.035
                               0               0                0               0          0.14294         18.1823         0.110989         38.7093
                               0               0                0               0         0.110972         38.6751         0.142986         18.1776
75.54                          0               0                0               0         0.446055        -179.138         0.875347         88.5671
                               0               0                0               0         0.875226         88.5655         0.445986        -179.144
                               0               0                0               0         0.141245         17.5338         0.111164         36.9234
                               0               0                0               0         0.111145         36.8882         0.141291         17.5292
75.585                         0               0                0               0         0.446269         179.705         0.875704         87.4377
                               0               0                0               0         0.875595          87.437         0.446203         179.699
                               0               0                0               0         0.139485         16.8576         0.111338         35.0603
                               0               0                0               0         0.111314         35.0264         0.139533          16.853
75.63                          0               0                0               0         0.446358         178.503         0.876243         86.2753
                               0               0                0               0         0.876153         86.2756         0.446296         178.497
                               0               0                0               0         0.137657          16.156         0.111508         33.1242
                               0               0                0               0         0.111477         33.0937         0.137707         16.1512
75.675                         0               0                0               0         0.446331         177.258         0.876947          85.082
                               0               0                0               0         0.876885         85.0833          0.44627         177.253
                               0               0                0               0         0.135755         15.4317         0.111669         31.1193
                               0               0                0               0         0.111628         31.0945         0.135808         15.4264
75.72                          0               0                0               0         0.446193         175.973         0.877797         83.8598
                               0               0                0               0         0.877771         83.8622         0.446133          175.97
                               0               0                0               0         0.133773         14.6873         0.111817         29.0503
                               0               0                0               0         0.111764         29.0329         0.133829         14.6812
75.765                         0               0                0               0         0.445946         174.652         0.878771         82.6104
                               0               0                0               0         0.878787         82.6142         0.445885          174.65
                               0               0                0               0         0.131706         13.9261         0.111946         26.9216
                               0               0                0               0         0.111877         26.9135         0.131766         13.9188
75.81                          0               0                0               0         0.445592         173.298         0.879844         81.3357
                               0               0                0               0         0.879909         81.3408         0.445529         173.298
                               0               0                0               0          0.12955         13.1516         0.112047         24.7381
                               0               0                0               0         0.111962         24.7407         0.129614         13.1428
75.855                         0               0                0               0         0.445129         171.914         0.880989         80.0369
                               0               0                0               0         0.881107         80.0437         0.445062         171.916
                               0               0                0               0           0.1273         12.3679         0.112113         22.5045
                               0               0                0               0         0.112012          22.519         0.127367         12.3573
75.9                           0               0                0               0         0.444555         170.504          0.88218         78.7154
                               0               0                0               0         0.882353         78.7241         0.444484         170.508
                               0               0                0               0         0.124951         11.5795         0.112138         20.2259
                               0               0                0               0         0.112019         20.2531         0.125022         11.5667
75.945                         0               0                0               0         0.443867         169.072         0.883388         77.3724
                               0               0                0               0         0.883615         77.3832         0.443791         169.077
                               0               0                0               0         0.122501         10.7918         0.112112         17.9071
                               0               0                0               0         0.111977         17.9475         0.122575         10.7763
75.99                          0               0                0               0          0.44306         167.621         0.884584         76.0089
                               0               0                0               0         0.884864         76.0221         0.442979         167.628
                               0               0                0               0         0.119946         10.0105         0.112028         15.5533
                               0               0                0               0         0.111879          15.607         0.120024          9.9921
76.035                         0               0                0               0         0.442131         166.155         0.885742         74.6257
                               0               0                0               0         0.886068         74.6415         0.442046         166.162
                               0               0                0               0         0.117287         9.24256          0.11188         13.1698
                               0               0                0               0          0.11172         13.2362         0.117366          9.2209
76.08                          0               0                0               0         0.441076         164.676         0.886835         73.2234
                               0               0                0               0         0.887198          73.242         0.440988         164.684
                               0               0                0               0         0.114523         8.49543         0.111662          10.762
                               0               0                0               0         0.111494         10.8399         0.114603         8.47039
76.125                         0               0                0               0         0.439892         163.189         0.887842         71.8025
                               0               0                0               0         0.888227          71.824         0.439803         163.197
                               0               0                0               0         0.111657         7.77763         0.111367         8.33524
                               0               0                0               0         0.111197         8.42283         0.111735         7.74922
76.17                          0               0                0               0         0.438579         161.697         0.888745         70.3632
                               0               0                0               0         0.889132         70.3874         0.438491         161.704
                               0               0                0               0         0.108692          7.0986         0.110995         5.89505
                               0               0                0               0         0.110826         5.98962         0.108768         7.06708
76.215                         0               0                0               0         0.437137         160.202         0.889538         68.9055
                               0               0                0               0         0.889901          68.932         0.437054         160.207
                               0               0                0               0         0.105636         6.46868         0.110542         3.44692
                               0               0                0               0         0.110381          3.5448         0.105708         6.43469
76.26                          0               0                0               0         0.435569         158.707         0.890225         67.4296
                               0               0                0               0         0.890537         67.4571         0.435496         158.709
                               0               0                0               0         0.102497         5.89898          0.11001        0.996138
                               0               0                0               0         0.109863         1.09264         0.102564         5.86362
76.305                         0               0                0               0         0.433885         157.215         0.890831         65.9357
                               0               0                0               0         0.891063         65.9623         0.433827         157.213
                               0               0                0               0        0.0992881         5.40104         0.109403        -1.45239
                               0               0                0               0         0.109275        -1.36303        0.0993475         5.36601
76.35                          0               0                0               0         0.432097         155.726         0.891408         64.4253
                               0               0                0               0         0.891541         64.4477         0.432061         155.719
                               0               0                0               0        0.0960234         4.98618         0.108729        -3.89462
                               0               0                0               0         0.108624        -3.81902        0.0960753         4.95388
76.395                         0               0                0               0          0.43023         154.241         0.892032         62.9018
                               0               0                0               0          0.89207         62.9161         0.430224         154.228
                               0               0                0               0        0.0927208         4.66438         0.108003        -6.32816
                               0               0                0               0         0.107921         -6.2732         0.092766         4.63777
76.44                          0               0                0               0         0.428321         152.758         0.892793         61.3728
                               0               0                0               0         0.892779         61.3754         0.428355         152.739
