! TOUCHSTONE file generated by CST MICROWAVE STUDIO
! Date and time: Sun Jun 20 22:38:17 2021
! Project name: HIPS_d_sweep.cst
! Parameters = {fmax=120; fmin=75; b=0.46; d=25.6; a=0.63; phi=0; theta=0}
! Header version: 2018
! Port assignment regex: !\s*Touchstone port\s*([0-9]+)\s*=\s*(CST MWS port|CST DS port)\s*([0-9]+|Zmin|Zmax)\s*\(\"(.*)\"\)(\s*mode\s*([0-9]+))?.*
! Touchstone port assignment:
! Touchstone port 1 = CST MWS port Zmin ("") mode 1
! Touchstone port 2 = CST MWS port Zmin ("") mode 2
! Touchstone port 3 = CST MWS port Zmax ("") mode 1
! Touchstone port 4 = CST MWS port Zmax ("") mode 2
! S-Parameters are not renormalized. Unphysical impedance of 0 will be written to the file.
# GHz S MA R 0
75                             0               0                0               0         0.194534         16.2534         0.960822         107.228
                               0               0                0               0         0.960854         107.225         0.194451         16.2962
                               0               0                0               0         0.192305         16.2696        0.0418637        -51.2814
                               0               0                0               0         0.041855        -51.2773         0.192269         16.2344
75.045                         0               0                0               0         0.190336         15.4306         0.961967         106.405
                               0               0                0               0         0.962066         106.401         0.190217         15.4711
                               0               0                0               0         0.191082         15.4754        0.0407576         -51.699
                               0               0                0               0        0.0407877        -51.7292         0.191046         15.4398
75.09                          0               0                0               0         0.186554         14.5271          0.96304         105.496
                               0               0                0               0         0.963148         105.492          0.18643         14.5685
                               0               0                0               0         0.189626         14.5942        0.0396751        -52.3479
                               0               0                0               0        0.0397127        -52.3854          0.18959         14.5583
75.135                         0               0                0               0         0.183203         13.5442         0.964049         104.501
                               0               0                0               0         0.964126         104.498         0.183094         13.5894
                               0               0                0               0         0.187938         13.6279        0.0386149        -53.2345
                               0               0                0               0        0.0386345        -53.2564         0.187903         13.5918
75.18                          0               0                0               0         0.180295         12.4833         0.965001         103.423
                               0               0                0               0         0.965022          103.42         0.180209         12.5348
                               0               0                0               0         0.186016         12.5783        0.0375747        -54.3665
                               0               0                0               0        0.0375571        -54.3539         0.185984         12.5423
75.225                         0               0                0               0         0.177836         11.3462         0.965902          102.26
                               0               0                0               0         0.965854         102.258         0.177774         11.4058
                               0               0                0               0         0.183854         11.4474        0.0365519        -55.7541
                               0               0                0               0        0.0364832        -55.6911         0.183829         11.4119
75.27                          0               0                0               0         0.175826         10.1347         0.966757         101.015
                               0               0                0               0         0.966638         101.014         0.175784         10.2036
                               0               0                0               0         0.181445         10.2373        0.0355433        -57.4089
                               0               0                0               0        0.0354152         -57.283         0.181428         10.2025
75.315                         0               0                0               0         0.174262         8.85073          0.96757         99.6895
                               0               0                0               0         0.967387          99.689         0.174234         8.92916
                               0               0                0               0         0.178779         8.95018        0.0345461        -59.3452
                               0               0                0               0        0.0343548        -59.1469         0.178773         8.91643
75.36                          0               0                0               0         0.173135         7.49622         0.968344         98.2846
                               0               0                0               0         0.968109         98.2846         0.173114         7.58379
                               0               0                0               0         0.175847         7.58847        0.0335575         -61.579
                               0               0                0               0        0.0333037        -61.3027         0.175853         7.55583
75.405                         0               0                0               0         0.172437         6.07302         0.969083         96.8025
                               0               0                0               0          0.96881         96.8028         0.172414         6.16868
                               0               0                0               0         0.172637         6.15475        0.0325754        -64.1291
                               0               0                0               0        0.0322636        -63.7726         0.172656         6.12317
75.45                          0               0                0               0         0.172154         4.58298         0.969788         95.2454
                               0               0                0               0         0.969492          95.246         0.172122         4.68513
                               0               0                0               0         0.169138         4.65187        0.0315989        -67.0164
                               0               0                0               0        0.0312366        -66.5819          0.16917         4.62116
75.495                         0               0                0               0         0.172271         3.02787         0.970458         93.6157
                               0               0                0               0         0.970157         93.6165         0.172226         3.13453
                               0               0                0               0          0.16534         3.08305        0.0306286        -70.2645
                               0               0                0               0        0.0302256        -69.7587         0.165385         3.05283
75.54                          0               0                0               0         0.172772          1.4094         0.971095         91.9161
                               0               0                0               0         0.970804          91.917         0.172711         1.51837
                               0               0                0               0         0.161234         1.45192        0.0296668        -73.8991
                               0               0                0               0        0.0292349        -73.3337         0.161289         1.42165
75.585                         0               0                0               0          0.17364        -0.27074         0.971697         90.1493
                               0               0                0               0         0.971428         90.1504         0.173561       -0.161752
                               0               0                0               0         0.156811       -0.237389        0.0287186        -77.9484
                               0               0                0               0        0.0282705        -77.3398         0.156874       -0.268374
75.63                          0               0                0               0         0.174856        -2.01091         0.972263         88.3186
                               0               0                0               0         0.972025         88.3196          0.17476        -1.90411
                               0               0                0               0         0.152064        -1.98018        0.0277921        -82.4418
                               0               0                0               0        0.0273407        -81.8111         0.152133        -2.01266
75.675                         0               0                0               0         0.176402        -3.80947         0.972789         86.4269
                               0               0                0               0         0.972589          86.428          0.17629        -3.70686
                               0               0                0               0         0.146991        -3.77106        0.0268988        -87.4087
                               0               0                0               0         0.026457        -86.7806         0.147062         -3.8059
75.72                          0               0                0               0         0.178257        -5.66477         0.973274         84.4779
                               0               0                0               0         0.973115         84.4789         0.178132          -5.568
                               0               0                0               0          0.14159        -5.60391        0.0260544        -92.8765
                               0               0                0               0        0.0256343        -92.2779         0.141661        -5.64199
75.765                         0               0                0               0         0.180402        -7.57511         0.973713         82.4749
                               0               0                0               0         0.973595         82.4759         0.180268        -7.48541
                               0               0                0               0         0.135863        -7.47167        0.0252791        -98.8666
                               0               0                0               0        0.0248911        -98.3244          0.13593        -7.51387
75.81                          0               0                0               0         0.182816        -9.53873         0.974103         80.4217
                               0               0                0               0         0.974023         80.4227         0.182678        -9.45685
                               0               0                0               0         0.129815        -9.36627        0.0245969        -105.389
                               0               0                0               0          0.02425        -104.927         0.129876        -9.41345
75.855                         0               0                0               0         0.185479        -11.5537         0.974439         78.3221
                               0               0                0               0         0.974392         78.3231          0.18534        -11.4799
                               0               0                0               0         0.123455        -11.2784        0.0240359        -112.436
                               0               0                0               0        0.0237368        -112.074         0.123508        -11.3313
75.9                           0               0                0               0         0.188369        -13.6181         0.974716           76.18
                               0               0                0               0         0.974695         76.1812         0.188233        -13.5521
                               0               0                0               0         0.116796        -13.1971        0.0236261        -119.975
                               0               0                0               0        0.0233788        -119.721          0.11684        -13.2565
75.945                         0               0                0               0         0.191466        -15.7297         0.974929         73.9996
                               0               0                0               0         0.974926          74.001         0.191334        -15.6708
                               0               0                0               0         0.109852        -15.1094        0.0233978        -127.942
                               0               0                0               0        0.0232034        -127.796         0.109887        -15.1761
75.99                          0               0                0               0         0.194747         -17.886         0.975074         71.7849
                               0               0                0               0          0.97508         71.7866         0.194621        -17.8331
                               0               0                0               0         0.102644        -16.9999        0.0233785        -136.239
                               0               0                0               0        0.0232344        -136.191          0.10267        -17.0746
76.035                         0               0                0               0          0.19819        -20.0844         0.975143         69.5402
                               0               0                0               0         0.975152         69.5422         0.198069        -20.0362
                               0               0                0               0        0.0951919        -18.8491        0.0235898        -144.743
                               0               0                0               0        0.0234897        -144.774        0.0952107        -18.9327
76.08                          0               0                0               0         0.201772        -22.3218         0.975131         67.2696
                               0               0                0               0         0.975137         67.2721         0.201654        -22.2769
                               0               0                0               0        0.0875218        -20.6321        0.0240448        -153.313
                               0               0                0               0         0.023979          -153.4        0.0875358        -20.7258
76.125                         0               0                0               0         0.205468        -24.5948         0.975033         64.9776
                               0               0                0               0          0.97503         64.9806          0.20535        -24.5519
                               0               0                0               0        0.0796607        -22.3161        0.0247463        -161.809
                               0               0                0               0        0.0247022         -161.93        0.0796726        -22.4215
76.17                          0               0                0               0         0.209253        -26.8999         0.974843         62.6683
                               0               0                0               0         0.974827         62.6719         0.209132        -26.8578
                               0               0                0               0        0.0716386        -23.8547        0.0256873         -170.11
                               0               0                0               0        0.0256508        -170.247         0.071651        -23.9743
76.215                         0               0                0               0         0.213102        -29.2327         0.974555          60.346
                               0               0                0               0         0.974527         60.3503         0.212973        -29.1909
                               0               0                0               0         0.063488        -25.1803        0.0268519        -178.124
                               0               0                0               0        0.0268091        -178.262        0.0635036        -25.3179
76.26                          0               0                0               0         0.216986        -31.5889         0.974166         58.0149
                               0               0                0               0         0.974126         58.0198         0.216846        -31.5472
                               0               0                0               0        0.0552456        -26.1875        0.0282176         174.207
                               0               0                0               0        0.0281569         174.078        0.0552657        -26.3486
76.305                         0               0                0               0         0.220878        -33.9634         0.973674         55.6791
                               0               0                0               0         0.973624         55.6847         0.220726        -33.9224
                               0               0                0               0         0.046954        -26.7001        0.0297579         166.914
                               0               0                0               0         0.029672         166.799        0.0469788        -26.8936
76.35                          0               0                0               0         0.224747         -36.351          0.97308         53.3426
                               0               0                0               0         0.973023         53.3487         0.224585        -36.3118
                               0               0                0               0        0.0386686         -26.398        0.0314444         159.999
                               0               0                0               0        0.0313317         159.901        0.0386961         -26.638
76.395                         0               0                0               0         0.228565         -38.746         0.972389         51.0091
                               0               0                0               0         0.972329         51.0157           0.2284        -38.7105
                               0               0                0               0        0.0304745        -24.6332        0.0332483         153.451
                               0               0                0               0        0.0331144         153.372        0.0304996        -24.9439
76.44                          0               0                0               0         0.232304        -41.1426         0.971614         48.6823
                               0               0                0               0         0.971554         48.6892         0.232147        -41.1128
