! TOUCHSTONE file generated by CST MICROWAVE STUDIO
! Date and time: Sun Jun 20 22:37:07 2021
! Project name: HIPS_d_sweep.cst
! Parameters = {fmax=120; fmin=75; b=0.46; d=18.65; a=0.63; phi=0; theta=0}
! Header version: 2018
! Port assignment regex: !\s*Touchstone port\s*([0-9]+)\s*=\s*(CST MWS port|CST DS port)\s*([0-9]+|Zmin|Zmax)\s*\(\"(.*)\"\)(\s*mode\s*([0-9]+))?.*
! Touchstone port assignment:
! Touchstone port 1 = CST MWS port Zmin ("") mode 1
! Touchstone port 2 = CST MWS port Zmin ("") mode 2
! Touchstone port 3 = CST MWS port Zmax ("") mode 1
! Touchstone port 4 = CST MWS port Zmax ("") mode 2
! S-Parameters are not renormalized. Unphysical impedance of 0 will be written to the file.
# GHz S MA R 0
75                             0               0                0               0         0.268128        -96.2528         0.950608         174.549
                               0               0                0               0         0.950447         174.538         0.268173         -96.232
                               0               0                0               0         0.149347         82.1196        0.0472233        -158.723
                               0               0                0               0         0.047197        -158.625         0.149444         82.0913
75.045                         0               0                0               0         0.270013         -97.168         0.950864          173.79
                               0               0                0               0         0.950551         173.767         0.270261        -97.1151
                               0               0                0               0         0.150945         81.5512        0.0478004         -160.93
                               0               0                0               0        0.0478073         -160.83          0.15104         81.5248
75.09                          0               0                0               0         0.271838        -98.0894         0.951027         172.998
                               0               0                0               0         0.950605         172.965         0.272257        -98.0072
                               0               0                0               0         0.152545         80.9421        0.0483639        -163.134
                               0               0                0               0        0.0484016        -163.033         0.152639         80.9173
75.135                         0               0                0               0         0.273584        -99.0166         0.951082         172.172
                               0               0                0               0          0.95059          172.13         0.274139        -98.9084
                               0               0                0               0         0.154151         80.2896         0.048906        -165.341
                               0               0                0               0        0.0489718        -165.238         0.154243         80.2659
75.18                          0               0                0               0         0.275228        -99.9496         0.951016         171.311
                               0               0                0               0         0.950487         171.262         0.275882        -99.8189
                               0               0                0               0         0.155766         79.5908        0.0494192         -167.56
                               0               0                0               0        0.0495096        -167.454         0.155856          79.568
75.225                         0               0                0               0         0.276744        -100.889         0.950818         170.412
                               0               0                0               0         0.950281          170.36          0.27746         -100.74
                               0               0                0               0         0.157394         78.8435         0.049896        -169.801
                               0               0                0               0        0.0500067        -169.691         0.157483         78.8212
75.27                          0               0                0               0         0.278105        -101.834         0.950481         169.476
                               0               0                0               0          0.94996          169.42         0.278846        -101.672
                               0               0                0               0         0.159043         78.0456        0.0503298        -172.077
                               0               0                0               0        0.0504559        -171.962          0.15913         78.0236
75.315                         0               0                0               0         0.279282        -102.789         0.950001         168.499
                               0               0                0               0         0.949514         168.443         0.280014        -102.619
                               0               0                0               0         0.160719         77.1958        0.0507155          -174.4
                               0               0                0               0        0.0508513         -174.28         0.160806         77.1738
75.36                          0               0                0               0         0.280246        -103.753         0.949381          167.48
                               0               0                0               0         0.948938         167.425         0.280937        -103.582
                               0               0                0               0         0.162429         76.2931        0.0510499        -176.786
                               0               0                0               0        0.0511893        -176.661         0.162517         76.2709
75.405                         0               0                0               0         0.280969        -104.732         0.948627         166.418
                               0               0                0               0         0.948234         166.366         0.281594        -104.565
                               0               0                0               0         0.164183         75.3376        0.0513324        -179.251
                               0               0                0               0         0.051469        -179.122         0.164271         75.3152
75.45                          0               0                0               0         0.281425        -105.728         0.947754          165.31
                               0               0                0               0         0.947411         165.262         0.281965        -105.572
                               0               0                0               0         0.165987           74.33        0.0515657         178.188
                               0               0                0               0        0.0516932          178.32         0.166077         74.3072
75.495                         0               0                0               0         0.281593        -106.746         0.946783         164.156
                               0               0                0               0         0.946485         164.113         0.282038        -106.608
                               0               0                0               0         0.167848         73.2718        0.0517556         175.518
                               0               0                0               0        0.0518687         175.648          0.16794         73.2487
75.54                          0               0                0               0          0.28146        -107.793         0.945741         162.953
                               0               0                0               0         0.945478         162.917         0.281806        -107.677
                               0               0                0               0         0.169771         72.1654        0.0519119         172.723
                               0               0                0               0        0.0520061         172.848         0.169867         72.1419
75.585                         0               0                0               0         0.281018        -108.873         0.944662         161.702
                               0               0                0               0         0.944423         161.673         0.281272        -108.785
                               0               0                0               0          0.17176         71.0136        0.0520473         169.794
                               0               0                0               0        0.0521197          169.91         0.171859         70.9899
75.63                          0               0                0               0         0.280271        -109.993         0.943587         160.402
                               0               0                0               0         0.943356          160.38         0.280444        -109.935
                               0               0                0               0         0.173814         69.8197        0.0521771         166.726
                               0               0                0               0        0.0522267         166.827         0.173917         69.7959
75.675                         0               0                0               0         0.279232        -111.159         0.942557         159.053
                               0               0                0               0          0.94232         159.038         0.279343        -111.132
                               0               0                0               0          0.17593         68.5873        0.0523181         163.516
                               0               0                0               0        0.0523456         163.599         0.176037         68.5635
75.72                          0               0                0               0         0.277923        -112.373         0.941615         157.658
                               0               0                0               0         0.941359         157.649         0.277992        -112.378
                               0               0                0               0         0.178103           67.32        0.0524873         160.169
                               0               0                0               0        0.0524953         160.231         0.178215         67.2963
75.765                         0               0                0               0         0.276376        -113.641         0.940802         156.218
                               0               0                0               0         0.940517         156.214         0.276421        -113.675
                               0               0                0               0         0.180324         66.0212        0.0527006         156.697
                               0               0                0               0        0.0526928         156.736          0.18044         65.9978
75.81                          0               0                0               0         0.274624        -114.962         0.940155         154.735
                               0               0                0               0         0.939834         154.736         0.274665        -115.022
                               0               0                0               0          0.18258         64.6942        0.0529713         153.114
                               0               0                0               0        0.0529524          153.13         0.182701         64.6713
75.855                         0               0                0               0         0.272707        -116.337         0.939703         153.215
                               0               0                0               0         0.939343         153.219         0.272757        -116.416
                               0               0                0               0         0.184857         63.3418        0.0533094         149.439
                               0               0                0               0        0.0532843         149.434         0.184981         63.3193
75.9                           0               0                0               0         0.270662        -117.762         0.939462          151.66
                               0               0                0               0         0.939066         151.666         0.270731        -117.856
                               0               0                0               0         0.187137         61.9665        0.0537205         145.694
                               0               0                0               0        0.0536941         145.671         0.187265         61.9445
75.945                         0               0                0               0         0.268525        -119.233         0.939442         150.075
                               0               0                0               0         0.939014         150.082         0.268619        -119.336
                               0               0                0               0         0.189402         60.5701        0.0542061         141.902
                               0               0                0               0        0.0541826         141.867         0.189533         60.5487
75.99                          0               0                0               0         0.266328        -120.745         0.939636         148.466
                               0               0                0               0         0.939184         148.472         0.266445         -120.85
                               0               0                0               0         0.191632         59.1544        0.0547634         138.085
                               0               0                0               0         0.054746         138.043         0.191766         59.1335
76.035                         0               0                0               0         0.264095        -122.289         0.940027         146.837
                               0               0                0               0         0.939562         146.842         0.264234        -122.391
                               0               0                0               0         0.193805         57.7208        0.0553859         134.265
                               0               0                0               0        0.0553771          134.22         0.193942         57.7004
76.08                          0               0                0               0         0.261848        -123.859         0.940588         145.192
                               0               0                0               0          0.94012         145.195         0.262002        -123.954
                               0               0                0               0         0.195902         56.2704        0.0560642         130.459
                               0               0                0               0        0.0560653         130.418          0.19604         56.2504
76.125                         0               0                0               0         0.259599        -125.446         0.941283         143.536
                               0               0                0               0         0.940822         143.537         0.259764        -125.531
                               0               0                0               0           0.1979         54.8043        0.0567865         126.684
                               0               0                0               0        0.0567983         126.651         0.198041         54.7848
76.17                          0               0                0               0          0.25736        -127.044         0.942067         141.873
                               0               0                0               0         0.941624         141.872         0.257528        -127.115
                               0               0                0               0         0.199781         53.3237        0.0575399         122.951
                               0               0                0               0        0.0575626          122.93         0.199922         53.3046
76.215                         0               0                0               0         0.255135        -128.644         0.942895         140.207
                               0               0                0               0         0.942476         140.203         0.255302        -128.701
                               0               0                0               0         0.201523         51.8298        0.0583111         119.271
                               0               0                0               0        0.0583442         119.265         0.201666          51.811
76.26                          0               0                0               0         0.252928        -130.241         0.943716          138.54
                               0               0                0               0         0.943327         138.534          0.25309        -130.281
                               0               0                0               0          0.20311         50.3239        0.0590865         115.652
                               0               0                0               0        0.0591294         115.663         0.203254         50.3054
76.305                         0               0                0               0          0.25074        -131.828         0.944482         136.875
                               0               0                0               0         0.944127         136.866         0.250894        -131.851
                               0               0                0               0         0.204523         48.8077        0.0598533         112.099
                               0               0                0               0        0.0599055         112.127         0.204668         48.7893
76.35                          0               0                0               0         0.248572          -133.4         0.945146         135.214
                               0               0                0               0         0.944827         135.203         0.248717        -133.407
                               0               0                0               0         0.205748         47.2829           0.0606         108.617
                               0               0                0               0        0.0606606         108.663         0.205894         47.2647
76.395                         0               0                0               0         0.246423        -134.953         0.945666         133.559
                               0               0                0               0         0.945382         133.546          0.24656        -134.944
                               0               0                0               0         0.206772         45.7516         0.061316         105.207
                               0               0                0               0        0.0613845         105.271         0.206919         45.7336
76.44                          0               0                0               0         0.244294        -136.483         0.946004         131.912
                               0               0                0               0         0.945754         131.896         0.244424        -136.458
