! TOUCHSTONE file generated by CST MICROWAVE STUDIO
! Date and time: Sun Jun 20 22:37:55 2021
! Project name: HIPS_d_sweep.cst
! Parameters = {fmax=120; fmin=75; b=0.46; d=23.65; a=0.63; phi=0; theta=0}
! Header version: 2018
! Port assignment regex: !\s*Touchstone port\s*([0-9]+)\s*=\s*(CST MWS port|CST DS port)\s*([0-9]+|Zmin|Zmax)\s*\(\"(.*)\"\)(\s*mode\s*([0-9]+))?.*
! Touchstone port assignment:
! Touchstone port 1 = CST MWS port Zmin ("") mode 1
! Touchstone port 2 = CST MWS port Zmin ("") mode 2
! Touchstone port 3 = CST MWS port Zmax ("") mode 1
! Touchstone port 4 = CST MWS port Zmax ("") mode 2
! S-Parameters are not renormalized. Unphysical impedance of 0 will be written to the file.
# GHz S MA R 0
75                             0               0                0               0          0.06923        -128.836         0.972896        -32.5174
                               0               0                0               0         0.972711        -32.5241        0.0691089        -128.842
                               0               0                0               0         0.218492         56.8846        0.0374328         33.5695
                               0               0                0               0        0.0374699         33.6266         0.218451         56.8584
75.045                         0               0                0               0        0.0651518        -129.948         0.973126        -33.2776
                               0               0                0               0          0.97294        -33.2845          0.06503        -129.956
                               0               0                0               0          0.21881         56.1683        0.0368563         33.9513
                               0               0                0               0        0.0368952          34.008         0.218769         56.1424
75.09                          0               0                0               0        0.0614808        -131.151         0.973301        -34.1144
                               0               0                0               0         0.973113        -34.1213        0.0613564        -131.162
                               0               0                0               0         0.219177         55.3709         0.036373         34.1857
                               0               0                0               0         0.036413         34.2428         0.219137         55.3451
75.135                         0               0                0               0        0.0582154        -132.437         0.973427        -35.0274
                               0               0                0               0         0.973237        -35.0344        0.0580882        -132.451
                               0               0                0               0         0.219583         54.4922        0.0359783         34.2623
                               0               0                0               0        0.0360191         34.3199         0.219544         54.4666
75.18                          0               0                0               0         0.055352        -133.799         0.973509        -36.0161
                               0               0                0               0         0.973318        -36.0232        0.0552221        -133.816
                               0               0                0               0         0.220017          53.533        0.0356662         34.1722
                               0               0                0               0        0.0357075         34.2299         0.219979         53.5076
75.225                         0               0                0               0        0.0528842        -135.225         0.973555        -37.0797
                               0               0                0               0         0.973362        -37.0869        0.0527522        -135.246
                               0               0                0               0         0.220465         52.4941        0.0354294         33.9085
                               0               0                0               0        0.0354713         33.9659         0.220429          52.469
75.27                          0               0                0               0        0.0508037        -136.705          0.97357        -38.2168
                               0               0                0               0         0.973377        -38.2241        0.0506705        -136.729
                               0               0                0               0         0.220913         51.3771        0.0352601         33.4665
                               0               0                0               0        0.0353024         33.5231         0.220878         51.3523
75.315                         0               0                0               0        0.0491007        -138.225         0.973563         -39.426
                               0               0                0               0         0.973371        -39.4335        0.0489666        -138.253
                               0               0                0               0         0.221344         50.1837        0.0351495         32.8434
                               0               0                0               0        0.0351921         32.8988          0.22131         50.1593
75.36                          0               0                0               0        0.0477635        -139.773         0.973541        -40.7054
                               0               0                0               0         0.973349        -40.7131        0.0476289        -139.803
                               0               0                0               0         0.221741         48.9162        0.0350885         32.0384
                               0               0                0               0        0.0351313         32.0926         0.221707         48.8921
75.405                         0               0                0               0        0.0467794        -141.335         0.973511        -42.0531
                               0               0                0               0         0.973319         -42.061        0.0466444        -141.369
                               0               0                0               0         0.222084         47.5767        0.0350678         31.0525
                               0               0                0               0        0.0351105         31.1058         0.222052          47.553
75.45                          0               0                0               0        0.0461346        -142.903         0.973479        -43.4666
                               0               0                0               0         0.973288        -43.4748        0.0459994        -142.939
                               0               0                0               0         0.222356         46.1679        0.0350778         29.8884
                               0               0                0               0        0.0351204          29.941         0.222326         46.1446
75.495                         0               0                0               0        0.0458149        -144.465         0.973452        -44.9436
                               0               0                0               0         0.973262         -44.952        0.0456794        -144.504
                               0               0                0               0         0.222537         44.6925        0.0351089         28.5499
                               0               0                0               0        0.0351513         28.6024         0.222508         44.6697
75.54                          0               0                0               0        0.0458052        -146.017         0.973437        -46.4813
                               0               0                0               0         0.973246          -46.49        0.0456694        -146.058
                               0               0                0               0         0.222607         43.1534        0.0351517         27.0422
                               0               0                0               0        0.0351939         27.0951          0.22258          43.131
75.585                         0               0                0               0        0.0460905        -147.555         0.973438         -48.077
                               0               0                0               0         0.973248        -48.0858        0.0459544        -147.597
                               0               0                0               0         0.222547         41.5537        0.0351968          25.371
                               0               0                0               0        0.0352389         25.4248         0.222521         41.5316
75.63                          0               0                0               0        0.0466553        -149.078         0.973461        -49.7276
                               0               0                0               0         0.973271        -49.7366        0.0465191        -149.121
                               0               0                0               0         0.222336         39.8964        0.0352353         23.5428
                               0               0                0               0        0.0352774         23.5977         0.222313         39.8746
75.675                         0               0                0               0        0.0474844        -150.587          0.97351        -51.4301
                               0               0                0               0          0.97332        -51.4394        0.0473483        -150.632
                               0               0                0               0         0.221958         38.1847        0.0352583         21.5645
                               0               0                0               0        0.0353006         21.6207         0.221937         38.1633
75.72                          0               0                0               0        0.0485624        -152.087         0.973589        -53.1814
                               0               0                0               0         0.973399        -53.1909        0.0484268        -152.131
                               0               0                0               0         0.221393          36.422        0.0352574         19.4429
                               0               0                0               0        0.0353002         19.5003         0.221375         36.4009
75.765                         0               0                0               0         0.049874        -153.582         0.973702        -54.9783
                               0               0                0               0         0.973513        -54.9881        0.0497395        -153.625
                               0               0                0               0         0.220626         34.6117        0.0352248         17.1852
                               0               0                0               0        0.0352682         17.2435         0.220609          34.591
75.81                          0               0                0               0        0.0514041        -155.076         0.973852        -56.8176
                               0               0                0               0         0.973664        -56.8277        0.0512712        -155.118
                               0               0                0               0          0.21964         32.7572         0.035153         14.7981
                               0               0                0               0        0.0351971          14.857         0.219625         32.7368
75.855                         0               0                0               0        0.0531377        -156.575         0.974041        -58.6961
                               0               0                0               0         0.973854        -58.7065        0.0530068        -156.616
                               0               0                0               0         0.218421          30.862        0.0350352         12.2884
                               0               0                0               0          0.03508         12.3473         0.218409         30.8421
75.9                           0               0                0               0        0.0550597        -158.083         0.974272        -60.6104
                               0               0                0               0         0.974087        -60.6212        0.0549314        -158.122
                               0               0                0               0         0.216957         28.9298        0.0348652         9.66239
                               0               0                0               0        0.0349106         9.72058         0.216947         28.9102
75.945                         0               0                0               0        0.0571551        -159.606         0.974546        -62.5574
                               0               0                0               0         0.974363        -62.5684        0.0570298        -159.643
                               0               0                0               0         0.215237         26.9641        0.0346373         6.92591
                               0               0                0               0        0.0346833         6.98287         0.215229         26.9449
75.99                          0               0                0               0        0.0594091        -161.146         0.974864        -64.5337
                               0               0                0               0         0.974682         -64.545        0.0592868        -161.182
                               0               0                0               0         0.213253         24.9687        0.0343469         4.08437
                               0               0                0               0        0.0343931         4.13958         0.213247         24.9497
76.035                         0               0                0               0        0.0618064        -162.707         0.975225        -66.5361
                               0               0                0               0         0.975047        -66.5476        0.0616872        -162.741
                               0               0                0               0         0.210997         22.9471        0.0339898          1.1426
                               0               0                0               0        0.0340361         1.19562         0.210994         22.9284
76.08                          0               0                0               0        0.0643321         -164.29          0.97563        -68.5611
                               0               0                0               0         0.975454        -68.5728        0.0642156        -164.323
                               0               0                0               0         0.208467         20.9032        0.0335632        -1.89526
                               0               0                0               0         0.033609        -1.84476         0.208466         20.8847
76.125                         0               0                0               0        0.0669708        -165.896         0.976077        -70.6054
                               0               0                0               0         0.975904        -70.6173        0.0668566        -165.929
                               0               0                0               0         0.205659         18.8405        0.0330647        -5.02581
                               0               0                0               0        0.0331097        -4.97806          0.20566         18.8221
76.17                          0               0                0               0         0.069707        -167.525         0.976562        -72.6657
                               0               0                0               0         0.976393        -72.6777        0.0695946        -167.558
                               0               0                0               0         0.202573         16.7629        0.0324931         -8.2465
                               0               0                0               0        0.0325368         -8.2017         0.202576         16.7445
76.215                         0               0                0               0         0.072525        -169.179         0.977083        -74.7385
                               0               0                0               0         0.976917        -74.7506        0.0724139        -169.211
                               0               0                0               0         0.199211         14.6738        0.0318483        -11.5558
                               0               0                0               0          0.03189        -11.5141         0.199217         14.6555
76.26                          0               0                0               0        0.0754088        -170.855         0.977632        -76.8204
                               0               0                0               0         0.977472        -76.8328         0.075299        -170.887
                               0               0                0               0         0.195579          12.577        0.0311309        -14.9533
                               0               0                0               0          0.03117         -14.915         0.195586         12.5589
76.305                         0               0                0               0        0.0783426        -172.554         0.978206         -78.908
                               0               0                0               0         0.978052        -78.9208        0.0782343        -172.583
                               0               0                0               0         0.191681          10.476        0.0303428        -18.4399
                               0               0                0               0        0.0303784        -18.4052          0.19169         10.4582
76.35                          0               0                0               0        0.0813103        -174.273         0.978797        -80.9981
                               0               0                0               0         0.978651        -81.0115        0.0812045        -174.299
                               0               0                0               0         0.187527         8.37421        0.0294867        -22.0179
                               0               0                0               0        0.0295178        -21.9872         0.187538         8.35711
76.395                         0               0                0               0        0.0842966        -176.012         0.979399        -83.0877
                               0               0                0               0         0.979262        -83.1021        0.0841947        -176.032
                               0               0                0               0         0.183126         6.27504         0.028566        -25.6916
                               0               0                0               0        0.0285917        -25.6652         0.183138         6.25898
76.44                          0               0                0               0         0.087287        -177.767         0.980008         -85.174
                               0               0                0               0         0.979881        -85.1897        0.0871904        -177.781
