! TOUCHSTONE file generated by CST MICROWAVE STUDIO
! Date and time: Sun Jun 20 22:38:14 2021
! Project name: HIPS_d_sweep.cst
! Parameters = {fmax=120; fmin=75; b=0.46; d=25.3; a=0.63; phi=0; theta=0}
! Header version: 2018
! Port assignment regex: !\s*Touchstone port\s*([0-9]+)\s*=\s*(CST MWS port|CST DS port)\s*([0-9]+|Zmin|Zmax)\s*\(\"(.*)\"\)(\s*mode\s*([0-9]+))?.*
! Touchstone port assignment:
! Touchstone port 1 = CST MWS port Zmin ("") mode 1
! Touchstone port 2 = CST MWS port Zmin ("") mode 2
! Touchstone port 3 = CST MWS port Zmax ("") mode 1
! Touchstone port 4 = CST MWS port Zmax ("") mode 2
! S-Parameters are not renormalized. Unphysical impedance of 0 will be written to the file.
# GHz S MA R 0
75                             0               0                0               0         0.176232          47.797         0.958329         140.577
                               0               0                0               0         0.958308         140.589         0.176329         47.7838
                               0               0                0               0         0.218592         48.7376        0.0544635          2.7596
                               0               0                0               0         0.054588          2.8258         0.218575          48.717
75.045                         0               0                0               0         0.171988         46.9984         0.959843         139.751
                               0               0                0               0         0.959614         139.761         0.171915         47.0056
                               0               0                0               0         0.219002         47.9594        0.0534834         2.60458
                               0               0                0               0        0.0536432          2.7006         0.218981         47.9377
75.09                          0               0                0               0         0.168111         46.1019         0.960816         138.857
                               0               0                0               0         0.960514         138.865         0.167987         46.1127
                               0               0                0               0         0.219271         47.1205         0.052523          2.0974
                               0               0                0               0        0.0526836         2.20157         0.219248         47.0985
75.135                         0               0                0               0         0.164621         45.1098         0.961338         137.889
                               0               0                0               0         0.961068         137.896         0.164531         45.1151
                               0               0                0               0         0.219405         46.2151        0.0516115         1.30197
                               0               0                0               0         0.051759          1.3955         0.219382         46.1933
75.18                          0               0                0               0         0.161533         44.0263         0.961503         136.845
                               0               0                0               0          0.96134         136.854         0.161532         44.0227
                               0               0                0               0         0.219411         45.2379        0.0507589        0.268676
                               0               0                0               0        0.0508904        0.338913         0.219389         45.2171
75.225                         0               0                0               0         0.158854         42.8571         0.961409         135.723
                               0               0                0               0         0.961397         135.734         0.158972         42.8451
                               0               0                0               0         0.219299         44.1847        0.0499652       -0.964367
                               0               0                0               0        0.0500828       -0.923989         0.219278         44.1654
75.27                          0               0                0               0         0.156588         41.6089         0.961149         134.522
                               0               0                0               0         0.961308         134.537         0.156835          41.591
                               0               0                0               0         0.219078         43.0525        0.0492254        -2.36915
                               0               0                0               0         0.049333        -2.36029         0.219057         43.0351
75.315                         0               0                0               0         0.154734          40.289         0.960813         133.241
                               0               0                0               0         0.961138         133.262         0.155104         40.2689
                               0               0                0               0         0.218755         41.8393        0.0485322        -3.92562
                               0               0                0               0        0.0486338        -3.94634         0.218734          41.824
75.36                          0               0                0               0         0.153288         38.9051         0.960479         131.883
                               0               0                0               0         0.960947         131.909         0.153762         38.8864
                               0               0                0               0         0.218337         40.5442        0.0478774        -5.61988
                               0               0                0               0        0.0479764        -5.66576         0.218313         40.5309
75.405                         0               0                0               0          0.15224         37.4647         0.960215         130.447
                               0               0                0               0          0.96079         130.479         0.152794         37.4501
                               0               0                0               0         0.217824         39.1674        0.0472531        -7.44286
                               0               0                0               0        0.0473518        -7.50779         0.217798         39.1559
75.45                          0               0                0               0          0.15158         35.9747         0.960075         128.938
                               0               0                0               0         0.960714         128.975         0.152182          35.966
                               0               0                0               0         0.217213         37.7098        0.0466513        -9.38919
                               0               0                0               0        0.0467511        -9.46602         0.217184         37.6996
75.495                         0               0                0               0         0.151295         34.4412         0.960101         127.359
                               0               0                0               0         0.960754         127.398         0.151913         34.4392
                               0               0                0               0         0.216498         36.1729        0.0460646        -11.4566
                               0               0                0               0         0.046166        -11.5374         0.216466         36.1635
75.54                          0               0                0               0         0.151371         32.8693         0.960318         125.711
                               0               0                0               0         0.960938         125.751         0.151972         32.8735
                               0               0                0               0         0.215666         34.5587        0.0454862        -13.6451
                               0               0                0               0        0.0455884        -13.7218         0.215631         34.5495
75.585                         0               0                0               0         0.151791         31.2631          0.96074         123.999
                               0               0                0               0         0.961281         124.038         0.152345         31.2723
                               0               0                0               0         0.214701         32.8698        0.0449094         -15.957
                               0               0                0               0         0.045011        -16.0211         0.214663           32.86
75.63                          0               0                0               0         0.152539         29.6255         0.961367         122.228
                               0               0                0               0         0.961789         122.261         0.153019         29.6376
                               0               0                0               0          0.21358         31.1089        0.0443281        -18.3964
                               0               0                0               0        0.0444266        -18.4395         0.213541         31.0979
75.675                         0               0                0               0           0.1536         27.9581         0.962188         120.399
                               0               0                0               0         0.962457         120.426         0.153982          27.971
                               0               0                0               0         0.212279          29.279        0.0437363        -20.9692
                               0               0                0               0        0.0438285        -20.9829          0.21224         29.2661
75.72                          0               0                0               0         0.154955         26.2617          0.96318         118.517
                               0               0                0               0         0.963271         118.535         0.155222          26.273
                               0               0                0               0          0.21077         27.3837        0.0431284        -23.6829
                               0               0                0               0          0.04321        -23.6592         0.210732         27.3682
75.765                         0               0                0               0         0.156588         24.5358         0.964311         116.587
                               0               0                0               0         0.964205         116.592         0.156727         24.5434
                               0               0                0               0         0.209023          25.427        0.0424988        -26.5468
                               0               0                0               0        0.0425649        -26.4781         0.208987         25.4082
75.81                          0               0                0               0         0.158483         22.7793         0.965542          114.61
                               0               0                0               0         0.965229         114.603         0.158487         22.7814
                               0               0                0               0         0.207007         23.4135        0.0418426        -29.5721
                               0               0                0               0        0.0418869        -29.4518         0.206974         23.3909
75.855                         0               0                0               0         0.160622         20.9903         0.966825         112.591
                               0               0                0               0         0.966303          112.57         0.160489         20.9857
                               0               0                0               0          0.20469         21.3488        0.0411547         -32.772
                               0               0                0               0        0.0411703         -32.595         0.204661         21.3219
75.9                           0               0                0               0         0.162988         19.1663         0.968107         110.533
                               0               0                0               0         0.967382         110.498         0.162724         19.1543
                               0               0                0               0         0.202044         19.2395        0.0404309        -36.1622
                               0               0                0               0        0.0404099        -35.9255         0.202018         19.2078
75.945                         0               0                0               0         0.165565         17.3044         0.969333          108.44
                               0               0                0               0         0.968419         108.391         0.165179         17.2851
                               0               0                0               0         0.199041         17.0936        0.0396673        -39.7612
                               0               0                0               0        0.0396014        -39.4651         0.199016         17.0568
75.99                          0               0                0               0         0.168335         15.4016          0.97044         106.314
                               0               0                0               0          0.96936         106.253         0.167844         15.3756
                               0               0                0               0         0.195658         14.9207        0.0388612        -43.5908
                               0               0                0               0         0.038742        -43.2406         0.195634         14.8788
76.035                         0               0                0               0          0.17128         13.4545         0.971365         104.159
                               0               0                0               0         0.970152         104.088         0.170708          13.423
                               0               0                0               0         0.191878         12.7324        0.0380116        -47.6769
                               0               0                0               0        0.0378318        -47.2845         0.191853         12.6855
76.08                          0               0                0               0         0.174384           11.46         0.972045         101.979
                               0               0                0               0         0.970741         101.901         0.173759         11.4249
                               0               0                0               0         0.187694         10.5422        0.0371198          -52.05
                               0               0                0               0        0.0368749        -51.6361         0.187665          10.491
76.125                         0               0                0               0         0.177626         9.41482         0.972415         99.7749
                               0               0                0               0         0.971075         99.6942         0.176984         9.37891
                               0               0                0               0         0.183108         8.36614        0.0361905        -56.7463
                               0               0                0               0        0.0358823        -56.3414         0.183073         8.31187
76.17                          0               0                0               0         0.180991         7.31638         0.972414         97.5517
                               0               0                0               0         0.971106         97.4729         0.180372         7.28298
                               0               0                0               0         0.178136         6.22242        0.0352341        -61.8069
                               0               0                0               0        0.0348741        -61.4509         0.178092         6.16717
76.215                         0               0                0               0          0.18446          5.1626         0.971985         95.3122
                               0               0                0               0         0.970795         95.2409          0.18391         5.13601
                               0               0                0               0         0.172809           4.131        0.0342682         -67.277
                               0               0                0               0        0.0338827        -67.0124         0.172755         4.07793
76.26                          0               0                0               0         0.188017         2.95254         0.971081         93.0597
                               0               0                0               0         0.970113         93.0021         0.187588         2.93812
                               0               0                0               0         0.167176         2.11224        0.0333204         -73.201
                               0               0                0               0        0.0329537        -73.0575         0.167115         2.06577
76.305                         0               0                0               0         0.191646         0.68716         0.969674         90.7977
                               0               0                0               0         0.969052         90.7605          0.19139        0.691441
                               0               0                0               0         0.161306        0.183991        0.0324296        -79.6122
                               0               0                0               0        0.0321411        -79.5803         0.161245        0.149652
76.35                          0               0                0               0         0.195333        -1.62929         0.967774         88.5298
                               0               0                0               0         0.967638         88.5195         0.195302        -1.59878
                               0               0                0               0         0.155278        -1.64395        0.0316444        -86.5154
                               0               0                0               0        0.0314952        -86.5171         0.155231        -1.66027
76.395                         0               0                0               0         0.199065        -3.98681         0.965461         86.2596
                               0               0                0               0         0.965951         86.2816         0.199299         -3.9226
                               0               0                0               0         0.149171        -3.37841        0.0310135        -93.8651
                               0               0                0               0        0.0310419        -93.7449         0.149159        -3.37213
76.44                          0               0                0               0         0.202822        -6.36555          0.96295         83.9913
                               0               0                0               0         0.964164          84.048         0.203336        -6.26322
