! TOUCHSTONE file generated by CST MICROWAVE STUDIO
! Date and time: Sun Jun 20 22:38:06 2021
! Project name: HIPS_d_sweep.cst
! Parameters = {fmax=120; fmin=75; b=0.46; d=24.6; a=0.63; phi=0; theta=0}
! Header version: 2018
! Port assignment regex: !\s*Touchstone port\s*([0-9]+)\s*=\s*(CST MWS port|CST DS port)\s*([0-9]+|Zmin|Zmax)\s*\(\"(.*)\"\)(\s*mode\s*([0-9]+))?.*
! Touchstone port assignment:
! Touchstone port 1 = CST MWS port Zmin ("") mode 1
! Touchstone port 2 = CST MWS port Zmin ("") mode 2
! Touchstone port 3 = CST MWS port Zmax ("") mode 1
! Touchstone port 4 = CST MWS port Zmax ("") mode 2
! S-Parameters are not renormalized. Unphysical impedance of 0 will be written to the file.
# GHz S MA R 0
75                             0               0                0               0         0.137915         129.706         0.990033        -140.159
                               0               0                0               0         0.989955        -140.149         0.137943         129.755
                               0               0                0               0        0.0200004         121.347        0.0217449         123.001
                               0               0                0               0        0.0217463         122.941        0.0200632         121.602
75.045                         0               0                0               0         0.134939         130.374         0.995186        -141.049
                               0               0                0               0         0.995482        -141.045         0.135109         130.403
                               0               0                0               0        0.0234623         122.064        0.0219289         121.729
                               0               0                0               0        0.0220686         121.656        0.0235341         122.319
75.09                          0               0                0               0         0.131479         130.613          0.99908        -141.983
                               0               0                0               0         0.999668         -141.98         0.131764         130.643
                               0               0                0               0        0.0270794         122.277        0.0221048          120.31
                               0               0                0               0        0.0223644         120.285        0.0271588         122.523
75.135                         0               0                0               0         0.127853         130.376                1         -142.97
                               0               0                0               0                1        -142.965         0.128212          130.42
                               0               0                0               0        0.0308526         122.124        0.0222778         118.726
                               0               0                0               0        0.0226329         118.802        0.0309378         122.358
75.18                          0               0                0               0         0.124354         129.661                1        -144.021
                               0               0                0               0                1        -144.012         0.124746         129.726
                               0               0                0               0        0.0347847         121.693        0.0224553         116.963
                               0               0                0               0        0.0228756         117.178        0.0348741         121.911
75.225                         0               0                0               0         0.121213         128.508                1        -145.143
                               0               0                0               0                1         -145.13         0.121605         128.594
                               0               0                0               0        0.0388798         121.041        0.0226469         115.006
                               0               0                0               0        0.0230977          115.38        0.0389719         121.241
75.27                          0               0                0               0          0.11858         126.986                1        -146.342
                               0               0                0               0                1        -146.326          0.11895         127.087
                               0               0                0               0        0.0431431         120.206        0.0228645         112.847
                               0               0                0               0        0.0233089         113.376        0.0432364         120.387
75.315                         0               0                0               0         0.116529         125.175                1        -147.624
                               0               0                0               0                1        -147.604         0.116866         125.283
                               0               0                0               0        0.0475796         119.217        0.0231219         110.484
                               0               0                0               0        0.0235243         111.135        0.0476728         119.378
75.36                          0               0                0               0         0.115075         123.155                1        -148.989
                               0               0                0               0                1        -148.968         0.115375         123.264
                               0               0                0               0        0.0521947         118.093        0.0234348         107.923
                               0               0                0               0        0.0237651          108.64        0.0522867         118.233
75.405                         0               0                0               0         0.114191         120.998         0.998815        -150.438
                               0               0                0               0         0.999296        -150.417         0.114457         121.102
                               0               0                0               0         0.056993         116.848        0.0238194         105.179
                               0               0                0               0        0.0240574         105.885        0.0570831         116.969
75.45                          0               0                0               0         0.113829         118.763         0.996626        -151.968
                               0               0                0               0         0.996944        -151.948         0.114066         118.857
                               0               0                0               0        0.0619787         115.495        0.0242917          102.28
                               0               0                0               0        0.0244307         102.888        0.0620664         115.596
75.495                         0               0                0               0         0.113929         116.494         0.994354        -153.576
                               0               0                0               0         0.994515        -153.559         0.114144         116.576
                               0               0                0               0        0.0671548         114.043        0.0248659         99.2585
                               0               0                0               0        0.0249142         99.6913        0.0672398         114.126
75.54                          0               0                0               0         0.114431         114.221         0.992107        -155.257
                               0               0                0               0         0.992127        -155.242          0.11463          114.29
                               0               0                0               0        0.0725226           112.5        0.0255538         96.1556
                               0               0                0               0        0.0255326         96.3584        0.0726049         112.565
75.585                         0               0                0               0         0.115278         111.964         0.989971        -157.005
                               0               0                0               0         0.989871        -156.993         0.115467          112.02
                               0               0                0               0        0.0780814         110.872        0.0263632         93.0129
                               0               0                0               0        0.0263025         92.9648        0.0781613         110.922
75.63                          0               0                0               0         0.116419         109.733         0.988006        -158.813
                               0               0                0               0         0.987809        -158.805         0.116601         109.778
                               0               0                0               0        0.0838277         109.165        0.0272977         89.8696
                               0               0                0               0        0.0272297         89.5863        0.0839056         109.202
75.675                         0               0                0               0         0.117809         107.534          0.98625        -160.676
                               0               0                0               0          0.98598        -160.671         0.117987         107.568
                               0               0                0               0        0.0897549         107.386        0.0283563         86.7588
                               0               0                0               0        0.0283096         86.2861        0.0898313         107.411
75.72                          0               0                0               0         0.119411         105.367          0.98472        -162.588
                               0               0                0               0         0.984401        -162.585         0.119588         105.391
                               0               0                0               0        0.0958523         105.539        0.0295343         83.7047
                               0               0                0               0        0.0295284         83.1065        0.0959278         105.556
75.765                         0               0                0               0         0.121194         103.228         0.983419        -164.541
                               0               0                0               0         0.983071         -164.54          0.12137         103.245
                               0               0                0               0         0.102105          103.63        0.0308233         80.7213
                               0               0                0               0        0.0308665         80.0672          0.10218          103.64
75.81                          0               0                0               0          0.12313         101.114         0.982332        -166.532
                               0               0                0               0         0.981975        -166.532         0.123307         101.125
                               0               0                0               0         0.108493         101.664        0.0322125         77.8131
                               0               0                0               0        0.0323014         77.1679         0.108567         101.669
75.855                         0               0                0               0         0.125198         99.0197         0.981438        -168.555
                               0               0                0               0         0.981087        -168.554         0.125375         99.0258
                               0               0                0               0          0.11499         99.6465        0.0336892         74.9764
                               0               0                0               0        0.0338107         74.3932         0.115065         99.6492
75.9                           0               0                0               0         0.127378         96.9386         0.980705        -170.604
                               0               0                0               0         0.980373        -170.603         0.127556         96.9409
                               0               0                0               0         0.121567         97.5818        0.0352397          72.201
                               0               0                0               0        0.0353733         71.7193         0.121641         97.5841
75.945                         0               0                0               0         0.129654         94.8651         0.980097        -172.677
                               0               0                0               0         0.979795        -172.674         0.129832         94.8646
                               0               0                0               0         0.128186         95.4754        0.0368499         69.4724
                               0               0                0               0        0.0369702         69.1183         0.128259          95.479
75.99                          0               0                0               0         0.132013         92.7935         0.979575        -174.769
                               0               0                0               0         0.979309        -174.764         0.132189          92.791
                               0               0                0               0         0.134806         93.3325        0.0385051         66.7735
                               0               0                0               0        0.0385849         66.5624         0.134878         93.3388
76.035                         0               0                0               0          0.13444         90.7183         0.979097        -176.878
                               0               0                0               0         0.978873         -176.87         0.134615         90.7146
                               0               0                0               0         0.141381         91.1582        0.0401909         64.0863
                               0               0                0               0        0.0402026         64.0252         0.141452         91.1683
76.08                          0               0                0               0         0.136926         88.6344         0.978622            -179
                               0               0                0               0         0.978443         -178.99         0.137099         88.6301
                               0               0                0               0         0.147863         88.9581        0.0418926         61.3927
                               0               0                0               0        0.0418098          61.484         0.147932         88.9726
76.125                         0               0                0               0         0.139458         86.5373          0.97811         178.867
                               0               0                0               0         0.977974          178.88         0.139629         86.5329
                               0               0                0               0           0.1542         86.7378        0.0435952         58.6757
                               0               0                0               0        0.0433937         58.9194         0.154267          86.757
76.17                          0               0                0               0         0.142028         84.4229         0.977521         176.726
                               0               0                0               0         0.977428         176.741         0.142196         84.4189
                               0               0                0               0         0.160341         84.5032        0.0452837         55.9192
                               0               0                0               0        0.0449417         56.3159         0.160407         84.5269
76.215                         0               0                0               0         0.144627         82.2875          0.97682         174.577
                               0               0                0               0         0.976764         174.595         0.144791         82.2843
                               0               0                0               0         0.166236         82.2607        0.0469425         53.1087
                               0               0                0               0        0.0464408         53.6615         0.166302         82.2885
76.26                          0               0                0               0         0.147246         80.1283         0.975974         172.424
                               0               0                0               0         0.975949         172.444         0.147406         80.1262
                               0               0                0               0          0.17184         80.0171        0.0485559         50.2307
                               0               0                0               0        0.0478771         50.9479         0.171907         80.0481
76.305                         0               0                0               0         0.149879         77.9432         0.974958         170.266
                               0               0                0               0         0.974954         170.288         0.150034         77.9425
                               0               0                0               0         0.177111         77.7796        0.0501074         47.2718
                               0               0                0               0        0.0492356         48.1702          0.17718         77.8128
76.35                          0               0                0               0          0.15252         75.7307         0.973752         168.106
                               0               0                0               0         0.973756         168.129         0.152671         75.7318
                               0               0                0               0         0.182015         75.5561        0.0515794         44.2166
                               0               0                0               0        0.0504994         45.3269         0.182088           75.59
76.395                         0               0                0               0         0.155167         73.4912         0.972344         165.945
                               0               0                0               0         0.972343         165.967         0.155313         73.4943
                               0               0                0               0         0.186532         73.3548        0.0529513          41.044
                               0               0                0               0        0.0516489         42.4202         0.186609         73.3879
76.44                          0               0                0               0         0.157818          71.227         0.970739         163.783
                               0               0                0               0         0.970716         163.805          0.15796         71.2324
