! TOUCHSTONE file generated by CST MICROWAVE STUDIO
! Date and time: Sun Jun 20 22:38:07 2021
! Project name: HIPS_d_sweep.cst
! Parameters = {fmax=120; fmin=75; b=0.46; d=24.7; a=0.63; phi=0; theta=0}
! Header version: 2018
! Port assignment regex: !\s*Touchstone port\s*([0-9]+)\s*=\s*(CST MWS port|CST DS port)\s*([0-9]+|Zmin|Zmax)\s*\(\"(.*)\"\)(\s*mode\s*([0-9]+))?.*
! Touchstone port assignment:
! Touchstone port 1 = CST MWS port Zmin ("") mode 1
! Touchstone port 2 = CST MWS port Zmin ("") mode 2
! Touchstone port 3 = CST MWS port Zmax ("") mode 1
! Touchstone port 4 = CST MWS port Zmax ("") mode 2
! S-Parameters are not renormalized. Unphysical impedance of 0 will be written to the file.
# GHz S MA R 0
75                             0               0                0               0         0.145794          117.47          0.98688        -151.743
                               0               0                0               0         0.986765        -151.751          0.14576         117.491
                               0               0                0               0        0.0639985         113.913        0.0311866         99.9206
                               0               0                0               0        0.0311178         99.8916        0.0640295         113.857
75.045                         0               0                0               0         0.141839         116.553         0.988174        -152.582
                               0               0                0               0         0.987991        -152.586         0.141202         117.173
                               0               0                0               0        0.0667974         113.828         0.030714         100.427
                               0               0                0               0        0.0306415         99.6817        0.0666761         113.788
75.09                          0               0                0               0         0.138144         115.578         0.989029        -153.496
                               0               0                0               0           0.9888        -153.496         0.137114         116.541
                               0               0                0               0        0.0697621         113.438        0.0301503         99.9381
                               0               0                0               0        0.0302042          98.866        0.0695664          113.39
75.135                         0               0                0               0         0.134749         114.536         0.989503        -154.486
                               0               0                0               0         0.989246        -154.484         0.133537         115.639
                               0               0                0               0        0.0729301         112.786        0.0297108         98.6092
                               0               0                0               0        0.0298814         97.5329        0.0727191         112.725
75.18                          0               0                0               0         0.131689          113.42         0.989652        -155.554
                               0               0                0               0         0.989384         -155.55         0.130481         114.512
                               0               0                0               0        0.0763303         111.917        0.0294932         96.7124
                               0               0                0               0        0.0297154          95.801        0.0761435         111.848
75.225                         0               0                0               0         0.128993         112.222         0.989534          -156.7
                               0               0                0               0         0.989268        -156.695         0.127932         113.202
                               0               0                0               0        0.0799813         110.873        0.0295102         94.4944
                               0               0                0               0        0.0297209         93.7893        0.0798406         110.803
75.27                          0               0                0               0         0.126683          110.94         0.989203        -157.925
                               0               0                0               0          0.98895        -157.919          0.12587         111.746
                               0               0                0               0        0.0838912         109.689        0.0297354          92.126
                               0               0                0               0        0.0298945         91.5993         0.083805         109.626
75.315                         0               0                0               0         0.124776         109.571         0.988709        -159.228
                               0               0                0               0         0.988476        -159.221         0.124263         110.173
                               0               0                0               0        0.0880587         108.396        0.0301322         89.7071
                               0               0                0               0        0.0302232         89.3074        0.0880258         108.343
75.36                          0               0                0               0         0.123279         108.115         0.988096        -160.606
                               0               0                0               0         0.987889        -160.599         0.123078         108.512
                               0               0                0               0        0.0924751         107.015        0.0306671         87.2879
                               0               0                0               0        0.0306898         86.9655        0.0924884         106.974
75.405                         0               0                0               0         0.122194         106.573         0.987403        -162.059
                               0               0                0               0         0.987224        -162.052         0.122283         106.784
                               0               0                0               0        0.0971258         105.563        0.0313131         84.8881
                               0               0                0               0         0.031277          84.605        0.0971755         105.532
75.45                          0               0                0               0         0.121516         104.949         0.986661        -163.584
                               0               0                0               0         0.986512        -163.577         0.121847         105.005
                               0               0                0               0         0.101992          104.05        0.0320496          82.511
                               0               0                0               0        0.0319689         82.2421         0.102067         104.026
75.495                         0               0                0               0         0.121233         103.247         0.985895        -165.178
                               0               0                0               0         0.985774        -165.171         0.121741         103.188
                               0               0                0               0         0.107053         102.481        0.0328615         80.1511
                               0               0                0               0        0.0327516         79.8822         0.107143         102.462
75.54                          0               0                0               0         0.121328         101.473         0.985121        -166.837
                               0               0                0               0         0.985026        -166.831         0.121939         101.345
                               0               0                0               0         0.112283          100.86        0.0337378         77.7989
                               0               0                0               0        0.0336134         77.5236         0.112379         100.842
75.585                         0               0                0               0         0.121782         99.6332          0.98435        -168.559
                               0               0                0               0         0.984278        -168.553         0.122419         99.4806
                               0               0                0               0         0.117657         99.1888        0.0346702         75.4437
                               0               0                0               0        0.0345445         75.1603         0.117752          99.169
75.63                          0               0                0               0         0.122568         97.7342         0.983586        -170.339
                               0               0                0               0         0.983532        -170.334         0.123161         97.5997
                               0               0                0               0         0.123148         97.4673        0.0356522         73.0741
                               0               0                0               0        0.0355365          72.784         0.123236         97.4439
75.675                         0               0                0               0         0.123661         95.7825         0.982827        -172.174
                               0               0                0               0         0.982788        -172.169          0.12415         95.7042
                               0               0                0               0         0.128727         95.6955        0.0366787         70.6793
                               0               0                0               0        0.0365819         70.3848         0.128803         95.6673
75.72                          0               0                0               0         0.125031          93.784         0.982068        -174.059
                               0               0                0               0         0.982037        -174.055         0.125371         93.7941
                               0               0                0               0         0.134362         93.8734         0.037745          68.249
                               0               0                0               0        0.0376738         67.9525         0.134424         93.8399
75.765                         0               0                0               0         0.126647         91.7446         0.981297         -175.99
                               0               0                0               0         0.981269        -175.987         0.126813         91.8677
                               0               0                0               0         0.140024         92.0013        0.0388467         65.7735
                               0               0                0               0        0.0388053          65.477         0.140069         91.9627
75.81                          0               0                0               0         0.128481         89.6695         0.980502        -177.963
                               0               0                0               0         0.980473        -177.961         0.128468         89.9217
                               0               0                0               0         0.145677         90.0802        0.0399793         63.2441
                               0               0                0               0        0.0399696         62.9486         0.145706         90.0371
75.855                         0               0                0               0         0.130502         87.5636         0.979668        -179.973
                               0               0                0               0         0.979632        -179.973         0.130325         87.9514
                               0               0                0               0         0.151289         88.1118        0.0411375         60.6526
                               0               0                0               0        0.0411589         60.3585         0.151302         88.0653
75.9                           0               0                0               0          0.13268         85.4312          0.97878         177.984
                               0               0                0               0         0.978733         177.982         0.132376         85.9507
                               0               0                0               0         0.156825         86.0985        0.0423152         57.9918
                               0               0                0               0        0.0423645         57.6991         0.156824         86.0497
75.945                         0               0                0               0         0.134989         83.2763         0.977825         175.911
                               0               0                0               0         0.977761         175.909         0.134611         83.9124
                               0               0                0               0          0.16225         84.0437        0.0435052         55.2556
                               0               0                0               0        0.0435766         54.9644         0.162238         83.9937
75.99                          0               0                0               0         0.137403         81.1025          0.97679         173.814
                               0               0                0               0         0.976705          173.81         0.137014         81.8286
                               0               0                0               0         0.167531         81.9513        0.0446986         52.4392
                               0               0                0               0        0.0447839         52.1502         0.167511         81.9014
76.035                         0               0                0               0         0.139896         78.9133         0.975667         171.697
                               0               0                0               0         0.975557         171.691         0.139562         79.6916
                               0               0                0               0         0.172637         79.8264        0.0458847         49.5396
                               0               0                0               0        0.0459738         49.2551         0.172612         79.7774
76.08                          0               0                0               0         0.142448         76.7122         0.974452         169.562
                               0               0                0               0         0.974314         169.556         0.142223         77.4958
                               0               0                0               0         0.177537         77.6742        0.0470509          46.556
                               0               0                0               0        0.0471321         46.2806         0.177511         77.6269
76.125                         0               0                0               0          0.14504         74.5026         0.973148         167.415
                               0               0                0               0         0.972978         167.407         0.144954         75.2398
                               0               0                0               0         0.182207         75.5008        0.0481825          43.491
                               0               0                0               0        0.0482441          43.232         0.182183         75.4555
76.17                          0               0                0               0         0.147654         72.2881         0.971764         165.258
                               0               0                0               0         0.971559          165.25         0.147702         72.9298
                               0               0                0               0         0.186625         73.3125        0.0492632         40.3508
                               0               0                0               0        0.0492952         40.1184         0.186606         73.2693
76.215                         0               0                0               0         0.150277         70.0725         0.970317         163.095
                               0               0                0               0         0.970075         163.086         0.150416         70.5816
                               0               0                0               0         0.190776         71.1156        0.0502758         37.1471
                               0               0                0               0         0.050272         36.9535         0.190763         71.0744
76.26                          0               0                0               0         0.152897         67.8599         0.968833          160.93
                               0               0                0               0         0.968553          160.92         0.153057         68.2197
                               0               0                0               0         0.194649         68.9165        0.0512041          33.897
                               0               0                0               0        0.0511641         33.7542         0.194643         68.8769
76.305                         0               0                0               0         0.155507          65.655         0.967346         158.765
                               0               0                0               0         0.967029         158.755         0.155615         65.8733
                               0               0                0               0          0.19824         66.7212        0.0520353         30.6236
                               0               0                0               0        0.0519655         30.5397         0.198241         66.6827
76.35                          0               0                0               0         0.158101         63.4627         0.965897         156.603
                               0               0                0               0         0.965545         156.592          0.15811         63.5689
                               0               0                0               0         0.201551          64.535        0.0527633         27.3537
                               0               0                0               0        0.0526756         27.3295         0.201557         64.4971
76.395                         0               0                0               0         0.160674         61.2887         0.964535         154.446
                               0               0                0               0         0.964153         154.434         0.160578         61.3234
                               0               0                0               0         0.204587         62.3624         0.053391         24.1142
                               0               0                0               0        0.0532991         24.1398         0.204595         62.3247
76.44                          0               0                0               0         0.163224         59.1386         0.963304         152.297
                               0               0                0               0         0.962901         152.285         0.163057         59.1427
