! TOUCHSTONE file generated by CST MICROWAVE STUDIO
! Date and time: Sun Jun 20 22:37:18 2021
! Project name: HIPS_d_sweep.cst
! Parameters = {fmax=120; fmin=75; b=0.46; d=20.1; a=0.63; phi=0; theta=0}
! Header version: 2018
! Port assignment regex: !\s*Touchstone port\s*([0-9]+)\s*=\s*(CST MWS port|CST DS port)\s*([0-9]+|Zmin|Zmax)\s*\(\"(.*)\"\)(\s*mode\s*([0-9]+))?.*
! Touchstone port assignment:
! Touchstone port 1 = CST MWS port Zmin ("") mode 1
! Touchstone port 2 = CST MWS port Zmin ("") mode 2
! Touchstone port 3 = CST MWS port Zmax ("") mode 1
! Touchstone port 4 = CST MWS port Zmax ("") mode 2
! S-Parameters are not renormalized. Unphysical impedance of 0 will be written to the file.
# GHz S MA R 0
75                             0               0                0               0         0.174972         99.1088         0.977294         10.0234
                               0               0                0               0         0.977278         10.0267            0.175         99.1351
                               0               0                0               0         0.115009          97.819        0.0311627        -121.135
                               0               0                0               0        0.0311896        -121.335         0.114983         97.8076
75.045                         0               0                0               0         0.178536         98.2712          0.97645         9.35881
                               0               0                0               0         0.976441         9.36445         0.178471         98.4083
                               0               0                0               0         0.116499         97.1264        0.0316034        -122.737
                               0               0                0               0        0.0316359         -122.93         0.116457         97.1043
75.09                          0               0                0               0         0.181335         97.7048         0.975735         8.61188
                               0               0                0               0         0.975715         8.61506         0.181365         97.7277
                               0               0                0               0         0.118134          96.393        0.0320149         -124.49
                               0               0                0               0        0.0320433        -124.682         0.118107         96.3818
75.135                         0               0                0               0         0.182772         97.0808         0.975124         7.78898
                               0               0                0               0         0.975091         7.78713         0.183638         97.0249
                               0               0                0               0         0.119932         95.6223        0.0323901        -126.425
                               0               0                0               0        0.0324052        -126.615         0.119952         95.6353
75.18                          0               0                0               0         0.183617         96.1516         0.974593         6.89546
                               0               0                0               0         0.974551         6.88765         0.185346         96.2442
                               0               0                0               0         0.121908         94.8164        0.0327199        -128.571
                               0               0                0               0        0.0327146        -128.754         0.122009         94.8576
75.225                         0               0                0               0          0.18457         95.0176         0.974116         5.93581
                               0               0                0               0         0.974075         5.92223         0.186611          95.355
                               0               0                0               0         0.124081         93.9762        0.0329935        -130.955
                               0               0                0               0        0.0329642        -131.121         0.124288         94.0399
75.27                          0               0                0               0         0.185694         93.8129         0.973673          4.9138
                               0               0                0               0          0.97364         4.89541         0.187561         94.3517
                               0               0                0               0         0.126469         93.0997        0.0331993        -133.599
                               0               0                0               0        0.0331469        -133.736         0.126795         93.1724
75.315                         0               0                0               0         0.186858         92.5979         0.973244         3.83259
                               0               0                0               0         0.973223         3.81076         0.188295         93.2459
                               0               0                0               0         0.129088         92.1819        0.0333259        -136.516
                               0               0                0               0         0.033257        -136.612         0.129524          92.246
75.36                          0               0                0               0         0.187933         91.3901          0.97281         2.69482
                               0               0                0               0         0.972805         2.67111         0.188873         92.0578
                               0               0                0               0         0.131947         91.2146        0.0333655        -139.708
                               0               0                0               0        0.0332908        -139.756         0.132461         91.2537
75.405                         0               0                0               0         0.188828         90.1906          0.97236         1.50272
                               0               0                0               0         0.972368         1.47868         0.189317         90.8093
                               0               0                0               0         0.135044         90.1873        0.0333158        -143.169
                               0               0                0               0        0.0332487        -143.169         0.135584         90.1916
75.45                          0               0                0               0         0.189477         88.9942         0.971884        0.258163
                               0               0                0               0           0.9719        0.235172         0.189619         89.5198
                               0               0                0               0         0.138361         89.0896        0.0331825        -146.883
                               0               0                0               0        0.0331361        -146.842         0.138868         89.0592
75.495                         0               0                0               0         0.189831         87.7934         0.971376         -1.0372
                               0               0                0               0         0.971392        -1.05804         0.189751         88.2041
                               0               0                0               0         0.141865         87.9145          0.03298         -150.83
                               0               0                0               0        0.0329643        -150.764         0.142284         87.8594
75.54                          0               0                0               0         0.189859         86.5795         0.970836        -2.38189
                               0               0                0               0         0.970843        -2.39981         0.189678         86.8717
                               0               0                0               0         0.145508         86.6611          0.03273        -154.991
                               0               0                0               0        0.0327498        -154.915         0.145805         86.5977
75.585                         0               0                0               0         0.189543         85.3432         0.970268         -3.7745
                               0               0                0               0         0.970256        -3.78912         0.189359         85.5273
                               0               0                0               0          0.14924         85.3357        0.0324593        -159.345
                               0               0                0               0        0.0325142        -159.276         0.149407         85.2807
75.63                          0               0                0               0         0.188878         84.0756          0.96968         -5.2136
                               0               0                0               0         0.969642         -5.2249          0.18876         84.1707
                               0               0                0               0         0.153018         83.9496        0.0321962        -163.875
                               0               0                0               0        0.0322813        -163.826         0.153069         83.9156
75.675                         0               0                0               0         0.187873         82.7688         0.969087        -6.69762
                               0               0                0               0         0.969015        -6.70592         0.187858         82.7979
                               0               0                0               0         0.156808         82.5164         0.031968        -168.566
                               0               0                0               0        0.0320756        -168.542         0.156771         82.5091
75.72                          0               0                0               0         0.186546          81.416         0.968504        -8.22479
                               0               0                0               0         0.968397        -8.23067         0.186642         81.4028
                               0               0                0               0          0.16059         81.0486        0.0317985        -173.401
                               0               0                0               0        0.0319201        -173.401           0.1605         81.0672
75.765                         0               0                0               0         0.184927         80.0126         0.967951        -9.79304
                               0               0                0               0          0.96781        -9.79725         0.185117         79.9779
                               0               0                0               0         0.164355         79.5554        0.0317069         -178.36
                               0               0                0               0        0.0318346        -178.379         0.164241         79.5945
75.81                          0               0                0               0          0.18305         78.5564         0.967449           -11.4
                               0               0                0               0         0.967279        -11.4033         0.183304         78.5164
                               0               0                0               0         0.168097          78.043        0.0317075         176.579
                               0               0                0               0        0.0318345         176.551         0.167981         78.0949
75.855                         0               0                0               0         0.180954         77.0477         0.967018        -13.0427
                               0               0                0               0         0.966827         -13.046         0.181236         77.0132
                               0               0                0               0         0.171812         76.5143        0.0318091         171.444
                               0               0                0               0        0.0319303         171.415         0.171707         76.5709
75.9                           0               0                0               0         0.178679         75.4893         0.966676         -14.718
                               0               0                0               0         0.966475        -14.7218         0.178956         75.4662
                               0               0                0               0         0.175494         74.9703        0.0320158         166.263
                               0               0                0               0        0.0321276         166.242         0.175405         75.0244
75.945                         0               0                0               0         0.176264         73.8863         0.966436        -16.4222
                               0               0                0               0         0.966237        -16.4271         0.176507         73.8763
                               0               0                0               0         0.179133         73.4104        0.0323267         161.068
                               0               0                0               0        0.0324272         161.062         0.179062         73.4568
75.99                          0               0                0               0         0.173743         72.2454         0.966305        -18.1514
                               0               0                0               0         0.966121        -18.1575         0.173937         72.2474
                               0               0                0               0         0.182718         71.8336        0.0327374         155.888
                               0               0                0               0        0.0328256         155.902         0.182661          71.869
76.035                         0               0                0               0         0.171149         70.5749         0.966283        -19.9013
                               0               0                0               0         0.966123        -19.9088         0.171285         70.5864
                               0               0                0               0         0.186233         70.2389        0.0332395         150.752
                               0               0                0               0        0.0333155         150.788         0.186185         70.2615
76.08                          0               0                0               0         0.168509         68.8839         0.966363        -21.6677
                               0               0                0               0         0.966233        -21.6764         0.168587         68.9017
                               0               0                0               0         0.189662         68.6253        0.0338223         145.685
                               0               0                0               0        0.0338867         145.743         0.189618         68.6352
76.125                         0               0                0               0         0.165843         67.1818         0.966526        -23.4462
                               0               0                0               0         0.966431        -23.4558         0.165872          67.203
                               0               0                0               0         0.192984         66.9924        0.0344728         140.708
                               0               0                0               0        0.0345268         140.786         0.192939         66.9905
76.17                          0               0                0               0         0.163172         65.4781         0.966749        -25.2327
                               0               0                0               0         0.966687         -25.243         0.163161         65.5005
                               0               0                0               0          0.19618         65.3401         0.035177         135.838
                               0               0                0               0        0.0352219         135.933          0.19613         65.3285
76.215                         0               0                0               0         0.160508         63.7818         0.967001        -27.0233
                               0               0                0               0         0.966967         -27.034         0.160471          63.804
                               0               0                0               0         0.199228         63.6691        0.0359199         131.087
                               0               0                0               0        0.0359574         131.195          0.19917         63.6503
76.26                          0               0                0               0         0.157865         62.1014         0.967243        -28.8146
                               0               0                0               0          0.96723        -28.8253         0.157813         62.1226
                               0               0                0               0         0.202106         61.9806         0.036687         126.465
                               0               0                0               0        0.0367185         126.582         0.202041         61.9572
76.305                         0               0                0               0         0.155251         60.4447         0.967437        -30.6033
                               0               0                0               0         0.967437        -30.6141         0.155197         60.4648
                               0               0                0               0         0.204795         60.2763        0.0374639         121.978
                               0               0                0               0        0.0374907         122.099         0.204722         60.2511
76.35                          0               0                0               0         0.152674         58.8184          0.96754        -32.3868
                               0               0                0               0         0.967543        -32.3976         0.152629         58.8377
                               0               0                0               0         0.207274         58.5586        0.0382374         117.629
                               0               0                0               0        0.0382607          117.75         0.207197          58.534
76.395                         0               0                0               0         0.150141         57.2287         0.967513         -34.163
                               0               0                0               0         0.967509        -34.1738         0.150112         57.2477
                               0               0                0               0         0.209525         56.8301        0.0389956         113.421
                               0               0                0               0        0.0390163         113.539         0.209447         56.8084
76.44                          0               0                0               0         0.147658         55.6806         0.967317        -35.9298
                               0               0                0               0         0.967298        -35.9409         0.147651         55.6998
