! TOUCHSTONE file generated by CST MICROWAVE STUDIO
! Date and time: Sun Jun 20 22:37:52 2021
! Project name: HIPS_d_sweep.cst
! Parameters = {fmax=120; fmin=75; b=0.46; d=23.35; a=0.63; phi=0; theta=0}
! Header version: 2018
! Port assignment regex: !\s*Touchstone port\s*([0-9]+)\s*=\s*(CST MWS port|CST DS port)\s*([0-9]+|Zmin|Zmax)\s*\(\"(.*)\"\)(\s*mode\s*([0-9]+))?.*
! Touchstone port assignment:
! Touchstone port 1 = CST MWS port Zmin ("") mode 1
! Touchstone port 2 = CST MWS port Zmin ("") mode 2
! Touchstone port 3 = CST MWS port Zmax ("") mode 1
! Touchstone port 4 = CST MWS port Zmax ("") mode 2
! S-Parameters are not renormalized. Unphysical impedance of 0 will be written to the file.
# GHz S MA R 0
75                             0               0                0               0        0.0514985        -92.8561         0.986473         1.08542
                               0               0                0               0         0.986626         1.08357        0.0517648        -92.7805
                               0               0                0               0         0.153426         90.5513        0.0244219         72.1885
                               0               0                0               0        0.0243663         71.7365         0.153366         90.5803
75.045                         0               0                0               0        0.0474293        -93.9958         0.986487        0.320355
                               0               0                0               0         0.986626        0.319984        0.0477774        -93.8529
                               0               0                0               0         0.155088         89.8261        0.0238365         72.5575
                               0               0                0               0        0.0238018         71.9366         0.155016         89.8549
75.09                          0               0                0               0        0.0437435        -95.1917         0.986372       -0.521817
                               0               0                0               0         0.986514       -0.522037        0.0440986          -95.03
                               0               0                0               0         0.156944         89.0252         0.023394         72.6816
                               0               0                0               0        0.0233561         72.0278         0.156871         89.0541
75.135                         0               0                0               0        0.0404632        -96.4677         0.986165         -1.4409
                               0               0                0               0         0.986312        -1.44184        0.0407771        -96.3255
                               0               0                0               0         0.158997         88.1462        0.0230888         72.5898
                               0               0                0               0        0.0230362         72.0024         0.158929         88.1747
75.18                          0               0                0               0        0.0376019         -97.844         0.985897        -2.43631
                               0               0                0               0         0.986036        -2.43845        0.0378487        -97.7489
                               0               0                0               0         0.161244         87.1871        0.0229146         72.3049
                               0               0                0               0         0.022846         71.8496         0.161184         87.2143
75.225                         0               0                0               0        0.0351647        -99.3349          0.98559        -3.50706
                               0               0                0               0         0.985701        -3.51062        0.0353359        -99.3031
                               0               0                0               0         0.163678         86.1467        0.0228641          71.844
                               0               0                0               0        0.0227856         71.5563         0.163625         86.1718
75.27                          0               0                0               0          0.03315        -100.946          0.98526        -4.65186
                               0               0                0               0         0.985316        -4.65678        0.0332491        -100.983
                               0               0                0               0         0.166288         85.0248        0.0229302         71.2193
                               0               0                0               0        0.0228525         71.1088         0.166238         85.0474
75.315                         0               0                0               0        0.0315495        -102.672         0.984918        -5.86907
                               0               0                0               0         0.984889        -5.87512        0.0315876        -102.774
                               0               0                0               0         0.169055         83.8222        0.0231056         70.4385
                               0               0                0               0         0.023041         70.4937         0.169004         83.8424
75.36                          0               0                0               0        0.0303501        -104.499         0.984566        -7.15676
                               0               0                0               0         0.984427        -7.16358        0.0303417        -104.654
                               0               0                0               0         0.171962         82.5409        0.0233829         69.5066
                               0               0                0               0        0.0233428         69.7008         0.171903         82.5591
75.405                         0               0                0               0        0.0295342        -106.401         0.984203        -8.51269
                               0               0                0               0         0.983932        -8.51983        0.0294943        -106.592
                               0               0                0               0         0.174985         81.1837        0.0237547          68.426
                               0               0                0               0        0.0237477         68.7236         0.174914          81.201
75.45                          0               0                0               0         0.029081        -108.348          0.98382        -9.93437
                               0               0                0               0         0.983405        -9.94136        0.0290231        -108.557
                               0               0                0               0         0.178099         79.7546        0.0242133         67.1983
                               0               0                0               0         0.024244         67.5603         0.178014         79.7722
75.495                         0               0                0               0        0.0289672         -110.31         0.983409         -11.419
                               0               0                0               0         0.982848        -11.4254        0.0289023        -110.519
                               0               0                0               0         0.181279         78.2581        0.0247506         65.8245
                               0               0                0               0        0.0248187         66.2142          0.18118         78.2771
75.54                          0               0                0               0        0.0291685        -112.258         0.982955        -12.9637
                               0               0                0               0         0.982259        -12.9692        0.0291044        -112.455
                               0               0                0               0         0.184498         76.6992        0.0253582         64.3061
                               0               0                0               0        0.0254588         64.6926         0.184387         76.7204
75.585                         0               0                0               0          0.02966        -114.173         0.982445        -14.5651
                               0               0                0               0         0.981639        -14.5695        0.0296013        -114.348
                               0               0                0               0         0.187732         75.0831        0.0260269         62.6452
                               0               0                0               0        0.0261508         63.0062         0.187614         75.1068
75.63                          0               0                0               0        0.0304169        -116.041         0.981865        -16.2198
                               0               0                0               0         0.980988        -16.2232        0.0303657        -116.192
                               0               0                0               0         0.190956         73.4149        0.0267472         60.8454
                               0               0                0               0        0.0268822         61.1681         0.190838          73.441
75.675                         0               0                0               0        0.0314156        -117.857         0.981204        -17.9242
                               0               0                0               0         0.980308        -17.9269        0.0313717        -117.987
                               0               0                0               0         0.194148         71.6996         0.027509         58.9113
                               0               0                0               0        0.0276407         59.1924         0.194035         71.7271
75.72                          0               0                0               0        0.0326339        -119.625         0.980456        -19.6747
                               0               0                0               0           0.9796        -19.6772        0.0325954        -119.737
                               0               0                0               0         0.197284         69.9416        0.0283017         56.8493
                               0               0                0               0        0.0284153         57.0933         0.197184         69.9691
75.765                         0               0                0               0         0.034051        -121.351         0.979618        -21.4673
                               0               0                0               0          0.97887        -21.4707         0.034015        -121.452
                               0               0                0               0         0.200344         68.1449        0.0291145          54.667
                               0               0                0               0         0.029196         54.8842         0.200264         68.1704
75.81                          0               0                0               0        0.0356478        -123.045         0.978696        -23.2984
                               0               0                0               0         0.978124        -23.3037        0.0356109        -123.142
                               0               0                0               0         0.203308         66.3127        0.0299363         52.3732
                               0               0                0               0        0.0299737         52.5776         0.203252         66.3343
75.855                         0               0                0               0        0.0374072        -124.719         0.977702        -25.1643
                               0               0                0               0         0.977371        -25.1727        0.0373659        -124.818
                               0               0                0               0         0.206157         64.4481        0.0307564         49.9777
                               0               0                0               0        0.0307406         50.1841         0.206127         64.4636
75.9                           0               0                0               0        0.0393134        -126.382         0.976659        -27.0612
                               0               0                0               0          0.97662         -27.074        0.0392647         -126.49
                               0               0                0               0         0.208869         62.5532         0.031564          47.491
                               0               0                0               0        0.0314896         47.7127         0.208867         62.5609
75.945                         0               0                0               0        0.0413524        -128.047         0.975595        -28.9859
                               0               0                0               0         0.975885        -29.0041        0.0412942        -128.165
                               0               0                0               0         0.211426         60.6301        0.0323489         44.9238
                               0               0                0               0        0.0322147         45.1708         0.211449         60.6286
75.99                          0               0                0               0        0.0435113        -129.721         0.974547         -30.935
                               0               0                0               0         0.975178        -30.9592        0.0434429        -129.851
                               0               0                0               0         0.213808         58.6806        0.0331016         42.2867
                               0               0                0               0        0.0329105         42.5638         0.213853          58.669
76.035                         0               0                0               0        0.0457788        -131.412         0.973558        -32.9057
                               0               0                0               0         0.974513        -32.9358        0.0457006        -131.553
                               0               0                0               0         0.215994         56.7062        0.0338134         39.5901
                               0               0                0               0        0.0335723         39.8962         0.216056         56.6845
76.08                          0               0                0               0        0.0481444        -133.125         0.972672        -34.8949
                               0               0                0               0         0.973903        -34.9303        0.0480588        -133.274
                               0               0                0               0         0.217964         54.7084        0.0344763         36.8436
                               0               0                0               0        0.0341962         37.1711         0.218036         54.6774
76.125                         0               0                0               0        0.0505984        -134.864         0.971933        -36.9001
                               0               0                0               0          0.97336        -36.9392        0.0505094        -135.016
                               0               0                0               0         0.219698         52.6887        0.0350831         34.0561
                               0               0                0               0        0.0347783         34.3911         0.219773         52.6503
76.17                          0               0                0               0         0.053132        -136.631          0.97138        -38.9183
                               0               0                0               0         0.972891        -38.9591        0.0530451         -136.78
                               0               0                0               0         0.221174         50.6489        0.0356276         31.2354
                               0               0                0               0        0.0353155         31.5583         0.221247         50.6059
76.215                         0               0                0               0        0.0557365        -138.426         0.971042        -40.9468
                               0               0                0               0         0.972502        -40.9864        0.0556584        -138.563
                               0               0                0               0         0.222373          48.591        0.0361043         28.3883
                               0               0                0               0         0.035805         28.6755         0.222438         48.5471
76.26                          0               0                0               0        0.0584032        -140.248         0.970931        -42.9824
                               0               0                0               0          0.97219        -43.0181        0.0583412        -140.362
                               0               0                0               0         0.223277         46.5171        0.0365083         25.5207
                               0               0                0               0         0.036244         25.7462          0.22333         46.4772
76.305                         0               0                0               0        0.0611227        -142.095         0.971042        -45.0219
                               0               0                0               0         0.971945        -45.0509        0.0610835        -142.174
                               0               0                0               0         0.223869         44.4295        0.0368352         22.6372
                               0               0                0               0        0.0366298         22.7754         0.223908         44.3996
76.35                          0               0                0               0        0.0638847        -143.962         0.971344        -47.0618
                               0               0                0               0          0.97175         -47.082        0.0638729        -143.993
                               0               0                0               0         0.224136         42.3309        0.0370811         19.7418
                               0               0                0               0        0.0369593         19.7706         0.224159          42.318
76.395                         0               0                0               0        0.0666763        -145.845         0.971784        -49.0984
                               0               0                0               0         0.971578        -49.1086        0.0666928        -145.814
                               0               0                0               0         0.224066         40.2239        0.0372425         16.8378
                               0               0                0               0        0.0372283         16.7416         0.224075         40.2364
76.44                          0               0                0               0         0.069482        -147.738         0.972286        -51.1284
                               0               0                0               0         0.971395        -51.1285        0.0695217        -147.633
