! TOUCHSTONE file generated by CST MICROWAVE STUDIO
! Date and time: Sun Jun 20 22:37:43 2021
! Project name: HIPS_d_sweep.cst
! Parameters = {fmax=120; fmin=75; b=0.46; d=22.5; a=0.63; phi=0; theta=0}
! Header version: 2018
! Port assignment regex: !\s*Touchstone port\s*([0-9]+)\s*=\s*(CST MWS port|CST DS port)\s*([0-9]+|Zmin|Zmax)\s*\(\"(.*)\"\)(\s*mode\s*([0-9]+))?.*
! Touchstone port assignment:
! Touchstone port 1 = CST MWS port Zmin ("") mode 1
! Touchstone port 2 = CST MWS port Zmin ("") mode 2
! Touchstone port 3 = CST MWS port Zmax ("") mode 1
! Touchstone port 4 = CST MWS port Zmax ("") mode 2
! S-Parameters are not renormalized. Unphysical impedance of 0 will be written to the file.
# GHz S MA R 0
75                             0               0                0               0        0.0159292        -144.775         0.981898         99.0016
                               0               0                0               0         0.981789          99.005        0.0157618         -144.63
                               0               0                0               0         0.184755         9.26866        0.0370243         13.6115
                               0               0                0               0        0.0370142         13.5987         0.184757         9.25399
75.045                         0               0                0               0        0.0183569        -152.511          0.98324         98.1301
                               0               0                0               0         0.983185         98.1288        0.0174826        -152.703
                               0               0                0               0         0.183078         8.42266        0.0375273         13.1909
                               0               0                0               0         0.037456         13.2886          0.18315         8.40524
75.09                          0               0                0               0        0.0211725        -157.917         0.984246          97.246
                               0               0                0               0         0.984233         97.2416        0.0198687        -158.948
                               0               0                0               0         0.181233         7.56823         0.037982         12.8738
                               0               0                0               0        0.0378561         13.0293         0.181346          7.5507
75.135                         0               0                0               0        0.0242003        -161.435          0.98485         96.3439
                               0               0                0               0         0.984864         96.3385        0.0228122         -163.09
                               0               0                0               0         0.179204          6.7027        0.0383567         12.6529
                               0               0                0               0         0.038196         12.8132         0.179328         6.68649
75.18                          0               0                0               0        0.0272707          -163.5         0.984996         95.4175
                               0               0                0               0         0.985016         95.4129        0.0261205        -165.207
                               0               0                0               0         0.176973         5.82253         0.038618         12.5052
                               0               0                0               0        0.0384565         12.6255         0.177079         5.80777
75.225                         0               0                0               0        0.0302208        -164.482         0.984639         94.4591
                               0               0                0               0         0.984641          94.457        0.0295299        -165.595
                               0               0                0               0         0.174523         4.92329         0.038736         12.3909
                               0               0                0               0        0.0386191         12.4439         0.174587         4.90874
75.27                          0               0                0               0        0.0329005        -164.693         0.983756           93.46
                               0               0                0               0          0.98371          93.462        0.0327367        -164.664
                               0               0                0               0         0.171839         3.99959         0.038691          12.255
                               0               0                0               0        0.0386688         12.2385          0.17184         3.98279
75.315                         0               0                0               0        0.0351835        -164.391          0.98235         92.4106
                               0               0                0               0         0.982224         92.4177        0.0354544        -162.874
                               0               0                0               0         0.168909         3.04519        0.0384784         12.0352
                               0               0                0               0        0.0385959          11.974         0.168831         3.02268
75.36                          0               0                0               0        0.0369782        -163.795         0.980463         91.3011
                               0               0                0               0         0.980221         91.3138        0.0374792         -160.67
                               0               0                0               0         0.165723         2.05314          0.03811         11.6712
                               0               0                0               0        0.0383984         11.6121         0.165559         2.02078
75.405                         0               0                0               0        0.0382349        -163.086         0.978171         90.1215
                               0               0                0               0         0.977782         90.1397        0.0387302        -158.431
                               0               0                0               0         0.162276         1.01594        0.0376113         11.1141
                               0               0                0               0        0.0380813         11.1154         0.162024        0.969442
75.45                          0               0                0               0         0.038945        -162.404         0.975595         88.8633
                               0               0                0               0          0.97503         88.8862        0.0392416        -156.436
                               0               0                0               0         0.158567       -0.074078        0.0370143         10.3325
                               0               0                0               0        0.0376564         10.4513         0.158231       -0.138742
75.495                         0               0                0               0        0.0391336        -161.856         0.972885         87.5196
                               0               0                0               0         0.972128         87.5457        0.0391203        -154.852
                               0               0                0               0         0.154598        -1.22451        0.0363514         9.31338
                               0               0                0               0        0.0371397         9.59445         0.154188        -1.31059
75.54                          0               0                0               0        0.0388485        -161.513         0.970219         86.0861
                               0               0                0               0         0.969263         86.1136         0.038498        -153.759
                               0               0                0               0         0.150374        -2.44247        0.0356497         8.05965
                               0               0                0               0        0.0365487          8.5284         0.149904        -2.55207
75.585                         0               0                0               0        0.0381485         -161.42         0.967781         84.5617
                               0               0                0               0         0.966636         84.5887        0.0374973        -153.173
                               0               0                0               0         0.145905        -3.73432        0.0349281         6.58465
                               0               0                0               0        0.0358995         7.24558         0.145391        -3.86817
75.63                          0               0                0               0         0.037094        -161.598         0.965749         82.9488
                               0               0                0               0         0.964435         82.9733         0.036216        -153.073
                               0               0                0               0         0.141198        -5.10539        0.0341977         4.90725
                               0               0                0               0        0.0352055         5.74601         0.140658        -5.26272
75.675                         0               0                0               0         0.035741        -162.054         0.964273         81.2527
                               0               0                0               0         0.962825         81.2732        0.0347246        -153.422
                               0               0                0               0         0.136265        -6.55982        0.0334623         3.04774
                               0               0                0               0        0.0344756         4.03553         0.135716        -6.73844
75.72                          0               0                0               0        0.0341375        -162.781         0.963466         79.4812
                               0               0                0               0         0.961924         79.4967          0.03307        -154.175
                               0               0                0               0         0.131115        -8.10047        0.0327202         1.02515
                               0               0                0               0        0.0337143         2.12378         0.130573        -8.29698
75.765                         0               0                0               0        0.0323228        -163.766         0.963394         77.6439
                               0               0                0               0         0.961802         77.6539        0.0312805        -155.288
                               0               0                0               0         0.125756        -9.72895        0.0319659        -1.14405
                               0               0                0               0         0.032922       0.0225011         0.125234        -9.93898
75.81                          0               0                0               0        0.0303279        -164.991         0.964073         75.7511
                               0               0                0               0         0.962475         75.7558        0.0293717         -156.72
                               0               0                0               0         0.120196        -11.4457        0.0311912        -3.44633
                               0               0                0               0        0.0320955        -2.25566         0.119704        -11.6643
75.855                         0               0                0               0        0.0281761        -166.432         0.965476         73.8128
                               0               0                0               0         0.963911          73.813        0.0273499        -158.428
                               0               0                0               0         0.114439          -13.25        0.0303866        -5.87094
                               0               0                0               0         0.031229        -4.69795         0.113986        -13.4719
75.9                           0               0                0               0        0.0258852        -168.061         0.967536         71.8384
                               0               0                0               0         0.966037         71.8351        0.0252161        -160.376
                               0               0                0               0         0.108489        -15.1403        0.0295421        -8.40926
                               0               0                0               0        0.0303147        -7.29174         0.108081        -15.3605
75.945                         0               0                0               0         0.023468        -169.844         0.970158         69.8362
                               0               0                0               0         0.968751         69.8305        0.0229681        -162.519
                               0               0                0               0          0.10235        -17.1144        0.0286474        -11.0541
                               0               0                0               0        0.0293439        -10.0244         0.101988        -17.3281
75.99                          0               0                0               0        0.0209348        -171.737         0.973226          67.813
                               0               0                0               0         0.971931          67.806        0.0206028        -164.808
                               0               0                0               0        0.0960221        -19.1693        0.0276924         -13.799
                               0               0                0               0        0.0283078        -12.8831        0.0957096        -19.3723
76.035                         0               0                0               0        0.0182938        -173.674         0.976616         65.7741
                               0               0                0               0         0.975445         65.7669        0.0181172        -167.176
                               0               0                0               0        0.0895091        -21.3017         0.026668        -16.6373
                               0               0                0               0        0.0271977        -15.8541         0.089245        -21.4905
76.08                          0               0                0               0         0.015553        -175.551         0.980197          63.724
                               0               0                0               0         0.979156         63.7175        0.0155104        -169.515
                               0               0                0               0        0.0828135        -23.5078        0.0255658        -19.5612
                               0               0                0               0        0.0260064         -18.922        0.0825966          -23.68
76.125                         0               0                0               0        0.0127214        -177.174         0.983841         61.6659
                               0               0                0               0         0.982933         61.6608        0.0127854        -171.636
                               0               0                0               0        0.0759402        -25.7838        0.0243789        -22.5611
                               0               0                0               0        0.0247285        -22.0695        0.0757681        -25.9377
76.17                          0               0                0               0       0.00981199        -178.128         0.987429         59.6025
                               0               0                0               0         0.986651          59.599       0.00995131        -173.134
                               0               0                0               0        0.0688961        -28.1255        0.0231023        -25.6245
                               0               0                0               0        0.0233604         -25.276        0.0687656        -28.2608
76.215                         0               0                0               0       0.00684944        -177.273         0.990846         57.5358
                               0               0                0               0         0.990194         57.5343       0.00703106        -172.931
                               0               0                0               0        0.0616908        -30.5292        0.0217328         -28.735
                               0               0                0               0        0.0219017        -28.5173        0.0615983        -30.6464
76.26                          0               0                0               0       0.00391096        -170.043         0.993993         55.4676
                               0               0                0               0          0.99346          55.468       0.00409869        -166.839
                               0               0                0               0        0.0543371        -32.9915        0.0202699        -31.8707
                               0               0                0               0        0.0203547        -31.7638        0.0542782        -33.0925
76.305                         0               0                0               0       0.00165473         -122.41         0.996779         53.3997
                               0               0                0               0         0.996356         53.4019        0.0017342        -124.476
                               0               0                0               0        0.0468511        -35.5104        0.0187156        -35.0021
                               0               0                0               0        0.0187247        -34.9794         0.046821        -35.5986
76.35                          0               0                0               0       0.00320309        -51.4055         0.999129         51.3336
                               0               0                0               0         0.998806         51.3373       0.00309213        -50.2182
                               0               0                0               0        0.0392522        -38.0874        0.0170753        -38.0894
                               0               0                0               0        0.0170203        -38.1186        0.0392458         -38.168
76.395                         0               0                0               0       0.00620402        -40.1419                1         49.2712
                               0               0                0               0                1          49.276       0.00611712        -38.1413
                               0               0                0               0        0.0315632        -40.7311         0.015357        -41.0772
                               0               0                0               0        0.0152525        -41.1215        0.0315752        -40.8125
76.44                          0               0                0               0       0.00935919        -38.8936                1         47.2142
                               0               0                0               0                1         47.2198        0.0093208        -37.0861
