! TOUCHSTONE file generated by CST MICROWAVE STUDIO
! Date and time: Sun Jun 20 22:37:21 2021
! Project name: HIPS_d_sweep.cst
! Parameters = {fmax=120; fmin=75; b=0.46; d=20.4; a=0.63; phi=0; theta=0}
! Header version: 2018
! Port assignment regex: !\s*Touchstone port\s*([0-9]+)\s*=\s*(CST MWS port|CST DS port)\s*([0-9]+|Zmin|Zmax)\s*\(\"(.*)\"\)(\s*mode\s*([0-9]+))?.*
! Touchstone port assignment:
! Touchstone port 1 = CST MWS port Zmin ("") mode 1
! Touchstone port 2 = CST MWS port Zmin ("") mode 2
! Touchstone port 3 = CST MWS port Zmax ("") mode 1
! Touchstone port 4 = CST MWS port Zmax ("") mode 2
! S-Parameters are not renormalized. Unphysical impedance of 0 will be written to the file.
# GHz S MA R 0
75                             0               0                0               0         0.147383         67.0778         0.968185        -24.0417
                               0               0                0               0         0.968253        -24.0462         0.147394         67.1022
                               0               0                0               0         0.199588         66.5735        0.0332384         131.296
                               0               0                0               0        0.0332325         131.285         0.199611         66.5743
75.045                         0               0                0               0         0.150749         66.3977          0.96753        -24.7174
                               0               0                0               0         0.967648        -24.7246          0.15073         66.4235
                               0               0                0               0         0.199866          65.905        0.0340191         130.958
                               0               0                0               0        0.0340466          130.93         0.199902         65.9173
75.09                          0               0                0               0         0.153802         65.6651         0.966912         -25.456
                               0               0                0               0         0.967049        -25.4642         0.153771          65.691
                               0               0                0               0         0.200278         65.1878        0.0348003         130.296
                               0               0                0               0        0.0348387         130.263         0.200322          65.204
75.135                         0               0                0               0         0.156525          64.879         0.966332        -26.2585
                               0               0                0               0         0.966466        -26.2664         0.156495         64.9043
                               0               0                0               0         0.200819         64.4174        0.0355804         129.343
                               0               0                0               0        0.0356154         129.311         0.200866         64.4324
75.18                          0               0                0               0          0.15891         64.0387         0.965788        -27.1256
                               0               0                0               0         0.965908        -27.1323         0.158888         64.0631
                               0               0                0               0         0.201479         63.5903        0.0363588         128.125
                               0               0                0               0        0.0363822         128.097         0.201523         63.6012
75.225                         0               0                0               0         0.160949         63.1441         0.965281        -28.0574
                               0               0                0               0         0.965381        -28.0623          0.16094         63.1674
                               0               0                0               0         0.202245         62.7035        0.0371351          126.67
                               0               0                0               0        0.0371436         126.644         0.202283         62.7094
75.27                          0               0                0               0         0.162643         62.1952          0.96481        -29.0535
                               0               0                0               0         0.964891        -29.0566         0.162647         62.2176
                               0               0                0               0         0.203103         61.7553        0.0379093         124.999
                               0               0                0               0         0.037903         124.974         0.203133         61.7565
75.315                         0               0                0               0         0.163996         61.1927         0.964374        -30.1132
                               0               0                0               0          0.96444        -30.1147          0.16401         61.2145
                               0               0                0               0         0.204035          60.745        0.0386814         123.132
                               0               0                0               0        0.0386629         123.107         0.204057         60.7427
75.36                          0               0                0               0         0.165016         60.1377         0.963972        -31.2353
                               0               0                0               0         0.964031        -31.2355         0.165035         60.1591
                               0               0                0               0         0.205024         59.6727        0.0394514         121.089
                               0               0                0               0        0.0394248         121.063          0.20504         59.6686
75.405                         0               0                0               0         0.165713         59.0316         0.963604        -32.4181
                               0               0                0               0         0.963664        -32.4176         0.165733         59.0529
                               0               0                0               0          0.20605         58.5398        0.0402193         118.887
                               0               0                0               0        0.0401894         118.857         0.206065         58.5354
75.45                          0               0                0               0         0.166101         57.8762         0.963269        -33.6596
                               0               0                0               0         0.963339        -33.6592         0.166116         57.8976
                               0               0                0               0         0.207096          57.348        0.0409849          116.54
                               0               0                0               0        0.0409565         116.507         0.207115         57.3449
75.495                         0               0                0               0         0.166199         56.6735         0.962969        -34.9575
                               0               0                0               0         0.963055        -34.9577         0.166203          56.695
                               0               0                0               0         0.208144         56.0997        0.0417478         114.064
                               0               0                0               0        0.0417253         114.029         0.208171         56.0988
75.54                          0               0                0               0         0.166023         55.4258         0.962703        -36.3091
                               0               0                0               0         0.962812        -36.3106         0.166013         55.4474
                               0               0                0               0         0.209177         54.7978        0.0425075         111.471
                               0               0                0               0        0.0424944         111.435         0.209216         54.7997
75.585                         0               0                0               0         0.165593         54.1355         0.962475        -37.7115
                               0               0                0               0         0.962609        -37.7148         0.165565         54.1572
                               0               0                0               0         0.210178         53.4454        0.0432632         108.776
                               0               0                0               0        0.0432621         108.739         0.210233         53.4502
75.63                          0               0                0               0         0.164929         52.8051         0.962286        -39.1615
                               0               0                0               0         0.962446         -39.167         0.164882         52.8267
                               0               0                0               0         0.211133         52.0455        0.0440138         105.991
                               0               0                0               0         0.044026         105.955         0.211205          52.053
75.675                         0               0                0               0         0.164052         51.4372         0.962139         -40.656
                               0               0                0               0         0.962325        -40.6636         0.163985         51.4585
                               0               0                0               0         0.212026         50.6014        0.0447581         103.126
                               0               0                0               0        0.0447835         103.092         0.212116          50.611
75.72                          0               0                0               0         0.162982         50.0341         0.962039        -42.1914
                               0               0                0               0         0.962248        -42.2013         0.162896         50.0549
                               0               0                0               0         0.212845         49.1161        0.0454946         100.194
                               0               0                0               0        0.0455321         100.164         0.212951         49.1273
75.765                         0               0                0               0         0.161738         48.5984          0.96199        -43.7646
                               0               0                0               0         0.962216        -43.7763         0.161637         48.6185
                               0               0                0               0         0.213576         47.5928        0.0462215         97.2045
                               0               0                0               0        0.0462689         97.1786         0.213695         47.6047
75.81                          0               0                0               0         0.160338         47.1324         0.961996        -45.3721
                               0               0                0               0         0.962233        -45.3851         0.160226         47.1517
                               0               0                0               0         0.214207         46.0343         0.046937         94.1688
                               0               0                0               0         0.046991         94.1473         0.214335         46.0462
75.855                         0               0                0               0         0.158802         45.6382         0.962061        -47.0105
                               0               0                0               0         0.962304        -47.0242         0.158683         45.6565
                               0               0                0               0         0.214724         44.4433        0.0476388         91.0967
                               0               0                0               0        0.0476958         91.0791         0.214857         44.4547
75.9                           0               0                0               0         0.157146         44.1179          0.96219        -48.6767
                               0               0                0               0         0.962432        -48.6903         0.157026         44.1353
                               0               0                0               0         0.215117         42.8225        0.0483247         87.9976
                               0               0                0               0        0.0483805         87.9831         0.215248          42.833
75.945                         0               0                0               0         0.155386         42.5734         0.962387        -50.3675
                               0               0                0               0         0.962621        -50.3802         0.155269         42.5899
                               0               0                0               0         0.215373         41.1745         0.048992         84.8808
                               0               0                0               0        0.0490426         84.8678         0.215499         41.1838
75.99                          0               0                0               0         0.153536         41.0062         0.962653          -52.08
                               0               0                0               0         0.962875         -52.091         0.153428         41.0222
                               0               0                0               0         0.215481         39.5017        0.0496381         81.7549
                               0               0                0               0        0.0496795         81.7414         0.215597         39.5098
76.035                         0               0                0               0          0.15161         39.4181         0.962989        -53.8113
                               0               0                0               0         0.963195        -53.8199         0.151516         39.4338
                               0               0                0               0          0.21543         37.8066        0.0502599         78.6282
                               0               0                0               0        0.0502891         78.6118         0.215533         37.8136
76.08                          0               0                0               0         0.149622         37.8103         0.963396        -55.5588
                               0               0                0               0         0.963583        -55.5643         0.149544         37.8264
                               0               0                0               0          0.21521         36.0916        0.0508545         75.5084
                               0               0                0               0        0.0508689         75.4866         0.215298         36.0977
76.125                         0               0                0               0         0.147583         36.1842         0.963872        -57.3198
                               0               0                0               0         0.964038        -57.3219         0.147522         36.2014
                               0               0                0               0         0.214809         34.3591        0.0514184         72.4026
                               0               0                0               0        0.0514168         72.3729         0.214881         34.3647
76.17                          0               0                0               0         0.145504         34.5413          0.96441         -59.092
                               0               0                0               0         0.964555        -59.0906         0.145462         34.5602
                               0               0                0               0         0.214219         32.6117        0.0519484         69.3175
                               0               0                0               0        0.0519303         69.2774         0.214276         32.6171
76.215                         0               0                0               0         0.143396          32.883         0.965004        -60.8731
                               0               0                0               0         0.965129        -60.8682         0.143371         32.9045
                               0               0                0               0         0.213431          30.852        0.0524409         66.2591
                               0               0                0               0        0.0524072         66.2066         0.213475         30.8575
76.26                          0               0                0               0          0.14127          31.211         0.965643        -62.6609
                               0               0                0               0          0.96575        -62.6527         0.141257         31.2357
                               0               0                0               0         0.212437         29.0828        0.0528924         63.2327
                               0               0                0               0        0.0528446         63.1663         0.212471         29.0886
76.305                         0               0                0               0         0.139135         29.5275         0.966312        -64.4531
                               0               0                0               0         0.966405        -64.4422          0.13913          29.556
                               0               0                0               0         0.211229         27.3068         0.053299         60.2431
                               0               0                0               0        0.0532398          60.162         0.211258         27.3131
76.35                          0               0                0               0         0.137001          27.835         0.966995        -66.2477
                               0               0                0               0         0.967077        -66.2349         0.136998         27.8675
                               0               0                0               0         0.209802         25.5271        0.0536571         57.2945
                               0               0                0               0        0.0535895         57.1986         0.209831         25.5339
76.395                         0               0                0               0         0.134878         26.1371         0.967668        -68.0424
                               0               0                0               0         0.967745        -68.0286         0.134868         26.1733
                               0               0                0               0         0.208151         23.7469        0.0539629         54.3905
                               0               0                0               0        0.0538904         54.2804         0.208186          23.754
76.44                          0               0                0               0         0.132773         24.4381         0.968305        -69.8353
                               0               0                0               0         0.968383        -69.8214         0.132749         24.4774
