! TOUCHSTONE file generated by CST MICROWAVE STUDIO
! Date and time: Sun Jun 20 22:37:56 2021
! Project name: HIPS_d_sweep.cst
! Parameters = {fmax=120; fmin=75; b=0.46; d=23.75; a=0.63; phi=0; theta=0}
! Header version: 2018
! Port assignment regex: !\s*Touchstone port\s*([0-9]+)\s*=\s*(CST MWS port|CST DS port)\s*([0-9]+|Zmin|Zmax)\s*\(\"(.*)\"\)(\s*mode\s*([0-9]+))?.*
! Touchstone port assignment:
! Touchstone port 1 = CST MWS port Zmin ("") mode 1
! Touchstone port 2 = CST MWS port Zmin ("") mode 2
! Touchstone port 3 = CST MWS port Zmax ("") mode 1
! Touchstone port 4 = CST MWS port Zmax ("") mode 2
! S-Parameters are not renormalized. Unphysical impedance of 0 will be written to the file.
# GHz S MA R 0
75                             0               0                0               0        0.0739527        -139.709         0.970867        -43.5604
                               0               0                0               0         0.971021        -43.5513        0.0740742        -139.731
                               0               0                0               0         0.224287          45.738        0.0384253         20.6817
                               0               0                0               0        0.0384909         20.6169         0.224344         45.7566
75.045                         0               0                0               0        0.0699638        -140.836         0.971311        -44.3228
                               0               0                0               0         0.971485        -44.3135        0.0699977        -140.944
                               0               0                0               0         0.224175         45.0185        0.0378913         21.1825
                               0               0                0               0        0.0379589         21.1263         0.224242         45.0395
75.09                          0               0                0               0        0.0663025        -142.004         0.971635        -45.1619
                               0               0                0               0         0.971814        -45.1525        0.0663325        -142.123
                               0               0                0               0         0.224014         44.2167        0.0374257         21.4846
                               0               0                0               0          0.03749         21.4245         0.224082         44.2381
75.135                         0               0                0               0        0.0629991        -143.218         0.971873        -46.0776
                               0               0                0               0         0.972045        -46.0681          0.06307          -143.3
                               0               0                0               0         0.223808         43.3333        0.0370241         21.5944
                               0               0                0               0        0.0370819         21.5236         0.223871         43.3537
75.18                          0               0                0               0        0.0600754        -144.485         0.972055        -47.0694
                               0               0                0               0         0.972215        -47.0598        0.0602028        -144.503
                               0               0                0               0         0.223558         42.3694        0.0366814         21.5166
                               0               0                0               0         0.036731         21.4328         0.223613         42.3879
75.225                         0               0                0               0        0.0575445        -145.806         0.972208        -48.1365
                               0               0                0               0         0.972354        -48.1269         0.057724        -145.752
                               0               0                0               0         0.223261         41.3262        0.0363918         21.2545
                               0               0                0               0        0.0364326         21.1587         0.223307         41.3426
75.27                          0               0                0               0        0.0554121        -147.177         0.972355        -49.2778
                               0               0                0               0         0.972489        -49.2681        0.0556278        -147.064
                               0               0                0               0         0.222908         40.2051        0.0361484         20.8105
                               0               0                0               0        0.0361807         20.7061         0.222947         40.2197
75.315                         0               0                0               0        0.0536769        -148.594         0.972513        -50.4918
                               0               0                0               0          0.97264        -50.4821        0.0539079        -148.445
                               0               0                0               0         0.222491         39.0078        0.0359442         20.1862
                               0               0                0               0         0.035969         20.0776         0.222525         39.0212
75.36                          0               0                0               0        0.0523319        -150.048         0.972699        -51.7767
                               0               0                0               0         0.972824         -51.767        0.0525575        -149.894
                               0               0                0               0         0.221996         37.7361        0.0357714         19.3824
                               0               0                0               0        0.0357901         19.2749         0.222029         37.7492
75.405                         0               0                0               0        0.0513655        -151.528         0.972921        -53.1306
                               0               0                0               0          0.97305        -53.1208        0.0515686        -151.403
                               0               0                0               0         0.221407         36.3917        0.0356215         18.3998
                               0               0                0               0        0.0356361         18.2984         0.221442         36.4056
75.45                          0               0                0               0        0.0507622        -153.024         0.973186        -54.5514
                               0               0                0               0         0.973326        -54.5413        0.0509312        -152.959
                               0               0                0               0         0.220708         34.9767        0.0354858         17.2391
                               0               0                0               0        0.0354984         17.1484         0.220749         34.9924
75.495                         0               0                0               0        0.0505043        -154.525         0.973497        -56.0364
                               0               0                0               0         0.973653        -56.0261        0.0506332        -154.545
                               0               0                0               0         0.219878         33.4933        0.0353547         15.9011
                               0               0                0               0        0.0353675         15.8247          0.21993         33.5119
75.54                          0               0                0               0        0.0505724        -156.025         0.973853        -57.5833
                               0               0                0               0         0.974029        -57.5727        0.0506606        -156.143
                               0               0                0               0         0.218897         31.9441        0.0352188         14.3873
                               0               0                0               0        0.0352337         14.3275         0.218963         31.9662
75.585                         0               0                0               0        0.0509464        -157.516          0.97425        -59.1892
                               0               0                0               0         0.974449        -59.1782        0.0509973        -157.736
                               0               0                0               0         0.217744         30.3317         0.035068         12.6995
                               0               0                0               0        0.0350868         12.6577         0.217828         30.3578
75.63                          0               0                0               0        0.0516063        -158.998         0.974683        -60.8513
                               0               0                0               0         0.974905          -60.84        0.0516262        -159.311
                               0               0                0               0         0.216398         28.6592        0.0348924         10.8406
                               0               0                0               0        0.0349163         10.8169         0.216502         28.6893
75.675                         0               0                0               0        0.0525325        -160.469         0.975144        -62.5666
                               0               0                0               0         0.975387        -62.5549        0.0525292        -160.861
                               0               0                0               0         0.214839           26.93        0.0346823         8.81444
                               0               0                0               0         0.034712         8.80779         0.214963          26.964
75.72                          0               0                0               0        0.0537062        -161.932         0.975624        -64.3319
                               0               0                0               0         0.975885        -64.3199         0.053688         -162.38
                               0               0                0               0         0.213048         25.1477        0.0344284         6.62545
                               0               0                0               0         0.034464         6.63409         0.213192         25.1849
75.765                         0               0                0               0        0.0551099        -163.392         0.976115        -66.1442
                               0               0                0               0         0.976387         -66.132        0.0550848        -163.871
                               0               0                0               0         0.211007         23.3166        0.0341221         4.27904
                               0               0                0               0         0.034163         4.30068         0.211169          23.356
75.81                          0               0                0               0        0.0567274        -164.853         0.976607        -68.0003
                               0               0                0               0         0.976883        -67.9879        0.0567024        -165.338
                               0               0                0               0         0.208702         21.4407        0.0337561         1.78112
                               0               0                0               0        0.0338011         1.81324         0.208879         21.4811
75.855                         0               0                0               0        0.0585434        -166.322         0.977095        -69.8968
                               0               0                0               0         0.977366        -69.8845        0.0585246        -166.789
                               0               0                0               0         0.206122         19.5245        0.0333238       -0.862117
                               0               0                0               0        0.0333714       -0.821985         0.206308         19.5646
75.9                           0               0                0               0        0.0605442        -167.806         0.977573        -71.8305
                               0               0                0               0         0.977829        -71.8183        0.0605361        -168.234
                               0               0                0               0         0.203259         17.5726        0.0328206        -3.64462
                               0               0                0               0        0.0328688        -3.59865         0.203446         17.6111
75.945                         0               0                0               0         0.062717        -169.309         0.978039        -73.7982
                               0               0                0               0         0.978269        -73.7863         0.062723        -169.684
                               0               0                0               0         0.200107         15.5893        0.0322429        -6.56088
                               0               0                0               0        0.0322901        -6.51083         0.200288         15.6249
75.99                          0               0                0               0          0.06505        -170.839         0.978493        -75.7965
                               0               0                0               0          0.97869         -75.785        0.0650719         -171.15
                               0               0                0               0         0.196667          13.579        0.0315891         -9.6065
                               0               0                0               0        0.0316335         -9.5536         0.196833         13.6107
76.035                         0               0                0               0        0.0675321        -172.399         0.978943        -77.8221
                               0               0                0               0         0.979097        -77.8112        0.0675705        -172.643
                               0               0                0               0         0.192939         11.5454        0.0308587        -12.7786
                               0               0                0               0        0.0308991        -12.7236         0.193083         11.5727
76.08                          0               0                0               0        0.0701527        -173.993         0.979395        -79.8717
                               0               0                0               0         0.979502        -79.8614        0.0702068        -174.171
                               0               0                0               0          0.18893         9.49192        0.0300527        -16.0765
                               0               0                0               0        0.0300884        -16.0196         0.189046         9.51457
76.125                         0               0                0               0        0.0729012        -175.623         0.979862        -81.9421
                               0               0                0               0         0.979921        -81.9324        0.0729689        -175.744
                               0               0                0               0         0.184647         7.42144        0.0291732        -19.5019
                               0               0                0               0        0.0292041        -19.4431         0.184733         7.43976
76.17                          0               0                0               0        0.0757668        -177.292         0.980359        -84.0298
                               0               0                0               0         0.980374        -84.0207         0.075845        -177.366
                               0               0                0               0         0.180099         5.33624        0.0282233        -23.0598
                               0               0                0               0        0.0282499        -22.9986         0.180155         5.35089
76.215                         0               0                0               0         0.078738            -179         0.980903        -86.1314
                               0               0                0               0         0.980879        -86.1228        0.0788224        -179.042
                               0               0                0               0         0.175297         3.23813        0.0272068        -26.7583
                               0               0                0               0        0.0272299         -26.694         0.175327         3.25009
76.26                          0               0                0               0        0.0818018         179.254         0.981508        -88.2435
                               0               0                0               0         0.981457        -88.2351        0.0818875         179.228
                               0               0                0               0         0.170251         1.12864        0.0261281        -30.6098
                               0               0                0               0         0.026149        -30.5414         0.170266         1.13905
76.305                         0               0                0               0        0.0849431         177.473         0.982182        -90.3625
                               0               0                0               0          0.98212        -90.3541        0.0850249         177.445
                               0               0                0               0         0.164974       -0.990633        0.0249922        -34.6307
                               0               0                0               0        0.0250122         -34.557         0.164985       -0.980625
76.35                          0               0                0               0        0.0881437          175.66         0.982926         -92.485
                               0               0                0               0         0.982869        -92.4762        0.0882165         175.615
                               0               0                0               0         0.159475        -3.11759        0.0238045        -38.8427
                               0               0                0               0        0.0238249        -38.7617         0.159497        -3.10691
76.395                         0               0                0               0        0.0913818         173.818         0.983727        -94.6076
                               0               0                0               0          0.98369        -94.5979        0.0914409         173.747
                               0               0                0               0         0.153766        -5.24895        0.0225712        -43.2731
                               0               0                0               0        0.0225925        -43.1825         0.153813        -5.23671
76.44                          0               0                0               0        0.0946309         171.954         0.984552         -96.727
                               0               0                0               0         0.984545        -96.7161         0.094673         171.854
