! TOUCHSTONE file generated by CST MICROWAVE STUDIO
! Date and time: Sun Jun 20 22:37:33 2021
! Project name: HIPS_d_sweep.cst
! Parameters = {fmax=120; fmin=75; b=0.46; d=21.65; a=0.63; phi=0; theta=0}
! Header version: 2018
! Port assignment regex: !\s*Touchstone port\s*([0-9]+)\s*=\s*(CST MWS port|CST DS port)\s*([0-9]+|Zmin|Zmax)\s*\(\"(.*)\"\)(\s*mode\s*([0-9]+))?.*
! Touchstone port assignment:
! Touchstone port 1 = CST MWS port Zmin ("") mode 1
! Touchstone port 2 = CST MWS port Zmin ("") mode 2
! Touchstone port 3 = CST MWS port Zmax ("") mode 1
! Touchstone port 4 = CST MWS port Zmax ("") mode 2
! S-Parameters are not renormalized. Unphysical impedance of 0 will be written to the file.
# GHz S MA R 0
75                             0               0                0               0        0.0681094        -76.5185         0.992036        -165.887
                               0               0                0               0         0.991794        -165.889        0.0681428        -76.5237
                               0               0                0               0         0.107724         103.836       0.00990075        -123.852
                               0               0                0               0       0.00992882         -123.89         0.107684          103.85
75.045                         0               0                0               0        0.0718667        -77.2421         0.991597        -166.609
                               0               0                0               0         0.991349         -166.61        0.0718979         -77.249
                               0               0                0               0         0.109538         103.102        0.0104927        -125.461
                               0               0                0               0        0.0105174        -125.547         0.109501         103.116
75.09                          0               0                0               0        0.0752194        -78.0287         0.991084        -167.401
                               0               0                0               0         0.990838        -167.403        0.0752588        -78.0348
                               0               0                0               0         0.111605         102.292        0.0109605        -127.694
                               0               0                0               0        0.0109869        -127.731         0.111565         102.306
75.135                         0               0                0               0        0.0781577        -78.8808         0.990536        -168.266
                               0               0                0               0         0.990296        -168.269        0.0782087        -78.8852
                               0               0                0               0         0.113923         101.413        0.0113286        -130.444
                               0               0                0               0        0.0113569        -130.412         0.113875         101.425
75.18                          0               0                0               0        0.0806774        -79.7991         0.989988        -169.203
                               0               0                0               0         0.989752        -169.208        0.0807382        -79.8021
                               0               0                0               0         0.116484         100.472        0.0116163        -133.654
                               0               0                0               0        0.0116447        -133.575         0.116431         100.483
75.225                         0               0                0               0        0.0827795        -80.7831         0.989465        -170.213
                               0               0                0               0         0.989229        -170.218        0.0828447        -80.7859
                               0               0                0               0         0.119282         99.4727        0.0118395          -137.3
                               0               0                0               0        0.0118668        -137.213         0.119226         99.4822
75.27                          0               0                0               0        0.0844695        -81.8313         0.988984        -171.295
                               0               0                0               0         0.988741        -171.299        0.0845322        -81.8353
                               0               0                0               0         0.122306         98.4176        0.0120125        -141.372
                               0               0                0               0        0.0120386        -141.323         0.122253         98.4272
75.315                         0               0                0               0        0.0857575        -82.9411         0.988553        -172.447
                               0               0                0               0         0.988298        -172.449        0.0858102        -82.9479
                               0               0                0               0         0.125542         97.3084        0.0121492        -145.872
                               0               0                0               0        0.0121755        -145.902           0.1255         97.3194
75.36                          0               0                0               0        0.0866568        -84.1091         0.988172        -173.668
                               0               0                0               0         0.987901        -173.666        0.0866929        -84.1204
                               0               0                0               0         0.128977         96.1453        0.0122636        -150.803
                               0               0                0               0        0.0122934        -150.945         0.128954         96.1594
75.405                         0               0                0               0        0.0871839        -85.3316         0.987833        -174.956
                               0               0                0               0         0.987545        -174.948        0.0871985        -85.3487
                               0               0                0               0         0.132595         94.9281        0.0123706        -156.167
                               0               0                0               0        0.0124085        -156.442         0.132598         94.9469
75.45                          0               0                0               0        0.0873577        -86.6042          0.98752        -176.309
                               0               0                0               0         0.987221        -176.294        0.0873479        -86.6279
                               0               0                0               0         0.136377         93.6558        0.0124862        -161.958
                               0               0                0               0        0.0125373        -162.369         0.136414         93.6807
75.495                         0               0                0               0         0.087199        -87.9223         0.987215        -177.722
                               0               0                0               0         0.986912        -177.699        0.0871643        -87.9531
                               0               0                0               0         0.140303         92.3275        0.0126277        -168.158
                               0               0                0               0        0.0126969         -168.69         0.140381         92.3593
75.54                          0               0                0               0        0.0867295        -89.2809         0.986893        -179.194
                               0               0                0               0         0.986602        -179.161         0.086672        -89.3188
                               0               0                0               0         0.144353         90.9422        0.0128127        -174.727
                               0               0                0               0        0.0129036         -175.35         0.144476         90.9813
75.585                         0               0                0               0        0.0859722        -90.6752         0.986533         179.281
                               0               0                0               0         0.986268         179.322        0.0858959        -90.7195
                               0               0                0               0         0.148503         89.4994        0.0130589         178.392
                               0               0                0               0        0.0131729         177.721         0.148671         89.5453
75.63                          0               0                0               0          0.08495        -92.0999         0.986114         177.707
                               0               0                0               0         0.985891         177.756         0.084861        -92.1497
                               0               0                0               0         0.152729         87.9988        0.0133824         171.281
                               0               0                0               0        0.0135177         170.609          0.15294         88.0505
75.675                         0               0                0               0        0.0836859          -93.55         0.985619         176.088
                               0               0                0               0         0.985449         176.142        0.0835917        -93.6037
                               0               0                0               0         0.157005         86.4413        0.0137964         164.036
                               0               0                0               0        0.0139481          163.41         0.157252         86.4968
75.72                          0               0                0               0        0.0822025        -95.0202         0.985039          174.43
                               0               0                0               0         0.984927         174.486        0.0821114         -95.076
                               0               0                0               0         0.161304          84.828          0.01431         156.762
                               0               0                0               0        0.0144702          156.22         0.161575          84.885
75.765                         0               0                0               0        0.0805218        -96.5056         0.984373         172.736
                               0               0                0               0          0.98431         172.791        0.0804423        -96.5613
                               0               0                0               0         0.165599         83.1613        0.0149272         149.564
                               0               0                0               0         0.015086          149.13         0.165878         83.2168
75.81                          0               0                0               0        0.0786647        -98.0009         0.983625         171.012
                               0               0                0               0         0.983593         171.061        0.0786051        -98.0542
                               0               0                0               0         0.169865         81.4444        0.0156467         142.532
                               0               0                0               0        0.0157932         142.216         0.170129         81.4954
75.855                         0               0                0               0        0.0766513        -99.5011         0.982811          169.26
                               0               0                0               0         0.982776           169.3        0.0766191        -99.5495
                               0               0                0               0         0.174075         79.6815         0.016462          135.74
                               0               0                0               0        0.0165861          135.54         0.174301         79.7247
75.9                           0               0                0               0        0.0745004        -101.001         0.981948         167.486
                               0               0                0               0         0.981869         167.512        0.0745016        -101.042
                               0               0                0               0         0.178206         77.8777        0.0173625         129.238
                               0               0                0               0        0.0174558         129.141         0.178366         77.9103
75.945                         0               0                0               0        0.0722298        -102.496          0.98106          165.69
                               0               0                0               0         0.980889           165.7        0.0722686        -102.527
                               0               0                0               0         0.182238         76.0389        0.0183347         123.056
                               0               0                0               0        0.0183915         123.045         0.182306         76.0584
75.99                          0               0                0               0        0.0698561        -103.979         0.980172         163.875
                               0               0                0               0         0.979864         163.868        0.0699345        -103.998
                               0               0                0               0         0.186151         74.1715        0.0193629         117.208
                               0               0                0               0        0.0193811         117.262         0.186108         74.1764
76.035                         0               0                0               0        0.0673948        -105.447         0.979306         162.043
                               0               0                0               0         0.978829         162.017         0.067512        -105.452
                               0               0                0               0         0.189932         72.2827        0.0204309         111.691
                               0               0                0               0         0.020412         111.791         0.189766         72.2723
76.08                          0               0                0               0        0.0648603        -106.894         0.978486         160.193
                               0               0                0               0         0.977825         160.151        0.0650129        -106.884
                               0               0                0               0          0.19357         70.3796        0.0215228         106.496
                               0               0                0               0        0.0214717         106.623         0.193281         70.3546
76.125                         0               0                0               0        0.0622664        -108.313         0.977731         158.327
                               0               0                0               0         0.976899         158.271        0.0624479        -108.288
                               0               0                0               0         0.197056         68.4692        0.0226234         101.605
                               0               0                0               0        0.0225479         101.746         0.196662         68.4319
76.17                          0               0                0               0         0.059626        -109.699         0.977057         156.444
                               0               0                0               0         0.976098         156.378        0.0598273         -109.66
                               0               0                0               0         0.200385         66.5579        0.0237192         96.9996
                               0               0                0               0        0.0236295           97.14          0.19992         66.5123
76.215                         0               0                0               0        0.0569519        -111.045          0.97648         154.545
                               0               0                0               0         0.975468         154.475        0.0571612        -110.996
                               0               0                0               0         0.203553         64.6514        0.0247984         92.6578
                               0               0                0               0        0.0247059         92.7875         0.203064         64.6031
76.26                          0               0                0               0        0.0542567        -112.345         0.976016         152.631
                               0               0                0               0         0.975049         152.562        0.0544603        -112.293
                               0               0                0               0         0.206556          62.754        0.0258512         88.5582
                               0               0                0               0        0.0257677         88.6678           0.2061         62.7095
76.305                         0               0                0               0        0.0515535        -113.592         0.975681         150.702
                               0               0                0               0         0.974868         150.643        0.0517367        -113.548
                               0               0                0               0         0.209388         60.8684        0.0268698         84.6792
                               0               0                0               0        0.0268065         84.7603         0.209023         60.8346
76.35                          0               0                0               0         0.048856        -114.777         0.975493         148.762
                               0               0                0               0         0.974935         148.721        0.0490047        -114.758
                               0               0                0               0         0.212041         58.9955        0.0278482         80.9997
                               0               0                0               0        0.0278145         81.0444         0.211817         58.9781
76.395                         0               0                0               0        0.0461794        -115.891         0.975464         146.815
                               0               0                0               0         0.975231         146.799        0.0462817        -115.921
                               0               0                0               0         0.214503         57.1346        0.0287818         77.4989
                               0               0                0               0        0.0287849         77.5001         0.214453         57.1367
76.44                          0               0                0               0        0.0435405        -116.925         0.975599         144.867
                               0               0                0               0          0.97571         144.883        0.0435896        -117.033
