! TOUCHSTONE file generated by CST MICROWAVE STUDIO
! Date and time: Sun Jun 20 22:37:45 2021
! Project name: HIPS_d_sweep.cst
! Parameters = {fmax=120; fmin=75; b=0.46; d=22.7; a=0.63; phi=0; theta=0}
! Header version: 2018
! Port assignment regex: !\s*Touchstone port\s*([0-9]+)\s*=\s*(CST MWS port|CST DS port)\s*([0-9]+|Zmin|Zmax)\s*\(\"(.*)\"\)(\s*mode\s*([0-9]+))?.*
! Touchstone port assignment:
! Touchstone port 1 = CST MWS port Zmin ("") mode 1
! Touchstone port 2 = CST MWS port Zmin ("") mode 2
! Touchstone port 3 = CST MWS port Zmax ("") mode 1
! Touchstone port 4 = CST MWS port Zmax ("") mode 2
! S-Parameters are not renormalized. Unphysical impedance of 0 will be written to the file.
# GHz S MA R 0
75                             0               0                0               0        0.0035796        -126.159         0.992203         76.2747
                               0               0                0               0          0.99223         76.2729       0.00362337         -125.01
                               0               0                0               0         0.121114        -13.7365        0.0288125        -13.1099
                               0               0                0               0        0.0288351        -13.1522         0.121096         -13.767
75.045                         0               0                0               0       0.00652832        -149.748         0.993216         75.5348
                               0               0                0               0         0.993226          75.531       0.00621395        -152.622
                               0               0                0               0         0.118746        -14.4962        0.0292871        -13.0278
                               0               0                0               0        0.0293092        -13.0949         0.118728        -14.5282
75.09                          0               0                0               0       0.00956735        -161.492         0.993885         74.7128
                               0               0                0               0         0.993889         74.7077        0.0091217        -165.191
                               0               0                0               0         0.116141        -15.3109        0.0296471        -13.1327
                               0               0                0               0        0.0296682        -13.2116         0.116122        -15.3442
75.135                         0               0                0               0        0.0124454        -169.682           0.9943         73.8089
                               0               0                0               0         0.994306         73.8034        0.0119663        -173.056
                               0               0                0               0          0.11329        -16.1847        0.0298961        -13.4239
                               0               0                0               0        0.0299164        -13.5054         0.113271         -16.219
75.18                          0               0                0               0         0.015066        -176.203         0.994542         72.8241
                               0               0                0               0         0.994552         72.8187        0.0146155          -178.9
                               0               0                0               0         0.110187        -17.1211        0.0300371        -13.8989
                               0               0                0               0         0.030057        -13.9769         0.110168        -17.1564
75.225                         0               0                0               0        0.0173743         178.315         0.994679           71.76
                               0               0                0               0         0.994696         71.7551         0.016993         176.361
                               0               0                0               0         0.106824        -18.1237        0.0300716        -14.5541
                               0               0                0               0        0.0300918        -14.6245         0.106805        -18.1597
75.27                          0               0                0               0        0.0193377           173.6          0.99477         70.6187
                               0               0                0               0         0.994793         70.6147        0.0190465         172.339
                               0               0                0               0         0.103195        -19.1954        0.0300002         -15.385
                               0               0                0               0        0.0300216        -15.4456         0.103176        -19.2323
75.315                         0               0                0               0        0.0209372         169.505         0.994862         69.4028
                               0               0                0               0         0.994891         69.3996         0.020739         168.839
                               0               0                0               0        0.0992933         -20.339        0.0298225        -16.3861
                               0               0                0               0        0.0298461         -16.436         0.099275        -20.3768
75.36                          0               0                0               0         0.022163         165.937          0.99499         68.1148
                               0               0                0               0         0.995023         68.1127        0.0220467         165.749
                               0               0                0               0        0.0951145        -21.5567        0.0295376        -17.5513
                               0               0                0               0        0.0295641        -17.5907        0.0950964        -21.5955
75.405                         0               0                0               0        0.0230117         162.826         0.995179         66.7579
                               0               0                0               0         0.995215         66.7565        0.0229564         162.994
                               0               0                0               0        0.0906534        -22.8501        0.0291439        -18.8736
                               0               0                0               0        0.0291739        -18.9034        0.0906356        -22.8904
75.45                          0               0                0               0        0.0234837          160.11         0.995443          65.335
                               0               0                0               0          0.99548         65.3343        0.0234645         160.516
                               0               0                0               0        0.0859069        -24.2205        0.0286397        -20.3453
                               0               0                0               0        0.0286736        -20.3669        0.0858893        -24.2625
75.495                         0               0                0               0         0.023583         157.736         0.995787         63.8491
                               0               0                0               0         0.995826         63.8489        0.0235755         158.269
                               0               0                0               0        0.0808732         -25.668        0.0280235        -21.9578
                               0               0                0               0        0.0280611        -21.9729        0.0808558        -25.7123
75.54                          0               0                0               0        0.0233169         155.651         0.996207         62.3035
                               0               0                0               0         0.996248         62.3034        0.0233011         156.211
                               0               0                0               0        0.0755526        -27.1924        0.0272941        -23.7015
                               0               0                0               0        0.0273348        -23.7116        0.0755355        -27.2397
75.585                         0               0                0               0        0.0226963         153.808         0.996694         60.7009
                               0               0                0               0         0.996738         60.7009        0.0226585         154.306
                               0               0                0               0        0.0699478        -28.7923        0.0264509        -25.5659
                               0               0                0               0        0.0264937        -25.5724        0.0699309        -28.8435
75.63                          0               0                0               0        0.0217357          152.16         0.997231         59.0445
                               0               0                0               0         0.997279         59.0443        0.0216698         152.517
                               0               0                0               0        0.0640643        -30.4657        0.0254942        -27.5391
                               0               0                0               0        0.0255379         -27.543        0.0640478        -30.5218
75.675                         0               0                0               0        0.0204537         150.664         0.997796         57.3371
                               0               0                0               0         0.997851         57.3364        0.0203604         150.814
                               0               0                0               0         0.057911        -32.2095        0.0244256        -29.6086
                               0               0                0               0        0.0244686          -29.61         0.057895         -32.272
75.72                          0               0                0               0        0.0188726         149.281         0.998366         55.5813
                               0               0                0               0         0.998429         55.5801        0.0187578         149.166
                               0               0                0               0        0.0515001        -34.0197        0.0232477        -31.7603
                               0               0                0               0        0.0232883        -31.7584        0.0514849        -34.0905
75.765                         0               0                0               0        0.0170179         147.978         0.998913         53.7797
                               0               0                0               0         0.998987          53.778        0.0168909         147.547
                               0               0                0               0        0.0448476        -35.8915        0.0219645        -33.9789
                               0               0                0               0        0.0220011        -33.9719        0.0448338        -35.9736
75.81                          0               0                0               0        0.0149173         146.733         0.999411          51.935
                               0               0                0               0         0.999495         51.9328        0.0147888         145.935
                               0               0                0               0        0.0379733        -37.8198        0.0205813        -36.2477
                               0               0                0               0        0.0206124        -36.2322        0.0379612        -37.9176
75.855                         0               0                0               0        0.0125997         145.539         0.999833         50.0494
                               0               0                0               0         0.999928         50.0469        0.0124799          144.31
                               0               0                0               0        0.0308999        -39.7999        0.0191046         -38.548
                               0               0                0               0         0.019129        -38.5192        0.0308906        -39.9211
75.9                           0               0                0               0        0.0100942         144.425                1         48.1253
                               0               0                0               0                1         48.1227       0.00999117         142.661
                               0               0                0               0        0.0236534        -41.8295        0.0175419        -40.8581
                               0               0                0               0        0.0175587        -40.8094        0.0236477        -41.9894
75.945                         0               0                0               0        0.0074289         143.511                1          46.165
                               0               0                0               0                1         46.1625       0.00734796         140.986
                               0               0                0               0        0.0162614        -43.9165        0.0159014        -43.1518
                               0               0                0               0        0.0159104        -43.0745        0.0162605        -44.1521
75.99                          0               0                0               0       0.00463146         143.286                1         44.1708
                               0               0                0               0                1         44.1687       0.00457341         139.323
                               0               0                0               0       0.00875274        -46.1249        0.0141921         -45.395
                               0               0                0               0        0.0141933        -45.2777       0.00875795        -46.5704
76.035                         0               0                0               0       0.00173607         147.727                1         42.1451
                               0               0                0               0                1         42.1437       0.00168855         138.078
                               0               0                0               0       0.00115659        -50.4252        0.0124231        -47.5387
                               0               0                0               0        0.0124172        -47.3664       0.00117324        -53.8169
76.08                          0               0                0               0       0.00132315        -56.8346                1         40.0907
                               0               0                0               0                1         40.0901       0.00128879        -46.2135
                               0               0                0               0       0.00650359         130.536        0.0106039        -49.5055
                               0               0                0               0         0.010592        -49.2573       0.00648525          131.18
76.125                         0               0                0               0       0.00437016        -49.7403         0.999854         38.0105
                               0               0                0               0         0.999888         38.0108       0.00434033        -47.3437
                               0               0                0               0        0.0141999         128.215       0.00874425        -51.1563
                               0               0                0               0       0.00872781        -50.8005        0.0141726         128.524
76.17                          0               0                0               0       0.00749028        -50.1953         0.999455         35.9086
                               0               0                0               0         0.999436         35.9094       0.00745226        -49.3339
                               0               0                0               0        0.0219137          126.07       0.00685467         -52.202
                               0               0                0               0       0.00683592        -51.6841        0.0218775         126.283
76.215                         0               0                0               0        0.0106524        -51.7257         0.999005         33.7897
                               0               0                0               0          0.99892         33.7906        0.0106111        -51.5187
                               0               0                0               0        0.0296286         123.968       0.00494904        -51.9112
                               0               0                0               0       0.00493122        -51.1177         0.029584         124.137
76.26                          0               0                0               0        0.0138424        -53.6907         0.998545         31.6599
                               0               0                0               0         0.998384           31.66        0.0138048        -53.8342
                               0               0                0               0        0.0373329         121.884       0.00305608        -47.7483
                               0               0                0               0       0.00304591        -46.3659        0.0372809         122.028
76.305                         0               0                0               0        0.0170488        -55.9192          0.99811         29.5268
                               0               0                0               0         0.997873         29.5251        0.0170225        -56.2627
                               0               0                0               0        0.0450181         119.809       0.00133129         -23.637
                               0               0                0               0       0.00135647        -20.6203        0.0449603         119.937
76.35                          0               0                0               0        0.0202618        -58.3434         0.997723         27.3992
                               0               0                0               0         0.997419         27.3947         0.020254        -58.7954
                               0               0                0               0        0.0526782         117.736       0.00138907         66.3149
                               0               0                0               0       0.00145743         65.3029        0.0526167         117.852
76.395                         0               0                0               0         0.023473        -60.9282         0.997379         25.2866
                               0               0                0               0         0.997032         25.2788        0.0234899        -61.4253
                               0               0                0               0        0.0603077         115.659       0.00313749         88.5571
                               0               0                0               0       0.00318483          87.687        0.0602451         115.764
76.44                          0               0                0               0        0.0266752        -63.6504         0.997045         23.1988
                               0               0                0               0         0.996686         23.1879        0.0267219        -64.1444
