! TOUCHSTONE file generated by CST MICROWAVE STUDIO
! Date and time: Sun Jun 20 22:37:20 2021
! Project name: HIPS_d_sweep.cst
! Parameters = {fmax=120; fmin=75; b=0.46; d=20.3; a=0.63; phi=0; theta=0}
! Header version: 2018
! Port assignment regex: !\s*Touchstone port\s*([0-9]+)\s*=\s*(CST MWS port|CST DS port)\s*([0-9]+|Zmin|Zmax)\s*\(\"(.*)\"\)(\s*mode\s*([0-9]+))?.*
! Touchstone port assignment:
! Touchstone port 1 = CST MWS port Zmin ("") mode 1
! Touchstone port 2 = CST MWS port Zmin ("") mode 2
! Touchstone port 3 = CST MWS port Zmax ("") mode 1
! Touchstone port 4 = CST MWS port Zmax ("") mode 2
! S-Parameters are not renormalized. Unphysical impedance of 0 will be written to the file.
# GHz S MA R 0
75                             0               0                0               0         0.155597         77.3087         0.971524        -12.7825
                               0               0                0               0         0.971404        -12.7997         0.155634         77.3127
                               0               0                0               0         0.177844          77.324        0.0284299         162.739
                               0               0                0               0        0.0284067         162.948         0.177808         77.3231
75.045                         0               0                0               0         0.157652         76.3341         0.972517         -13.602
                               0               0                0               0         0.971692        -13.6329         0.157728         76.3472
                               0               0                0               0         0.179433         76.6075        0.0291628         160.757
                               0               0                0               0        0.0293201          160.71         0.179427         76.6107
75.09                          0               0                0               0         0.159665         75.3559         0.973244        -14.4512
                               0               0                0               0         0.971892        -14.4947         0.159775         75.3774
                               0               0                0               0         0.180996         75.8506        0.0299013         158.763
                               0               0                0               0        0.0302333         158.531         0.181014         75.8582
75.135                         0               0                0               0          0.16162         74.3754         0.973695        -15.3323
                               0               0                0               0         0.971981         -15.387         0.161758         74.4043
                               0               0                0               0         0.182533         75.0503        0.0306419         156.749
                               0               0                0               0        0.0311363         156.404         0.182569         75.0624
75.18                          0               0                0               0         0.163494         73.3936         0.973863        -16.2479
                               0               0                0               0         0.971939        -16.3118         0.163655         73.4289
                               0               0                0               0         0.184044         74.2039        0.0313808         154.709
                               0               0                0               0        0.0320177         154.319         0.184093         74.2202
75.225                         0               0                0               0         0.165266         72.4114         0.973746        -17.2005
                               0               0                0               0         0.971749        -17.2712         0.165444         72.4516
                               0               0                0               0         0.185533         73.3087        0.0321141         152.636
                               0               0                0               0         0.032865          152.26         0.185587         73.3286
75.27                          0               0                0               0         0.166911         71.4289         0.973348        -18.1928
                               0               0                0               0         0.971395        -18.2676         0.167098         71.4724
                               0               0                0               0         0.187002         72.3623        0.0328377         150.521
                               0               0                0               0        0.0336653          150.21         0.187056          72.385
75.315                         0               0                0               0           0.1684         70.4457          0.97268        -19.2276
                               0               0                0               0          0.97087        -19.3034          0.16859         70.4908
                               0               0                0               0         0.188457         71.3627        0.0335476         148.355
                               0               0                0               0        0.0344063         148.147         0.188505         71.3869
75.36                          0               0                0               0         0.169706         69.4604         0.971761        -20.3075
                               0               0                0               0          0.97017         -20.381         0.169891          69.505
                               0               0                0               0         0.189901         70.3083          0.03424         146.127
                               0               0                0               0         0.035077         146.043         0.189941         70.3327
75.405                         0               0                0               0         0.170797         68.4707         0.970615         -21.435
                               0               0                0               0         0.969298         -21.503         0.170973         68.5126
                               0               0                0               0         0.191343         69.1982        0.0349118         143.826
                               0               0                0               0        0.0356703         143.866          0.19137         69.2213
75.45                          0               0                0               0         0.171647          67.473         0.969278        -22.6124
                               0               0                0               0         0.968267        -22.6718         0.171808         67.5098
                               0               0                0               0         0.192787         68.0319        0.0355608          141.44
                               0               0                0               0        0.0361842         141.583         0.192799         68.0523
75.495                         0               0                0               0         0.172228         66.4625         0.967789        -23.8415
                               0               0                0               0         0.967094        -23.8895          0.17237         66.4918
                               0               0                0               0         0.194239           66.81        0.0361859         138.957
                               0               0                0               0        0.0366236         139.159         0.194237         66.8263
75.54                          0               0                0               0         0.172518         65.4331         0.966198        -25.1237
                               0               0                0               0         0.965809        -25.1581         0.172638         65.4527
                               0               0                0               0         0.195704         65.5335        0.0367878         136.365
                               0               0                0               0        0.0370012         136.563         0.195689         65.5446
75.585                         0               0                0               0           0.1725         64.3777         0.964558        -26.4599
                               0               0                0               0         0.964448         -26.479         0.172599         64.3855
                               0               0                0               0         0.197187         64.2044        0.0373689         133.653
                               0               0                0               0        0.0373369         133.771         0.197161         64.2094
75.63                          0               0                0               0         0.172165         63.2885         0.962924        -27.8499
                               0               0                0               0         0.963054         -27.853         0.172244         63.2828
                               0               0                0               0         0.198687         62.8249        0.0379337         130.813
                               0               0                0               0        0.0376566         130.772         0.198653         62.8234
75.675                         0               0                0               0         0.171511          62.157         0.961357        -29.2932
                               0               0                0               0         0.961675        -29.2803         0.171574          62.137
                               0               0                0               0         0.200205         61.3982        0.0384888         127.839
                               0               0                0               0        0.0379887         127.569         0.200166         61.3901
75.72                          0               0                0               0         0.170549         60.9755          0.95991         -30.788
                               0               0                0               0         0.960365        -30.7602           0.1706         60.9407
                               0               0                0               0         0.201735         59.9276        0.0390423         124.728
                               0               0                0               0        0.0383608         124.179         0.201695         59.9132
75.765                         0               0                0               0         0.169296         59.7367         0.958638        -32.3321
                               0               0                0               0         0.959174         -32.291          0.16934         59.6875
                               0               0                0               0         0.203272         58.4165        0.0396039         121.484
                               0               0                0               0        0.0387958         120.634         0.203233         58.3965
75.81                          0               0                0               0         0.167779         58.4349         0.957583        -33.9221
                               0               0                0               0         0.958152        -33.8702         0.167821         58.3727
                               0               0                0               0         0.204804         56.8686        0.0401831         118.115
                               0               0                0               0        0.0393093         116.974          0.20477          56.844
75.855                         0               0                0               0         0.166029         57.0666         0.956783        -35.5542
                               0               0                0               0         0.957341        -35.4945         0.166075         56.9932
                               0               0                0               0         0.206318         55.2874        0.0407893         114.635
                               0               0                0               0        0.0399087          113.24         0.206292         55.2594
75.9                           0               0                0               0         0.164085         55.6305         0.956261        -37.2239
                               0               0                0               0         0.956777        -37.1597         0.164138         55.5484
                               0               0                0               0           0.2078         53.6764        0.0414296         111.062
                               0               0                0               0        0.0405929         109.474         0.207782         53.6463
75.945                         0               0                0               0         0.161985         54.1278          0.95603        -38.9265
                               0               0                0               0          0.95648        -38.8609         0.162048         54.0399
                               0               0                0               0         0.209232         52.0389        0.0421089         107.417
                               0               0                0               0        0.0413542         105.712         0.209222         52.0079
75.99                          0               0                0               0         0.159767         52.5623         0.956088         -40.657
                               0               0                0               0          0.95646        -40.5929         0.159843         52.4716
                               0               0                0               0         0.210593         50.3777        0.0428284         103.726
                               0               0                0               0        0.0421793         101.982         0.210592         50.3472
76.035                         0               0                0               0         0.157468           50.94         0.956423        -42.4102
                               0               0                0               0         0.956714        -42.3503         0.157555         50.8497
                               0               0                0               0         0.211865         48.6958        0.0435856         100.014
                               0               0                0               0        0.0430524         98.3031         0.211871         48.6668
76.08                          0               0                0               0         0.155119         49.2689          0.95701        -44.1812
                               0               0                0               0         0.957223        -44.1276         0.155217         49.1818
                               0               0                0               0         0.213024         46.9955        0.0443745         96.3033
                               0               0                0               0        0.0439557          94.689         0.213037         46.9692
76.125                         0               0                0               0         0.152747         47.5581         0.957815        -45.9654
                               0               0                0               0         0.957959        -45.9196         0.152855         47.4767
                               0               0                0               0         0.214051         45.2795        0.0451858         92.6166
                               0               0                0               0        0.0448718          91.147          0.21407         45.2566
76.17                          0               0                0               0         0.150373         45.8176         0.958797        -47.7584
                               0               0                0               0         0.958882        -47.7213          0.15049          45.744
                               0               0                0               0         0.214925           43.55        0.0460079         88.9718
                               0               0                0               0        0.0457836         87.6803         0.214947         43.5313
76.215                         0               0                0               0         0.148017         44.0579         0.959907        -49.5564
                               0               0                0               0         0.959945        -49.5284          0.14814         43.9938
                               0               0                0               0         0.215627         41.8094        0.0468275          85.384
                               0               0                0               0         0.046676         84.2896          0.21565         41.7952
76.26                          0               0                0               0         0.145689         42.2891         0.961094        -51.3559
                               0               0                0               0         0.961096        -51.3369         0.145817         42.2356
                               0               0                0               0         0.216136         40.0599        0.0476309         81.8647
                               0               0                0               0        0.0475352         80.9737         0.216161         40.0507
76.305                         0               0                0               0         0.143399         40.5212         0.962306        -53.1539
                               0               0                0               0         0.962281        -53.1434         0.143531          40.479
                               0               0                0               0         0.216438         38.3041        0.0484046         78.4223
                               0               0                0               0        0.0483495         77.7309         0.216462         38.2999
76.35                          0               0                0               0         0.141154         38.7632         0.963491        -54.9481
                               0               0                0               0         0.963447        -54.9452         0.141289         38.7324
                               0               0                0               0         0.216518         36.5444        0.0491361         75.0626
                               0               0                0               0        0.0491089         74.5591          0.21654         36.5452
76.395                         0               0                0               0         0.138957         37.0234         0.964597        -56.7362
                               0               0                0               0         0.964539          -56.74         0.139094         37.0038
                               0               0                0               0         0.216362         34.7835        0.0498144         71.7895
                               0               0                0               0        0.0498057         71.4567         0.216383         34.7892
76.44                          0               0                0               0          0.13681         35.3091          0.96558        -58.5165
                               0               0                0               0          0.96551        -58.5258          0.13695         35.3002
