! TOUCHSTONE file generated by CST MICROWAVE STUDIO
! Date and time: Sun Jun 20 22:37:38 2021
! Project name: HIPS_d_sweep.cst
! Parameters = {fmax=120; fmin=75; b=0.46; d=22.05; a=0.63; phi=0; theta=0}
! Header version: 2018
! Port assignment regex: !\s*Touchstone port\s*([0-9]+)\s*=\s*(CST MWS port|CST DS port)\s*([0-9]+|Zmin|Zmax)\s*\(\"(.*)\"\)(\s*mode\s*([0-9]+))?.*
! Touchstone port assignment:
! Touchstone port 1 = CST MWS port Zmin ("") mode 1
! Touchstone port 2 = CST MWS port Zmin ("") mode 2
! Touchstone port 3 = CST MWS port Zmax ("") mode 1
! Touchstone port 4 = CST MWS port Zmax ("") mode 2
! S-Parameters are not renormalized. Unphysical impedance of 0 will be written to the file.
# GHz S MA R 0
75                             0               0                0               0        0.0378264        -111.595         0.975225         148.922
                               0               0                0               0         0.975275         148.911        0.0379303        -111.763
                               0               0                0               0         0.215728         59.1816        0.0289041         75.7115
                               0               0                0               0        0.0289017         75.6582         0.215754          59.198
75.045                         0               0                0               0        0.0414976        -113.396         0.975403         148.218
                               0               0                0               0         0.975502         148.207        0.0415614        -113.538
                               0               0                0               0         0.215834         58.5191        0.0290798         76.9123
                               0               0                0               0        0.0291535         76.7441         0.215793         58.5531
75.09                          0               0                0               0        0.0448534        -114.885         0.975364         147.437
                               0               0                0               0         0.975493         147.427        0.0448954        -115.016
                               0               0                0               0         0.216073         57.7712        0.0293897         77.6364
                               0               0                0               0        0.0294837         77.4177          0.21601         57.8123
75.135                         0               0                0               0        0.0478688        -116.189         0.975167         146.581
                               0               0                0               0         0.975312         146.571        0.0479034        -116.314
                               0               0                0               0         0.216419         56.9416        0.0297928         77.9446
                               0               0                0               0        0.0298777         77.7197         0.216357         56.9831
75.18                          0               0                0               0        0.0505306        -117.392         0.974863         145.652
                               0               0                0               0         0.975012         145.642        0.0505678         -117.51
                               0               0                0               0         0.216847         56.0338        0.0302616         77.8906
                               0               0                0               0        0.0303233         77.6865         0.216798          56.072
75.225                         0               0                0               0        0.0528335        -118.545         0.974497          144.65
                               0               0                0               0         0.974643         144.641        0.0528795        -118.656
                               0               0                0               0         0.217335          55.051         0.030777         77.5198
                               0               0                0               0        0.0308109         77.3505         0.217303          55.084
75.27                          0               0                0               0        0.0547788        -119.685         0.974106         143.577
                               0               0                0               0         0.974244         143.569        0.0548363        -119.786
                               0               0                0               0          0.21786         53.9962        0.0313255           76.87
                               0               0                0               0        0.0313321         76.7404         0.217847         54.0235
75.315                         0               0                0               0        0.0563717        -120.832         0.973721         142.437
                               0               0                0               0         0.973848         142.429        0.0564408        -120.922
                               0               0                0               0         0.218404         52.8722        0.0318972         75.9725
                               0               0                0               0        0.0318796         75.8813         0.218407         52.8943
75.36                          0               0                0               0        0.0576212        -122.001         0.973363         141.232
                               0               0                0               0         0.973479         141.224        0.0577001         -122.08
                               0               0                0               0         0.218947         51.6817        0.0324844         74.8531
                               0               0                0               0        0.0324471         74.7956         0.218962         51.6995
75.405                         0               0                0               0        0.0585384        -123.198          0.97305         139.963
                               0               0                0               0         0.973157         139.956        0.0586241        -123.266
                               0               0                0               0          0.21947         50.4273        0.0330807         73.5336
                               0               0                0               0        0.0330284         73.5032         0.219494         50.4419
75.45                          0               0                0               0        0.0591363        -124.428         0.972795         138.633
                               0               0                0               0         0.972895         138.627        0.0592255        -124.486
                               0               0                0               0         0.219957         49.1113        0.0336806          72.032
                               0               0                0               0        0.0336178          72.022         0.219985         49.1239
75.495                         0               0                0               0        0.0594296         -125.69         0.972603         137.246
                               0               0                0               0         0.972701          137.24        0.0595186         -125.74
                               0               0                0               0         0.220389         47.7361         0.034279         70.3643
                               0               0                0               0        0.0342096         70.3681         0.220418         47.7479
75.54                          0               0                0               0        0.0594338        -126.982         0.972477         135.804
                               0               0                0               0         0.972577         135.797        0.0595192        -127.027
                               0               0                0               0         0.220749         46.3041        0.0348709         68.5441
                               0               0                0               0         0.034798         68.5562         0.220777         46.3161
75.585                         0               0                0               0        0.0591649        -128.302         0.972418         134.308
                               0               0                0               0         0.972523         134.303         0.059244        -128.345
                               0               0                0               0         0.221021         44.8177        0.0354513          66.584
                               0               0                0               0        0.0353774         66.6001         0.221045         44.8306
75.63                          0               0                0               0        0.0586399        -129.647         0.972421         132.763
                               0               0                0               0         0.972535         132.758        0.0587105        -129.689
                               0               0                0               0         0.221188         43.2791        0.0360153         64.4954
                               0               0                0               0        0.0359419         64.5125         0.221207         43.2935
75.675                         0               0                0               0        0.0578755         -131.01         0.972484         131.171
                               0               0                0               0         0.972608         131.166        0.0579364        -131.055
                               0               0                0               0         0.221233         41.6909        0.0365575         62.2891
                               0               0                0               0        0.0364857         62.3058         0.221246         41.7071
75.72                          0               0                0               0        0.0568889        -132.389         0.972599         129.534
                               0               0                0               0         0.972735         129.529        0.0569394        -132.439
                               0               0                0               0          0.22114         40.0555        0.0370727         59.9757
                               0               0                0               0         0.037003         59.9916         0.221147         40.0736
75.765                         0               0                0               0        0.0556971        -133.779         0.972761         127.854
                               0               0                0               0         0.972909         127.851        0.0557373        -133.836
                               0               0                0               0         0.220894         38.3755        0.0375554         57.5656
                               0               0                0               0        0.0374882         57.5813         0.220896         38.3955
75.81                          0               0                0               0        0.0543166        -135.174         0.972966         126.136
                               0               0                0               0         0.973123         126.133        0.0543474         -135.24
                               0               0                0               0         0.220481         36.6538        0.0380005         55.0689
                               0               0                0               0        0.0379356          55.086         0.220478         36.6753
75.855                         0               0                0               0         0.052764        -136.571         0.973208         124.382
                               0               0                0               0         0.973371         124.379        0.0527867        -136.646
                               0               0                0               0         0.219886         34.8931        0.0384026         52.4961
                               0               0                0               0        0.0383401         52.5167         0.219879         34.9159
75.9                           0               0                0               0        0.0510551        -137.965         0.973484         122.594
                               0               0                0               0          0.97365         122.592        0.0510715        -138.051
                               0               0                0               0         0.219095         33.0966        0.0387567         49.8576
                               0               0                0               0        0.0386968         49.8839         0.219086         33.1202
75.945                         0               0                0               0        0.0492054        -139.353         0.973794         120.775
                               0               0                0               0         0.973957         120.774        0.0492175        -139.447
                               0               0                0               0         0.218099         31.2672        0.0390585         47.1637
                               0               0                0               0        0.0390012          47.198         0.218088         31.2914
75.99                          0               0                0               0        0.0472299         -140.73          0.97414         118.929
                               0               0                0               0         0.974294         118.929        0.0472398        -140.831
                               0               0                0               0         0.216885         29.4085        0.0393038         44.4249
                               0               0                0               0        0.0392496         44.4691         0.216873         29.4328
76.035                         0               0                0               0        0.0451431        -142.092         0.974523         117.059
                               0               0                0               0         0.974664         117.059        0.0451528        -142.198
                               0               0                0               0         0.215446         27.5237        0.0394893         41.6513
                               0               0                0               0        0.0394388         41.7068         0.215434         27.5478
76.08                          0               0                0               0        0.0429591        -143.436         0.974948         115.169
                               0               0                0               0         0.975072         115.168        0.0429703        -143.541
                               0               0                0               0         0.213774         25.6165        0.0396123         38.8527
                               0               0                0               0        0.0395662         38.9202         0.213762         25.6402
76.125                         0               0                0               0        0.0406915        -144.755         0.975422         113.261
                               0               0                0               0         0.975526         113.259        0.0407057        -144.855
                               0               0                0               0         0.211864         23.6904        0.0396709         36.0384
                               0               0                0               0        0.0396302         36.1178         0.211853         23.7137
76.17                          0               0                0               0        0.0383538        -146.044         0.975951         111.339
                               0               0                0               0         0.976035         111.337        0.0383718        -146.133
                               0               0                0               0         0.209714          21.749         0.039664         33.2171
                               0               0                0               0        0.0396293         33.3075         0.209704          21.772
76.215                         0               0                0               0        0.0359593        -147.295         0.976538         109.408
                               0               0                0               0         0.976605         109.404        0.0359815        -147.365
                               0               0                0               0         0.207322         19.7959         0.039591         30.3965
                               0               0                0               0         0.039563         30.4963         0.207313         19.8189
76.26                          0               0                0               0        0.0335214        -148.496         0.977188          107.47
                               0               0                0               0         0.977243         107.465        0.0335476         -148.54
                               0               0                0               0          0.20469         17.8346        0.0394522         27.5835
                               0               0                0               0        0.0394312         27.6904         0.204682         17.8578
76.305                         0               0                0               0        0.0310536        -149.632         0.977899         105.528
                               0               0                0               0          0.97795         105.522        0.0310832        -149.644
                               0               0                0               0         0.201822         15.8681        0.0392479         24.7836
                               0               0                0               0        0.0392338         24.8949         0.201815         15.8921
76.35                          0               0                0               0        0.0285699        -150.679         0.978666         103.587
                               0               0                0               0          0.97872         103.579        0.0286022        -150.654
                               0               0                0               0         0.198722         13.8996        0.0389791         22.0013
                               0               0                0               0        0.0389714         22.1142         0.198716         13.9247
76.395                         0               0                0               0        0.0260848        -151.602         0.979478         101.647
                               0               0                0               0          0.97954         101.639         0.026119        -151.539
                               0               0                0               0         0.195398         11.9314        0.0386467         19.2396
                               0               0                0               0        0.0386442         19.3515         0.195393         11.9579
76.44                          0               0                0               0        0.0236138        -152.349         0.980314         99.7102
                               0               0                0               0         0.980388         99.7021        0.0236496        -152.254
