! TOUCHSTONE file generated by CST MICROWAVE STUDIO
! Date and time: Sun Jun 20 22:37:57 2021
! Project name: HIPS_d_sweep.cst
! Parameters = {fmax=120; fmin=75; b=0.46; d=23.8; a=0.63; phi=0; theta=0}
! Header version: 2018
! Port assignment regex: !\s*Touchstone port\s*([0-9]+)\s*=\s*(CST MWS port|CST DS port)\s*([0-9]+|Zmin|Zmax)\s*\(\"(.*)\"\)(\s*mode\s*([0-9]+))?.*
! Touchstone port assignment:
! Touchstone port 1 = CST MWS port Zmin ("") mode 1
! Touchstone port 2 = CST MWS port Zmin ("") mode 2
! Touchstone port 3 = CST MWS port Zmax ("") mode 1
! Touchstone port 4 = CST MWS port Zmax ("") mode 2
! S-Parameters are not renormalized. Unphysical impedance of 0 will be written to the file.
# GHz S MA R 0
75                             0               0                0               0        0.0767805        -144.989          0.97087         -49.083
                               0               0                0               0         0.970754         -49.079        0.0767653        -144.898
                               0               0                0               0         0.223809         40.1612         0.038092         13.4723
                               0               0                0               0        0.0380815         13.4271         0.223765         40.1778
75.045                         0               0                0               0        0.0724664        -146.262         0.972178         -49.841
                               0               0                0               0         0.972053        -49.8341        0.0724537        -146.223
                               0               0                0               0         0.223489         39.3885        0.0375092         13.7816
                               0               0                0               0        0.0375386         13.7815         0.223451         39.4065
75.09                          0               0                0               0        0.0687316        -147.475         0.972881        -50.6762
                               0               0                0               0         0.972739        -50.6697        0.0687133        -147.453
                               0               0                0               0         0.223079         38.5624        0.0370114         14.0448
                               0               0                0               0        0.0370602         14.0701         0.223045         38.5813
75.135                         0               0                0               0        0.0655153        -148.652         0.973106         -51.592
                               0               0                0               0         0.972954        -51.5883        0.0654872        -148.619
                               0               0                0               0          0.22258         37.6794        0.0366007         14.2227
                               0               0                0               0        0.0366491         14.2615          0.22255          37.699
75.18                          0               0                0               0        0.0627675        -149.811         0.972983        -52.5897
                               0               0                0               0         0.972837        -52.5908        0.0627277        -149.748
                               0               0                0               0         0.221994         36.7365         0.036273         14.2743
                               0               0                0               0        0.0363033         14.3237         0.221966         36.7565
75.225                         0               0                0               0        0.0604471         -150.97         0.972635        -53.6696
                               0               0                0               0         0.972516        -53.6763        0.0603949        -150.864
                               0               0                0               0         0.221322         35.7305        0.0360173         14.1616
                               0               0                0               0        0.0360164         14.2257         0.221294         35.7506
75.27                          0               0                0               0        0.0585204        -152.145         0.972177        -54.8303
                               0               0                0               0         0.972106         -54.843        0.0584556        -151.988
                               0               0                0               0         0.220562         34.6583        0.0358176         13.8529
                               0               0                0               0        0.0357777         13.9409         0.220534         34.6782
75.315                         0               0                0               0        0.0569601        -153.346         0.971708        -56.0694
                               0               0                0               0         0.971704        -56.0876        0.0568827        -153.137
                               0               0                0               0         0.219714         33.5168        0.0356542          13.326
                               0               0                0               0        0.0355736         13.4484         0.219684         33.5365
75.36                          0               0                0               0        0.0557438        -154.586         0.971311        -57.3835
                               0               0                0               0         0.971388        -57.4062        0.0556542        -154.327
                               0               0                0               0          0.21877         32.3029        0.0355064         12.5692
                               0               0                0               0        0.0353887         12.7347         0.218737         32.3223
75.405                         0               0                0               0        0.0548536        -155.869         0.971051        -58.7687
                               0               0                0               0         0.971215        -58.7946        0.0547522        -155.567
                               0               0                0               0         0.217723         31.0135        0.0353543         11.5802
                               0               0                0               0        0.0352069         11.7936         0.217686         31.0326
75.45                          0               0                0               0         0.054275        -157.202         0.970973        -60.2205
                               0               0                0               0         0.971223         -60.248        0.0541625        -156.866
                               0               0                0               0         0.216559         29.6455        0.0351805         10.3645
                               0               0                0               0        0.0350131         10.6256         0.216517         29.6648
75.495                         0               0                0               0        0.0539961        -158.583         0.971105        -61.7342
                               0               0                0               0         0.971433        -61.7616        0.0538739        -158.224
                               0               0                0               0          0.21526         28.1964        0.0349712         8.93265
                               0               0                0               0        0.0347941         9.23668         0.215213         28.2162
75.54                          0               0                0               0        0.0540075        -160.013         0.971456         -63.305
                               0               0                0               0         0.971846        -63.3308        0.0538772        -159.642
                               0               0                0               0           0.2138         26.6641        0.0347157         7.29822
                               0               0                0               0        0.0345388          7.6363         0.213749          26.685
75.585                         0               0                0               0        0.0543007        -161.486         0.972019        -64.9283
                               0               0                0               0         0.972448        -64.9513        0.0541647        -161.116
                               0               0                0               0         0.212149         25.0481        0.0344071         5.47538
                               0               0                0               0        0.0342384         5.83615         0.212095         25.0707
75.63                          0               0                0               0        0.0548683        -162.997         0.972772        -66.5999
                               0               0                0               0         0.973214        -66.6191        0.0547297        -162.638
                               0               0                0               0         0.210269         23.3501         0.034041         3.47756
                               0               0                0               0         0.033887         3.84855         0.210215          23.375
75.675                         0               0                0               0        0.0557034        -164.539         0.973679        -68.3158
                               0               0                0               0         0.974103        -68.3308        0.0555655          -164.2
                               0               0                0               0         0.208124         21.5749        0.0336152         1.31648
                               0               0                0               0        0.0334801         1.68527         0.208073         21.6024
75.72                          0               0                0               0        0.0567985        -166.105          0.97469        -70.0727
                               0               0                0               0         0.975067        -70.0836        0.0566651        -165.793
                               0               0                0               0         0.205679         19.7312        0.0331291       -0.998452
                               0               0                0               0        0.0330153       -0.643245         0.205635         19.7613
75.765                         0               0                0               0        0.0581456        -167.687         0.975748        -71.8682
                               0               0                0               0         0.976053        -71.8758        0.0580206        -167.407
                               0               0                0               0         0.202913         17.8312        0.0325828        -3.46033
                               0               0                0               0        0.0324912        -3.12844          0.20288         17.8631
75.81                          0               0                0               0        0.0597356         -169.28          0.97679        -73.7009
                               0               0                0               0         0.977006        -73.7062        0.0596229        -169.035
                               0               0                0               0         0.199821         15.8885        0.0319769        -6.06482
                               0               0                0               0        0.0319071        -5.76394           0.1998         15.9214
75.855                         0               0                0               0        0.0615584        -170.879         0.977754        -75.5707
                               0               0                0               0         0.977877        -75.5752        0.0614612        -170.669
                               0               0                0               0         0.196417         13.9163        0.0313122        -8.81006
                               0               0                0               0        0.0312629        -8.54574         0.196408         13.9491
75.9                           0               0                0               0        0.0636021        -172.482         0.978594        -77.4786
                               0               0                0               0         0.978635        -77.4838        0.0635232        -172.306
                               0               0                0               0          0.19273         11.9239        0.0305893        -11.6966
                               0               0                0               0        0.0305586        -11.4722         0.192732         11.9558
75.945                         0               0                0               0        0.0658535        -174.088         0.979291        -79.4267
                               0               0                0               0         0.979274        -79.4334        0.0657947        -173.944
                               0               0                0               0         0.188791         9.91567        0.0298086        -14.7273
                               0               0                0               0        0.0297942        -14.5443         0.188799         9.94633
75.99                          0               0                0               0        0.0682977        -175.698         0.979867        -81.4174
                               0               0                0               0         0.979823        -81.4254          0.06826        -175.582
                               0               0                0               0         0.184623         7.89155        0.0289702        -17.9074
                               0               0                0               0        0.0289697        -17.7654         0.184635         7.92111
76.035                         0               0                0               0        0.0709185        -177.316         0.980391        -83.4512
                               0               0                0               0         0.980344        -83.4594        0.0709017        -177.224
                               0               0                0               0         0.180237         5.84885        0.0280739        -21.2445
                               0               0                0               0         0.028085        -21.1413         0.180253         5.87769
76.08                          0               0                0               0        0.0736982        -178.946         0.980963        -85.5257
                               0               0                0               0         0.980919        -85.5326        0.0737012        -178.874
                               0               0                0               0         0.175635         3.78443        0.0271196        -24.7486
                               0               0                0               0        0.0271401        -24.6808         0.175653         3.81306
76.125                         0               0                0               0        0.0766179         179.407         0.981675        -87.6345
                               0               0                0               0         0.981622        -87.6386        0.0766387         179.462
                               0               0                0               0         0.170808         1.69647         0.026107        -28.4328
                               0               0                0               0        0.0261348        -28.3958         0.170827         1.72534
76.17                          0               0                0               0        0.0796576         177.735         0.982573        -89.7676
                               0               0                0               0         0.982492        -89.7688        0.0796934         177.778
                               0               0                0               0         0.165741       -0.414562        0.0250362        -32.3135
                               0               0                0               0        0.0250696        -32.3017         0.165763       -0.385112
76.215                         0               0                0               0        0.0827964         176.032         0.983636        -91.9144
                               0               0                0               0          0.98351        -91.9135         0.082844         176.066
                               0               0                0               0         0.160425        -2.54563        0.0239076        -36.4115
                               0               0                0               0        0.0239451        -36.4184         0.160449        -2.51538
76.26                          0               0                0               0        0.0860128         174.291         0.984781        -94.0653
                               0               0                0               0          0.98461        -94.0636        0.0860686         174.319
                               0               0                0               0          0.15485        -4.69119        0.0227227         -40.753
                               0               0                0               0         0.022763        -40.7713         0.154876        -4.65999
76.305                         0               0                0               0        0.0892847         172.505         0.985894        -96.2135
                               0               0                0               0         0.985691        -96.2122         0.089345          172.53
                               0               0                0               0         0.149013        -6.84335        0.0214839        -45.3714
                               0               0                0               0        0.0215259        -45.3931         0.149042        -6.81112
76.35                          0               0                0               0        0.0925895          170.67         0.986856        -98.3549
                               0               0                0               0         0.986642        -98.3547        0.0926509         170.693
                               0               0                0               0         0.142917        -8.99221        0.0201952        -50.3098
                               0               0                0               0        0.0202382        -50.3265         0.142948        -8.95888
76.395                         0               0                0               0        0.0959045         168.779         0.987564        -100.487
                               0               0                0               0         0.987362        -100.488        0.0959637         168.802
                               0               0                0               0         0.136571         -11.126        0.0188629        -55.6248
                               0               0                0               0        0.0189061        -55.6271         0.136605        -11.0914
76.44                          0               0                0               0        0.0992069          166.83         0.987938        -102.609
                               0               0                0               0         0.987767        -102.612        0.0992612         166.853
