! TOUCHSTONE file generated by CST MICROWAVE STUDIO
! Date and time: Sun Jun 20 22:37:50 2021
! Project name: HIPS_d_sweep.cst
! Parameters = {fmax=120; fmin=75; b=0.46; d=23.2; a=0.63; phi=0; theta=0}
! Header version: 2018
! Port assignment regex: !\s*Touchstone port\s*([0-9]+)\s*=\s*(CST MWS port|CST DS port)\s*([0-9]+|Zmin|Zmax)\s*\(\"(.*)\"\)(\s*mode\s*([0-9]+))?.*
! Touchstone port assignment:
! Touchstone port 1 = CST MWS port Zmin ("") mode 1
! Touchstone port 2 = CST MWS port Zmin ("") mode 2
! Touchstone port 3 = CST MWS port Zmax ("") mode 1
! Touchstone port 4 = CST MWS port Zmax ("") mode 2
! S-Parameters are not renormalized. Unphysical impedance of 0 will be written to the file.
# GHz S MA R 0
75                             0               0                0               0        0.0406322        -73.0789         0.994208         18.2646
                               0               0                0               0         0.994439         18.2633        0.0405964        -73.3861
                               0               0                0               0        0.0979229         107.918        0.0131003         90.5754
                               0               0                0               0        0.0131103         90.7043        0.0979786         107.917
75.045                         0               0                0               0        0.0365018        -73.9515         0.994192         17.4958
                               0               0                0               0         0.994406         17.4954        0.0364571        -74.2896
                               0               0                0               0         0.100055         107.199        0.0125773         90.5686
                               0               0                0               0        0.0125519         90.7334         0.100114         107.198
75.09                          0               0                0               0        0.0328114        -74.9523          0.99408         16.6487
                               0               0                0               0         0.994291         16.6484        0.0327676        -75.3281
                               0               0                0               0          0.10248         106.391        0.0121771         90.5764
                               0               0                0               0        0.0121505           90.76         0.102539          106.39
75.135                         0               0                0               0        0.0295625         -76.084         0.993889         15.7234
                               0               0                0               0         0.994105         15.7228        0.0295251        -76.5028
                               0               0                0               0         0.105185         105.495        0.0119126         90.5895
                               0               0                0               0        0.0119018          90.766         0.105243         105.495
75.18                          0               0                0               0         0.026753         -77.349         0.993633         14.7204
                               0               0                0               0         0.993858         14.7194        0.0267236         -77.814
                               0               0                0               0         0.108154         104.515        0.0117925         90.5748
                               0               0                0               0         0.011801         90.7226         0.108211         104.515
75.225                         0               0                0               0        0.0243769        -78.7483         0.993323         13.6409
                               0               0                0               0         0.993555         13.6396        0.0243543        -79.2605
                               0               0                0               0         0.111374         103.453        0.0118206         90.4798
                               0               0                0               0        0.0118433         90.5934          0.11143         103.454
75.27                          0               0                0               0         0.022425        -80.2807         0.992968         12.4861
                               0               0                0               0         0.993201         12.4849        0.0224059        -80.8385
                               0               0                0               0          0.11483         102.313         0.011996         90.2441
                               0               0                0               0        0.0120234         90.3394         0.114886         102.315
75.315                         0               0                0               0        0.0208857        -81.9407         0.992573         11.2579
                               0               0                0               0         0.992801         11.2571        0.0208656        -82.5394
                               0               0                0               0         0.118505         101.096        0.0123127         89.8127
                               0               0                0               0        0.0123355         89.9244         0.118562         101.098
75.36                          0               0                0               0         0.019745        -83.7176         0.992142         9.95835
                               0               0                0               0         0.992353         9.95844        0.0197185        -84.3495
                               0               0                0               0         0.122385          99.806        0.0127613         89.1475
                               0               0                0               0         0.012773         89.3188         0.122442         99.8082
75.405                         0               0                0               0        0.0189869        -85.5951         0.991675         8.58977
                               0               0                0               0          0.99186         8.59129        0.0189488        -86.2499
                               0               0                0               0         0.126449         98.4442        0.0133295         88.2325
                               0               0                0               0        0.0133287         88.5028         0.126509         98.4466
75.45                          0               0                0               0        0.0185941        -87.5518         0.991173         7.15489
                               0               0                0               0         0.991321         7.15833        0.0185395        -88.2174
                               0               0                0               0         0.130681         97.0137        0.0140042         87.0721
                               0               0                0               0        0.0139945         87.4663         0.130744         97.0162
75.495                         0               0                0               0        0.0185476        -89.5642         0.990633         5.65662
                               0               0                0               0         0.990734          5.6624        0.0184728        -90.2279
                               0               0                0               0         0.135059          95.517        0.0147723         85.6857
                               0               0                0               0        0.0147619         86.2088         0.135125         95.5197
75.54                          0               0                0               0        0.0188279        -91.6096         0.990052         4.09812
                               0               0                0               0         0.990099         4.10656        0.0187304        -92.2593
                               0               0                0               0         0.139562         93.9572        0.0156217         84.1009
                               0               0                0               0        0.0156215         84.7371         0.139631           93.96
75.585                         0               0                0               0        0.0194146        -93.6693         0.989429          2.4827
                               0               0                0               0         0.989416         2.49398        0.0192935        -94.2943
                               0               0                0               0         0.144166         92.3371        0.0165416          82.347
                               0               0                0               0        0.0165635         83.0638         0.144237         92.3401
75.63                          0               0                0               0        0.0202866        -95.7301         0.988762        0.813849
                               0               0                0               0         0.988686        0.827962        0.0201429        -96.3216
                               0               0                0               0         0.148846         90.6599        0.0175226         80.4512
                               0               0                0               0        0.0175773         81.2047          0.14892         90.6632
75.675                         0               0                0               0        0.0214229        -97.7841         0.988047       -0.904846
                               0               0                0               0         0.987909       -0.888086        0.0212594        -98.3358
                               0               0                0               0         0.153577         88.9293        0.0185568         78.4363
                               0               0                0               0        0.0186521         79.1781         0.153653         88.9329
75.72                          0               0                0               0        0.0228024        -99.8281         0.987285        -2.66972
                               0               0                0               0         0.987088         -2.6507        0.0226237        -100.335
                               0               0                0               0         0.158331         87.1487        0.0196372         76.3193
                               0               0                0               0        0.0197766         77.0026         0.158408         87.1527
75.765                         0               0                0               0         0.024404        -101.861         0.986477        -4.47706
                               0               0                0               0         0.986227        -4.45634        0.0242164        -102.322
                               0               0                0               0         0.163082         85.3221        0.0207575         74.1123
                               0               0                0               0        0.0209394         74.6971         0.163159         85.3267
75.81                          0               0                0               0        0.0262067        -103.885         0.985624        -6.32314
                               0               0                0               0         0.985333        -6.30146         0.026018        -104.297
                               0               0                0               0         0.167802         83.4537        0.0219115         71.8226
                               0               0                0               0        0.0221291         72.2796         0.167879         83.4589
75.855                         0               0                0               0        0.0281901          -105.9         0.984731        -8.20424
                               0               0                0               0          0.98441        -8.18247        0.0280092        -106.263
                               0               0                0               0         0.172463         81.5475        0.0230926         69.4545
                               0               0                0               0        0.0233344         69.7671         0.172538         81.5535
75.9                           0               0                0               0        0.0303339        -107.907         0.983805        -10.1167
                               0               0                0               0         0.983468        -10.0958        0.0301701        -108.222
                               0               0                0               0         0.177039         79.6079        0.0242936         67.0099
                               0               0                0               0        0.0245444         67.1752         0.177112         79.6148
75.945                         0               0                0               0         0.032618        -109.907         0.982852        -12.0568
                               0               0                0               0         0.982515        -12.0377         0.032481        -110.175
                               0               0                0               0         0.181503         77.6394        0.0255061         64.4902
                               0               0                0               0        0.0257488          64.518         0.181574         77.6472
75.99                          0               0                0               0        0.0350228        -111.901         0.981882        -14.0211
                               0               0                0               0         0.981561        -14.0047        0.0349217        -112.123
                               0               0                0               0         0.185832         75.6462        0.0267204         61.8972
                               0               0                0               0        0.0269378         61.8081           0.1859         75.6548
76.035                         0               0                0               0        0.0375289        -113.887         0.980906        -16.0059
                               0               0                0               0         0.980614         -15.993        0.0374715        -114.065
                               0               0                0               0         0.190002         73.6326        0.0279253          59.234
                               0               0                0               0        0.0281025         59.0565         0.190068          73.642
76.08                          0               0                0               0        0.0401172        -115.865         0.979935        -18.0079
                               0               0                0               0         0.979685         -17.999        0.0401094        -116.001
                               0               0                0               0         0.193995         71.6026        0.0291087         56.5066
                               0               0                0               0        0.0292347         56.2726         0.194058         71.6127
76.125                         0               0                0               0        0.0427686        -117.834          0.97898        -20.0235
                               0               0                0               0          0.97878         -20.019        0.0428136        -117.931
                               0               0                0               0         0.197791           69.56        0.0302578         53.7235
                               0               0                0               0        0.0303271         53.4643         0.197852         69.5707
76.17                          0               0                0               0        0.0454643        -119.794         0.978053        -22.0494
                               0               0                0               0         0.977906        -22.0492        0.0455618        -119.855
                               0               0                0               0         0.201376         67.5082        0.0313598         50.8964
                               0               0                0               0        0.0313734          50.638         0.201435         67.5193
76.215                         0               0                0               0        0.0481856        -121.742         0.977163        -24.0822
                               0               0                0               0         0.977066         -24.086        0.0483313        -121.773
                               0               0                0               0         0.204736         65.4503        0.0324031         48.0394
                               0               0                0               0        0.0323677         47.7992         0.204793         65.4617
76.26                          0               0                0               0        0.0509139        -123.678         0.976319        -26.1185
                               0               0                0               0         0.976261        -26.1256        0.0510992        -123.686
                               0               0                0               0         0.207861         63.3891        0.0333782         45.1681
                               0               0                0               0        0.0333052         44.9521         0.207916         63.4006
76.305                         0               0                0               0        0.0536313        -125.603         0.975525         -28.155
                               0               0                0               0         0.975489        -28.1645        0.0538426        -125.595
                               0               0                0               0         0.210742          61.327        0.0342786         42.2981
                               0               0                0               0        0.0341813         42.1003         0.210795         61.3385
76.35                          0               0                0               0        0.0563203        -127.515         0.974782        -30.1885
                               0               0                0               0         0.974744        -30.1993        0.0565396          -127.5
                               0               0                0               0         0.213372          59.266        0.0351009         39.4429
                               0               0                0               0        0.0349922         39.2474         0.213424         59.2776
76.395                         0               0                0               0        0.0589649        -129.414         0.974089        -32.2156
                               0               0                0               0          0.97402        -32.2266          0.05917        -129.404
                               0               0                0               0         0.215746         57.2082        0.0358447         36.6125
                               0               0                0               0        0.0357346         36.3967         0.215796           57.22
76.44                          0               0                0               0        0.0615509        -131.301          0.97344        -34.2336
                               0               0                0               0         0.973312        -34.2439        0.0617171        -131.304
