! TOUCHSTONE file generated by CST MICROWAVE STUDIO
! Date and time: Sun Jun 20 22:37:02 2021
! Project name: HIPS_d_sweep.cst
! Parameters = {fmax=120; fmin=75; b=0.46; d=18.05; a=0.63; phi=0; theta=0}
! Header version: 2018
! Port assignment regex: !\s*Touchstone port\s*([0-9]+)\s*=\s*(CST MWS port|CST DS port)\s*([0-9]+|Zmin|Zmax)\s*\(\"(.*)\"\)(\s*mode\s*([0-9]+))?.*
! Touchstone port assignment:
! Touchstone port 1 = CST MWS port Zmin ("") mode 1
! Touchstone port 2 = CST MWS port Zmin ("") mode 2
! Touchstone port 3 = CST MWS port Zmax ("") mode 1
! Touchstone port 4 = CST MWS port Zmax ("") mode 2
! S-Parameters are not renormalized. Unphysical impedance of 0 will be written to the file.
# GHz S MA R 0
75                             0               0                0               0         0.321842        -25.0848         0.938893        -116.474
                               0               0                0               0         0.939001        -116.497         0.321963        -25.0222
                               0               0                0               0        0.0829575         -5.6763        0.0893742        -9.01123
                               0               0                0               0        0.0893773        -9.03347        0.0828594         -5.6175
75.045                         0               0                0               0         0.325011        -25.7775         0.938037        -117.078
                               0               0                0               0         0.938031        -117.104          0.32513        -25.6971
                               0               0                0               0         0.081326        -5.54522        0.0896541        -9.91665
                               0               0                0               0        0.0896576        -9.95308        0.0812597        -5.48648
75.09                          0               0                0               0         0.327855        -26.5155         0.937235         -117.75
                               0               0                0               0         0.937171        -117.779          0.32797        -26.4238
                               0               0                0               0        0.0795415         -5.4261        0.0898254        -10.9352
                               0               0                0               0        0.0898344        -10.9824        0.0794921        -5.36544
75.135                         0               0                0               0         0.330375        -27.3033          0.93651        -118.487
                               0               0                0               0          0.93643        -118.518         0.330484        -27.2055
                               0               0                0               0        0.0776026        -5.31132        0.0898979        -12.0679
                               0               0                0               0        0.0899155        -12.1223        0.0775594        -5.24733
75.18                          0               0                0               0         0.332571        -28.1444         0.935878        -119.287
                               0               0                0               0         0.935815        -119.319         0.332676        -28.0446
                               0               0                0               0        0.0755085        -5.19154        0.0898799        -13.3151
                               0               0                0               0        0.0899074         -13.373        0.0754642        -5.12321
75.225                         0               0                0               0         0.334451        -29.0417         0.935353        -120.149
                               0               0                0               0         0.935326        -120.181         0.334554        -28.9429
                               0               0                0               0        0.0732593        -5.05538        0.0897787        -14.6757
                               0               0                0               0        0.0898157        -14.7341        0.0732093        -4.98197
75.27                          0               0                0               0         0.336023        -29.9969         0.934942        -121.069
                               0               0                0               0         0.934963        -121.101         0.336125        -29.9014
                               0               0                0               0        0.0708559        -4.88888        0.0896001        -16.1484
                               0               0                0               0        0.0896446        -16.2045        0.0707981        -4.80982
75.315                         0               0                0               0         0.337297        -31.0113         0.934649        -122.046
                               0               0                0               0         0.934722        -122.077         0.337399        -30.9202
                               0               0                0               0        0.0683006        -4.67485        0.0893486        -17.7312
                               0               0                0               0        0.0893977        -17.7831        0.0682347         -4.5897
75.36                          0               0                0               0         0.338282        -32.0849         0.934475        -123.078
                               0               0                0               0         0.934598        -123.108         0.338388        -31.9991
                               0               0                0               0        0.0655973        -4.39203        0.0890275        -19.4219
                               0               0                0               0        0.0890775        -19.4681        0.0655242         -4.3004
75.405                         0               0                0               0         0.338991        -33.2174         0.934418        -124.163
                               0               0                0               0         0.934585        -124.191         0.339101        -33.1369
                               0               0                0               0        0.0627517        -4.01399        0.0886388        -21.2177
                               0               0                0               0        0.0886856        -21.2578        0.0626735        -3.91546
75.45                          0               0                0               0         0.339433        -34.4077         0.934475        -125.299
                               0               0                0               0         0.934677        -125.325         0.339549        -34.3323
                               0               0                0               0        0.0597723        -3.50758        0.0881839        -23.1163
                               0               0                0               0        0.0882233        -23.1504        0.0596916        -3.40171
75.495                         0               0                0               0         0.339618        -35.6539          0.93464        -126.484
                               0               0                0               0         0.934866        -126.509         0.339742        -35.5831
                               0               0                0               0        0.0566706        -2.83097        0.0876632        -25.1147
                               0               0                0               0        0.0876912        -25.1437        0.0565903         -2.7172
75.54                          0               0                0               0         0.339555        -36.9539         0.934906        -127.716
                               0               0                0               0         0.935144        -127.739          0.33969         -36.887
                               0               0                0               0        0.0534628        -1.93096        0.0870767        -27.2103
                               0               0                0               0        0.0870896        -27.2357        0.0533858        -1.80856
75.585                         0               0                0               0         0.339253         -38.305         0.935266        -128.994
                               0               0                0               0         0.935506        -129.015         0.339402        -38.2412
                               0               0                0               0        0.0501704       -0.739414        0.0864238        -29.4004
                               0               0                0               0         0.086419        -29.4241        0.0500995       -0.607437
75.63                          0               0                0               0          0.33872        -39.7045         0.935712        -130.315
                               0               0                0               0         0.935944        -130.335         0.338886        -39.6429
                               0               0                0               0        0.0468227        0.831333         0.085704        -31.6824
                               0               0                0               0        0.0856796        -31.7066        0.0467606        0.974099
75.675                         0               0                0               0         0.337963        -41.1493         0.936235        -131.677
                               0               0                0               0         0.936452        -131.696          0.33815        -41.0889
                               0               0                0               0        0.0434594         2.89402        0.0849166        -34.0537
                               0               0                0               0        0.0848719        -34.0809        0.0434085         3.04906
75.72                          0               0                0               0         0.336988         -42.636         0.936827        -133.078
                               0               0                0               0         0.937024        -133.097           0.3372        -42.5761
                               0               0                0               0        0.0401346         5.59231        0.0840614        -36.5119
                               0               0                0               0        0.0839967        -36.5443        0.0400971         5.76124
75.765                         0               0                0               0         0.335805        -44.1615         0.937478        -134.517
                               0               0                0               0         0.937654        -134.536         0.336044        -44.1012
                               0               0                0               0        0.0369221         9.10434        0.0831382        -39.0545
                               0               0                0               0        0.0830553        -39.0944           0.0369         9.28858
75.81                          0               0                0               0         0.334421        -45.7224         0.938182         -135.99
                               0               0                0               0         0.938337        -136.009         0.334689        -45.6611
                               0               0                0               0        0.0339221         13.6375        0.0821478        -41.6794
                               0               0                0               0        0.0820493        -41.7285        0.0339179         13.8374
75.855                         0               0                0               0         0.332846        -47.3156         0.938929        -137.495
                               0               0                0               0         0.939067        -137.514         0.333143        -47.2525
                               0               0                0               0        0.0312687         19.4008        0.0810912        -44.3843
                               0               0                0               0        0.0809812        -44.4438        0.0312846         19.6142
75.9                           0               0                0               0         0.331091        -48.9376         0.939712         -139.03
                               0               0                0               0         0.939837        -139.048         0.331414        -48.8725
                               0               0                0               0        0.0291316         26.5332        0.0799708        -47.1671
                               0               0                0               0        0.0798538        -47.2374        0.0291699          26.753
75.945                         0               0                0               0         0.329169        -50.5853         0.940522        -140.591
                               0               0                0               0         0.940641        -140.609         0.329512        -50.5178
                               0               0                0               0         0.027705         34.9771        0.0787895        -50.0258
                               0               0                0               0        0.0786707        -50.1064         0.027767         35.1898
75.99                          0               0                0               0         0.327093        -52.2554         0.941352        -142.175
                               0               0                0               0         0.941471        -142.193         0.327447        -52.1858
                               0               0                0               0        0.0271706         44.3448        0.0775515        -52.9583
                               0               0                0               0         0.077436        -53.0476         0.027256         44.5323
76.035                         0               0                0               0         0.324881        -53.9447         0.942193         -143.78
                               0               0                0               0         0.942319        -143.797         0.325233        -53.8733
                               0               0                0               0        0.0276418         53.9203        0.0762619        -55.9624
                               0               0                0               0        0.0761546        -56.0581        0.0277476         54.0662
76.08                          0               0                0               0         0.322549        -55.6497         0.943038        -145.402
                               0               0                0               0         0.943175        -145.418         0.322885        -55.5776
                               0               0                0               0          0.02912         62.8935        0.0749269        -59.0357
                               0               0                0               0        0.0748315        -59.1347        0.0292415         62.9905
76.125                         0               0                0               0         0.320115        -57.3669          0.94388        -147.038
                               0               0                0               0          0.94403        -147.053          0.32042        -57.2954
                               0               0                0               0        0.0315022         70.6754        0.0735536        -62.1754
                               0               0                0               0        0.0734725        -62.2742         0.031634         70.7263
76.17                          0               0                0               0         0.317597        -59.0927          0.94471        -148.684
                               0               0                0               0         0.944875        -148.697         0.317859        -59.0236
                               0               0                0               0        0.0346288         77.0328          0.07215        -65.3783
                               0               0                0               0        0.0720836        -65.4738        0.0347662         77.0464
76.215                         0               0                0               0         0.315012        -60.8234         0.945522        -150.339
                               0               0                0               0         0.945701         -150.35         0.315222        -60.7586
                               0               0                0               0        0.0383341         82.0111        0.0707245        -68.6408
                               0               0                0               0        0.0706712        -68.7305        0.0384732         81.9976
76.26                          0               0                0               0         0.312373        -62.5556         0.946311        -151.998
                               0               0                0               0         0.946504        -152.007         0.312533        -62.4962
                               0               0                0               0        0.0424736         85.7919        0.0692859        -71.9583
                               0               0                0               0        0.0692419        -72.0418        0.0426116         85.7597
76.305                         0               0                0               0         0.309693        -64.2859         0.947074         -153.66
                               0               0                0               0         0.947282        -153.667         0.309816        -64.2321
                               0               0                0               0        0.0469309         88.5888        0.0678429         -75.326
                               0               0                0               0        0.0678027        -75.4056        0.0470657         88.5441
76.35                          0               0                0               0          0.30698        -66.0117          0.94781        -155.323
                               0               0                0               0         0.948037        -155.328         0.307092        -65.9614
                               0               0                0               0        0.0516153          90.598        0.0664042        -78.7383
                               0               0                0               0        0.0663611        -78.8201        0.0517455         90.5449
76.395                         0               0                0               0         0.304241        -67.7314          0.94852        -156.984
                               0               0                0               0         0.948781        -156.988         0.304384        -67.6793
                               0               0                0               0        0.0564557         91.9828        0.0649779        -82.1897
                               0               0                0               0        0.0649249        -82.2843         0.056581         91.9239
76.44                          0               0                0               0         0.301484        -69.4444         0.949209        -158.642
                               0               0                0               0         0.949529        -158.645         0.301708        -69.3814
