! TOUCHSTONE file generated by CST MICROWAVE STUDIO
! Date and time: Sun Jun 20 22:37:39 2021
! Project name: HIPS_d_sweep.cst
! Parameters = {fmax=120; fmin=75; b=0.46; d=22.15; a=0.63; phi=0; theta=0}
! Header version: 2018
! Port assignment regex: !\s*Touchstone port\s*([0-9]+)\s*=\s*(CST MWS port|CST DS port)\s*([0-9]+|Zmin|Zmax)\s*\(\"(.*)\"\)(\s*mode\s*([0-9]+))?.*
! Touchstone port assignment:
! Touchstone port 1 = CST MWS port Zmin ("") mode 1
! Touchstone port 2 = CST MWS port Zmin ("") mode 2
! Touchstone port 3 = CST MWS port Zmax ("") mode 1
! Touchstone port 4 = CST MWS port Zmax ("") mode 2
! S-Parameters are not renormalized. Unphysical impedance of 0 will be written to the file.
# GHz S MA R 0
75                             0               0                0               0        0.0324711        -118.788         0.973484         137.822
                               0               0                0               0         0.973523         137.831        0.0324225        -118.913
                               0               0                0               0         0.223305         48.0539        0.0338745         60.2275
                               0               0                0               0        0.0338237         60.1034         0.223292         48.0717
75.045                         0               0                0               0        0.0362195        -120.621         0.976306         137.111
                               0               0                0               0         0.977413         137.174        0.0361371        -120.837
                               0               0                0               0         0.223067         47.2868        0.0341396         60.7667
                               0               0                0               0        0.0341503         60.7454         0.223101         47.3164
75.09                          0               0                0               0         0.039607        -122.312          0.97825          136.37
                               0               0                0               0         0.979568         136.519        0.0395007        -122.568
                               0               0                0               0         0.222805         46.4811        0.0344516         61.1122
                               0               0                0               0        0.0345005         61.1455         0.222875         46.5154
75.135                         0               0                0               0        0.0426319        -123.903         0.979116         135.586
                               0               0                0               0         0.979331         135.807        0.0425128        -124.169
                               0               0                0               0         0.222536         45.6327        0.0348078         61.2521
                               0               0                0               0        0.0348743         61.3037         0.222627         45.6662
75.18                          0               0                0               0        0.0452955        -125.423         0.978733         134.739
                               0               0                0               0         0.977129         134.949        0.0451744        -125.679
                               0               0                0               0         0.222275         44.7359        0.0352037         61.1776
                               0               0                0               0         0.035271         61.2225         0.222369         44.7652
75.225                         0               0                0               0        0.0476015        -126.891         0.977213         133.789
                               0               0                0               0         0.974607         133.908         0.047488        -127.127
                               0               0                0               0         0.222028         43.7839        0.0356335         60.8833
                               0               0                0               0        0.0356882         60.9067         0.222111         43.8079
75.27                          0               0                0               0        0.0495554        -128.322         0.975215         132.709
                               0               0                0               0         0.973008         132.736        0.0494576        -128.532
                               0               0                0               0         0.221793         42.7693        0.0360899         60.3671
                               0               0                0               0        0.0361228         60.3632         0.221853         42.7889
75.315                         0               0                0               0        0.0511649        -129.726         0.973633         131.506
                               0               0                0               0         0.972408         131.494        0.0510885        -129.908
                               0               0                0               0         0.221554         41.6856        0.0365646         59.6311
                               0               0                0               0        0.0365706         59.6002         0.221588         41.7028
75.36                          0               0                0               0        0.0524392        -131.113         0.972863         130.223
                               0               0                0               0         0.972394         130.211        0.0523874        -131.268
                               0               0                0               0         0.221286         40.5287        0.0370487         58.6805
                               0               0                0               0        0.0370263         58.6278         0.221298         40.5454
75.405                         0               0                0               0         0.053389         -132.49         0.972709         128.893
                               0               0                0               0         0.972608         128.892        0.0533626         -132.62
                               0               0                0               0         0.220959         39.2974        0.0375327         57.5238
                               0               0                0               0        0.0374844         57.4569         0.220956         39.3145
75.45                          0               0                0               0        0.0540261        -133.864         0.972831         127.527
                               0               0                0               0         0.972856         127.534        0.0540234        -133.973
                               0               0                0               0         0.220545         37.9934        0.0380075         56.1723
                               0               0                0               0        0.0379383         56.0996         0.220534         38.0111
75.495                         0               0                0               0        0.0543631        -135.241         0.973013          126.12
                               0               0                0               0         0.973065         126.132        0.0543808        -135.331
                               0               0                0               0         0.220019         36.6203        0.0384641         54.6394
                               0               0                0               0        0.0383816         54.5684         0.220006         36.6382
75.54                          0               0                0               0        0.0544138        -136.624         0.973175         124.669
                               0               0                0               0         0.973227         124.682        0.0544465        -136.702
                               0               0                0               0         0.219362          35.183        0.0388944           52.94
                               0               0                0               0        0.0388073         52.8767          0.21935         35.2005
75.585                         0               0                0               0        0.0541923        -138.019         0.973314          123.17
                               0               0                0               0         0.973364         123.181        0.0542338        -138.088
                               0               0                0               0         0.218562         33.6862         0.039291           51.09
                               0               0                0               0        0.0392088         51.0378         0.218551         33.7031
75.63                          0               0                0               0        0.0537131        -139.428          0.97346          121.62
                               0               0                0               0         0.973508          121.63        0.0537567        -139.492
                               0               0                0               0         0.217608         32.1343        0.0396478         49.1052
                               0               0                0               0        0.0395794         49.0651         0.217598         32.1509
75.675                         0               0                0               0        0.0529911        -140.855         0.973649         120.021
                               0               0                0               0         0.973694         120.029        0.0530299        -140.918
                               0               0                0               0         0.216491         30.5313          0.03996         47.0012
                               0               0                0               0        0.0399131         46.9719         0.216484         30.5478
75.72                          0               0                0               0        0.0520411        -142.301         0.973914         118.375
                               0               0                0               0         0.973952          118.38         0.052069        -142.366
                               0               0                0               0         0.215205         28.8805        0.0402236         44.7926
                               0               0                0               0         0.040204         44.7708         0.215199         28.8974
75.765                         0               0                0               0        0.0508782        -143.767         0.974278         116.683
                               0               0                0               0         0.974303         116.687        0.0508899        -143.835
                               0               0                0               0          0.21374         27.1847        0.0404357         42.4925
                               0               0                0               0        0.0404469          42.474         0.213737         27.2025
75.81                          0               0                0               0        0.0495172        -145.253         0.974753         114.949
                               0               0                0               0         0.974759         114.952         0.049509        -145.325
                               0               0                0               0         0.212088         25.4466        0.0405939         40.1128
                               0               0                0               0        0.0406373         40.0928         0.212088         25.4655
75.855                         0               0                0               0        0.0479726        -146.758         0.975341         113.176
                               0               0                0               0         0.975323         113.178        0.0479426        -146.834
                               0               0                0               0         0.210237         23.6688        0.0406966         37.6634
                               0               0                0               0        0.0407709         37.6376         0.210241         23.6888
75.9                           0               0                0               0         0.046259         -148.28         0.976035          111.37
                               0               0                0               0          0.97599          111.37        0.0462073        -148.355
                               0               0                0               0         0.208177         21.8538        0.0407421         35.1526
                               0               0                0               0         0.040844          35.118         0.208186         21.8749
75.945                         0               0                0               0        0.0443907        -149.812         0.976819         109.532
                               0               0                0               0         0.976747         109.531        0.0443196        -149.883
                               0               0                0               0         0.205897         20.0043        0.0407287         32.5871
                               0               0                0               0        0.0408534         32.5422         0.205911         20.0264
75.99                          0               0                0               0        0.0423815        -151.348         0.977671         107.668
                               0               0                0               0         0.977572         107.665        0.0422958        -151.409
                               0               0                0               0         0.203387         18.1235        0.0406542         29.9724
                               0               0                0               0         0.040796          29.918         0.203406         18.1461
76.035                         0               0                0               0        0.0402453        -152.878         0.978563          105.78
                               0               0                0               0         0.978441         105.775         0.040152         -152.92
                               0               0                0               0         0.200637         16.2146        0.0405161          27.313
                               0               0                0               0        0.0406688          27.252         0.200658         16.2372
76.08                          0               0                0               0        0.0379958        -154.387         0.979463         103.873
                               0               0                0               0         0.979322         103.866        0.0379042          -154.4
                               0               0                0               0         0.197637         14.2813        0.0403113         24.6127
                               0               0                0               0        0.0404689         24.5505          0.19766         14.3035
76.125                         0               0                0               0        0.0356468        -155.856         0.980337         101.949
                               0               0                0               0         0.980184          101.94        0.0355681        -155.826
                               0               0                0               0          0.19438         12.3278        0.0400359         21.8751
                               0               0                0               0        0.0401935         21.8191         0.194404         12.3491
76.17                          0               0                0               0        0.0332123        -157.257         0.981152         100.012
                               0               0                0               0         0.980991             100        0.0331596         -157.17
                               0               0                0               0         0.190862         10.3585        0.0396854         19.1043
                               0               0                0               0        0.0398396         19.0636         0.190884         10.3785
76.215                         0               0                0               0        0.0307067        -158.553          0.98187          98.064
                               0               0                0               0         0.981709         98.0508        0.0306946        -158.392
                               0               0                0               0          0.18708         8.37844         0.039255         16.3054
                               0               0                0               0        0.0394043         16.2901         0.187098          8.3968
76.26                          0               0                0               0        0.0281455         -159.69          0.98246          96.109
                               0               0                0               0         0.982303          96.094        0.0281896         -159.44
                               0               0                0               0         0.183033         6.39304        0.0387397         13.4848
                               0               0                0               0        0.0388849         13.5051         0.183045         6.40955
76.305                         0               0                0               0        0.0255455        -160.595         0.982888         94.1492
                               0               0                0               0         0.982741         94.1325        0.0256621        -160.241
                               0               0                0               0         0.178726         4.40818        0.0381348         10.6508
                               0               0                0               0        0.0382787         10.7166         0.178729         4.42272
76.35                          0               0                0               0        0.0229259         -161.16         0.983124         92.1872
                               0               0                0               0         0.982992          92.169        0.0231317        -160.691
                               0               0                0               0         0.174163         2.43014        0.0374364         7.81441
                               0               0                0               0         0.037584         7.93373         0.174156         2.44276
76.395                         0               0                0               0        0.0203102        -161.224         0.983142         90.2253
                               0               0                0               0         0.983029         90.2058        0.0206211        -160.642
                               0               0                0               0         0.169355         0.46563        0.0366419         4.98932
                               0               0                0               0        0.0367997         5.16773         0.169335        0.476515
76.44                          0               0                0               0        0.0177285        -160.544         0.982918         88.2658
                               0               0                0               0         0.982827         88.2452        0.0181589        -159.878
