! TOUCHSTONE file generated by CST MICROWAVE STUDIO
! Date and time: Sun Jun 20 22:37:10 2021
! Project name: HIPS_d_sweep.cst
! Parameters = {fmax=120; fmin=75; b=0.46; d=19.05; a=0.63; phi=0; theta=0}
! Header version: 2018
! Port assignment regex: !\s*Touchstone port\s*([0-9]+)\s*=\s*(CST MWS port|CST DS port)\s*([0-9]+|Zmin|Zmax)\s*\(\"(.*)\"\)(\s*mode\s*([0-9]+))?.*
! Touchstone port assignment:
! Touchstone port 1 = CST MWS port Zmin ("") mode 1
! Touchstone port 2 = CST MWS port Zmin ("") mode 2
! Touchstone port 3 = CST MWS port Zmax ("") mode 1
! Touchstone port 4 = CST MWS port Zmax ("") mode 2
! S-Parameters are not renormalized. Unphysical impedance of 0 will be written to the file.
# GHz S MA R 0
75                             0               0                0               0         0.236288        -138.351         0.946606         129.546
                               0               0                0               0         0.946753         129.553         0.236267        -138.361
                               0               0                0               0         0.209389         42.1902        0.0639827         94.3817
                               0               0                0               0        0.0639874         94.3668         0.209257         42.1779
75.045                         0               0                0               0         0.239561        -139.006         0.945847         128.943
                               0               0                0               0         0.945993         128.949         0.239553        -139.009
                               0               0                0               0         0.208625         41.6747        0.0647567         93.5932
                               0               0                0               0        0.0647333         93.6116         0.208497         41.6633
75.09                          0               0                0               0         0.242518        -139.704         0.945163         128.262
                               0               0                0               0         0.945306         128.269         0.242514        -139.704
                               0               0                0               0         0.207907         41.0818        0.0655074         92.6996
                               0               0                0               0        0.0654683         92.7362          0.20778         41.0709
75.135                         0               0                0               0         0.245158        -140.451         0.944564         127.508
                               0               0                0               0         0.944704         127.515         0.245154        -140.449
                               0               0                0               0         0.207225         40.4174        0.0662366         91.6955
                               0               0                0               0        0.0661933         91.7375         0.207099         40.4065
75.18                          0               0                0               0         0.247483        -141.248         0.944056         126.685
                               0               0                0               0         0.944192         126.692         0.247475        -141.246
                               0               0                0               0         0.206571         39.6861        0.0669465         90.5763
                               0               0                0               0        0.0669089         90.6133         0.206444         39.6751
75.225                         0               0                0               0           0.2495        -142.098         0.943641         125.796
                               0               0                0               0         0.943774         125.803         0.249486        -142.098
                               0               0                0               0         0.205933         38.8922        0.0676392         89.3386
                               0               0                0               0        0.0676156         89.3625         0.205805         38.8809
75.27                          0               0                0               0         0.251215        -143.001         0.943319         124.844
                               0               0                0               0          0.94345         124.851         0.251195        -143.004
                               0               0                0               0         0.205301          38.039        0.0683169           87.98
                               0               0                0               0        0.0683134         87.9852         0.205172         38.0274
75.315                         0               0                0               0          0.25264        -143.959         0.943087         123.833
                               0               0                0               0         0.943218          123.84         0.252612        -143.964
                               0               0                0               0         0.204661         37.1298        0.0689816         86.4995
                               0               0                0               0        0.0690018         86.4826          0.20453         37.1178
75.36                          0               0                0               0         0.253786        -144.971         0.942942         122.765
                               0               0                0               0         0.943073         122.772          0.25375         -144.98
                               0               0                0               0         0.204002         36.1671        0.0696345         84.8975
                               0               0                0               0        0.0696798         84.8571          0.20387         36.1547
75.405                         0               0                0               0         0.254664        -146.037         0.942879         121.642
                               0               0                0               0          0.94301          121.65         0.254622        -146.048
                               0               0                0               0         0.203311         35.1533        0.0702764         83.1753
                               0               0                0               0        0.0703457         83.1122         0.203177         35.1407
75.45                          0               0                0               0         0.255287        -147.155         0.942892         120.469
                               0               0                0               0         0.943025         120.477         0.255239        -147.169
                               0               0                0               0         0.202575         34.0906        0.0709073         81.3361
                               0               0                0               0        0.0709975         81.2525          0.20244         34.0777
75.495                         0               0                0               0         0.255669        -148.325         0.942976         119.246
                               0               0                0               0          0.94311         119.255         0.255616         -148.34
                               0               0                0               0         0.201782         32.9808        0.0715261         79.3838
                               0               0                0               0        0.0716325         79.2835         0.201646         32.9679
75.54                          0               0                0               0         0.255822        -149.543         0.943124         117.978
                               0               0                0               0          0.94326         117.987         0.255765        -149.559
                               0               0                0               0          0.20092          31.826        0.0721309         77.3238
                               0               0                0               0        0.0722477         77.2117         0.200782          31.813
75.585                         0               0                0               0         0.255761        -150.809         0.943333         116.665
                               0               0                0               0          0.94347         116.675         0.255701        -150.825
                               0               0                0               0         0.199976          30.628        0.0727192         75.1625
                               0               0                0               0        0.0728401         75.0441         0.199838          30.615
75.63                          0               0                0               0         0.255499        -152.119         0.943597          115.31
                               0               0                0               0         0.943734          115.32         0.255436        -152.135
                               0               0                0               0         0.198938         29.3884        0.0732873         72.9073
                               0               0                0               0        0.0734062         72.7886         0.198799         29.3756
75.675                         0               0                0               0         0.255047        -153.472         0.943913         113.915
                               0               0                0               0         0.944048         113.926         0.254983        -153.487
                               0               0                0               0         0.197796         28.1093        0.0738312         70.5662
                               0               0                0               0        0.0739426         70.4534         0.197657         28.0966
75.72                          0               0                0               0         0.254419        -154.864         0.944278         112.484
                               0               0                0               0          0.94441         112.495         0.254355        -154.878
                               0               0                0               0         0.196539         26.7925        0.0743466         68.1483
                               0               0                0               0        0.0744463          68.047           0.1964         26.7799
75.765                         0               0                0               0         0.253628        -156.295          0.94469         111.016
                               0               0                0               0         0.944818         111.028         0.253564        -156.305
                               0               0                0               0         0.195157           25.44        0.0748289         65.6628
                               0               0                0               0        0.0749143          65.578         0.195018         25.4276
75.81                          0               0                0               0         0.252686         -157.76          0.94515         109.516
                               0               0                0               0         0.945272         109.528         0.252622        -157.768
                               0               0                0               0         0.193641         24.0538        0.0752739         63.1193
                               0               0                0               0         0.075344         63.0549         0.193503         24.0416
75.855                         0               0                0               0         0.251605        -159.258         0.945659         107.984
                               0               0                0               0         0.945772         107.997         0.251543        -159.262
                               0               0                0               0         0.191984         22.6361        0.0756776         60.5276
                               0               0                0               0        0.0757335         60.4859         0.191846          22.624
75.9                           0               0                0               0         0.250396        -160.786         0.946217         106.424
                               0               0                0               0          0.94632         106.436         0.250337        -160.787
                               0               0                0               0         0.190178         21.1892         0.076037          57.897
                               0               0                0               0        0.0760812         57.8789         0.190041         21.1772
75.945                         0               0                0               0         0.249072        -162.342         0.946829         104.838
                               0               0                0               0          0.94692          104.85         0.249017         -162.34
                               0               0                0               0         0.188217         19.7154        0.0763497         55.2367
                               0               0                0               0        0.0763858         55.2414         0.188081         19.7036
75.99                          0               0                0               0         0.247645        -163.925         0.947498         103.227
                               0               0                0               0         0.947575         103.239         0.247594        -163.919
                               0               0                0               0         0.186098         18.2174        0.0766142         52.5551
                               0               0                0               0        0.0766468           52.58         0.185962         18.2055
76.035                         0               0                0               0         0.246127        -165.532         0.948228         101.595
                               0               0                0               0         0.948289         101.607         0.246081        -165.522
                               0               0                0               0         0.183817         16.6978        0.0768299         49.8597
                               0               0                0               0        0.0768637         49.9009         0.183682         16.6858
76.08                          0               0                0               0          0.24453        -167.161         0.949022          99.944
                               0               0                0               0         0.949067         99.9552         0.244489        -167.148
                               0               0                0               0         0.181372         15.1591        0.0769973         47.1571
                               0               0                0               0        0.0770364         47.2094         0.181237          15.147
76.125                         0               0                0               0         0.242865         -168.81         0.949883         98.2767
                               0               0                0               0         0.949913         98.2873          0.24283        -168.795
                               0               0                0               0         0.178763         13.6044         0.077117         44.4527
                               0               0                0               0         0.077165         44.5103         0.178627          13.592
76.17                          0               0                0               0         0.241146        -170.479         0.950814          96.596
                               0               0                0               0         0.950827         96.6059         0.241117         -170.46
                               0               0                0               0         0.175989         12.0365        0.0771905         41.7507
                               0               0                0               0        0.0772495         41.8075         0.175854         12.0238
76.215                         0               0                0               0         0.239384        -172.164         0.951812         94.9047
                               0               0                0               0         0.951811          94.914         0.239361        -172.143
                               0               0                0               0         0.173054         10.4584        0.0772191         39.0542
                               0               0                0               0        0.0772898         39.1046         0.172919         10.4454
76.26                          0               0                0               0         0.237591        -173.865         0.952876         93.2057
                               0               0                0               0         0.952862         93.2143         0.237575        -173.841
                               0               0                0               0          0.16996         8.87336        0.0772038         36.3653
                               0               0                0               0        0.0772858         36.4046         0.169824         8.85992
76.305                         0               0                0               0          0.23578        -175.578         0.953998          91.502
                               0               0                0               0         0.953972         91.5101         0.235769        -175.553
                               0               0                0               0         0.166711         7.28446        0.0771454         33.6852
                               0               0                0               0        0.0772371         33.7099         0.166574         7.27061
76.35                          0               0                0               0         0.233963        -177.302         0.955168         89.7966
                               0               0                0               0         0.955131         89.8042         0.233956        -177.276
                               0               0                0               0         0.163312         5.69508        0.0770439         31.0146
                               0               0                0               0        0.0771429         31.0231         0.163173         5.68081
76.395                         0               0                0               0         0.232149        -179.035          0.95637         88.0922
                               0               0                0               0         0.956324         88.0995         0.232146        -179.007
                               0               0                0               0         0.159767         4.10869        0.0768985         28.3538
                               0               0                0               0        0.0770023         28.3463         0.159628         4.09404
76.44                          0               0                0               0          0.23035         179.228         0.957585         86.3915
                               0               0                0               0         0.957531         86.3987         0.230349         179.256
