! TOUCHSTONE file generated by CST MICROWAVE STUDIO
! Date and time: Sun Jun 20 22:37:53 2021
! Project name: HIPS_d_sweep.cst
! Parameters = {fmax=120; fmin=75; b=0.46; d=23.4; a=0.63; phi=0; theta=0}
! Header version: 2018
! Port assignment regex: !\s*Touchstone port\s*([0-9]+)\s*=\s*(CST MWS port|CST DS port)\s*([0-9]+|Zmin|Zmax)\s*\(\"(.*)\"\)(\s*mode\s*([0-9]+))?.*
! Touchstone port assignment:
! Touchstone port 1 = CST MWS port Zmin ("") mode 1
! Touchstone port 2 = CST MWS port Zmin ("") mode 2
! Touchstone port 3 = CST MWS port Zmax ("") mode 1
! Touchstone port 4 = CST MWS port Zmax ("") mode 2
! S-Parameters are not renormalized. Unphysical impedance of 0 will be written to the file.
# GHz S MA R 0
75                             0               0                0               0        0.0549713        -99.3136         0.983628        -4.59104
                               0               0                0               0         0.983585        -4.58469        0.0552727        -99.2669
                               0               0                0               0         0.169192         84.8307        0.0281471         65.0663
                               0               0                0               0        0.0280047         64.9092         0.169207          84.854
75.045                         0               0                0               0        0.0509402        -100.495         0.983669        -5.35475
                               0               0                0               0         0.983645        -5.34649         0.051234        -100.485
                               0               0                0               0         0.170713         84.1302        0.0275671         65.3744
                               0               0                0               0        0.0274382         65.1939         0.170721         84.1559
75.09                          0               0                0               0        0.0472372        -101.712         0.983577        -6.19512
                               0               0                0               0         0.983545        -6.18733        0.0475294        -101.687
                               0               0                0               0         0.172336         83.3318        0.0271022         65.4396
                               0               0                0               0        0.0269693         65.2658         0.172344         83.3571
75.135                         0               0                0               0        0.0439054        -102.987          0.98338         -7.1121
                               0               0                0               0         0.983322        -7.10629         0.044197        -102.911
                               0               0                0               0         0.174082         82.4395        0.0267564          65.299
                               0               0                0               0          0.02661         65.1532           0.1741         82.4629
75.18                          0               0                0               0        0.0409751        -104.339         0.983102        -8.10525
                               0               0                0               0         0.983008        -8.10216        0.0412628        -104.194
                               0               0                0               0         0.175969         81.4583        0.0265298         64.9832
                               0               0                0               0        0.0263669         64.8806         0.176002         81.4794
75.225                         0               0                0               0        0.0384642        -105.786         0.982765        -9.17373
                               0               0                0               0         0.982631         -9.1734        0.0387418        -105.569
                               0               0                0               0         0.178007         80.3942        0.0264199         64.5153
                               0               0                0               0         0.026243         64.4664         0.178059         80.4133
75.27                          0               0                0               0        0.0363794        -107.341         0.982385        -10.3163
                               0               0                0               0         0.982211        -10.3183        0.0366396        -107.061
                               0               0                0               0           0.1802          79.253        0.0264228         63.9106
                               0               0                0               0        0.0262383         63.9212          0.18027         79.2709
75.315                         0               0                0               0        0.0347177        -109.005         0.981977        -11.5313
                               0               0                0               0         0.981765        -11.5347        0.0349538         -108.68
                               0               0                0               0         0.182545         78.0401        0.0265338         63.1773
                               0               0                0               0        0.0263502         63.2482         0.182631         78.0576
75.36                          0               0                0               0        0.0334683        -110.771          0.98155        -12.8169
                               0               0                0               0         0.981305        -12.8207        0.0336751        -110.426
                               0               0                0               0         0.185032         76.7604        0.0267472          62.317
                               0               0                0               0         0.026574         62.4437         0.185128         76.7782
75.405                         0               0                0               0        0.0326143         -112.62          0.98111        -14.1707
                               0               0                0               0         0.980838        -14.1736         0.032789        -112.281
                               0               0                0               0         0.187645         75.4176        0.0270564         61.3268
                               0               0                0               0        0.0269027         61.4995         0.187744         75.4362
75.45                          0               0                0               0        0.0321338        -114.528         0.980662        -15.5901
                               0               0                0               0         0.980369        -15.5911        0.0322761        -114.216
                               0               0                0               0         0.190364         74.0146        0.0274538         60.2001
                               0               0                0               0        0.0273267         60.4051         0.190459         74.0342
75.495                         0               0                0               0         0.032002        -116.464         0.980205        -17.0724
                               0               0                0               0         0.979897        -17.0706        0.0321137        -116.195
                               0               0                0               0         0.193164         72.5533        0.0279302         58.9292
                               0               0                0               0         0.027834         59.1501         0.193245          72.574
75.54                          0               0                0               0         0.032192        -118.401         0.979738        -18.6144
                               0               0                0               0         0.979419        -18.6091        0.0322765        -118.182
                               0               0                0               0         0.196013         71.0348        0.0284748         57.5062
                               0               0                0               0        0.0284104         57.7271         0.196072         71.0563
75.585                         0               0                0               0        0.0326762        -120.315         0.979255        -20.2129
                               0               0                0               0         0.978931        -20.2039        0.0327379        -120.146
                               0               0                0               0         0.198879         69.4597        0.0290754         55.9252
                               0               0                0               0        0.0290398         56.1332         0.198909         69.4817
75.63                          0               0                0               0        0.0334274        -122.188         0.978753        -21.8644
                               0               0                0               0         0.978427        -21.8521        0.0334708        -122.063
                               0               0                0               0         0.201721         67.8282        0.0297181          54.184
                               0               0                0               0        0.0297052         54.3709         0.201719         67.8503
75.675                         0               0                0               0        0.0344194         -124.01         0.978226        -23.5654
                               0               0                0               0         0.977901        -23.5505        0.0344488        -123.919
                               0               0                0               0         0.204497         66.1403        0.0303878         52.2841
                               0               0                0               0        0.0303894         52.4483         0.204463         66.1623
75.72                          0               0                0               0        0.0356277        -125.781         0.977668        -25.3121
                               0               0                0               0         0.977346        -25.2961        0.0356468        -125.709
                               0               0                0               0         0.207163         64.3964        0.0310694          50.232
                               0               0                0               0        0.0310765         50.3779         0.207102         64.4179
75.765                         0               0                0               0        0.0370299        -127.501         0.977075        -27.1009
                               0               0                0               0         0.976759        -27.0857        0.0370417        -127.437
                               0               0                0               0         0.209671         62.5971        0.0317481         48.0382
                               0               0                0               0        0.0317524         48.1752         0.209596         62.6179
75.81                          0               0                0               0        0.0386057        -129.178         0.976447        -28.9281
                               0               0                0               0         0.976135         -28.916        0.0386123         -129.11
                               0               0                0               0         0.211972         60.7436        0.0324106         45.7169
                               0               0                0               0        0.0324057         45.8573         0.211904         60.7638
75.855                         0               0                0               0         0.040337        -130.822         0.975784        -30.7901
                               0               0                0               0         0.975477        -30.7837        0.0403399         -130.74
                               0               0                0               0          0.21402         58.8378        0.0330457         43.2841
                               0               0                0               0        0.0330276         43.4406         0.213991         58.8579
75.9                           0               0                0               0        0.0422083        -132.443         0.975092        -32.6833
                               0               0                0               0         0.974789        -32.6855        0.0422083         -132.34
                               0               0                0               0         0.215778         56.8827        0.0336451         40.7567
                               0               0                0               0        0.0336126         40.9401         0.215827         56.9036
75.945                         0               0                0               0        0.0442057        -134.051         0.974379        -34.6043
                               0               0                0               0         0.974081        -34.6177         0.044203        -133.926
                               0               0                0               0         0.217219         54.8825         0.034203         38.1508
                               0               0                0               0        0.0341574         38.3681         0.217393          54.906
75.99                          0               0                0               0        0.0463175        -135.659         0.973659        -36.5501
                               0               0                0               0         0.973368        -36.5768        0.0463119        -135.509
                               0               0                0               0         0.218341         52.8427        0.0347166         35.4809
                               0               0                0               0        0.0346607         35.7343         0.218685         52.8719
76.035                         0               0                0               0        0.0485339        -137.275         0.972954        -38.5175
                               0               0                0               0         0.972671        -38.5589        0.0485248        -137.103
                               0               0                0               0          0.21917         50.7712        0.0351852          32.759
                               0               0                0               0         0.035123         33.0455         0.219715         50.8102
76.08                          0               0                0               0        0.0508466        -138.907         0.972289         -40.504
                               0               0                0               0         0.972019        -40.5603        0.0508332        -138.719
                               0               0                0               0         0.219765         48.6795        0.0356096         29.9945
                               0               0                0               0        0.0355454         30.3061         0.220516         48.7323
76.125                         0               0                0               0         0.053249        -140.564         0.971693        -42.5071
                               0               0                0               0         0.971444        -42.5767        0.0532306        -140.366
                               0               0                0               0         0.220217         46.5827        0.0359916         27.1942
                               0               0                0               0        0.0359295          27.519         0.221132         46.6512
76.17                          0               0                0               0        0.0557359        -142.252         0.971202        -44.5245
                               0               0                0               0         0.970981        -44.6039        0.0557122        -142.052
                               0               0                0               0         0.220624         44.4995        0.0363331         24.3631
                               0               0                0               0         0.036277         24.6862         0.221619         44.5809
76.215                         0               0                0               0         0.058304        -143.974         0.970856        -46.5539
                               0               0                0               0         0.970669        -46.6374        0.0582756        -143.783
                               0               0                0               0         0.221064         42.4476        0.0366352         21.5045
                               0               0                0               0        0.0365886         21.8099         0.222024         42.5331
76.26                          0               0                0               0        0.0609512        -145.733          0.97069        -48.5933
                               0               0                0               0         0.970544        -48.6728        0.0609207        -145.563
                               0               0                0               0         0.221564         40.4368        0.0368979         18.6212
                               0               0                0               0        0.0368641         18.8929         0.222375         40.5143
76.305                         0               0                0               0        0.0636775         -147.53         0.970741        -50.6402
                               0               0                0               0         0.970631        -50.7059        0.0636504        -147.394
                               0               0                0               0         0.222093         38.4641        0.0371193         15.7157
                               0               0                0               0        0.0371014         15.9399         0.222672         38.5234
76.35                          0               0                0               0        0.0664842         -149.36         0.971031        -52.6917
                               0               0                0               0         0.970946        -52.7327        0.0664715        -149.272
                               0               0                0               0         0.222569          36.514        0.0372952          12.791
                               0               0                0               0        0.0372963         12.9572         0.222884         36.5515
76.395                         0               0                0               0        0.0693737        -151.216         0.971566        -54.7443
                               0               0                0               0         0.971484          -54.75        0.0693947        -151.188
                               0               0                0               0         0.222881         34.5653        0.0374189         9.85036
                               0               0                0               0        0.0374416         9.95282         0.222949         34.5851
76.44                          0               0                0               0        0.0723472        -153.083         0.972322        -56.7939
                               0               0                0               0         0.972214         -56.756        0.0724335        -153.122
