! TOUCHSTONE file generated by CST MICROWAVE STUDIO
! Date and time: Sun Jun 20 22:37:35 2021
! Project name: HIPS_d_sweep.cst
! Parameters = {fmax=120; fmin=75; b=0.46; d=21.8; a=0.63; phi=0; theta=0}
! Header version: 2018
! Port assignment regex: !\s*Touchstone port\s*([0-9]+)\s*=\s*(CST MWS port|CST DS port)\s*([0-9]+|Zmin|Zmax)\s*\(\"(.*)\"\)(\s*mode\s*([0-9]+))?.*
! Touchstone port assignment:
! Touchstone port 1 = CST MWS port Zmin ("") mode 1
! Touchstone port 2 = CST MWS port Zmin ("") mode 2
! Touchstone port 3 = CST MWS port Zmax ("") mode 1
! Touchstone port 4 = CST MWS port Zmax ("") mode 2
! S-Parameters are not renormalized. Unphysical impedance of 0 will be written to the file.
# GHz S MA R 0
75                             0               0                0               0        0.0549734        -91.5314         0.985331         176.948
                               0               0                0               0         0.985257         176.941        0.0549651         -91.599
                               0               0                0               0          0.16132         87.1866        0.0123975          134.79
                               0               0                0               0        0.0124383         135.019         0.161444         87.1659
75.045                         0               0                0               0        0.0587188        -92.4395         0.984862         176.234
                               0               0                0               0         0.984815         176.227        0.0587073         -92.499
                               0               0                0               0         0.162596         86.4688        0.0128117         136.773
                               0               0                0               0        0.0128559         136.971         0.162723         86.4486
75.09                          0               0                0               0        0.0620698        -93.3199         0.984392         175.445
                               0               0                0               0         0.984357         175.438        0.0620563         -93.375
                               0               0                0               0         0.164072         85.6836        0.0132992         137.928
                               0               0                0               0        0.0133456         138.107           0.1642         85.6637
75.135                         0               0                0               0        0.0650216        -94.2086         0.983916         174.583
                               0               0                0               0         0.983885         174.575        0.0650068        -94.2611
                               0               0                0               0         0.165742         84.8302        0.0138424         138.322
                               0               0                0               0        0.0138902         138.488          0.16587         84.8104
75.18                          0               0                0               0        0.0675748        -95.1276         0.983432         173.648
                               0               0                0               0         0.983399         173.641        0.0675591        -95.1785
                               0               0                0               0         0.167598         83.9081        0.0144289         138.034
                               0               0                0               0        0.0144776         138.192         0.167725         83.8884
75.225                         0               0                0               0         0.069734        -96.0895         0.982937         172.643
                               0               0                0               0         0.982901         172.636        0.0697174        -96.1391
                               0               0                0               0         0.169628         82.9175         0.015051         137.144
                               0               0                0               0        0.0151003         137.297         0.169755          82.898
75.27                          0               0                0               0        0.0715073        -97.1004         0.982431         171.569
                               0               0                0               0         0.982393         171.562        0.0714894        -97.1489
                               0               0                0               0         0.171819         81.8592        0.0157041          135.73
                               0               0                0               0        0.0157537          135.88         0.171945         81.8398
75.315                         0               0                0               0        0.0729048        -98.1624         0.981914         170.428
                               0               0                0               0         0.981877         170.421        0.0728852        -98.2096
                               0               0                0               0         0.174156          80.734        0.0163861         133.864
                               0               0                0               0        0.0164356         134.012         0.174282          80.715
75.36                          0               0                0               0         0.073939        -99.2742         0.981387         169.221
                               0               0                0               0         0.981353         169.214        0.0739173          -99.32
                               0               0                0               0         0.176623         79.5436        0.0170962         131.613
                               0               0                0               0        0.0171455         131.759          0.17675         79.5248
75.405                         0               0                0               0        0.0746237        -100.433         0.980854         167.951
                               0               0                0               0         0.980825         167.944        0.0745996        -100.477
                               0               0                0               0         0.179202         78.2898        0.0178347         129.036
                               0               0                0               0        0.0178834          129.18         0.179329         78.2713
75.45                          0               0                0               0        0.0749744        -101.633         0.980316         166.619
                               0               0                0               0         0.980294         166.613        0.0749476        -101.676
                               0               0                0               0         0.181874         76.9746        0.0186018         126.188
                               0               0                0               0        0.0186497         126.331         0.182001         76.9564
75.495                         0               0                0               0        0.0750077        -102.871         0.979778         165.229
                               0               0                0               0         0.979763         165.222         0.074978        -102.913
                               0               0                0               0         0.184619         75.6005        0.0193977         123.117
                               0               0                0               0        0.0194445          123.26         0.184746         75.5826
75.54                          0               0                0               0        0.0747411        -104.141         0.979244         163.782
                               0               0                0               0         0.979236         163.776        0.0747087        -104.181
                               0               0                0               0         0.187416         74.1699        0.0202218         119.869
                               0               0                0               0        0.0202674          120.01         0.187543         74.1523
75.585                         0               0                0               0        0.0741932        -105.437         0.978717         162.282
                               0               0                0               0         0.978715         162.275        0.0741583        -105.475
                               0               0                0               0         0.190244         72.6855         0.021073          116.48
                               0               0                0               0        0.0211172         116.622         0.190371         72.6683
75.63                          0               0                0               0        0.0733832        -106.754         0.978203         160.731
                               0               0                0               0         0.978203         160.724         0.073346        -106.791
                               0               0                0               0          0.19308         71.1502         0.021949         112.987
                               0               0                0               0        0.0219918         113.129         0.193207         71.1333
75.675                         0               0                0               0        0.0723306        -108.086         0.977703         159.133
                               0               0                0               0         0.977704         159.126        0.0722916        -108.122
                               0               0                0               0         0.195903         69.5669         0.022847         109.418
                               0               0                0               0        0.0228882          109.56          0.19603         69.5503
75.72                          0               0                0               0        0.0710557         -109.43         0.977223         157.491
                               0               0                0               0          0.97722         157.484        0.0710152        -109.464
                               0               0                0               0          0.19869         67.9384        0.0237629         105.799
                               0               0                0               0        0.0238025         105.942         0.198817         67.9222
75.765                         0               0                0               0        0.0695785        -110.779         0.976763         155.807
                               0               0                0               0         0.976753           155.8         0.069537        -110.813
                               0               0                0               0         0.201421          66.268        0.0246921         102.153
                               0               0                0               0        0.0247302         102.297         0.201546         66.2521
75.81                          0               0                0               0        0.0679196        -112.132         0.976327         154.087
                               0               0                0               0         0.976306          154.08        0.0678772        -112.164
                               0               0                0               0         0.204072         64.5585        0.0256293         98.4985
                               0               0                0               0        0.0256661         98.6422         0.204197         64.5431
75.855                         0               0                0               0        0.0660989        -113.484         0.975913         152.333
                               0               0                0               0          0.97588         152.325         0.066056        -113.515
                               0               0                0               0         0.206624         62.8132        0.0265687         94.8503
                               0               0                0               0        0.0266043         94.9936         0.206747         62.7981
75.9                           0               0                0               0        0.0641364        -114.831         0.975523         150.549
                               0               0                0               0         0.975478         150.541        0.0640931         -114.86
                               0               0                0               0         0.209055         61.0353        0.0275043         91.2216
                               0               0                0               0        0.0275389         91.3635         0.209177         61.0206
75.945                         0               0                0               0        0.0620517        -116.171         0.975157         148.739
                               0               0                0               0         0.975101         148.731        0.0620081        -116.199
                               0               0                0               0         0.211347         59.2278        0.0284299         87.6227
                               0               0                0               0        0.0284637         87.7622         0.211469         59.2135
75.99                          0               0                0               0        0.0598639        -117.501         0.974814         146.906
                               0               0                0               0         0.974749         146.898        0.0598198        -117.526
                               0               0                0               0         0.213482         57.3942        0.0293393          84.062
                               0               0                0               0        0.0293726         84.1977         0.213603         57.3802
76.035                         0               0                0               0        0.0575915        -118.816         0.974494         145.054
                               0               0                0               0         0.974425         145.045        0.0575467        -118.839
                               0               0                0               0         0.215443         55.5377        0.0302265          80.546
                               0               0                0               0        0.0302597         80.6763         0.215563         55.5239
76.08                          0               0                0               0        0.0552522        -120.114         0.974198         143.186
                               0               0                0               0         0.974129         143.177        0.0552065        -120.133
                               0               0                0               0         0.217215         53.6616        0.0310861         77.0796
                               0               0                0               0        0.0311192         77.2028         0.217335          53.648
76.125                         0               0                0               0        0.0528632        -121.389         0.973927         141.305
                               0               0                0               0         0.973863         141.297        0.0528162        -121.404
                               0               0                0               0         0.218786         51.7693        0.0319127         73.6664
                               0               0                0               0        0.0319458         73.7806         0.218905         51.7557
76.17                          0               0                0               0        0.0504408        -122.634         0.973685         139.415
                               0               0                0               0         0.973632         139.406        0.0503923        -122.645
                               0               0                0               0         0.220144         49.8642        0.0327016         70.3089
                               0               0                0               0        0.0327347         70.4123         0.220264         49.8505
76.215                         0               0                0               0        0.0480002        -123.843         0.973478         137.517
                               0               0                0               0         0.973439         137.509          0.04795        -123.848
                               0               0                0               0         0.221281         47.9496        0.0334485         67.0085
                               0               0                0               0        0.0334816         67.0993         0.221401         47.9356
76.26                          0               0                0               0        0.0455561        -125.005         0.973314         135.615
                               0               0                0               0         0.973289         135.607        0.0455041        -125.004
                               0               0                0               0         0.222192         46.0288        0.0341497         63.7659
                               0               0                0               0        0.0341824         63.8424         0.222312         46.0145
76.305                         0               0                0               0        0.0431219        -126.106         0.973205          133.71
                               0               0                0               0         0.973189         133.703        0.0430684        -126.097
                               0               0                0               0         0.222873         44.1051        0.0348018         60.5811
                               0               0                0               0        0.0348337         60.6418         0.222993         44.0903
76.35                          0               0                0               0        0.0407104         -127.13         0.973165         131.805
                               0               0                0               0         0.973147         131.798        0.0406558        -127.113
                               0               0                0               0         0.223322         42.1814         0.035402         57.4534
                               0               0                0               0        0.0354325         57.4975         0.223442         42.1662
76.395                         0               0                0               0        0.0383335        -128.056          0.97321           129.9
                               0               0                0               0         0.973174         129.894        0.0382786        -128.028
                               0               0                0               0          0.22354         40.2608        0.0359478         54.3824
                               0               0                0               0        0.0359762          54.409         0.223659         40.2452
76.44                          0               0                0               0        0.0360024        -128.857          0.97336         127.997
                               0               0                0               0         0.973277         127.991        0.0359483        -128.816
