! TOUCHSTONE file generated by CST MICROWAVE STUDIO
! Date and time: Sun Jun 20 22:37:03 2021
! Project name: HIPS_d_sweep.cst
! Parameters = {fmax=120; fmin=75; b=0.46; d=18.2; a=0.63; phi=0; theta=0}
! Header version: 2018
! Port assignment regex: !\s*Touchstone port\s*([0-9]+)\s*=\s*(CST MWS port|CST DS port)\s*([0-9]+|Zmin|Zmax)\s*\(\"(.*)\"\)(\s*mode\s*([0-9]+))?.*
! Touchstone port assignment:
! Touchstone port 1 = CST MWS port Zmin ("") mode 1
! Touchstone port 2 = CST MWS port Zmin ("") mode 2
! Touchstone port 3 = CST MWS port Zmax ("") mode 1
! Touchstone port 4 = CST MWS port Zmax ("") mode 2
! S-Parameters are not renormalized. Unphysical impedance of 0 will be written to the file.
# GHz S MA R 0
75                             0               0                0               0         0.313386        -43.3705         0.945703        -133.657
                               0               0                0               0         0.945647        -133.672         0.313396        -43.3202
                               0               0                0               0        0.0327167         9.45657        0.0795292        -38.9565
                               0               0                0               0        0.0796186        -39.0313         0.032739          9.3826
75.045                         0               0                0               0         0.313455        -44.6912         0.947291          -134.9
                               0               0                0               0         0.947281        -134.913         0.313385        -44.6506
                               0               0                0               0        0.0304829         13.4009        0.0790598         -41.006
                               0               0                0               0        0.0791521        -41.0808        0.0305007         13.3158
75.09                          0               0                0               0         0.313467        -46.0197         0.948782        -136.149
                               0               0                0               0         0.948815         -136.16         0.313325        -45.9878
                               0               0                0               0        0.0284829         18.1715        0.0785598        -43.0942
                               0               0                0               0        0.0786546        -43.1685        0.0284952         18.0754
75.135                         0               0                0               0          0.31342        -47.3554         0.950173        -137.404
                               0               0                0               0         0.950249        -137.414         0.313214        -47.3311
                               0               0                0               0        0.0267939         23.8441        0.0780288        -45.2216
                               0               0                0               0        0.0781258        -45.2953        0.0267998         23.7382
75.18                          0               0                0               0         0.313314        -48.6976         0.951464        -138.664
                               0               0                0               0          0.95158        -138.673          0.31305          -48.68
                               0               0                0               0        0.0255045         30.4173        0.0774662        -47.3891
                               0               0                0               0        0.0775652        -47.4618        0.0255029         30.3046
75.225                         0               0                0               0         0.313149        -50.0458         0.952654         -139.93
                               0               0                0               0         0.952808        -139.938         0.312834        -50.0339
                               0               0                0               0        0.0247047         37.7609        0.0768719        -49.5973
                               0               0                0               0        0.0769727        -49.6687        0.0246952         37.6463
75.27                          0               0                0               0         0.312924        -51.3994         0.953742        -141.202
                               0               0                0               0         0.953931        -141.208         0.312564        -51.3922
                               0               0                0               0        0.0244705         45.5863        0.0762457        -51.8468
                               0               0                0               0         0.076348        -51.9165         0.024453          45.476
75.315                         0               0                0               0         0.312639        -52.7576         0.954726        -142.479
                               0               0                0               0         0.954949        -142.484          0.31224        -52.7544
                               0               0                0               0         0.024845         53.4795        0.0755876        -54.1383
                               0               0                0               0        0.0756911        -54.2059        0.0248203         53.3795
75.36                          0               0                0               0         0.312294        -54.1199         0.955606        -143.761
                               0               0                0               0         0.955861        -143.765         0.311861          -54.12
                               0               0                0               0        0.0258277         61.0034        0.0748977        -56.4724
                               0               0                0               0        0.0750023        -56.5375         0.025797         60.9177
75.405                         0               0                0               0         0.311888        -55.4856         0.956382        -145.047
                               0               0                0               0         0.956666        -145.052         0.311427        -55.4882
                               0               0                0               0         0.027377         67.8136        0.0741762        -58.8497
                               0               0                0               0        0.0742817         -58.912        0.0273417         67.7434
75.45                          0               0                0               0         0.311423        -56.8542         0.957053        -146.339
                               0               0                0               0         0.957363        -146.343         0.310939        -56.8586
                               0               0                0               0        0.0294248         73.7203        0.0734237        -61.2708
                               0               0                0               0        0.0735298        -61.3298        0.0293866         73.6647
75.495                         0               0                0               0         0.310898         -58.225         0.957619        -147.636
                               0               0                0               0         0.957953        -147.638         0.310396        -58.2306
                               0               0                0               0        0.0318944         78.6793        0.0726407        -63.7364
                               0               0                0               0        0.0727472        -63.7917        0.0318545         78.6359
75.54                          0               0                0               0         0.310314        -59.5973         0.958079        -148.936
                               0               0                0               0         0.958435        -148.939         0.309798        -59.6037
                               0               0                0               0        0.0347122         82.7429         0.071828        -66.2469
                               0               0                0               0        0.0719349        -66.2982        0.0346717         82.7092
75.585                         0               0                0               0         0.309672        -60.9707         0.958435        -150.241
                               0               0                0               0          0.95881        -150.243         0.309147        -60.9771
                               0               0                0               0        0.0378147         86.0113        0.0709868        -68.8031
                               0               0                0               0        0.0710937        -68.8498        0.0377743         85.9848
75.63                          0               0                0               0         0.308973        -62.3444         0.958685        -151.551
                               0               0                0               0         0.959077        -151.552         0.308443        -62.3506
                               0               0                0               0        0.0411491         88.5972        0.0701181        -71.4054
                               0               0                0               0         0.070225        -71.4471        0.0411095         88.5759
75.675                         0               0                0               0         0.308219        -63.7179          0.95883        -152.864
                               0               0                0               0         0.959236        -152.865         0.307686        -63.7234
                               0               0                0               0        0.0446733         90.6082        0.0692235        -74.0543
                               0               0                0               0        0.0693302        -74.0906        0.0446349         90.5903
75.72                          0               0                0               0         0.307409        -65.0907         0.958872         -154.18
                               0               0                0               0         0.959289        -154.182         0.306878         -65.095
                               0               0                0               0        0.0483533         92.1383        0.0683046        -76.7505
                               0               0                0               0        0.0684109        -76.7809        0.0483163         92.1226
75.765                         0               0                0               0         0.306547        -66.4622          0.95881        -155.501
                               0               0                0               0         0.959236        -155.502          0.30602         -66.465
                               0               0                0               0        0.0521616         93.2671        0.0673632        -79.4943
                               0               0                0               0         0.067469        -79.5184        0.0521263         93.2526
75.81                          0               0                0               0         0.305633        -67.8318         0.958645        -156.825
                               0               0                0               0         0.959078        -156.826         0.305114        -67.8329
                               0               0                0               0        0.0560759         94.0598        0.0664015        -82.2864
                               0               0                0               0        0.0665066        -82.3037        0.0560424         94.0458
75.855                         0               0                0               0         0.304669         -69.199         0.958378        -158.151
                               0               0                0               0         0.958816        -158.153          0.30416        -69.1982
                               0               0                0               0        0.0600776           94.57        0.0654218        -85.1271
                               0               0                0               0         0.065526        -85.1372        0.0600459         94.5558
75.9                           0               0                0               0         0.303657        -70.5634         0.958011        -159.481
                               0               0                0               0          0.95845        -159.483          0.30316        -70.5603
                               0               0                0               0        0.0641506         94.8411        0.0644265        -88.0169
                               0               0                0               0        0.0645297        -88.0194        0.0641208         94.8264
75.945                         0               0                0               0           0.3026        -71.9245         0.957544        -160.814
                               0               0                0               0         0.957983        -160.816         0.302116         -71.919
                               0               0                0               0         0.068281         94.9085        0.0634184        -90.9562
                               0               0                0               0        0.0635205        -90.9506         0.068253          94.893
75.99                          0               0                0               0         0.301498        -73.2817         0.956979        -162.149
                               0               0                0               0         0.957415        -162.152          0.30103        -73.2737
                               0               0                0               0        0.0724564         94.8014        0.0624005        -93.9454
                               0               0                0               0        0.0625012        -93.9313        0.0724302         94.7849
76.035                         0               0                0               0         0.300354        -74.6347         0.956318        -163.487
                               0               0                0               0         0.956748         -163.49         0.299904         -74.624
                               0               0                0               0        0.0766653         94.5437        0.0613758        -96.9847
                               0               0                0               0         0.061475        -96.9617        0.0766408          94.526
76.08                          0               0                0               0         0.299171        -75.9831         0.955562        -164.827
                               0               0                0               0         0.955985        -164.831         0.298739        -75.9696
                               0               0                0               0        0.0808973         94.1554        0.0603475        -100.074
                               0               0                0               0        0.0604451        -100.042        0.0808744         94.1363
76.125                         0               0                0               0          0.29795        -77.3265         0.954714         -166.17
                               0               0                0               0         0.955126        -166.173         0.297538        -77.3101
                               0               0                0               0        0.0851423         93.6529        0.0593192        -103.214
                               0               0                0               0        0.0594149        -103.173        0.0851209         93.6325
76.17                          0               0                0               0         0.296694        -78.6644         0.953774        -167.514
                               0               0                0               0         0.954174        -167.518         0.296302        -78.6451
                               0               0                0               0        0.0893908         93.0504        0.0582943        -106.405
                               0               0                0               0        0.0583879        -106.353        0.0893708         93.0285
76.215                         0               0                0               0         0.295405        -79.9967         0.952746         -168.86
                               0               0                0               0         0.953132        -168.865         0.295035        -79.9744
                               0               0                0               0        0.0936337         92.3597        0.0572765        -109.646
                               0               0                0               0        0.0573677        -109.584        0.0936148         92.3363
76.26                          0               0                0               0         0.294086        -81.3228          0.95163        -170.207
                               0               0                0               0            0.952        -170.213         0.293737        -81.2976
                               0               0                0               0        0.0978621          91.591        0.0562695        -112.937
                               0               0                0               0        0.0563581        -112.865        0.0978442         91.5662
76.305                         0               0                0               0         0.292739        -82.6427         0.950431        -171.556
                               0               0                0               0         0.950783        -171.562         0.292412        -82.6145
                               0               0                0               0         0.102067         90.7533         0.055277        -116.278
                               0               0                0               0        0.0553628        -116.195          0.10205          90.727
76.35                          0               0                0               0         0.291367        -83.9559         0.949149        -172.907
                               0               0                0               0         0.949481        -172.913         0.291061        -83.9249
                               0               0                0               0         0.106241         89.8541        0.0543028        -119.667
                               0               0                0               0        0.0543856        -119.574         0.106224         89.8264
76.395                         0               0                0               0         0.289971        -85.2623         0.947789        -174.258
                               0               0                0               0         0.948099        -174.266         0.289688        -85.2284
                               0               0                0               0         0.110375         88.9002        0.0533507        -123.104
                               0               0                0               0        0.0534301            -123         0.110359         88.8712
76.44                          0               0                0               0         0.288555        -86.5616         0.946351         -175.61
                               0               0                0               0         0.946637        -175.619         0.288293        -86.5249
