! TOUCHSTONE file generated by CST MICROWAVE STUDIO
! Date and time: Sun Jun 20 22:37:12 2021
! Project name: HIPS_d_sweep.cst
! Parameters = {fmax=120; fmin=75; b=0.46; d=19.4; a=0.63; phi=0; theta=0}
! Header version: 2018
! Port assignment regex: !\s*Touchstone port\s*([0-9]+)\s*=\s*(CST MWS port|CST DS port)\s*([0-9]+|Zmin|Zmax)\s*\(\"(.*)\"\)(\s*mode\s*([0-9]+))?.*
! Touchstone port assignment:
! Touchstone port 1 = CST MWS port Zmin ("") mode 1
! Touchstone port 2 = CST MWS port Zmin ("") mode 2
! Touchstone port 3 = CST MWS port Zmax ("") mode 1
! Touchstone port 4 = CST MWS port Zmax ("") mode 2
! S-Parameters are not renormalized. Unphysical impedance of 0 will be written to the file.
# GHz S MA R 0
75                             0               0                0               0         0.225285         -176.61         0.958209         90.4923
                               0               0                0               0         0.958264         90.5049          0.22509        -176.571
                               0               0                0               0         0.159285         6.10094        0.0757533         30.2635
                               0               0                0               0        0.0757983         30.2038         0.159435         6.14086
75.045                         0               0                0               0         0.228642        -177.343         0.957794         89.8354
                               0               0                0               0           0.9578         89.8475           0.2285        -177.311
                               0               0                0               0         0.157558         5.65052        0.0763625         29.5065
                               0               0                0               0        0.0763552         29.4423         0.157717         5.69007
75.09                          0               0                0               0         0.231735        -178.121         0.957392          89.116
                               0               0                0               0         0.957372         89.1281         0.231624        -178.094
                               0               0                0               0         0.155684         5.13639        0.0768874          28.636
                               0               0                0               0        0.0768502         28.5666         0.155848         5.17581
75.135                         0               0                0               0         0.234552         -178.95         0.957021         88.3341
                               0               0                0               0         0.956992         88.3465         0.234451        -178.925
                               0               0                0               0         0.153666         4.55967        0.0773331         27.6486
                               0               0                0               0        0.0772848         27.5754         0.153831          4.5991
75.18                          0               0                0               0         0.237082        -179.833         0.956699         87.4899
                               0               0                0               0         0.956675         87.5028         0.236974        -179.808
                               0               0                0               0         0.151503         3.92163        0.0777046         26.5424
                               0               0                0               0        0.0776597         26.4683         0.151668         3.96117
75.225                         0               0                0               0         0.239318         179.227         0.956441          86.584
                               0               0                0               0          0.95643         86.5974         0.239189         179.253
                               0               0                0               0         0.149195         3.22372        0.0780063          25.317
                               0               0                0               0        0.0779756         25.2456         0.149357         3.26343
75.27                          0               0                0               0         0.241256         178.228         0.956261         85.6169
                               0               0                0               0         0.956268         85.6309         0.241098         178.255
                               0               0                0               0         0.146739         2.46756        0.0782417         23.9732
                               0               0                0               0        0.0782325         23.9081         0.146897         2.50749
75.315                         0               0                0               0         0.242894         177.169         0.956169         84.5896
                               0               0                0               0         0.956196         84.6042         0.242703         177.196
                               0               0                0               0         0.144132         1.65492        0.0784137         22.5129
                               0               0                0               0        0.0784299         22.4575         0.144286         1.69511
75.36                          0               0                0               0         0.244235         176.048         0.956172         83.5034
                               0               0                0               0         0.956219         83.5183          0.24401         176.074
                               0               0                0               0         0.141371         0.78778        0.0785238         20.9388
                               0               0                0               0         0.078567         20.8958          0.14152        0.828271
75.405                         0               0                0               0         0.245282         174.865         0.956276         82.3597
                               0               0                0               0         0.956341         82.3746         0.245027         174.891
                               0               0                0               0          0.13845       -0.131639        0.0785729         19.2544
                               0               0                0               0        0.0786423         19.2257         0.138596      -0.0908138
75.45                          0               0                0               0         0.246041         173.621         0.956483         81.1601
                               0               0                0               0         0.956564         81.1746         0.245762         173.645
                               0               0                0               0         0.135366        -1.10085        0.0785608         17.4637
                               0               0                0               0         0.078654         17.4501         0.135508        -1.05966
75.495                         0               0                0               0          0.24652         172.317         0.956794         79.9064
                               0               0                0               0         0.956886         79.9202         0.246225          172.34
                               0               0                0               0         0.132113        -2.11704        0.0784865         15.5714
                               0               0                0               0           0.0786         15.5728         0.132254        -2.07547
75.54                          0               0                0               0         0.246727         170.955         0.957206         78.6008
                               0               0                0               0         0.957305         78.6134         0.246426         170.975
                               0               0                0               0         0.128688        -3.17702        0.0783486         13.5823
                               0               0                0               0         0.078478         13.5977         0.128828        -3.13507
75.585                         0               0                0               0         0.246673         169.537         0.957714         77.2453
                               0               0                0               0         0.957816         77.2564         0.246377         169.555
                               0               0                0               0         0.125086        -4.27712        0.0781449         11.5015
                               0               0                0               0        0.0782856         11.5292         0.125227         -4.2348
75.63                          0               0                0               0         0.246369         168.065         0.958311         75.8424
                               0               0                0               0         0.958411         75.8516         0.246087         168.082
                               0               0                0               0         0.121305        -5.41317        0.0778734          9.3343
                               0               0                0               0        0.0780206         9.37185         0.121447        -5.37053
75.675                         0               0                0               0         0.245827         166.543          0.95899         74.3944
                               0               0                0               0         0.959084         74.4014         0.245569         166.559
                               0               0                0               0          0.11734        -6.58035        0.0775319         7.08602
                               0               0                0               0        0.0776809         7.13063         0.117485        -6.53746
75.72                          0               0                0               0         0.245059         164.974          0.95974         72.9041
                               0               0                0               0         0.959825         72.9087         0.244831         164.989
                               0               0                0               0         0.113192        -7.77311        0.0771182         4.76208
                               0               0                0               0        0.0772647         4.81064          0.11334        -7.73007
75.765                         0               0                0               0         0.244078         163.361         0.960552         71.3741
                               0               0                0               0         0.960623         71.3763         0.243887         163.376
                               0               0                0               0          0.10886        -8.98506        0.0766306         2.36778
                               0               0                0               0        0.0767708         2.41708         0.109011        -8.94199
75.81                          0               0                0               0         0.242898         161.708         0.961413         69.8072
                               0               0                0               0         0.961469         69.8069         0.242745         161.724
                               0               0                0               0         0.104344        -10.2088        0.0760678      -0.0917134
                               0               0                0               0        0.0761986      -0.0447812           0.1045        -10.1658
75.855                         0               0                0               0         0.241531         160.018         0.962315         68.2063
                               0               0                0               0         0.962351         68.2037         0.241418         160.036
                               0               0                0               0        0.0996488        -11.4356        0.0754292        -2.61143
                               0               0                0               0         0.075548        -2.56973        0.0998087        -11.3929
75.9                           0               0                0               0         0.239992         158.295         0.963246         66.5742
                               0               0                0               0         0.963262         66.5696         0.239916         158.315
                               0               0                0               0        0.0947783        -12.6553        0.0747147        -5.18668
                               0               0                0               0        0.0748199        -5.15268        0.0949424         -12.613
75.945                         0               0                0               0         0.238294         156.542         0.964197          64.914
                               0               0                0               0          0.96419         64.9078          0.23825         156.565
                               0               0                0               0         0.089739        -13.8559        0.0739249        -7.81314
                               0               0                0               0        0.0740157        -7.78877        0.0899069        -13.8142
75.99                          0               0                0               0          0.23645         154.763         0.965161         63.2285
                               0               0                0               0          0.96513         63.2212         0.236432         154.788
                               0               0                0               0        0.0845393        -15.0229        0.0730612        -10.4869
                               0               0                0               0        0.0731376        -10.4734        0.0847104        -14.9819
76.035                         0               0                0               0         0.234475          152.96          0.96613         61.5208
                               0               0                0               0         0.966075          61.513         0.234475         152.987
                               0               0                0               0        0.0791896        -16.1386        0.0721258        -13.2044
                               0               0                0               0        0.0721887        -13.2025        0.0793631        -16.0985
76.08                          0               0                0               0         0.232382         151.136         0.967102         59.7938
                               0               0                0               0         0.967021         59.7861         0.232389         151.165
                               0               0                0               0         0.073702         -17.181        0.0711213        -15.9627
                               0               0                0               0        0.0711725        -15.9722         0.073877        -17.1417
76.125                         0               0                0               0         0.230184         149.294         0.968074         58.0505
                               0               0                0               0         0.967967         58.0435          0.23019         149.324
                               0               0                0               0        0.0680906        -18.1216        0.0700513        -18.7594
                               0               0                0               0         0.070093        -18.7792         0.068266        -18.0832
76.17                          0               0                0               0         0.227896         147.435         0.969044         56.2938
                               0               0                0               0         0.968911         56.2881          0.22789         147.465
                               0               0                0               0        0.0623714        -18.9226        0.0689195        -21.5922
                               0               0                0               0        0.0689547        -21.6207        0.0625462        -18.8853
76.215                         0               0                0               0          0.22553         145.563         0.970015         54.5267
                               0               0                0               0         0.969856         54.5227         0.225504         145.591
                               0               0                0               0        0.0565627        -19.5321        0.0677304        -24.4595
                               0               0                0               0        0.0677623        -24.4944         0.056736        -19.4961
76.26                          0               0                0               0         0.223101          143.68         0.970986         52.7521
                               0               0                0               0         0.970802         52.7502         0.223048         143.705
                               0               0                0               0        0.0506857        -19.8751        0.0664886        -27.3599
                               0               0                0               0        0.0665206        -27.3981        0.0508567        -19.8411
76.305                         0               0                0               0         0.220621         141.788         0.971958         50.9729
                               0               0                0               0          0.97175         50.9731         0.220537         141.808
                               0               0                0               0         0.044766        -19.8387        0.0651988         -30.292
                               0               0                0               0        0.0652343        -30.3301        0.0449341        -19.8081
76.35                          0               0                0               0         0.218105         139.889          0.97293          49.192
                               0               0                0               0         0.972699         49.1942         0.217988         139.904
                               0               0                0               0        0.0388364        -19.2432        0.0638661        -33.2543
                               0               0                0               0        0.0639077        -33.2886        0.0390012         -19.219
76.395                         0               0                0               0         0.215563         137.988         0.973892         47.4122
                               0               0                0               0         0.973642         47.4159         0.215416         137.996
                               0               0                0               0        0.0329436        -17.7848         0.062495        -36.2447
                               0               0                0               0        0.0625449        -36.2716        0.0331048        -17.7735
76.44                          0               0                0               0         0.213009         136.088         0.974832         45.6363
                               0               0                0               0         0.974564         45.6409         0.212836          136.09
