! TOUCHSTONE file generated by CST MICROWAVE STUDIO
! Date and time: Sun Jun 20 22:36:55 2021
! Project name: HIPS_d_sweep.cst
! Parameters = {fmax=120; fmin=75; b=0.46; d=17.2; a=0.63; phi=0; theta=0}
! Header version: 2018
! Port assignment regex: !\s*Touchstone port\s*([0-9]+)\s*=\s*(CST MWS port|CST DS port)\s*([0-9]+|Zmin|Zmax)\s*\(\"(.*)\"\)(\s*mode\s*([0-9]+))?.*
! Touchstone port assignment:
! Touchstone port 1 = CST MWS port Zmin ("") mode 1
! Touchstone port 2 = CST MWS port Zmin ("") mode 2
! Touchstone port 3 = CST MWS port Zmax ("") mode 1
! Touchstone port 4 = CST MWS port Zmax ("") mode 2
! S-Parameters are not renormalized. Unphysical impedance of 0 will be written to the file.
# GHz S MA R 0
75                             0               0                0               0         0.357354         68.8248         0.916325        -20.8352
                               0               0                0               0         0.916274        -20.8384         0.357408         68.8448
                               0               0                0               0         0.167594         67.7922        0.0660634         167.761
                               0               0                0               0        0.0660451         167.743         0.167522          67.755
75.045                         0               0                0               0         0.360022         68.1627         0.916306         -21.441
                               0               0                0               0         0.916274        -21.4444         0.360082         68.1824
                               0               0                0               0         0.167956         67.3426        0.0667666         166.511
                               0               0                0               0        0.0667457         166.415          0.16789         67.3065
75.09                          0               0                0               0         0.362425         67.4817         0.916008        -22.0927
                               0               0                0               0         0.915988         -22.096         0.362489         67.5012
                               0               0                0               0         0.168353         66.8334        0.0674051         165.171
                               0               0                0               0        0.0673935         165.025         0.168291         66.7981
75.135                         0               0                0               0         0.364543         66.7776         0.915474         -22.793
                               0               0                0               0         0.915461        -22.7961          0.36461          66.797
                               0               0                0               0         0.168799         66.2659        0.0679829         163.732
                               0               0                0               0        0.0679861          163.56         0.168739         66.2311
75.18                          0               0                0               0         0.366363         66.0459         0.914752         -23.544
                               0               0                0               0         0.914741        -23.5469         0.366431         66.0652
                               0               0                0               0          0.16931         65.6423        0.0685058         162.184
                               0               0                0               0         0.068524         162.008         0.169249         65.6078
75.225                         0               0                0               0         0.367877         65.2822         0.913893        -24.3475
                               0               0                0               0          0.91388        -24.3501         0.367945         65.3015
                               0               0                0               0         0.169896         64.9657        0.0689817         160.521
                               0               0                0               0        0.0690107         160.357         0.169833         64.9312
75.27                          0               0                0               0         0.369082         64.4822         0.912949        -25.2043
                               0               0                0               0         0.912931        -25.2067         0.369149         64.5014
                               0               0                0               0         0.170564         64.2396        0.0694201         158.737
                               0               0                0               0        0.0694529         158.597         0.170499         64.2049
75.315                         0               0                0               0         0.369983         63.6421         0.911972        -26.1149
                               0               0                0               0         0.911947        -26.1172         0.370047         63.6612
                               0               0                0               0          0.17132         63.4678        0.0698316          156.83
                               0               0                0               0        0.0698601         156.721         0.171251         63.4327
75.36                          0               0                0               0         0.370587         62.7585          0.91101         -27.079
                               0               0                0               0         0.910978        -27.0812         0.370649         62.7776
                               0               0                0               0         0.172163         62.6541        0.0702275         154.797
                               0               0                0               0        0.0702439         154.721         0.172091         62.6184
75.405                         0               0                0               0          0.37091         61.8288         0.910108        -28.0958
                               0               0                0               0         0.910069        -28.0979          0.37097         61.8479
                               0               0                0               0         0.173093         61.8018        0.0706194          152.64
                               0               0                0               0        0.0706175         152.595         0.173017         61.7655
75.45                          0               0                0               0         0.370968         60.8513         0.909305        -29.1637
                               0               0                0               0         0.909259        -29.1659         0.371026         60.8703
                               0               0                0               0         0.174104          60.914        0.0710184         150.361
                               0               0                0               0        0.0709944         150.343         0.174025         60.8773
75.495                         0               0                0               0         0.370783         59.8249         0.908633        -30.2811
                               0               0                0               0         0.908581        -30.2833         0.370839         59.8439
                               0               0                0               0          0.17519         59.9935        0.0714344         147.967
                               0               0                0               0        0.0713876         147.969         0.175108         59.9563
75.54                          0               0                0               0         0.370377         58.7495         0.908118        -31.4456
                               0               0                0               0         0.908061        -31.4478         0.370431         58.7686
                               0               0                0               0         0.176342         59.0422        0.0718761         145.463
                               0               0                0               0        0.0718085         145.478         0.176257         59.0048
75.585                         0               0                0               0         0.369772         57.6261         0.907776        -32.6546
                               0               0                0               0         0.907717        -32.6569         0.369825         57.6454
                               0               0                0               0         0.177549         58.0619        0.0723507         142.858
                               0               0                0               0        0.0722667         142.881         0.177462         58.0244
75.63                          0               0                0               0         0.368991         56.4563         0.907617        -33.9053
                               0               0                0               0         0.907556        -33.9078         0.369043         56.4758
                               0               0                0               0           0.1788         57.0538        0.0728629         140.163
                               0               0                0               0         0.072769         140.187         0.178712         57.0164
75.675                         0               0                0               0         0.368055         55.2423         0.907643        -35.1949
                               0               0                0               0         0.907582        -35.1975         0.368107         55.2621
                               0               0                0               0         0.180083         56.0188        0.0734158         137.387
                               0               0                0               0        0.0733191         137.407         0.179993         55.9816
75.72                          0               0                0               0         0.366984         53.9871         0.907848        -36.5203
                               0               0                0               0         0.907788        -36.5229         0.367035         54.0075
                               0               0                0               0         0.181383         54.9573        0.0740101         134.541
                               0               0                0               0        0.0739182         134.556         0.181292         54.9205
75.765                         0               0                0               0         0.365794         52.6942          0.90822        -37.8785
                               0               0                0               0         0.908163        -37.8812         0.365844         52.7152
                               0               0                0               0         0.182687         53.8697        0.0746445         131.637
                               0               0                0               0        0.0745643         131.644         0.182596         53.8336
75.81                          0               0                0               0           0.3645         51.3675         0.908744        -39.2665
                               0               0                0               0         0.908691        -39.2692          0.36455         51.3891
                               0               0                0               0          0.18398         52.7564        0.0753159         128.685
                               0               0                0               0        0.0752533         128.684         0.183889         52.7209
75.855                         0               0                0               0         0.363115         50.0109         0.909396        -40.6814
                               0               0                0               0         0.909347        -40.6841         0.363165         50.0334
                               0               0                0               0         0.185248         51.6176        0.0760196         125.695
                               0               0                0               0         0.075979         125.687         0.185156         51.5828
75.9                           0               0                0               0          0.36165         48.6287         0.910151        -42.1202
                               0               0                0               0         0.910108        -42.1231         0.361698         48.6521
                               0               0                0               0         0.186474         50.4535        0.0767496         122.678
                               0               0                0               0        0.0767336         122.664         0.186383         50.4194
75.945                         0               0                0               0         0.360114         47.2252         0.910982        -43.5804
                               0               0                0               0         0.910943        -43.5833          0.36016         47.2495
                               0               0                0               0         0.187644         49.2646        0.0774986         119.644
                               0               0                0               0        0.0775081         119.624         0.187553         49.2312
75.99                          0               0                0               0         0.358513         45.8046         0.911857        -45.0592
                               0               0                0               0         0.911824        -45.0622         0.358556         45.8299
                               0               0                0               0         0.188742         48.0514        0.0782588         116.599
                               0               0                0               0         0.078293         116.576         0.188651         48.0187
76.035                         0               0                0               0         0.356853          44.371         0.912744         -46.554
                               0               0                0               0         0.912716        -46.5571         0.356894         44.3973
                               0               0                0               0         0.189752         46.8149        0.0790219         113.552
                               0               0                0               0        0.0790782         113.527         0.189662         46.7828
76.08                          0               0                0               0          0.35514         42.9284         0.913614        -48.0626
                               0               0                0               0          0.91359        -48.0658         0.355177         42.9558
                               0               0                0               0         0.190659         45.5563        0.0797792         110.511
                               0               0                0               0         0.079854         110.485         0.190569         45.5246
76.125                         0               0                0               0         0.353378         41.4806         0.914432        -49.5825
                               0               0                0               0         0.914412        -49.5859          0.35341          41.509
                               0               0                0               0         0.191448         44.2769        0.0805226         107.481
                               0               0                0               0        0.0806109         107.456         0.191359         44.2456
76.17                          0               0                0               0         0.351571         40.0311         0.915171        -51.1114
                               0               0                0               0         0.915153         -51.115         0.351598         40.0606
                               0               0                0               0         0.192106         42.9786        0.0812437         104.468
                               0               0                0               0        0.0813401         104.445         0.192017         42.9476
76.215                         0               0                0               0         0.349723         38.5833           0.9158        -52.6473
                               0               0                0               0         0.915784        -52.6511         0.349744         38.6137
                               0               0                0               0          0.19262         41.6636        0.0819352         101.478
                               0               0                0               0        0.0820336         101.457          0.19253         41.6329
76.26                          0               0                0               0         0.347838         37.1401         0.916293        -54.1879
                               0               0                0               0         0.916278        -54.1921         0.347853         37.1715
                               0               0                0               0         0.192978         40.3345        0.0825902         98.5142
                               0               0                0               0        0.0826843         98.4957         0.192887         40.3038
76.305                         0               0                0               0          0.34592         35.7043         0.916626        -55.7314
                               0               0                0               0         0.916612        -55.7359         0.345929         35.7367
                               0               0                0               0          0.19317          38.994        0.0832027          95.582
                               0               0                0               0        0.0832864         95.5664         0.193077         38.9634
76.35                          0               0                0               0         0.343975         34.2784         0.916779        -57.2756
                               0               0                0               0         0.916763        -57.2805         0.343976         34.3118
                               0               0                0               0         0.193186         37.6454        0.0837676         92.6845
                               0               0                0               0         0.083835         92.6721         0.193092         37.6148
76.395                         0               0                0               0         0.342006         32.8646         0.916734        -58.8188
                               0               0                0               0         0.916715        -58.8241            0.342         32.8988
                               0               0                0               0         0.193022          36.292        0.0842807         89.8251
                               0               0                0               0        0.0843264         89.8161         0.192924         36.2614
76.44                          0               0                0               0          0.34002         31.4648         0.916476        -60.3591
                               0               0                0               0         0.916453        -60.3648         0.340006         31.4999
