! TOUCHSTONE file generated by CST MICROWAVE STUDIO
! Date and time: Sun Jun 20 22:37:22 2021
! Project name: HIPS_d_sweep.cst
! Parameters = {fmax=120; fmin=75; b=0.46; d=20.55; a=0.63; phi=0; theta=0}
! Header version: 2018
! Port assignment regex: !\s*Touchstone port\s*([0-9]+)\s*=\s*(CST MWS port|CST DS port)\s*([0-9]+|Zmin|Zmax)\s*\(\"(.*)\"\)(\s*mode\s*([0-9]+))?.*
! Touchstone port assignment:
! Touchstone port 1 = CST MWS port Zmin ("") mode 1
! Touchstone port 2 = CST MWS port Zmin ("") mode 2
! Touchstone port 3 = CST MWS port Zmax ("") mode 1
! Touchstone port 4 = CST MWS port Zmax ("") mode 2
! S-Parameters are not renormalized. Unphysical impedance of 0 will be written to the file.
# GHz S MA R 0
75                             0               0                0               0         0.137244         52.0866         0.965323        -40.7411
                               0               0                0               0         0.965583        -40.7221         0.137169         52.1133
                               0               0                0               0         0.216967         50.3253        0.0427876         95.6208
                               0               0                0               0        0.0426711         95.5472         0.217019         50.3276
75.045                         0               0                0               0          0.14016         51.0584         0.966046        -41.4375
                               0               0                0               0         0.966053         -41.388         0.140021         51.0005
                               0               0                0               0         0.217097         49.6602        0.0436646         94.9127
                               0               0                0               0        0.0435501          94.886         0.217146         49.6636
75.09                          0               0                0               0          0.14301          50.083         0.966333         -42.189
                               0               0                0               0         0.966129        -42.1222         0.142855         49.9646
                               0               0                0               0         0.217113         48.9479        0.0445162         94.1608
                               0               0                0               0        0.0443991         94.1678         0.217158         48.9519
75.135                         0               0                0               0         0.145745         49.1576         0.966248        -42.9981
                               0               0                0               0         0.965901         -42.925         0.145607         49.0053
                               0               0                0               0         0.217022         48.1838        0.0453341         93.3543
                               0               0                0               0        0.0452112         93.3806         0.217064         48.1879
75.18                          0               0                0               0         0.148308         48.2756         0.965857        -43.8671
                               0               0                0               0         0.965452        -43.7961         0.148208         48.1162
                               0               0                0               0         0.216834         47.3638        0.0461104           92.48
                               0               0                0               0        0.0459803         92.5111         0.216875         47.3676
75.225                         0               0                0               0         0.150644         47.4261         0.965229        -44.7972
                               0               0                0               0         0.964857        -44.7345         0.150586         47.2845
                               0               0                0               0         0.216564         46.4848        0.0468387         91.5224
                               0               0                0               0        0.0467022         91.5443         0.216603         46.4879
75.27                          0               0                0               0         0.152705         46.5947         0.964434        -45.7892
                               0               0                0               0         0.964184        -45.7387         0.152673         46.4911
                               0               0                0               0         0.216223         45.5445        0.0475144         90.4641
                               0               0                0               0        0.0473749         90.4645         0.216262         45.5468
75.315                         0               0                0               0         0.154446         45.7637         0.963538        -46.8434
                               0               0                0               0          0.96349        -46.8067         0.154415         45.7117
                               0               0                0               0         0.215826         44.5416        0.0481364         89.2868
                               0               0                0               0        0.0479995         89.2565         0.215866         44.5432
75.36                          0               0                0               0         0.155839         44.9135         0.962604        -47.9592
                               0               0                0               0         0.962822        -47.9365         0.155778         44.9196
                               0               0                0               0         0.215384         43.4761        0.0487074         87.9726
                               0               0                0               0        0.0485801         87.9061         0.215425         43.4768
75.405                         0               0                0               0          0.15687         44.0245         0.961693        -49.1357
                               0               0                0               0         0.962221        -49.1256         0.156748         44.0876
                               0               0                0               0         0.214907         42.3487        0.0492341         86.5053
                               0               0                0               0        0.0491238         86.4019          0.21495         42.3486
75.45                          0               0                0               0         0.157541         43.0779         0.960855        -50.3714
                               0               0                0               0         0.961715        -50.3714         0.157335         43.1912
                               0               0                0               0         0.214402         41.1609        0.0497274         84.8727
                               0               0                0               0        0.0496405         84.7362         0.214447           41.16
75.495                         0               0                0               0         0.157866         42.0578         0.960138        -51.6645
                               0               0                0               0         0.961328        -51.6714         0.157567         42.2102
                               0               0                0               0         0.213872         39.9148        0.0502007         83.0678
                               0               0                0               0        0.0501414         82.9061          0.21392         39.9133
75.54                          0               0                0               0         0.157872          40.952          0.95958        -53.0127
                               0               0                0               0         0.961075        -53.0231         0.157482         41.1305
                               0               0                0               0         0.213318         38.6129         0.050669           81.09
                               0               0                0               0        0.0506379         80.9134         0.213367          38.611
75.585                         0               0                0               0         0.157593         39.7521         0.959213        -54.4135
                               0               0                0               0         0.960966        -54.4239         0.157125         39.9437
                               0               0                0               0         0.212735          37.258        0.0511464         78.9452
                               0               0                0               0        0.0511406         78.7651         0.212785         37.2557
75.63                          0               0                0               0         0.157065         38.4542         0.959061        -55.8639
                               0               0                0               0         0.961005        -55.8715         0.156542          38.647
                               0               0                0               0         0.212116         35.8529        0.0516445         76.6452
                               0               0                0               0        0.0516574         76.4723         0.212166         35.8503
75.675                         0               0                0               0         0.156324         37.0583         0.959139        -57.3611
                               0               0                0               0         0.961192        -57.3636         0.155773         37.2425
                               0               0                0               0         0.211452         34.4002         0.052171         74.2061
                               0               0                0               0        0.0521935         74.0493         0.211501         34.3976
75.72                          0               0                0               0         0.155404         35.5675         0.959457        -58.9019
                               0               0                0               0         0.961527        -58.8979         0.154851         35.7357
                               0               0                0               0         0.210728         32.9028        0.0527286         71.6468
                               0               0                0               0        0.0527499         71.5123         0.210776            32.9
75.765                         0               0                0               0         0.154331         33.9875         0.960016        -60.4831
                               0               0                0               0         0.962006        -60.4722         0.153804         34.1347
                               0               0                0               0         0.209931         31.3631         0.053315         68.9871
                               0               0                0               0        0.0533242         68.8783         0.209976         31.3603
75.81                          0               0                0               0         0.153131         32.3262         0.960811        -62.1013
                               0               0                0               0         0.962625        -62.0845         0.152651          32.449
                               0               0                0               0         0.209042         29.7834        0.0539233         66.2462
                               0               0                0               0        0.0539106         66.1638         0.209085         29.7806
75.855                         0               0                0               0          0.15182         30.5923         0.961832        -63.7534
                               0               0                0               0         0.963379        -63.7325         0.151404         30.6893
                               0               0                0               0         0.208046         28.1661        0.0545429         63.4414
                               0               0                0               0        0.0545001         63.3848         0.208084         28.1633
75.9                           0               0                0               0         0.150412         28.7957         0.963061         -65.436
                               0               0                0               0         0.964267        -65.4139         0.150071         28.8665
                               0               0                0               0         0.206922         26.5134        0.0551605         60.5885
                               0               0                0               0        0.0550819         60.5555         0.206956         26.5107
75.945                         0               0                0               0         0.148916         26.9465         0.964475        -67.1457
                               0               0                0               0         0.965286        -67.1264         0.148655         26.9915
                               0               0                0               0         0.205652         24.8274        0.0557611         57.7005
                               0               0                0               0        0.0556436         57.6888         0.205682         24.8248
75.99                          0               0                0               0         0.147339         25.0548         0.966047        -68.8795
                               0               0                0               0         0.966433        -68.8672         0.147159         25.0752
                               0               0                0               0         0.204218         23.1106         0.056329         54.7891
                               0               0                0               0        0.0561724         54.7961         0.204242         23.1081
76.035                         0               0                0               0         0.145684         23.1307         0.967745        -70.6341
                               0               0                0               0         0.967706        -70.6332         0.145581         23.1282
                               0               0                0               0         0.202602         21.3654        0.0568488         51.8641
                               0               0                0               0        0.0566553         51.8877          0.20262          21.363
76.08                          0               0                0               0         0.143955         21.1841         0.969533        -72.4064
                               0               0                0               0         0.969099        -72.4209         0.143921         21.1607
                               0               0                0               0         0.200786         19.5945        0.0573061         48.9344
                               0               0                0               0        0.0570802         48.9727         0.200798         19.5922
76.125                         0               0                0               0         0.142153         19.2246         0.971371        -74.1935
                               0               0                0               0         0.970603        -74.2264         0.142178         19.1826
                               0               0                0               0         0.198754         17.8008        0.0576879         46.0081
                               0               0                0               0        0.0574359         46.0595         0.198762         17.7988
76.17                          0               0                0               0         0.140281         17.2612         0.973218        -75.9925
                               0               0                0               0           0.9722        -76.0454         0.140354         17.2035
                               0               0                0               0         0.196494         15.9879        0.0579831         43.0928
                               0               0                0               0        0.0577129         43.1559         0.196496         15.9862
76.215                         0               0                0               0         0.138341         15.3031         0.975029        -77.8005
                               0               0                0               0         0.973861        -77.8733         0.138449         15.2327
                               0               0                0               0         0.193993         14.1594         0.058183         40.1959
                               0               0                0               0        0.0579034         40.2691          0.19399         14.1579
76.26                          0               0                0               0         0.136336         13.3585         0.976758        -79.6151
                               0               0                0               0         0.975545        -79.7054         0.136468         13.2789
                               0               0                0               0         0.191242         12.3196        0.0582812         37.3246
                               0               0                0               0        0.0580014         37.4061         0.191234         12.3184
76.305                         0               0                0               0         0.134272         11.4358          0.97836        -81.4336
                               0               0                0               0         0.977199        -81.5376         0.134416         11.3507
                               0               0                0               0         0.188235         10.4731        0.0582737         34.4858
                               0               0                0               0        0.0580032         34.5734         0.188223         10.4722
76.35                          0               0                0               0         0.132153          9.5425         0.979788        -83.2539
                               0               0                0               0         0.978758        -83.3658         0.132298         9.45602
                               0               0                0               0         0.184969         8.62502         0.058159         31.6863
                               0               0                0               0        0.0579066          31.777         0.184952         8.62447
76.395                         0               0                0               0         0.129986         7.68611         0.980999        -85.0736
                               0               0                0               0         0.980154        -85.1872         0.130125         7.60246
                               0               0                0               0         0.181443         6.78097        0.0579379         28.9326
                               0               0                0               0        0.0577117         29.0228         0.181423         6.78072
76.44                          0               0                0               0         0.127779          5.8735          0.98195        -86.8909
                               0               0                0               0         0.981314        -86.9995         0.127906         5.79696
