! TOUCHSTONE file generated by CST MICROWAVE STUDIO
! Date and time: Sun Jun 20 22:38:06 2021
! Project name: HIPS_d_sweep.cst
! Parameters = {fmax=120; fmin=75; b=0.46; d=24.55; a=0.63; phi=0; theta=0}
! Header version: 2018
! Port assignment regex: !\s*Touchstone port\s*([0-9]+)\s*=\s*(CST MWS port|CST DS port)\s*([0-9]+|Zmin|Zmax)\s*\(\"(.*)\"\)(\s*mode\s*([0-9]+))?.*
! Touchstone port assignment:
! Touchstone port 1 = CST MWS port Zmin ("") mode 1
! Touchstone port 2 = CST MWS port Zmin ("") mode 2
! Touchstone port 3 = CST MWS port Zmax ("") mode 1
! Touchstone port 4 = CST MWS port Zmax ("") mode 2
! S-Parameters are not renormalized. Unphysical impedance of 0 will be written to the file.
# GHz S MA R 0
75                             0               0                0               0         0.133398         135.812           0.9909        -134.288
                               0               0                0               0          0.99097         -134.29         0.133419         135.773
                               0               0                0               0       0.00409293        -5.66009        0.0169029         136.612
                               0               0                0               0        0.0169209         136.654       0.00420705        -6.65786
75.045                         0               0                0               0         0.132275         136.398         0.993296        -135.233
                               0               0                0               0         0.993355        -135.214         0.132351         136.415
                               0               0                0               0       0.00235422         62.6479        0.0174043         134.263
                               0               0                0               0        0.0173285         134.468       0.00229694         59.7074
75.09                          0               0                0               0         0.130633         136.796         0.995276        -136.234
                               0               0                0               0         0.995296        -136.198         0.130717          136.87
                               0               0                0               0       0.00516611         111.215        0.0179185          131.92
                               0               0                0               0        0.0177501          132.24       0.00502798         111.198
75.135                         0               0                0               0         0.128545         136.946         0.996851        -137.293
                               0               0                0               0         0.996814        -137.245         0.128595         137.072
                               0               0                0               0       0.00912562         121.483        0.0184444         129.575
                               0               0                0               0        0.0181866         129.963       0.00898635          121.81
75.18                          0               0                0               0         0.126129         136.796         0.998037        -138.413
                               0               0                0               0         0.997932        -138.356         0.126109         136.961
                               0               0                0               0        0.0133657         124.609        0.0189811         127.221
                               0               0                0               0        0.0186392         127.633        0.0132284         124.965
75.225                         0               0                0               0         0.123529         136.302         0.998854        -139.593
                               0               0                0               0         0.998678        -139.532          0.12342         136.491
                               0               0                0               0        0.0177869         125.495        0.0195278         124.848
                               0               0                0               0        0.0191095         125.242        0.0176507         125.831
75.27                          0               0                0               0         0.120907         135.441         0.999323        -140.836
                               0               0                0               0         0.999079        -140.773         0.120705         135.635
                               0               0                0               0        0.0223683         125.393        0.0200836         122.446
                               0               0                0               0        0.0195994         122.785         0.022232         125.696
75.315                         0               0                0               0         0.118422          134.21         0.999469        -142.142
                               0               0                0               0         0.999166         -142.08         0.118139          134.39
                               0               0                0               0        0.0271049         124.758        0.0206484         120.002
                               0               0                0               0        0.0201117         120.255        0.0269677         125.024
75.36                          0               0                0               0         0.116216         132.626          0.99932        -143.513
                               0               0                0               0         0.998971        -143.454         0.115873         132.779
                               0               0                0               0        0.0319968         123.792        0.0212224         117.504
                               0               0                0               0        0.0206495         117.646        0.0318582         124.023
75.405                         0               0                0               0           0.1144         130.728         0.998904        -144.947
                               0               0                0               0         0.998527        -144.894         0.114025         130.844
                               0               0                0               0        0.0370454         122.602         0.021807         114.937
                               0               0                0               0        0.0212172         114.954        0.0369055         122.798
75.45                          0               0                0               0         0.113051         128.568         0.998254        -146.446
                               0               0                0               0         0.997865        -146.399         0.112671         128.645
                               0               0                0               0        0.0422528         121.246        0.0224049         112.285
                               0               0                0               0        0.0218197         112.174        0.0421118         121.409
75.495                         0               0                0               0         0.112207         126.208           0.9974        -148.008
                               0               0                0               0         0.997019        -147.969         0.111848         126.247
                               0               0                0               0        0.0476204         119.762        0.0230207         109.534
                               0               0                0               0        0.0224632         109.305        0.0474792         119.894
75.54                          0               0                0               0         0.111878         123.707         0.996376        -149.633
                               0               0                0               0         0.996021        -149.602         0.111557         123.716
                               0               0                0               0        0.0531491         118.173        0.0236617          106.67
                               0               0                0               0         0.023155         106.345        0.0530088         118.277
75.585                         0               0                0               0         0.112045         121.124         0.995215         -151.32
                               0               0                0               0         0.994902        -151.297         0.111774         121.108
                               0               0                0               0        0.0588385         116.496        0.0243383         103.682
                               0               0                0               0        0.0239035         103.299        0.0587004         116.574
75.63                          0               0                0               0         0.112672         118.504         0.993947        -153.066
                               0               0                0               0         0.993691        -153.051         0.112458         118.474
                               0               0                0               0        0.0646866         114.744        0.0250642         100.565
                               0               0                0               0        0.0247177         100.174        0.0645523           114.8
75.675                         0               0                0               0         0.113715         115.886         0.992605         -154.87
                               0               0                0               0         0.992416        -154.862         0.113559         115.848
                               0               0                0               0        0.0706893         112.926        0.0258565         97.3245
                               0               0                0               0        0.0256072         96.9795        0.0705605         112.962
75.72                          0               0                0               0         0.115122         113.296         0.991215        -156.729
                               0               0                0               0         0.991099        -156.727         0.115021         113.257
                               0               0                0               0        0.0768404         111.049        0.0267345          93.976
                               0               0                0               0        0.0265816         93.7319        0.0767187         111.069
75.765                         0               0                0               0         0.116842          110.75         0.989803        -158.639
                               0               0                0               0         0.989763        -158.643          0.11679         110.716
                               0               0                0               0        0.0831307         109.121        0.0277177         90.5493
                               0               0                0               0        0.0276496         90.4494        0.0830173         109.128
75.81                          0               0                0               0         0.118826         108.257         0.988391        -160.598
                               0               0                0               0         0.988426        -160.606         0.118818          108.23
                               0               0                0               0        0.0895478         107.146        0.0288228         87.0859
                               0               0                0               0        0.0288178         87.1532        0.0894437         107.144
75.855                         0               0                0               0         0.121027          105.82         0.986997        -162.601
                               0               0                0               0         0.987101        -162.613         0.121058         105.803
                               0               0                0               0        0.0960758         105.131        0.0300605         83.6339
                               0               0                0               0        0.0300903         83.8652        0.0959816         105.122
75.9                           0               0                0               0         0.123407         103.438         0.985634        -164.645
                               0               0                0               0         0.985799        -164.659         0.123469         103.431
                               0               0                0               0         0.102695         103.079        0.0314321          80.241
                               0               0                0               0        0.0314672         80.6061         0.102611         103.066
75.945                         0               0                0               0         0.125928         101.106         0.984312        -166.725
                               0               0                0               0         0.984526         -166.74         0.126016         101.108
                               0               0                0               0         0.109383         100.995        0.0329287         76.9457
                               0               0                0               0        0.0329443         77.3932         0.109307         100.981
75.99                          0               0                0               0         0.128559         98.8182         0.983035        -168.837
                               0               0                0               0         0.983283        -168.852         0.128669         98.8288
                               0               0                0               0         0.116111         98.8839        0.0345314         73.7714
                               0               0                0               0        0.0345125         74.2389         0.116043         98.8703
76.035                         0               0                0               0         0.131272         96.5674         0.981802        -170.976
                               0               0                0               0          0.98207        -170.991           0.1314         96.5855
                               0               0                0               0         0.122849         96.7484         0.036214         70.7233
                               0               0                0               0        0.0361579         71.1494         0.122788         96.7373
76.08                          0               0                0               0         0.134042         94.3468         0.980607        -173.136
                               0               0                0               0         0.980878         -173.15         0.134185         94.3707
                               0               0                0               0         0.129562         94.5924        0.0379464          67.791
                               0               0                0               0        0.0378626         68.1242         0.129505         94.5852
76.125                         0               0                0               0         0.136848         92.1492         0.979439        -175.314
                               0               0                0               0         0.979699        -175.327         0.137003         92.1773
                               0               0                0               0         0.136215         92.4196        0.0396984         64.9525
                               0               0                0               0        0.0396055         65.1571         0.136159         92.4171
76.17                          0               0                0               0         0.139669         89.9681         0.978285        -177.505
                               0               0                0               0         0.978518        -177.516         0.139835         89.9989
                               0               0                0               0         0.142767         90.2332        0.0414418         62.1794
                               0               0                0               0        0.0413632         62.2373         0.142711         90.2359
76.215                         0               0                0               0         0.142488         87.7977         0.977127        -179.703
                               0               0                0               0         0.977321        -179.713         0.142662         87.8294
                               0               0                0               0         0.149179         88.0365        0.0431519         59.4427
                               0               0                0               0        0.0431113         59.3506         0.149121         88.0447
76.26                          0               0                0               0         0.145287         85.6324         0.975942         178.095
                               0               0                0               0         0.976087         178.087          0.14547         85.6638
                               0               0                0               0         0.155411         85.8329        0.0448079         56.7151
                               0               0                0               0        0.0448254         56.4816         0.155349         85.8465
76.305                         0               0                0               0         0.148051         83.4679         0.974707         175.894
                               0               0                0               0         0.974795         175.887         0.148242         83.4974
                               0               0                0               0         0.161424         83.6256        0.0463924         53.9739
                               0               0                0               0        0.0464821         53.6152         0.161357         83.6441
76.35                          0               0                0               0         0.150766         81.3001         0.973397         173.698
                               0               0                0               0         0.973423         173.692         0.150963         81.3265
                               0               0                0               0          0.16718         81.4178        0.0478904         51.2015
                               0               0                0               0        0.0480591         50.7377         0.167107         81.4409
76.395                         0               0                0               0         0.153416         79.1258         0.971984          171.51
                               0               0                0               0         0.971948         171.505          0.15362         79.1482
                               0               0                0               0         0.172646         79.2131        0.0492893         48.3855
                               0               0                0               0        0.0495363         47.8377         0.172567         79.2399
76.44                          0               0                0               0         0.155988         76.9426         0.970441         169.335
                               0               0                0               0         0.970345          169.33         0.156198         76.9599
