! TOUCHSTONE file generated by CST MICROWAVE STUDIO
! Date and time: Sun Jun 20 22:38:04 2021
! Project name: HIPS_d_sweep.cst
! Parameters = {fmax=120; fmin=75; b=0.46; d=24.45; a=0.63; phi=0; theta=0}
! Header version: 2018
! Port assignment regex: !\s*Touchstone port\s*([0-9]+)\s*=\s*(CST MWS port|CST DS port)\s*([0-9]+|Zmin|Zmax)\s*\(\"(.*)\"\)(\s*mode\s*([0-9]+))?.*
! Touchstone port assignment:
! Touchstone port 1 = CST MWS port Zmin ("") mode 1
! Touchstone port 2 = CST MWS port Zmin ("") mode 2
! Touchstone port 3 = CST MWS port Zmax ("") mode 1
! Touchstone port 4 = CST MWS port Zmax ("") mode 2
! S-Parameters are not renormalized. Unphysical impedance of 0 will be written to the file.
# GHz S MA R 0
75                             0               0                0               0         0.124408         147.507         0.990923        -122.665
                               0               0                0               0          0.99095        -122.668         0.124253         147.542
                               0               0                0               0        0.0486829        -31.3396       0.00972245        -175.486
                               0               0                0               0       0.00973023        -175.516        0.0487804        -31.2613
75.045                         0               0                0               0         0.122367         148.021          0.99281        -123.728
                               0               0                0               0          0.99337        -123.715         0.122104         148.023
                               0               0                0               0        0.0447593        -33.0285        0.0102553         -178.23
                               0               0                0               0        0.0102014        -177.552        0.0448544        -32.9515
75.09                          0               0                0               0         0.119953           148.3         0.994585        -124.824
                               0               0                0               0         0.995555        -124.795         0.119634         148.256
                               0               0                0               0        0.0407499        -34.7934        0.0107407         179.415
                               0               0                0               0        0.0105888        -179.399        0.0408438        -34.7156
75.135                         0               0                0               0         0.117278         148.287         0.996212        -125.953
                               0               0                0               0         0.997471        -125.909         0.116958         148.192
                               0               0                0               0        0.0366483        -36.6403        0.0111467         177.318
                               0               0                0               0        0.0108708         178.772        0.0367419        -36.5587
75.18                          0               0                0               0         0.114482         147.938         0.997652        -127.119
                               0               0                0               0         0.999089        -127.062         0.114212         147.796
                               0               0                0               0        0.0324458        -38.5778        0.0114435         175.304
                               0               0                0               0        0.0110337          176.76        0.0325399        -38.4879
75.225                         0               0                0               0         0.111718         147.227         0.998868        -128.323
                               0               0                0               0                1        -128.255         0.111537         147.048
                               0               0                0               0        0.0281318        -40.6201        0.0116101         173.148
                               0               0                0               0        0.0110786         174.331        0.0282268        -40.5151
75.27                          0               0                0               0         0.109136         146.152         0.999825        -129.567
                               0               0                0               0                1        -129.492         0.109066         145.953
                               0               0                0               0        0.0236924        -42.7946        0.0116433         170.573
                               0               0                0               0        0.0110262         171.238        0.0237884        -42.6638
75.315                         0               0                0               0         0.106865         144.731                1        -130.856
                               0               0                0               0                1        -130.776         0.106912          144.53
                               0               0                0               0        0.0191116        -45.1618        0.0115675         167.274
                               0               0                0               0        0.0109206          167.25        0.0192081        -44.9862
75.36                          0               0                0               0         0.105004         143.003                1        -132.192
                               0               0                0               0                1        -132.112         0.105161         142.819
                               0               0                0               0         0.014371        -47.8783        0.0114406         162.975
                               0               0                0               0        0.0108276         162.221        0.0144671        -47.6195
75.405                         0               0                0               0         0.103617         141.022                1         -133.58
                               0               0                0               0                1        -133.503         0.103868         140.869
                               0               0                0               0       0.00945296        -51.4667        0.0113499         157.525
                               0               0                0               0        0.0108265          156.16       0.00954651        -51.0215
75.45                          0               0                0               0         0.102736         138.849                1        -135.022
                               0               0                0               0                1        -134.952         0.103059         138.735
                               0               0                0               0       0.00435653        -59.0505        0.0113965         151.011
                               0               0                0               0        0.0109951         149.293       0.00444059        -57.8987
75.495                         0               0                0               0         0.102362         136.544         0.999919        -136.524
                               0               0                0               0                1        -136.463         0.102733         136.473
                               0               0                0               0       0.00133432         165.511        0.0116687         143.797
                               0               0                0               0        0.0113915         142.033       0.00121024         165.148
75.54                          0               0                0               0         0.102474          134.16         0.998993        -138.087
                               0               0                0               0         0.999501        -138.038         0.102873         134.132
                               0               0                0               0       0.00673395         134.177        0.0122175         136.426
                               0               0                0               0        0.0120422         134.854        0.0066322         133.539
75.585                         0               0                0               0         0.103038         131.744         0.997819        -139.716
                               0               0                0               0         0.998181        -139.681         0.103447         131.753
                               0               0                0               0        0.0125838         129.149        0.0130487         129.407
                               0               0                0               0        0.0129414         128.134        0.0124891         128.762
75.63                          0               0                0               0          0.10401         129.329         0.996453        -141.413
                               0               0                0               0         0.996709        -141.391         0.104416         129.368
                               0               0                0               0        0.0187164           126.1        0.0141328         123.052
                               0               0                0               0        0.0140616         122.075        0.0186266         125.823
75.675                         0               0                0               0         0.105345         126.937         0.994968        -143.177
                               0               0                0               0         0.995158        -143.169         0.105739             127
                               0               0                0               0        0.0251222          123.64        0.0154242         117.456
                               0               0                0               0        0.0153663         116.716        0.0250359         123.427
75.72                          0               0                0               0         0.106997         124.583         0.993439         -145.01
                               0               0                0               0         0.993602        -145.012         0.107373         124.661
                               0               0                0               0        0.0317901         121.443        0.0168769         112.565
                               0               0                0               0        0.0168192          111.99        0.0317062         121.272
75.765                         0               0                0               0         0.108924         122.273         0.991942        -146.907
                               0               0                0               0         0.992109        -146.919         0.109281         122.359
                               0               0                0               0        0.0387023         119.387         0.018452         108.257
                               0               0                0               0        0.0183892         107.789        0.0386195         119.247
75.81                          0               0                0               0         0.111088         120.007         0.990549        -148.866
                               0               0                0               0         0.990737        -148.885         0.111425         120.094
                               0               0                0               0        0.0458339         117.412        0.0201194         104.402
                               0               0                0               0        0.0200512         103.999        0.0457507         117.294
75.855                         0               0                0               0         0.113456          117.78         0.989315        -150.882
                               0               0                0               0         0.989532        -150.905         0.113772         117.865
                               0               0                0               0         0.053154         115.481        0.0218569          100.88
                               0               0                0               0        0.0217858         100.516        0.0530691          115.38
75.9                           0               0                0               0         0.115996         115.587         0.988278        -152.948
                               0               0                0               0         0.988522        -152.972         0.116294         115.665
                               0               0                0               0         0.060627         113.568        0.0236477          97.595
                               0               0                0               0        0.0235774         97.2533        0.0605395         113.481
75.945                         0               0                0               0         0.118682          113.42         0.987455        -155.056
                               0               0                0               0         0.987713         -155.08         0.118964         113.489
                               0               0                0               0        0.0682145         111.656        0.0254793         94.4702
                               0               0                0               0        0.0254134         94.1424        0.0681237         111.579
75.99                          0               0                0               0          0.12149          111.27         0.986839          -157.2
                               0               0                0               0         0.987094        -157.221         0.121758         111.328
                               0               0                0               0        0.0758761         109.729         0.027341         91.4472
                               0               0                0               0        0.0272829         91.1293        0.0757816         109.661
76.035                         0               0                0               0         0.124398         109.129         0.986402        -159.372
                               0               0                0               0         0.986637        -159.389         0.124654         109.176
                               0               0                0               0        0.0835703         107.778        0.0292237         88.4819
                               0               0                0               0        0.0291758         88.1722        0.0834723         107.716
76.08                          0               0                0               0         0.127385         106.989         0.986099        -161.564
                               0               0                0               0         0.986299        -161.577          0.12763         107.024
                               0               0                0               0        0.0912556         105.796         0.031118          85.541
                               0               0                0               0        0.0310819         85.2395        0.0911544          105.74
76.125                         0               0                0               0         0.130432         104.843         0.985871        -163.769
                               0               0                0               0         0.986024        -163.779         0.130667         104.866
                               0               0                0               0        0.0988907         103.779        0.0330144         82.5999
                               0               0                0               0        0.0329909         82.3072        0.0987871         103.726
76.17                          0               0                0               0         0.133519         102.683         0.985651        -165.983
                               0               0                0               0         0.985751        -165.989         0.133744         102.696
                               0               0                0               0         0.106435         101.725        0.0349028         79.6406
                               0               0                0               0        0.0348916         79.3577          0.10633         101.675
76.215                         0               0                0               0         0.136627         100.505          0.98537        -168.199
                               0               0                0               0         0.985416        -168.202         0.136842         100.508
                               0               0                0               0         0.113849         99.6333        0.0367717         76.6506
                               0               0                0               0         0.036772         76.3787         0.113743         99.5866
76.26                          0               0                0               0         0.139734         98.3029         0.984957        -170.412
                               0               0                0               0         0.984955        -170.413          0.13994         98.2975
                               0               0                0               0         0.121094         97.5075        0.0386089         73.6214
                               0               0                0               0        0.0386189          73.362         0.120989          97.463
76.305                         0               0                0               0         0.142821          96.074         0.984349         -172.62
                               0               0                0               0         0.984307        -172.619         0.143017         96.0622
                               0               0                0               0         0.128134         95.3504         0.040401         70.5486
                               0               0                0               0        0.0404187         70.3029         0.128031         95.3078
76.35                          0               0                0               0         0.145867         93.8157         0.983488        -174.819
                               0               0                0               0         0.983419        -174.817         0.146053         93.7992
                               0               0                0               0         0.134935         93.1668        0.0421337         67.4306
                               0               0                0               0        0.0421565         67.2002         0.134834         93.1258
76.395                         0               0                0               0          0.14885         91.5267         0.982324        -177.005
                               0               0                0               0         0.982242        -177.004         0.149027         91.5073
                               0               0                0               0         0.141466          90.962        0.0437925         64.2687
                               0               0                0               0        0.0438175         64.0552         0.141368         90.9223
76.44                          0               0                0               0         0.151749         89.2067          0.98082        -179.178
                               0               0                0               0         0.980739        -179.176         0.151916         89.1862
