! TOUCHSTONE file generated by CST MICROWAVE STUDIO
! Date and time: Sun Jun 20 22:37:27 2021
! Project name: HIPS_d_sweep.cst
! Parameters = {fmax=120; fmin=75; b=0.46; d=21.05; a=0.63; phi=0; theta=0}
! Header version: 2018
! Port assignment regex: !\s*Touchstone port\s*([0-9]+)\s*=\s*(CST MWS port|CST DS port)\s*([0-9]+|Zmin|Zmax)\s*\(\"(.*)\"\)(\s*mode\s*([0-9]+))?.*
! Touchstone port assignment:
! Touchstone port 1 = CST MWS port Zmin ("") mode 1
! Touchstone port 2 = CST MWS port Zmin ("") mode 2
! Touchstone port 3 = CST MWS port Zmax ("") mode 1
! Touchstone port 4 = CST MWS port Zmax ("") mode 2
! S-Parameters are not renormalized. Unphysical impedance of 0 will be written to the file.
# GHz S MA R 0
75                             0               0                0               0         0.114939        -2.80147          0.98119        -96.5158
                               0               0                0               0         0.981185        -96.5364         0.115249        -2.75386
                               0               0                0               0         0.144302         -4.2142        0.0532549          11.889
                               0               0                0               0        0.0532682         11.8743         0.144202        -4.20879
75.045                         0               0                0               0          0.11744        -3.72415         0.982742        -97.2704
                               0               0                0               0         0.983114        -97.2492         0.117737        -3.63737
                               0               0                0               0         0.142202        -4.92516        0.0538217         10.9776
                               0               0                0               0        0.0537763         10.9989         0.142122        -4.91079
75.09                          0               0                0               0         0.119917        -4.68812         0.983872        -98.0745
                               0               0                0               0         0.984437        -98.0217         0.120205        -4.56946
                               0               0                0               0          0.13992        -5.67125        0.0543165         10.0298
                               0               0                0               0        0.0542261         10.0701         0.139854        -5.64975
75.135                         0               0                0               0         0.122343        -5.69549          0.98462        -98.9322
                               0               0                0               0         0.985233        -98.8582         0.122628        -5.55241
                               0               0                0               0          0.13745        -6.45513        0.0547316          9.0337
                               0               0                0               0         0.054611         9.07981         0.137392        -6.42837
75.18                          0               0                0               0         0.124693        -6.74848          0.98503        -99.8471
                               0               0                0               0         0.985594        -99.7619         0.124976        -6.58839
                               0               0                0               0         0.134786        -7.27941        0.0550606          7.9769
                               0               0                0               0         0.054925         8.01946          0.13473        -7.24922
75.225                         0               0                0               0         0.126935        -7.84937         0.985158        -100.822
                               0               0                0               0         0.985614        -100.735         0.127219        -7.67946
                               0               0                0               0         0.131921        -8.14658         0.055299         6.84738
                               0               0                0               0        0.0551629         6.88069         0.131865        -8.11475
75.27                          0               0                0               0         0.129035         -9.0005         0.985063         -101.86
                               0               0                0               0         0.985388        -101.779         0.129321        -8.82753
                               0               0                0               0         0.128851          -9.059        0.0554438         5.63385
                               0               0                0               0        0.0553198         5.65535         0.128791         -9.0272
75.315                         0               0                0               0         0.130958        -10.2042         0.984809        -102.962
                               0               0                0               0         0.985006        -102.893         0.131246        -10.0343
                               0               0                0               0          0.12557        -10.0188        0.0554936         4.32618
                               0               0                0               0        0.0553918         4.33581         0.125505        -9.98858
75.36                          0               0                0               0         0.132668        -11.4627         0.984457        -104.128
                               0               0                0               0         0.984551        -104.077         0.132956        -11.3012
                               0               0                0               0         0.122074         -11.028        0.0554481         2.91573
                               0               0                0               0        0.0553756          2.9152         0.122001        -11.0006
75.405                         0               0                0               0         0.134129        -12.7783         0.984069         -105.36
                               0               0                0               0         0.984096        -105.328         0.134415        -12.6293
                               0               0                0               0         0.118359         -12.088        0.0553075         1.39557
                               0               0                0               0        0.0552683         1.38762         0.118277        -12.0647
75.45                          0               0                0               0         0.135307        -14.1529           0.9837        -106.655
                               0               0                0               0         0.983701        -106.645         0.135587        -14.0194
                               0               0                0               0          0.11442        -13.2001        0.0550728        -0.23944
                               0               0                0               0        0.0550679       -0.251652         0.114329        -13.1817
75.495                         0               0                0               0         0.136172        -15.5881         0.983399        -108.013
                               0               0                0               0         0.983416        -108.023         0.136441        -15.4718
                               0               0                0               0         0.110254         -14.365        0.0547448        -1.99259
                               0               0                0               0        0.0547724        -2.00606         0.110154        -14.3522
75.54                          0               0                0               0         0.136698         -17.085         0.983206        -109.432
                               0               0                0               0         0.983274        -109.461         0.136951        -16.9863
                               0               0                0               0         0.105859        -15.5829        0.0543243        -3.86542
                               0               0                0               0        0.0543803        -3.87762         0.105751         -15.576
75.585                         0               0                0               0         0.136866        -18.6443         0.983152        -110.908
                               0               0                0               0         0.983299        -110.954         0.137097        -18.5621
                               0               0                0               0         0.101233        -16.8533        0.0538118        -5.85779
                               0               0                0               0        0.0538907        -5.86689         0.101116        -16.8524
75.63                          0               0                0               0         0.136665        -20.2659         0.983257        -112.439
                               0               0                0               0         0.983501        -112.498         0.136869        -20.1979
                               0               0                0               0        0.0963751        -18.1746        0.0532074          -7.968
                               0               0                0               0        0.0533025        -7.97293        0.0962511        -18.1796
75.675                         0               0                0               0         0.136093        -21.9488         0.983532        -114.022
                               0               0                0               0         0.983879         -114.09         0.136265        -21.8918
                               0               0                0               0        0.0912855        -19.5446        0.0525111         -10.193
                               0               0                0               0        0.0526154        -10.1934        0.0911554        -19.5549
75.72                          0               0                0               0         0.135155        -23.6913         0.983977        -115.653
                               0               0                0               0         0.984426        -115.727         0.135293        -23.6411
                               0               0                0               0        0.0859658        -20.9593        0.0517227        -12.5284
                               0               0                0               0        0.0518293        -12.5244        0.0858309        -20.9744
75.765                         0               0                0               0         0.133866        -25.4907         0.984583        -117.328
                               0               0                0               0         0.985122        -117.403         0.133968        -25.4429
                               0               0                0               0        0.0804196        -22.4133        0.0508423        -14.9689
                               0               0                0               0        0.0509447        -14.9611        0.0802812        -22.4321
75.81                          0               0                0               0         0.132249        -27.3433         0.985333        -119.044
                               0               0                0               0         0.985945        -119.118         0.132315        -27.2933
                               0               0                0               0        0.0746518        -23.8988          0.04987         -17.508
                               0               0                0               0        0.0499631        -17.4973        0.0745116        -23.9202
75.855                         0               0                0               0         0.130333        -29.2448         0.986202        -120.796
                               0               0                0               0         0.986865        -120.866         0.130366        -29.1883
                               0               0                0               0        0.0686699        -25.4048        0.0488067        -20.1389
                               0               0                0               0        0.0488863        -20.1259        0.0685295        -25.4272
75.9                           0               0                0               0         0.128151          -31.19          0.98716        -122.583
                               0               0                0               0         0.987851        -122.645         0.128157        -31.1231
                               0               0                0               0        0.0624836        -26.9157        0.0476541        -22.8538
                               0               0                0               0        0.0477176        -22.8394        0.0623446        -26.9375
75.945                         0               0                0               0          0.12574        -33.1733         0.988173        -124.399
                               0               0                0               0         0.988868        -124.453         0.125725        -33.0931
                               0               0                0               0        0.0561052        -28.4087        0.0464146        -25.6449
                               0               0                0               0         0.046461        -25.6298        0.0559691         -28.428
75.99                          0               0                0               0         0.123139        -35.1888         0.989203        -126.241
                               0               0                0               0         0.989881        -126.286         0.123109        -35.0932
                               0               0                0               0          0.04955        -29.8496        0.0450919        -28.5043
                               0               0                0               0        0.0451216         -28.489        0.0494183         -29.864
76.035                         0               0                0               0         0.120385        -37.2302         0.990213        -128.107
                               0               0                0               0         0.990856        -128.142         0.120349        -37.1183
                               0               0                0               0        0.0428361        -31.1835        0.0436909        -31.4245
                               0               0                0               0        0.0437054        -31.4093          0.04271        -31.1902
76.08                          0               0                0               0         0.117513        -39.2914         0.991163        -129.992
                               0               0                0               0         0.991759        -130.018          0.11748        -39.1636
                               0               0                0               0        0.0359854        -32.3156        0.0422172        -34.3986
                               0               0                0               0        0.0422194        -34.3838        0.0358659        -32.3106
76.125                         0               0                0               0         0.114557        -41.3667          0.99202        -131.895
                               0               0                0               0         0.992564        -131.912         0.114533        -41.2241
                               0               0                0               0        0.0290243        -33.0633        0.0406777        -37.4204
                               0               0                0               0        0.0406712        -37.4066         0.028912        -33.0402
76.17                          0               0                0               0         0.111543        -43.4505         0.992752        -133.811
                               0               0                0               0         0.993246        -133.823         0.111535        -43.2953
                               0               0                0               0        0.0219873        -33.0153        0.0390798        -40.4856
                               0               0                0               0        0.0390686        -40.4733        0.0218827        -32.9608
76.215                         0               0                0               0         0.108496        -45.5378         0.993334        -135.738
                               0               0                0               0         0.993791        -135.746         0.108507        -45.3729
                               0               0                0               0        0.0149321        -30.9948        0.0374315        -43.5914
                               0               0                0               0        0.0374197        -43.5814         0.014836        -30.8717
76.26                          0               0                0               0         0.105433        -47.6241          0.99375        -137.673
                               0               0                0               0         0.994191        -137.681         0.105467        -47.4528
                               0               0                0               0       0.00803537        -21.8176        0.0357411        -46.7377
                               0               0                0               0        0.0357325        -46.7309       0.00795326        -21.4452
76.305                         0               0                0               0          0.10237        -49.7058         0.993997        -139.613
                               0               0                0               0         0.994453        -139.624         0.102425        -49.5313
                               0               0                0               0        0.0032313         40.5121        0.0340166        -49.9269
                               0               0                0               0        0.0340144        -49.9243       0.00324646         42.1635
76.35                          0               0                0               0        0.0993144        -51.7795         0.994087        -141.556
                               0               0                0               0         0.994595        -141.572        0.0993886        -51.6045
                               0               0                0               0       0.00784032          106.12         0.032266        -53.1653
                               0               0                0               0        0.0322722        -53.1674       0.00793169          106.27
76.395                         0               0                0               0        0.0962713        -53.8427         0.994052        -143.498
                               0               0                0               0         0.994649        -143.521        0.0963588         -53.669
                               0               0                0               0        0.0147447         115.797        0.0304964        -56.4632
                               0               0                0               0        0.0305118        -56.4698        0.0148392         115.801
76.44                          0               0                0               0        0.0932418        -55.8934          0.99395        -145.435
                               0               0                0               0         0.994664        -145.466        0.0933346        -55.7214
