! TOUCHSTONE file generated by CST MICROWAVE STUDIO
! Date and time: Sun Jun 20 22:37:53 2021
! Project name: HIPS_d_sweep.cst
! Parameters = {fmax=120; fmin=75; b=0.46; d=23.45; a=0.63; phi=0; theta=0}
! Header version: 2018
! Port assignment regex: !\s*Touchstone port\s*([0-9]+)\s*=\s*(CST MWS port|CST DS port)\s*([0-9]+|Zmin|Zmax)\s*\(\"(.*)\"\)(\s*mode\s*([0-9]+))?.*
! Touchstone port assignment:
! Touchstone port 1 = CST MWS port Zmin ("") mode 1
! Touchstone port 2 = CST MWS port Zmin ("") mode 2
! Touchstone port 3 = CST MWS port Zmax ("") mode 1
! Touchstone port 4 = CST MWS port Zmax ("") mode 2
! S-Parameters are not renormalized. Unphysical impedance of 0 will be written to the file.
# GHz S MA R 0
75                             0               0                0               0        0.0581966        -105.447         0.980972        -10.2449
                               0               0                0               0         0.980908        -10.2312        0.0581775        -105.409
                               0               0                0               0         0.182577         79.2358        0.0305265         58.6867
                               0               0                0               0        0.0306404         58.7695         0.182654         79.2587
75.045                         0               0                0               0        0.0537785          -106.8         0.981651        -11.0223
                               0               0                0               0           0.9816        -11.0075        0.0536697        -106.452
                               0               0                0               0         0.184088         78.5381        0.0301831         59.3326
                               0               0                0               0        0.0304671         59.7739         0.184151         78.5634
75.09                          0               0                0               0        0.0499349         -108.16          0.98198        -11.8692
                               0               0                0               0         0.981931        -11.8538        0.0497831         -107.63
                               0               0                0               0         0.185641         77.7517        0.0298442         59.6939
                               0               0                0               0        0.0301803         60.4024         0.185696         77.7778
75.135                         0               0                0               0        0.0466243        -109.544         0.982015        -12.7872
                               0               0                0               0         0.981963        -12.7717        0.0464605        -108.939
                               0               0                0               0         0.187253          76.877        0.0295385         59.7773
                               0               0                0               0        0.0298536         60.6195         0.187303         76.9031
75.18                          0               0                0               0        0.0438084        -110.968         0.981813        -13.7775
                               0               0                0               0         0.981753        -13.7621        0.0436523        -110.369
                               0               0                0               0         0.188934         75.9156        0.0292892         59.6004
                               0               0                0               0        0.0295513         60.4443         0.188984          75.941
75.225                         0               0                0               0         0.041452        -112.442         0.981429        -14.8403
                               0               0                0               0         0.981359        -14.8254        0.0413154        -111.909
                               0               0                0               0         0.190695         74.8699        0.0291125         59.1873
                               0               0                0               0        0.0293184         59.9306         0.190747         74.8945
75.27                          0               0                0               0         0.039523        -113.973         0.980913        -15.9755
                               0               0                0               0         0.980832        -15.9612        0.0394118        -113.543
                               0               0                0               0         0.192538          73.743         0.029019         58.5642
                               0               0                0               0          0.02918         59.1446         0.192595         73.7667
75.315                         0               0                0               0        0.0379922        -115.562         0.980312        -17.1823
                               0               0                0               0          0.98022        -17.1687        0.0379082        -115.252
                               0               0                0               0         0.194465         72.5383        0.0290142         57.7559
                               0               0                0               0        0.0291456         58.1491         0.194526         72.5612
75.36                          0               0                0               0        0.0368332        -117.206         0.979665        -18.4593
                               0               0                0               0         0.979563        -18.4465         0.036775        -117.016
                               0               0                0               0          0.19647         71.2595        0.0290996         56.7838
                               0               0                0               0        0.0292147         56.9949         0.196537         71.2817
75.405                         0               0                0               0        0.0360217        -118.899         0.979007        -19.8047
                               0               0                0               0         0.978897        -19.7927        0.0359858        -118.814
                               0               0                0               0         0.198545         69.9102        0.0292736         55.6641
                               0               0                0               0        0.0293815         55.7179         0.198616         69.9318
75.45                          0               0                0               0        0.0355358        -120.629         0.978365        -21.2164
                               0               0                0               0         0.978248         -21.205        0.0355174        -120.626
                               0               0                0               0         0.200676         68.4937        0.0295322          54.408
                               0               0                0               0        0.0296374         54.3405          0.20075          68.515
75.495                         0               0                0               0        0.0353551        -122.383         0.977758        -22.6917
                               0               0                0               0         0.977637         -22.681        0.0353485        -122.434
                               0               0                0               0         0.202846         67.0134        0.0298698         53.0219
                               0               0                0               0        0.0299732         52.8737         0.202922         67.0344
75.54                          0               0                0               0         0.035461         -124.15         0.977199        -24.2278
                               0               0                0               0         0.977075        -24.2176        0.0354605        -124.224
                               0               0                0               0         0.205035         65.4723        0.0302785         51.5082
                               0               0                0               0        0.0303791         51.3196         0.205111         65.4931
75.585                         0               0                0               0        0.0358364        -125.915         0.976696        -25.8216
                               0               0                0               0         0.976571        -25.8118        0.0358364        -125.986
                               0               0                0               0         0.207218         63.8734        0.0307491         49.8665
                               0               0                0               0        0.0308454         49.6743         0.207293         63.8941
75.63                          0               0                0               0        0.0364652        -127.671          0.97625        -27.4697
                               0               0                0               0         0.976125        -27.4603        0.0364613        -127.715
                               0               0                0               0         0.209371         62.2195        0.0312703         48.0948
                               0               0                0               0        0.0313614         47.9296         0.209443         62.2401
75.675                         0               0                0               0        0.0373327        -129.409         0.975857        -29.1687
                               0               0                0               0         0.975732        -29.1596        0.0373215        -129.411
                               0               0                0               0         0.211465         60.5134        0.0318294         46.1913
                               0               0                0               0        0.0319156         46.0757         0.211534          60.534
75.72                          0               0                0               0        0.0384248        -131.125         0.975508         -30.915
                               0               0                0               0         0.975385        -30.9062        0.0384048        -131.075
                               0               0                0               0         0.213472         58.7581        0.0324117         44.1555
                               0               0                0               0        0.0324949         44.1027         0.213537         58.7787
75.765                         0               0                0               0        0.0397286        -132.819         0.975194         -32.705
                               0               0                0               0         0.975073        -32.6964        0.0396996        -132.715
                               0               0                0               0         0.215363         56.9566        0.0330017         41.9891
                               0               0                0               0        0.0330845         42.0028         0.215423         56.9773
75.81                          0               0                0               0        0.0412315        -134.492         0.974902        -34.5349
                               0               0                0               0         0.974782        -34.5266        0.0411952        -134.338
                               0               0                0               0         0.217109         55.1123        0.0335829         39.6973
                               0               0                0               0        0.0336682         39.7717         0.217165          55.133
75.855                         0               0                0               0        0.0429216        -136.147         0.974619        -36.4011
                               0               0                0               0         0.974501        -36.3931        0.0428808        -135.953
                               0               0                0               0         0.218683         53.2287        0.0341394         37.2885
                               0               0                0               0         0.034229         37.4102         0.218735         53.2495
75.9                           0               0                0               0        0.0447869         -137.79         0.974333        -38.2998
                               0               0                0               0         0.974215        -38.2923        0.0447452         -137.57
                               0               0                0               0          0.22006         51.3097        0.0346566         34.7738
                               0               0                0               0        0.0347501         34.9244         0.220108         51.3305
75.945                         0               0                0               0        0.0468152        -139.427         0.974034        -40.2276
                               0               0                0               0         0.973916        -40.2206        0.0467764        -139.196
                               0               0                0               0         0.221216         49.3591        0.0351218         32.1667
                               0               0                0               0        0.0352168         32.3257         0.221261           49.38
75.99                          0               0                0               0        0.0489937        -141.064         0.973718        -42.1808
                               0               0                0               0         0.973598        -42.1744        0.0489609         -140.84
                               0               0                0               0         0.222133         47.3813        0.0355257         29.4813
                               0               0                0               0        0.0356173         29.6297         0.222177         47.4022
76.035                         0               0                0               0        0.0513083        -142.708         0.973381         -44.156
                               0               0                0               0         0.973259        -44.1503        0.0512828        -142.506
                               0               0                0               0         0.222796         45.3805         0.035862         26.7308
                               0               0                0               0        0.0359448         26.8538         0.222839         45.4013
76.08                          0               0                0               0        0.0537431        -144.363         0.973032        -46.1499
                               0               0                0               0         0.972906         -46.145        0.0537237        -144.198
                               0               0                0               0         0.223195         43.3608        0.0361281         23.9263
                               0               0                0               0        0.0361969          24.015         0.223238         43.3815
76.125                         0               0                0               0        0.0562795        -146.035         0.972681        -48.1595
                               0               0                0               0         0.972551        -48.1554         0.056262        -145.916
                               0               0                0               0         0.223324         41.3261        0.0363242         21.0761
                               0               0                0               0        0.0363758         21.1279         0.223368         41.3465
76.17                          0               0                0               0        0.0588956        -147.725          0.97235        -50.1817
                               0               0                0               0         0.972215        -50.1786        0.0588731        -147.654
                               0               0                0               0         0.223183         39.2799         0.036453         18.1849
                               0               0                0               0        0.0364872         18.2033         0.223228         39.3001
76.215                         0               0                0               0        0.0615661        -149.433         0.972069        -52.2138
                               0               0                0               0         0.971929        -52.2116        0.0615304        -149.403
                               0               0                0               0         0.222777         37.2251        0.0365187         15.2545
                               0               0                0               0        0.0365382          15.248         0.222822         37.2452
76.26                          0               0                0               0        0.0642624        -151.152         0.971872        -54.2533
                               0               0                0               0         0.971728        -54.2518        0.0642075        -151.151
                               0               0                0               0         0.222112         35.1644        0.0365266         12.2845
                               0               0                0               0        0.0365363         12.2652         0.222156         35.1844
76.305                         0               0                0               0        0.0669548        -152.873         0.971801        -56.2975
                               0               0                0               0         0.971652        -56.2966        0.0668811         -152.88
                               0               0                0               0         0.221198         33.0997        0.0364817         9.27396
                               0               0                0               0        0.0364874         9.25569         0.221241         33.1196
76.35                          0               0                0               0        0.0696173        -154.579         0.971895        -58.3439
                               0               0                0               0         0.971743        -58.3435        0.0695355        -154.575
                               0               0                0               0         0.220045         31.0325        0.0363884         6.22317
                               0               0                0               0        0.0363949         6.21966         0.220086         31.0526
76.395                         0               0                0               0        0.0722344        -156.252         0.972185        -60.3899
                               0               0                0               0         0.972032        -60.3898        0.0721645        -156.223
                               0               0                0               0         0.218661         28.9647        0.0362486         3.13523
                               0               0                0               0        0.0362586         3.15779         0.218699         28.9851
76.44                          0               0                0               0        0.0748074        -157.878         0.972685        -62.4326
                               0               0                0               0         0.972531        -62.4327        0.0747717        -157.823
