! TOUCHSTONE file generated by CST MICROWAVE STUDIO
! Date and time: Sun Jun 20 22:37:11 2021
! Project name: HIPS_d_sweep.cst
! Parameters = {fmax=120; fmin=75; b=0.46; d=19.25; a=0.63; phi=0; theta=0}
! Header version: 2018
! Port assignment regex: !\s*Touchstone port\s*([0-9]+)\s*=\s*(CST MWS port|CST DS port)\s*([0-9]+|Zmin|Zmax)\s*\(\"(.*)\"\)(\s*mode\s*([0-9]+))?.*
! Touchstone port assignment:
! Touchstone port 1 = CST MWS port Zmin ("") mode 1
! Touchstone port 2 = CST MWS port Zmin ("") mode 2
! Touchstone port 3 = CST MWS port Zmax ("") mode 1
! Touchstone port 4 = CST MWS port Zmax ("") mode 2
! S-Parameters are not renormalized. Unphysical impedance of 0 will be written to the file.
# GHz S MA R 0
75                             0               0                0               0         0.228856        -159.696         0.951237         107.313
                               0               0                0               0         0.951369         107.294         0.228914        -159.633
                               0               0                0               0         0.192142         21.5348        0.0729724         56.3961
                               0               0                0               0        0.0730277         56.3871          0.19211         21.5136
75.045                         0               0                0               0         0.229658        -160.849         0.951787          106.14
                               0               0                0               0         0.951912         106.122         0.229714        -160.784
                               0               0                0               0          0.19075         20.5089        0.0733028         54.6548
                               0               0                0               0        0.0734653         54.7429         0.190713         20.4906
75.09                          0               0                0               0         0.230438        -162.014         0.952325         104.959
                               0               0                0               0         0.952444         104.942         0.230492        -161.948
                               0               0                0               0         0.189263           19.47        0.0736277          52.907
                               0               0                0               0        0.0738912         53.0798          0.18922         19.4545
75.135                         0               0                0               0         0.231195        -163.192         0.952852          103.77
                               0               0                0               0         0.952965         103.755         0.231247        -163.124
                               0               0                0               0         0.187675         18.4185        0.0739461         51.1519
                               0               0                0               0        0.0743042         51.3973         0.187629         18.4058
75.18                          0               0                0               0         0.231926        -164.382         0.953367         102.575
                               0               0                0               0         0.953474          102.56         0.231977        -164.313
                               0               0                0               0         0.185986         17.3548        0.0742573         49.3889
                               0               0                0               0        0.0747027         49.6951         0.185937         17.3448
75.225                         0               0                0               0          0.23263        -165.585         0.953868         101.371
                               0               0                0               0         0.953969         101.358         0.232681        -165.515
                               0               0                0               0         0.184192         16.2796        0.0745602          47.617
                               0               0                0               0        0.0750854         47.9729         0.184141         16.2721
75.27                          0               0                0               0         0.233306        -166.799         0.954355         100.161
                               0               0                0               0          0.95445         100.148         0.233356        -166.729
                               0               0                0               0         0.182291         15.1933        0.0748537         45.8356
                               0               0                0               0        0.0754506         46.2305         0.182239         15.1882
75.315                         0               0                0               0         0.233951        -168.026         0.954826         98.9427
                               0               0                0               0         0.954915         98.9313         0.234002        -167.955
                               0               0                0               0          0.18028         14.0967        0.0751369         44.0438
                               0               0                0               0        0.0757967         44.4674         0.180227         14.0938
75.36                          0               0                0               0         0.234564        -169.265          0.95528         97.7171
                               0               0                0               0         0.955364         97.7067         0.234615        -169.194
                               0               0                0               0         0.178158         12.9905        0.0754084         42.2409
                               0               0                0               0         0.076122         42.6836         0.178105         12.9897
75.405                         0               0                0               0         0.235142        -170.516         0.955717         96.4842
                               0               0                0               0         0.955796         96.4746         0.235194        -170.445
                               0               0                0               0         0.175921         11.8756        0.0756673         40.4262
                               0               0                0               0        0.0764247         40.8789          0.17587         11.8766
75.45                          0               0                0               0         0.235685        -171.778         0.956135         95.2439
                               0               0                0               0         0.956208         95.2352         0.235738        -171.708
                               0               0                0               0          0.17357          10.753        0.0759121          38.599
                               0               0                0               0        0.0767031         39.0531         0.173521         10.7555
75.495                         0               0                0               0         0.236189        -173.052         0.956533         93.9962
                               0               0                0               0         0.956601         93.9884         0.236244        -172.982
                               0               0                0               0         0.171101          9.6238        0.0761416         36.7585
                               0               0                0               0        0.0769554          37.206         0.171055         9.62741
75.54                          0               0                0               0         0.236654        -174.337          0.95691         92.7412
                               0               0                0               0         0.956972         92.7342         0.236711        -174.268
                               0               0                0               0         0.168515         8.48913        0.0763543         34.9041
                               0               0                0               0        0.0771797         35.3378         0.168473         8.49359
75.585                         0               0                0               0         0.237078        -175.633         0.957265         91.4789
                               0               0                0               0         0.957321         91.4727         0.237136        -175.566
                               0               0                0               0         0.165811         7.35035        0.0765488         33.0351
                               0               0                0               0        0.0773742         33.4483         0.165772         7.35529
75.63                          0               0                0               0         0.237458         -176.94         0.957596         90.2094
                               0               0                0               0         0.957647         90.2039         0.237519        -176.874
                               0               0                0               0         0.162988         6.20895        0.0767237         31.1509
                               0               0                0               0        0.0775369         31.5377         0.162954         6.21394
75.675                         0               0                0               0         0.237794        -178.258         0.957902         88.9327
                               0               0                0               0         0.957948         88.9279         0.237856        -178.193
                               0               0                0               0         0.160047         5.06653        0.0768772         29.2508
                               0               0                0               0         0.077666          29.606         0.160017         5.07113
75.72                          0               0                0               0         0.238082        -179.585         0.958183         87.6488
                               0               0                0               0         0.958224         87.6447         0.238147        -179.523
                               0               0                0               0         0.156987         3.92488         0.077008         27.3344
                               0               0                0               0        0.0777597         27.6534         0.156962         3.92859
75.765                         0               0                0               0         0.238323         179.077         0.958436         86.3577
                               0               0                0               0         0.958471         86.3544          0.23839         179.137
                               0               0                0               0         0.153811         2.78597        0.0771141         25.4011
                               0               0                0               0         0.077816         25.6801         0.153791         2.78826
75.81                          0               0                0               0         0.238513          177.73         0.958661         85.0597
                               0               0                0               0         0.958691          85.057         0.238583         177.787
                               0               0                0               0         0.150519         1.65194        0.0771941         23.4504
                               0               0                0               0        0.0778333         23.6865         0.150503         1.65225
75.855                         0               0                0               0         0.238653         176.373         0.958856         83.7546
                               0               0                0               0         0.958881         83.7525         0.238724         176.428
                               0               0                0               0         0.147114        0.525161        0.0772461         21.4819
                               0               0                0               0        0.0778098         21.6729         0.147102        0.522888
75.9                           0               0                0               0         0.238739         175.008          0.95902         82.4426
                               0               0                0               0          0.95904         82.4411         0.238813          175.06
                               0               0                0               0         0.143598       -0.591758        0.0772684         19.4952
                               0               0                0               0        0.0777438         19.6398          0.14359       -0.597254
75.945                         0               0                0               0         0.238772         173.635         0.959152         81.1237
                               0               0                0               0         0.959166         81.1228         0.238848         173.684
                               0               0                0               0         0.139974        -1.69595        0.0772591         17.4899
                               0               0                0               0        0.0776339         17.5875         0.139968        -1.70534
75.99                          0               0                0               0          0.23875         172.253         0.959251         79.7981
                               0               0                0               0         0.959259         79.7977         0.238827         172.299
                               0               0                0               0         0.136244        -2.78425        0.0772166         15.4658
                               0               0                0               0        0.0774785         15.5167         0.136242        -2.79824
76.035                         0               0                0               0         0.238671         170.864         0.959314         78.4657
                               0               0                0               0         0.959317         78.4659          0.23875         170.906
                               0               0                0               0         0.132414        -3.85315         0.077139         13.4227
                               0               0                0               0        0.0772765          13.428         0.132413        -3.87248
76.08                          0               0                0               0         0.238536         169.469         0.959342         77.1267
                               0               0                0               0         0.959339         77.1274         0.238616         169.507
                               0               0                0               0         0.128488        -4.89876        0.0770246         11.3603
                               0               0                0               0        0.0770266         11.3221         0.128487        -4.92418
76.125                         0               0                0               0         0.238342         168.066         0.959332         75.7812
                               0               0                0               0         0.959323         75.7824         0.238423         168.101
                               0               0                0               0          0.12447        -5.91674        0.0768716          9.2787
                               0               0                0               0        0.0767278         9.19954         0.124469        -5.94904
76.17                          0               0                0               0          0.23809         166.658         0.959283         74.4292
                               0               0                0               0         0.959269         74.4309         0.238172         166.688
                               0               0                0               0         0.120367        -6.90221        0.0766784         7.17776
                               0               0                0               0        0.0763795         7.06125         0.120363        -6.94221
76.215                         0               0                0               0          0.23778         165.244         0.959195         73.0708
                               0               0                0               0         0.959174          73.073         0.237861          165.27
                               0               0                0               0         0.116183        -7.84971        0.0764435         5.05757
                               0               0                0               0        0.0759808         4.90799         0.116176        -7.89822
76.26                          0               0                0               0         0.237409         163.825         0.959065         71.7063
                               0               0                0               0         0.959039         71.7089          0.23749         163.847
                               0               0                0               0         0.111926        -8.75301        0.0761651         2.91823
                               0               0                0               0        0.0755316         2.74061         0.111913        -8.81088
76.305                         0               0                0               0          0.23698         162.402         0.958893         70.3356
                               0               0                0               0         0.958861         70.3386          0.23706          162.42
                               0               0                0               0         0.107602        -9.60504        0.0758421        0.759942
                               0               0                0               0        0.0750315        0.559993         0.107583         -9.6731
76.35                          0               0                0               0          0.23649         160.976         0.958677         68.9588
                               0               0                0               0         0.958639         68.9623          0.23657         160.988
                               0               0                0               0          0.10322        -10.3976         0.075473        -1.41703
                               0               0                0               0        0.0744807        -1.63297         0.103191        -10.4767
76.395                         0               0                0               0         0.235942         159.546         0.958417         67.5762
                               0               0                0               0         0.958372           67.58          0.23602         159.554
                               0               0                0               0        0.0987856        -11.1214        0.0750568        -3.61236
                               0               0                0               0        0.0738793        -3.83737        0.0987471        -11.2123
76.44                          0               0                0               0         0.235335         158.113         0.958111         66.1878
                               0               0                0               0          0.95806          66.192          0.23541         158.117
