! TOUCHSTONE file generated by CST MICROWAVE STUDIO
! Date and time: Sun Jun 20 22:38:15 2021
! Project name: HIPS_d_sweep.cst
! Parameters = {fmax=120; fmin=75; b=0.46; d=25.45; a=0.63; phi=0; theta=0}
! Header version: 2018
! Port assignment regex: !\s*Touchstone port\s*([0-9]+)\s*=\s*(CST MWS port|CST DS port)\s*([0-9]+|Zmin|Zmax)\s*\(\"(.*)\"\)(\s*mode\s*([0-9]+))?.*
! Touchstone port assignment:
! Touchstone port 1 = CST MWS port Zmin ("") mode 1
! Touchstone port 2 = CST MWS port Zmin ("") mode 2
! Touchstone port 3 = CST MWS port Zmax ("") mode 1
! Touchstone port 4 = CST MWS port Zmax ("") mode 2
! S-Parameters are not renormalized. Unphysical impedance of 0 will be written to the file.
# GHz S MA R 0
75                             0               0                0               0         0.184208         32.0072         0.957787         123.989
                               0               0                0               0          0.95774         123.982          0.18416         31.9688
                               0               0                0               0         0.214809         32.5107        0.0495599        -21.8561
                               0               0                0               0        0.0495777        -21.8166         0.214911         32.5234
75.045                         0               0                0               0         0.179364          31.138         0.961795         122.881
                               0               0                0               0         0.958757         123.195         0.179191         31.0867
                               0               0                0               0          0.21423         31.6842        0.0485837          -21.68
                               0               0                0               0        0.0486094        -22.5296         0.214211         31.7622
75.09                          0               0                0               0         0.175279         30.2128         0.965399          121.78
                               0               0                0               0         0.959658         122.311         0.175059         30.1534
                               0               0                0               0         0.213547         30.7998        0.0475594        -21.9836
                               0               0                0               0         0.047618        -23.2974         0.213478         30.9144
75.135                         0               0                0               0         0.171857         29.2294         0.968431         120.689
                               0               0                0               0         0.960474         121.333         0.171639         29.1663
                               0               0                0               0         0.212751         29.8538        0.0465414         -22.684
                               0               0                0               0        0.0466169        -24.1249         0.212683         29.9803
75.18                          0               0                0               0          0.16902         28.1864         0.970632         119.614
                               0               0                0               0         0.961228         120.265         0.168832         28.1229
                               0               0                0               0         0.211833         28.8425        0.0455536        -23.7143
                               0               0                0               0        0.0456216        -25.0206         0.211797         28.9604
75.225                         0               0                0               0         0.166704         27.0821         0.971518         118.564
                               0               0                0               0         0.961939         119.111         0.166563         27.0213
                               0               0                0               0         0.210781         27.7626        0.0446029        -25.0236
                               0               0                0               0         0.044649        -25.9989         0.210792         27.8558
75.27                          0               0                0               0         0.164859         25.9156         0.970025         117.551
                               0               0                0               0         0.962619         117.874         0.164771         25.8594
                               0               0                0               0          0.20958          26.611        0.0436875         -26.575
                               0               0                0               0        0.0437152        -27.0825         0.209641          26.668
75.315                         0               0                0               0         0.163442         24.6857         0.963327         116.562
                               0               0                0               0         0.963276         116.556         0.163407         24.6357
                               0               0                0               0         0.208215         25.3851        0.0428014        -28.3425
                               0               0                0               0        0.0428329        -28.3045         0.208318         25.3989
75.36                          0               0                0               0         0.162421         23.3918         0.944298         115.225
                               0               0                0               0         0.963916         115.163         0.162432         23.3488
                               0               0                0               0         0.206669         24.0826        0.0419369        -30.3091
                               0               0                0               0        0.0420071        -29.7081         0.206799         24.0508
75.405                         0               0                0               0         0.161767         22.0335         0.928433         111.694
                               0               0                0               0          0.96454         113.695         0.161817         21.9978
                               0               0                0               0         0.204923         22.7024        0.0410859        -32.4649
                               0               0                0               0        0.0412323        -31.3427          0.20506         22.6264
75.45                          0               0                0               0          0.16146         20.6107         0.961212         109.099
                               0               0                0               0          0.96515         112.156         0.161539         20.5818
                               0               0                0               0         0.202955         21.2439        0.0402404        -34.8055
                               0               0                0               0        0.0404908        -33.2555         0.203081         21.1287
75.495                         0               0                0               0          0.16148         19.1237         0.977889         108.185
                               0               0                0               0         0.965743          110.55         0.161578         19.1005
                               0               0                0               0         0.200745         19.7076        0.0393932        -37.3313
                               0               0                0               0        0.0397561        -35.4829         0.200843         19.5612
75.54                          0               0                0               0         0.161815         17.5731         0.982406         107.134
                               0               0                0               0         0.966317         108.878         0.161922         17.5542
                               0               0                0               0         0.198272         18.0949        0.0385379        -40.0467
                               0               0                0               0        0.0389987        -38.0439         0.198329         17.9276
75.585                         0               0                0               0         0.162453         15.9599         0.983007         105.856
                               0               0                0               0          0.96687         107.145         0.162559         15.9434
                               0               0                0               0         0.195514         16.4088         0.037669        -42.9602
                               0               0                0               0        0.0381943        -40.9403         0.195526         16.2318
75.63                          0               0                0               0         0.163385         14.2856         0.982095         104.409
                               0               0                0               0         0.967399         105.351         0.163483         14.2695
                               0               0                0               0         0.192453         14.6532        0.0367823        -46.0834
                               0               0                0               0        0.0373282        -44.1621         0.192421         14.4781
75.675                         0               0                0               0         0.164602         12.5521         0.980504         102.828
                               0               0                0               0         0.967901         103.501         0.164687         12.5343
                               0               0                0               0         0.189073         12.8334        0.0358749        -49.4321
                               0               0                0               0        0.0363975        -47.6956         0.189007         12.6709
75.72                          0               0                0               0         0.166099         10.7618         0.978631         101.133
                               0               0                0               0         0.968376         101.596         0.166167         10.7403
                               0               0                0               0         0.185364         10.9556        0.0349456        -53.0251
                               0               0                0               0        0.0354087        -51.5306         0.185278         10.8147
75.765                         0               0                0               0         0.167869         8.91746         0.976715         99.3364
                               0               0                0               0         0.968822         99.6403         0.167918         8.89055
                               0               0                0               0         0.181318         9.02697        0.0339951        -56.8854
                               0               0                0               0        0.0343753         -55.664         0.181229         8.91429
75.81                          0               0                0               0         0.169905         7.02225         0.974923         97.4498
                               0               0                0               0         0.969239         97.6359         0.169936          6.9887
                               0               0                0               0         0.176934         7.05534        0.0330267        -61.0393
                               0               0                0               0        0.0333139        -60.1014         0.176861         6.97442
75.855                         0               0                0               0         0.172199         5.07959         0.973368         95.4828
                               0               0                0               0          0.96963          95.586         0.172214         5.03874
                               0               0                0               0         0.172215         5.04872        0.0320465        -65.5165
                               0               0                0               0         0.032243        -64.8557         0.172175         5.00011
75.9                           0               0                0               0         0.174743         3.09313         0.972125         93.4454
                               0               0                0               0         0.969994         93.4938         0.174744         3.04492
                               0               0                0               0          0.16717         3.01511        0.0310637        -70.3494
                               0               0                0               0        0.0311817        -69.9461         0.167174         2.99653
75.945                         0               0                0               0         0.177523         1.06659         0.971225         91.3472
                               0               0                0               0         0.970335         91.3625         0.177515         1.01158
                               0               0                0               0         0.161812        0.962183        0.0300918        -75.5717
                               0               0                0               0        0.0301494         -75.395         0.161865        0.969061
75.99                          0               0                0               0         0.180527        -0.99634          0.97067         89.1978
                               0               0                0               0         0.970654         89.1956         0.180513        -1.05709
                               0               0                0               0         0.156155        -1.10286        0.0291483         -81.216
                               0               0                0               0        0.0291663        -81.2252         0.156254        -1.07656
76.035                         0               0                0               0         0.183737        -3.09216         0.970429          87.006
                               0               0                0               0         0.970952         86.9968          0.18372        -3.15718
                               0               0                0               0         0.150214        -3.17333        0.0282549        -87.3104
                               0               0                0               0        0.0282531        -87.4571         0.150352        -3.13417
76.08                          0               0                0               0         0.187132        -5.21765          0.97045         84.7799
                               0               0                0               0          0.97123         84.7699         0.187115        -5.28527
                               0               0                0               0         0.144005        -5.24287        0.0274375        -93.8729
                               0               0                0               0        0.0274322        -94.1038         0.144169        -5.19698
76.125                         0               0                0               0         0.190689        -7.36996         0.970668         82.5269
                               0               0                0               0         0.971484          82.519         0.190673        -7.43852
                               0               0                0               0         0.137544        -7.30509         0.026725        -100.906
                               0               0                0               0        0.0267266        -101.167         0.137718        -7.25736
76.17                          0               0                0               0         0.194381        -9.54667         0.971007         80.2532
                               0               0                0               0          0.97171         80.2483         0.194366        -9.61468
                               0               0                0               0         0.130844        -9.35305        0.0261475        -108.387
                               0               0                0               0        0.0261602        -108.631         0.131015        -9.30657
76.215                         0               0                0               0         0.198178        -11.7457         0.971391         77.9645
                               0               0                0               0           0.9719          77.962         0.198164        -11.8121
                               0               0                0               0         0.123918        -11.3785        0.0257342        -116.269
                               0               0                0               0        0.0257563        -116.458         0.124074        -11.3344
76.26                          0               0                0               0         0.202049        -13.9655         0.971747         75.6656
                               0               0                0               0         0.972045         75.6645         0.202036        -14.0296
                               0               0                0               0          0.11678        -13.3713        0.0255101         -124.47
                               0               0                0               0         0.025536        -124.588         0.116915        -13.3289
76.305                         0               0                0               0         0.205962        -16.2044         0.972013         73.3605
                               0               0                0               0         0.972132         73.3601         0.205948        -16.2662
                               0               0                0               0         0.109444        -15.3181         0.025493        -132.885
                               0               0                0               0        0.0255166        -132.935         0.109559        -15.2755
76.35                          0               0                0               0         0.209884        -18.4608         0.972144         71.0531
                               0               0                0               0         0.972149         71.0528         0.209868        -18.5209
                               0               0                0               0         0.101928        -17.2018        0.0256917        -141.391
                               0               0                0               0        0.0257097        -141.394         0.102028        -17.1567
76.395                         0               0                0               0         0.213783         -20.733         0.972115         68.7465
                               0               0                0               0         0.972086         68.7465         0.213766        -20.7924
                               0               0                0               0        0.0942556        -19.0004        0.0261046        -149.863
                               0               0                0               0        0.0261194         -149.85        0.0943505        -18.9514
76.44                          0               0                0               0         0.217631        -23.0182         0.971932         66.4439
                               0               0                0               0         0.971939         66.4446         0.217616        -23.0783
