! TOUCHSTONE file generated by CST MICROWAVE STUDIO
! Date and time: Sun Jun 20 22:38:09 2021
! Project name: HIPS_d_sweep.cst
! Parameters = {fmax=120; fmin=75; b=0.46; d=24.9; a=0.63; phi=0; theta=0}
! Header version: 2018
! Port assignment regex: !\s*Touchstone port\s*([0-9]+)\s*=\s*(CST MWS port|CST DS port)\s*([0-9]+|Zmin|Zmax)\s*\(\"(.*)\"\)(\s*mode\s*([0-9]+))?.*
! Touchstone port assignment:
! Touchstone port 1 = CST MWS port Zmin ("") mode 1
! Touchstone port 2 = CST MWS port Zmin ("") mode 2
! Touchstone port 3 = CST MWS port Zmax ("") mode 1
! Touchstone port 4 = CST MWS port Zmax ("") mode 2
! S-Parameters are not renormalized. Unphysical impedance of 0 will be written to the file.
# GHz S MA R 0
75                             0               0                0               0         0.158247         93.1488         0.976082        -174.721
                               0               0                0               0         0.976094        -174.729         0.158188         93.1396
                               0               0                0               0         0.141774         92.7483        0.0458009         65.2633
                               0               0                0               0        0.0458071         65.2962         0.141794         92.7257
75.045                         0               0                0               0         0.153817         92.3003         0.976582        -175.535
                               0               0                0               0         0.976583        -175.543         0.153738         92.2866
                               0               0                0               0         0.143748         92.0917        0.0450402          64.427
                               0               0                0               0        0.0450399         64.4662         0.143769           92.07
75.09                          0               0                0               0         0.149789         91.3342         0.976867        -176.431
                               0               0                0               0          0.97687        -176.439         0.149729         91.3222
                               0               0                0               0         0.145942         91.3233        0.0444356         63.4435
                               0               0                0               0        0.0444391         63.4819         0.145963         91.3018
75.135                         0               0                0               0         0.146178         90.2613         0.976973        -177.408
                               0               0                0               0         0.976987        -177.416         0.146159         90.2553
                               0               0                0               0         0.148349         90.4501        0.0439732         62.3271
                               0               0                0               0        0.0439871         62.3606         0.148369         90.4285
75.18                          0               0                0               0         0.142993         89.0925         0.976932        -178.466
                               0               0                0               0         0.976964        -178.475         0.143025         89.0945
                               0               0                0               0         0.150959         89.4783        0.0436404         61.0897
                               0               0                0               0        0.0436687          61.116         0.150979         89.4565
75.225                         0               0                0               0         0.140238          87.838         0.976773        -179.605
                               0               0                0               0         0.976826        -179.613          0.14032         87.8482
                               0               0                0               0         0.153762         88.4136        0.0434262         59.7406
                               0               0                0               0        0.0434704         59.7587         0.153781         88.3917
75.27                          0               0                0               0         0.137912         86.5071         0.976522         179.177
                               0               0                0               0         0.976596         179.169         0.138035         86.5244
                               0               0                0               0         0.156742         87.2609        0.0433203         58.2871
                               0               0                0               0        0.0433808          58.297          0.15676         87.2391
75.315                         0               0                0               0          0.13601         85.1079         0.976198         177.882
                               0               0                0               0         0.976293         177.874         0.136159         85.1299
                               0               0                0               0         0.159882         86.0246        0.0433135         56.7351
                               0               0                0               0        0.0433893         56.7371         0.159899         86.0031
75.36                          0               0                0               0         0.134523         83.6468         0.975819         176.512
                               0               0                0               0         0.975932         176.504          0.13468         83.6711
                               0               0                0               0         0.163165         84.7084        0.0433975         55.0884
                               0               0                0               0         0.043487         55.0834         0.163181         84.6877
75.405                         0               0                0               0         0.133439         82.1288         0.975398         175.069
                               0               0                0               0         0.975524         175.061         0.133585          82.153
                               0               0                0               0         0.166569         83.3159        0.0435643         53.3499
                               0               0                0               0        0.0436653         53.3389         0.166584         83.2961
75.45                          0               0                0               0         0.132745         80.5574         0.974943         173.556
                               0               0                0               0         0.975078         173.548         0.132861         80.5797
                               0               0                0               0         0.170072         81.8499        0.0438063          51.521
                               0               0                0               0        0.0439165         51.5051         0.170086         81.8314
75.495                         0               0                0               0         0.132423         78.9345         0.974459         171.976
                               0               0                0               0         0.974597         171.968         0.132492         78.9545
                               0               0                0               0         0.173648         80.3135        0.0441165         49.6022
                               0               0                0               0        0.0442332         49.5827         0.173662         80.2964
75.54                          0               0                0               0         0.132452         77.2615         0.973948         170.332
                               0               0                0               0         0.974085         170.324         0.132461         77.2797
                               0               0                0               0         0.177272         78.7094        0.0444875         47.5934
                               0               0                0               0        0.0446081         47.5714         0.177285         78.6939
75.585                         0               0                0               0         0.132811         75.5389         0.973409         168.627
                               0               0                0               0          0.97354          168.62         0.132751         75.5567
                               0               0                0               0         0.180915         77.0403         0.044912         45.4934
                               0               0                0               0        0.0450342         45.4703         0.180928         77.0266
75.63                          0               0                0               0         0.133475         73.7672         0.972839         166.865
                               0               0                0               0          0.97296         166.859         0.133344         73.7867
                               0               0                0               0         0.184549         75.3092        0.0453824         43.3009
                               0               0                0               0        0.0455039         43.2779         0.184563         75.2973
75.675                         0               0                0               0         0.134419          71.947         0.972232          165.05
                               0               0                0               0         0.972342         165.045         0.134219         71.9705
                               0               0                0               0         0.188144         73.5192        0.0458906         41.0142
                               0               0                0               0        0.0460096         40.9925         0.188158         73.5091
75.72                          0               0                0               0         0.135615         70.0795         0.971585         163.186
                               0               0                0               0          0.97168         163.181         0.135355         70.1092
                               0               0                0               0         0.191669         71.6736        0.0464279         38.6315
                               0               0                0               0        0.0465428         38.6123         0.191683         71.6653
75.765                         0               0                0               0         0.137037         68.1668         0.970892         161.276
                               0               0                0               0         0.970972         161.272          0.13673         68.2038
                               0               0                0               0         0.195093         69.7762        0.0469851         36.1515
                               0               0                0               0        0.0470947         36.1358         0.195109         69.7695
75.81                          0               0                0               0         0.138658         66.2118         0.970149         159.325
                               0               0                0               0         0.970214         159.322         0.138321         66.2563
                               0               0                0               0         0.198387         67.8308        0.0475519         33.5731
                               0               0                0               0        0.0476557         33.5619         0.198404         67.8256
75.855                         0               0                0               0         0.140452         64.2182         0.969352         157.337
                               0               0                0               0         0.969404         157.334         0.140103         64.2691
                               0               0                0               0         0.201521         65.8419        0.0481175         30.8963
                               0               0                0               0        0.0482152         30.8904          0.20154          65.838
75.9                           0               0                0               0         0.142398         62.1907         0.968502         155.315
                               0               0                0               0         0.968542         155.313         0.142055         62.2458
                               0               0                0               0         0.204468          63.814        0.0486703         28.1222
                               0               0                0               0        0.0487624          28.122         0.204489         63.8112
75.945                         0               0                0               0         0.144473         60.1343           0.9676         153.263
                               0               0                0               0         0.967632         153.262         0.144154         60.1905
                               0               0                0               0         0.207203          61.752        0.0491986         25.2532
                               0               0                0               0        0.0492857          25.259         0.207225         61.7501
75.99                          0               0                0               0          0.14666         58.0548         0.966654         151.185
                               0               0                0               0          0.96668         151.185         0.146378         58.1085
                               0               0                0               0         0.209704         59.6608        0.0496902         22.2937
                               0               0                0               0        0.0497734         22.3054         0.209728         59.6597
76.035                         0               0                0               0         0.148944         55.9578         0.965674         149.086
                               0               0                0               0         0.965697         149.085         0.148708         56.0058
                               0               0                0               0         0.211952         57.5457        0.0501338         19.2498
                               0               0                0               0        0.0502144         19.2672         0.211978         57.5451
76.08                          0               0                0               0         0.151313         53.8494         0.964675         146.967
                               0               0                0               0         0.964697         146.967         0.151128         53.8889
                               0               0                0               0         0.213933         55.4116        0.0505191         16.1297
                               0               0                0               0        0.0505985          16.152          0.21396         55.4115
76.125                         0               0                0               0         0.153758         51.7354         0.963676         144.833
                               0               0                0               0         0.963702         144.833         0.153624         51.7645
                               0               0                0               0         0.215636         53.2634        0.0508377         12.9431
                               0               0                0               0        0.0509171         12.9694         0.215664         53.2638
76.17                          0               0                0               0         0.156272         49.6212         0.962702         142.687
                               0               0                0               0         0.962733         142.687         0.156185         49.6396
                               0               0                0               0         0.217053         51.1059        0.0510837         9.70062
                               0               0                0               0        0.0511643         9.73015         0.217082         51.1068
76.215                         0               0                0               0         0.158849         47.5123         0.961782         140.531
                               0               0                0               0         0.961819         140.532         0.158802         47.5207
                               0               0                0               0         0.218181         48.9433        0.0512543         6.41349
                               0               0                0               0        0.0513369         6.44523         0.218211         48.9446
76.26                          0               0                0               0         0.161486         45.4136         0.960945         138.369
                               0               0                0               0         0.960989         138.369         0.161468          45.414
                               0               0                0               0         0.219021         46.7793        0.0513498         3.09195
                               0               0                0               0        0.0514347         3.12511         0.219051         46.7812
76.305                         0               0                0               0         0.164175         43.3296         0.960222         136.204
                               0               0                0               0         0.960274         136.204         0.164178         43.3245
                               0               0                0               0         0.219575         44.6174        0.0513731       -0.255623
                               0               0                0               0        0.0514602       -0.221661         0.219605         44.6199
76.35                          0               0                0               0          0.16691         41.2642         0.959642         134.037
                               0               0                0               0           0.9597         134.037         0.166923         41.2562
                               0               0                0               0         0.219845         42.4602        0.0513287        -3.62375
                               0               0                0               0        0.0514174        -3.58939         0.219877         42.4635
76.395                         0               0                0               0         0.169679           39.22         0.959222         131.872
                               0               0                0               0         0.959287         131.873         0.169697         39.2114
                               0               0                0               0         0.219836         40.3102        0.0512211        -7.01039
                               0               0                0               0        0.0513105        -6.97592         0.219869         40.3143
76.44                          0               0                0               0         0.172466         37.1985          0.95897         129.712
                               0               0                0               0          0.95904         129.713         0.172486         37.1904
