! TOUCHSTONE file generated by CST MICROWAVE STUDIO
! Date and time: Sun Jun 20 22:37:05 2021
! Project name: HIPS_d_sweep.cst
! Parameters = {fmax=120; fmin=75; b=0.46; d=18.45; a=0.63; phi=0; theta=0}
! Header version: 2018
! Port assignment regex: !\s*Touchstone port\s*([0-9]+)\s*=\s*(CST MWS port|CST DS port)\s*([0-9]+|Zmin|Zmax)\s*\(\"(.*)\"\)(\s*mode\s*([0-9]+))?.*
! Touchstone port assignment:
! Touchstone port 1 = CST MWS port Zmin ("") mode 1
! Touchstone port 2 = CST MWS port Zmin ("") mode 2
! Touchstone port 3 = CST MWS port Zmax ("") mode 1
! Touchstone port 4 = CST MWS port Zmax ("") mode 2
! S-Parameters are not renormalized. Unphysical impedance of 0 will be written to the file.
# GHz S MA R 0
75                             0               0                0               0         0.290032        -73.4839         0.951777        -162.509
                               0               0                0               0         0.951501        -162.511         0.290361        -73.4625
                               0               0                0               0        0.0824666         96.3415        0.0574966        -97.7709
                               0               0                0               0        0.0574917        -97.8762        0.0823395         96.2822
75.045                         0               0                0               0         0.292975        -74.1221         0.950805        -163.131
                               0               0                0               0         0.950504        -163.134         0.293304        -74.1013
                               0               0                0               0        0.0838467         95.8212        0.0577214        -99.1024
                               0               0                0               0        0.0577011         -99.204        0.0837172         95.7612
75.09                          0               0                0               0         0.295579        -74.8174         0.949847        -163.817
                               0               0                0               0         0.949539         -163.82         0.295914        -74.7984
                               0               0                0               0        0.0854301         95.2836        0.0578463        -100.571
                               0               0                0               0        0.0578192        -100.673        0.0852992         95.2238
75.135                         0               0                0               0         0.297839        -75.5719         0.948932        -164.567
                               0               0                0               0         0.948626        -164.569         0.298184        -75.5553
                               0               0                0               0        0.0872157         94.7328        0.0578771        -102.186
                               0               0                0               0        0.0578499        -102.291        0.0870841         94.6738
75.18                          0               0                0               0         0.299753        -76.3871         0.948086         -165.38
                               0               0                0               0         0.947784        -165.381         0.300113         -76.373
                               0               0                0               0        0.0892009          94.171        0.0578204        -103.952
                               0               0                0               0        0.0577977        -104.065        0.0890695          94.113
75.225                         0               0                0               0         0.301322        -77.2638         0.947328        -166.254
                               0               0                0               0         0.947028        -166.254         0.301698        -77.2516
                               0               0                0               0        0.0913822         93.5983         0.057683        -105.876
                               0               0                0               0         0.057668            -106        0.0912518         93.5414
75.27                          0               0                0               0         0.302551        -78.2019         0.946672        -167.189
                               0               0                0               0         0.946368        -167.188         0.302942         -78.191
                               0               0                0               0        0.0937551          93.013        0.0574721        -107.961
                               0               0                0               0        0.0574664        -108.099        0.0936263          92.957
75.315                         0               0                0               0         0.303447        -79.2006         0.946124        -168.182
                               0               0                0               0         0.945809         -168.18          0.30385        -79.1901
                               0               0                0               0        0.0963143         92.4118        0.0571946        -110.211
                               0               0                0               0         0.057199        -110.367        0.0961876         92.3567
75.36                          0               0                0               0         0.304017        -80.2584         0.945689        -169.232
                               0               0                0               0         0.945355        -169.231          0.30443        -80.2475
                               0               0                0               0        0.0990535         91.7906        0.0568578        -112.629
                               0               0                0               0        0.0568722        -112.803        0.0989292         91.7361
75.405                         0               0                0               0         0.304274        -81.3731         0.945362        -170.338
                               0               0                0               0         0.945004        -170.337         0.304691        -81.3611
                               0               0                0               0         0.101966         91.1442        0.0564688        -115.214
                               0               0                0               0        0.0564925        -115.408         0.101844         91.0901
75.45                          0               0                0               0          0.30423         -82.542         0.945137        -171.497
                               0               0                0               0         0.944749        -171.497         0.304645        -82.5283
                               0               0                0               0         0.105042         90.4671        0.0560348        -117.967
                               0               0                0               0        0.0560668        -118.181         0.104923         90.4132
75.495                         0               0                0               0         0.303896        -83.7617         0.945001        -172.708
                               0               0                0               0         0.944581        -172.709         0.304304        -83.7462
                               0               0                0               0         0.108273         89.7535        0.0555627        -120.888
                               0               0                0               0        0.0556019         -121.12         0.108155         89.6999
75.54                          0               0                0               0         0.303289        -85.0287          0.94494        -173.968
                               0               0                0               0          0.94449         -173.97         0.303684        -85.0114
                               0               0                0               0         0.111647          88.998        0.0550599        -123.974
                               0               0                0               0        0.0551051         -124.22         0.111531         88.9447
75.585                         0               0                0               0         0.302424        -86.3391         0.944936        -175.275
                               0               0                0               0         0.944461        -175.279         0.302799        -86.3205
                               0               0                0               0          0.11515         88.1956        0.0545334        -127.221
                               0               0                0               0        0.0545836        -127.476         0.115035          88.143
75.63                          0               0                0               0         0.301315        -87.6886         0.944967        -176.627
                               0               0                0               0         0.944478        -176.631         0.301666        -87.6695
                               0               0                0               0         0.118768         87.3422        0.0539906        -130.626
                               0               0                0               0        0.0540448        -130.884         0.118652         87.2907
75.675                         0               0                0               0          0.29998        -89.0732         0.945013        -178.021
                               0               0                0               0         0.944523        -178.026         0.300302        -89.0547
                               0               0                0               0         0.122482         86.4344        0.0534388        -134.182
                               0               0                0               0        0.0534964        -134.434         0.122366         86.3848
75.72                          0               0                0               0         0.298435        -90.4885         0.945052        -179.454
                               0               0                0               0          0.94458        -179.459         0.298726        -90.4721
                               0               0                0               0         0.126275         85.4704        0.0528858        -137.883
                               0               0                0               0        0.0529459         -138.12         0.126157         85.4234
75.765                         0               0                0               0         0.296697        -91.9304         0.945064         179.077
                               0               0                0               0         0.944632         179.072         0.296954        -91.9178
                               0               0                0               0         0.130124         84.4495        0.0523393        -141.721
                               0               0                0               0        0.0524013        -141.931         0.130005          84.406
75.81                          0               0                0               0         0.294783        -93.3951         0.945031         177.573
                               0               0                0               0         0.944663         177.569         0.295005        -93.3881
                               0               0                0               0          0.13401         83.3724        0.0518071        -145.687
                               0               0                0               0        0.0518702         -145.86         0.133889         83.3334
75.855                         0               0                0               0         0.292709        -94.8789          0.94494         176.039
                               0               0                0               0         0.944662         176.037         0.292897        -94.8793
                               0               0                0               0         0.137911         82.2414        0.0512973         -149.77
                               0               0                0               0        0.0513607        -149.894         0.137789         82.2076
75.9                           0               0                0               0         0.290491        -96.3786         0.944783         174.477
                               0               0                0               0         0.944619         174.477         0.290648        -96.3882
                               0               0                0               0         0.141806         81.0599        0.0508181        -153.958
                               0               0                0               0        0.0508805        -154.025         0.141685         81.0319
75.945                         0               0                0               0         0.288147        -97.8912         0.944558         172.891
                               0               0                0               0         0.944531         172.893         0.288275        -97.9116
                               0               0                0               0          0.14568         79.8325        0.0503777        -158.239
                               0               0                0               0        0.0504373        -158.242          0.14556         79.8106
75.99                          0               0                0               0         0.285692        -99.4145         0.944274         171.284
                               0               0                0               0         0.944399         171.289         0.285795        -99.4469
                               0               0                0               0         0.149515         78.5646        0.0499844        -162.599
                               0               0                0               0        0.0500389        -162.533           0.1494         78.5486
76.035                         0               0                0               0         0.283142        -100.947         0.943949         169.659
                               0               0                0               0         0.944233         169.667         0.283227        -100.992
                               0               0                0               0         0.153303          77.262        0.0496462        -167.024
                               0               0                0               0        0.0496931         -166.89         0.153192         77.2515
76.08                          0               0                0               0         0.280511        -102.487         0.943613         168.019
                               0               0                0               0         0.944049          168.03         0.280584        -102.544
                               0               0                0               0         0.157036         75.9308        0.0493713        -171.499
                               0               0                0               0        0.0494078        -171.301          0.15693         75.9248
76.125                         0               0                0               0         0.277816        -104.034         0.943305         166.369
                               0               0                0               0         0.943873         166.381         0.277885        -104.103
                               0               0                0               0         0.160712         74.5767        0.0491676        -176.009
                               0               0                0               0        0.0491908        -175.758         0.160611         74.5742
76.17                          0               0                0               0         0.275073        -105.589         0.943073          164.71
                               0               0                0               0         0.943736         164.723         0.275145        -105.667
                               0               0                0               0         0.164332         73.2052        0.0490426         179.463
                               0               0                0               0        0.0490505         179.749         0.164234         73.2047
76.215                         0               0                0               0         0.272298        -107.152         0.942973         163.046
                               0               0                0               0         0.943677         163.058          0.27238        -107.236
                               0               0                0               0         0.167897         71.8212        0.0490031         174.931
                               0               0                0               0        0.0489953         175.232         0.167801         71.8212
76.26                          0               0                0               0         0.269513        -108.725         0.943057         161.379
                               0               0                0               0          0.94374          161.39         0.269607         -108.81
                               0               0                0               0         0.171408         70.4287        0.0490551         170.412
                               0               0                0               0        0.0490336         170.703         0.171312         70.4278
76.305                         0               0                0               0         0.266737        -110.308         0.943371         159.713
                               0               0                0               0         0.943965         159.722         0.266844        -110.388
                               0               0                0               0         0.174864         69.0312        0.0492031         165.922
                               0               0                0               0         0.049173         166.178         0.174764         69.0282
76.35                          0               0                0               0         0.263997        -111.901         0.943941         158.049
                               0               0                0               0         0.944383         158.055         0.264112        -111.971
                               0               0                0               0         0.178255         67.6311        0.0494494         161.477
                               0               0                0               0        0.0494188         161.676         0.178151         67.6253
76.395                         0               0                0               0         0.261319        -113.504         0.944765          156.39
                               0               0                0               0         0.945009         156.393         0.261431        -113.558
                               0               0                0               0         0.181567         66.2299        0.0497929         157.092
                               0               0                0               0        0.0497722         157.219         0.181457         66.2209
76.44                          0               0                0               0         0.258732        -115.114         0.945801         154.739
                               0               0                0               0          0.94583         154.738         0.258824        -115.148
