! TOUCHSTONE file generated by CST MICROWAVE STUDIO
! Date and time: Sun Jun 20 22:37:21 2021
! Project name: HIPS_d_sweep.cst
! Parameters = {fmax=120; fmin=75; b=0.46; d=20.45; a=0.63; phi=0; theta=0}
! Header version: 2018
! Port assignment regex: !\s*Touchstone port\s*([0-9]+)\s*=\s*(CST MWS port|CST DS port)\s*([0-9]+|Zmin|Zmax)\s*\(\"(.*)\"\)(\s*mode\s*([0-9]+))?.*
! Touchstone port assignment:
! Touchstone port 1 = CST MWS port Zmin ("") mode 1
! Touchstone port 2 = CST MWS port Zmin ("") mode 2
! Touchstone port 3 = CST MWS port Zmax ("") mode 1
! Touchstone port 4 = CST MWS port Zmax ("") mode 2
! S-Parameters are not renormalized. Unphysical impedance of 0 will be written to the file.
# GHz S MA R 0
75                             0               0                0               0         0.143543          62.117         0.966857        -29.6311
                               0               0                0               0         0.966905         -29.624         0.143485         62.0383
                               0               0                0               0          0.20756         61.2246        0.0367555         117.822
                               0               0                0               0        0.0367042         117.737          0.20754          61.239
75.045                         0               0                0               0          0.14647         61.3186         0.967313        -30.3122
                               0               0                0               0         0.967357        -30.3582         0.146575         61.3628
                               0               0                0               0         0.208062         60.6036        0.0376467         116.941
                               0               0                0               0         0.037247         116.966         0.208085         60.6232
75.09                          0               0                0               0         0.149228         60.5007         0.967445        -31.0546
                               0               0                0               0         0.967543        -31.1369         0.149434         60.6287
                               0               0                0               0         0.208523         59.9148        0.0385216         115.988
                               0               0                0               0        0.0378349         116.116         0.208574         59.9391
75.135                         0               0                0               0         0.151793         59.6596         0.967307        -31.8596
                               0               0                0               0         0.967485        -31.9632         0.152047         59.8369
                               0               0                0               0         0.208959         59.1572        0.0393756         114.954
                               0               0                0               0         0.038473         115.172         0.209025         59.1852
75.18                          0               0                0               0         0.154136         58.7913          0.96695        -32.7281
                               0               0                0               0         0.967211          -32.84         0.154398         58.9885
                               0               0                0               0         0.209382          58.331         0.040205         113.827
                               0               0                0               0         0.039165         114.118         0.209453         58.3613
75.225                         0               0                0               0         0.156236          57.892         0.966427        -33.6603
                               0               0                0               0         0.966755        -33.7698         0.156475         58.0846
                               0               0                0               0         0.209803         57.4368         0.041007         112.595
                               0               0                0               0        0.0399123         112.937         0.209871          57.468
75.27                          0               0                0               0         0.158073         56.9576         0.965789        -34.6561
                               0               0                0               0         0.966153        -34.7548         0.158267         57.1265
                               0               0                0               0          0.21023         56.4764        0.0417798         111.249
                               0               0                0               0        0.0407133          111.61          0.21029          56.507
75.315                         0               0                0               0          0.15963         55.9845         0.965082        -35.7146
                               0               0                0               0         0.965446        -35.7963         0.159769         56.1156
                               0               0                0               0         0.210669         55.4518        0.0425234         109.777
                               0               0                0               0        0.0415625         110.123         0.210718         55.4806
75.36                          0               0                0               0         0.160895         54.9692         0.964349        -36.8347
                               0               0                0               0         0.964676        -36.8956         0.160975         55.0533
                               0               0                0               0         0.211122         54.3655        0.0432394         108.169
                               0               0                0               0        0.0424502         108.464         0.211158         54.3914
75.405                         0               0                0               0         0.161863         53.9087         0.963628         -38.015
                               0               0                0               0         0.963882        -38.0529         0.161886         53.9412
                               0               0                0               0         0.211586         53.2201        0.0439307         106.418
                               0               0                0               0        0.0433632         106.625         0.211609         53.2425
75.45                          0               0                0               0         0.162529         52.8007         0.962952        -39.2533
                               0               0                0               0         0.963106        -39.2681         0.162502         52.7809
                               0               0                0               0         0.212059         52.0184         0.044602         104.519
                               0               0                0               0        0.0442857         104.608          0.21207         52.0368
75.495                         0               0                0               0         0.162898         51.6436         0.962349        -40.5476
                               0               0                0               0         0.962383        -40.5405         0.162831         51.5743
                               0               0                0               0         0.212532         50.7631        0.0452589         102.469
                               0               0                0               0        0.0452011         102.422         0.212533         50.7776
75.54                          0               0                0               0         0.162976         50.4364          0.96184        -41.8953
                               0               0                0               0         0.961746        -41.8687          0.16288          50.323
                               0               0                0               0         0.212996         49.4569        0.0459074         100.271
                               0               0                0               0        0.0460941         100.079          0.21299         49.4677
75.585                         0               0                0               0         0.162774          49.179          0.96144        -43.2937
                               0               0                0               0         0.961221        -43.2508          0.16266         49.0288
                               0               0                0               0         0.213439         48.1024        0.0465531         97.9295
                               0               0                0               0         0.046952         97.5993         0.213427         48.1098
75.63                          0               0                0               0         0.162307          47.872         0.961161        -44.7399
                               0               0                0               0         0.960829        -44.6846         0.162185         47.6938
                               0               0                0               0         0.213848          46.702        0.0472011          95.453
                               0               0                0               0        0.0477662         95.0043         0.213832         46.7068
75.675                         0               0                0               0         0.161592         46.5167         0.961008         -46.231
                               0               0                0               0         0.960582        -46.1671          0.16147         46.3198
                               0               0                0               0         0.214206         45.2581        0.0478545         92.8533
                               0               0                0               0        0.0485322         92.3156         0.214189         45.2609
75.72                          0               0                0               0         0.160649         45.1152         0.960981        -47.7639
                               0               0                0               0         0.960489        -47.6955         0.160533         44.9086
                               0               0                0               0         0.214498         43.7729        0.0485148         90.1445
                               0               0                0               0        0.0492491         89.5531         0.214482         43.7745
75.765                         0               0                0               0         0.159497         43.6701         0.961077        -49.3353
                               0               0                0               0         0.960549        -49.2663         0.159393         43.4623
                               0               0                0               0         0.214707         42.2487        0.0491809         87.3421
                               0               0                0               0        0.0499189         86.7342         0.214693         42.2499
75.81                          0               0                0               0          0.15816         42.1844          0.96129        -50.9423
                               0               0                0               0         0.960757         -50.876         0.158068         41.9828
                               0               0                0               0         0.214815         40.6876        0.0498497         84.4625
                               0               0                0               0        0.0505451         83.8734         0.214805         40.6892
75.855                         0               0                0               0         0.156658         40.6614         0.961609        -52.5817
                               0               0                0               0         0.961102        -52.5209          0.15658         40.4721
                               0               0                0               0         0.214804         39.0921         0.050516         81.5222
                               0               0                0               0        0.0511318         80.9821           0.2148         39.0947
75.9                           0               0                0               0         0.155014         39.1049         0.962023        -54.2503
                               0               0                0               0         0.961568        -54.1973         0.154948         38.9321
                               0               0                0               0         0.214658         37.4645        0.0511726         78.5372
                               0               0                0               0        0.0516829         78.0693         0.214661         37.4686
75.945                         0               0                0               0         0.153249         37.5185         0.962517        -55.9452
                               0               0                0               0         0.962136        -55.9015         0.153192          37.365
                               0               0                0               0         0.214361         35.8073        0.0518117         75.5224
                               0               0                0               0        0.0522014         75.1421         0.214372         35.8133
75.99                          0               0                0               0         0.151382         35.9059         0.963078        -57.6633
                               0               0                0               0         0.962784        -57.6297         0.151333         35.7725
                               0               0                0               0         0.213896         34.1232        0.0524244         72.4918
                               0               0                0               0        0.0526895         72.2061         0.213916         34.1313
76.035                         0               0                0               0         0.149434         34.2708         0.963692        -59.4017
                               0               0                0               0         0.963492        -59.3783         0.149388         34.1569
                               0               0                0               0         0.213251         32.4149        0.0530021         69.4577
                               0               0                0               0        0.0531479         69.2661         0.213279         32.4252
76.08                          0               0                0               0          0.14742         32.6164         0.964343        -61.1575
                               0               0                0               0         0.964236        -61.1438         0.147376           32.52
                               0               0                0               0         0.212412         30.6854        0.0535366         66.4313
                               0               0                0               0        0.0535763         66.3263          0.21245         30.6979
76.125                         0               0                0               0         0.145358          30.946         0.965021        -62.9279
                               0               0                0               0         0.964996        -62.9228         0.145312         30.8639
                               0               0                0               0         0.211371         28.9379        0.0540206         63.4219
                               0               0                0               0        0.0539735         63.3906         0.211417         28.9523
76.17                          0               0                0               0         0.143261         29.2623         0.965713        -64.7101
                               0               0                0               0         0.965756        -64.7121         0.143213         29.1905
                               0               0                0               0          0.21012         27.1756        0.0544485         60.4376
                               0               0                0               0        0.0543374         60.4629         0.210174         27.1914
76.215                         0               0                0               0         0.141143         27.5675         0.966411        -66.5017
                               0               0                0               0         0.966502        -66.5086         0.141091         27.5018
                               0               0                0               0         0.208654         25.4016         0.054816         57.4847
                               0               0                0               0        0.0546655         57.5471         0.208714         25.4186
76.26                          0               0                0               0         0.139015         25.8637         0.967111        -68.2999
                               0               0                0               0         0.967225        -68.3096          0.13896         25.7997
                               0               0                0               0          0.20697         23.6194         0.055121         54.5681
                               0               0                0               0        0.0549548         54.6473         0.207037         23.6369
76.305                         0               0                0               0         0.136887         24.1521         0.967811        -70.1021
                               0               0                0               0         0.967923        -70.1124         0.136829         24.0861
                               0               0                0               0         0.205071         21.8321         0.055363         51.6907
                               0               0                0               0        0.0552025         51.7674         0.205142         21.8496
76.35                          0               0                0               0         0.134768         22.4336         0.968512         -71.906
                               0               0                0               0           0.9686        -71.9148         0.134708         22.3627
                               0               0                0               0         0.202959         20.0428        0.0555437         48.8539
                               0               0                0               0        0.0554058         48.9115         0.203033         20.0598
76.395                         0               0                0               0         0.132666         20.7088         0.969221         -73.709
                               0               0                0               0         0.969267        -73.7148         0.132606         20.6313
                               0               0                0               0         0.200643         18.2542        0.0556666          46.057
                               0               0                0               0        0.0555623         46.0839         0.200718         18.2704
76.44                          0               0                0               0         0.130589         18.9775         0.969947        -75.5086
                               0               0                0               0         0.969941        -75.5107         0.130529         18.8934
