! TOUCHSTONE file generated by CST MICROWAVE STUDIO
! Date and time: Sun Jun 20 22:37:02 2021
! Project name: HIPS_d_sweep.cst
! Parameters = {fmax=120; fmin=75; b=0.46; d=18.15; a=0.63; phi=0; theta=0}
! Header version: 2018
! Port assignment regex: !\s*Touchstone port\s*([0-9]+)\s*=\s*(CST MWS port|CST DS port)\s*([0-9]+|Zmin|Zmax)\s*\(\"(.*)\"\)(\s*mode\s*([0-9]+))?.*
! Touchstone port assignment:
! Touchstone port 1 = CST MWS port Zmin ("") mode 1
! Touchstone port 2 = CST MWS port Zmin ("") mode 2
! Touchstone port 3 = CST MWS port Zmax ("") mode 1
! Touchstone port 4 = CST MWS port Zmax ("") mode 2
! S-Parameters are not renormalized. Unphysical impedance of 0 will be written to the file.
# GHz S MA R 0
75                             0               0                0               0         0.316604        -37.2692         0.943623         -127.92
                               0               0                0               0         0.943749        -127.927         0.316606        -37.2314
                               0               0                0               0         0.047918        -3.19192        0.0832824        -28.7873
                               0               0                0               0        0.0832958        -28.8174          0.04797        -3.13684
75.045                         0               0                0               0         0.319604        -37.9518         0.942879        -128.533
                               0               0                0               0         0.942876        -128.548         0.319621        -37.9495
                               0               0                0               0        0.0466123        -2.16561        0.0834331        -29.8571
                               0               0                0               0        0.0834582        -29.8367        0.0466437        -2.13141
75.09                          0               0                0               0         0.322318        -38.6862         0.942134         -129.21
                               0               0                0               0         0.942062        -129.229         0.322353         -38.705
                               0               0                0               0        0.0451574       -0.989413        0.0834998        -31.0098
                               0               0                0               0        0.0835293        -30.9571        0.0451768       -0.968038
75.135                         0               0                0               0         0.324737         -39.475         0.941418         -129.95
                               0               0                0               0         0.941322        -129.971          0.32479        -39.5031
                               0               0                0               0        0.0435663        0.372148        0.0834815        -32.2516
                               0               0                0               0        0.0835109        -32.1827        0.0435807        0.387381
75.18                          0               0                0               0         0.326857        -40.3205         0.940755        -130.753
                               0               0                0               0         0.940667        -130.774          0.32692        -40.3484
                               0               0                0               0         0.041855         1.96409        0.0833778         -33.588
                               0               0                0               0        0.0834046        -33.5172        0.0418702         1.97841
75.225                         0               0                0               0         0.328672        -41.2244         0.940165        -131.617
                               0               0                0               0         0.940107        -131.637         0.328738         -41.245
                               0               0                0               0        0.0400444         3.84293        0.0831886        -35.0245
                               0               0                0               0        0.0832122        -34.9633        0.0400645         3.86005
75.27                          0               0                0               0         0.330181        -42.1878         0.939665        -132.541
                               0               0                0               0         0.939647        -132.558         0.330242        -42.1962
                               0               0                0               0        0.0381611         6.07885        0.0829146        -36.5658
                               0               0                0               0        0.0829355        -36.5232        0.0381893         6.10081
75.315                         0               0                0               0         0.331386        -43.2111         0.939267        -133.523
                               0               0                0               0         0.939294        -133.537         0.331433        -43.2045
                               0               0                0               0        0.0362399         8.75732        0.0825565        -38.2161
                               0               0                0               0        0.0825762        -38.1985        0.0362782          8.7844
75.36                          0               0                0               0          0.33229        -44.2941          0.93898        -134.563
                               0               0                0               0          0.93905        -134.573         0.332315        -44.2716
                               0               0                0               0        0.0343263         11.9794        0.0821155        -39.9786
                               0               0                0               0        0.0821359        -39.9899        0.0343759         12.0099
75.405                         0               0                0               0         0.332896        -45.4362         0.938808        -135.656
                               0               0                0               0         0.938915        -135.663         0.332896        -45.3982
                               0               0                0               0        0.0324796         15.8577        0.0815932        -41.8561
                               0               0                0               0        0.0816161        -41.8977        0.0325406          15.888
75.45                          0               0                0               0         0.333211        -46.6359         0.938751        -136.803
                               0               0                0               0         0.938887        -136.806         0.333185         -46.584
                               0               0                0               0        0.0307765         20.5053        0.0809911        -43.8503
                               0               0                0               0        0.0810183        -43.9214        0.0308477         20.5297
75.495                         0               0                0               0         0.333243        -47.8914         0.938809        -138.001
                               0               0                0               0         0.938963        -138.001         0.333191         -47.828
                               0               0                0               0        0.0293125           26.01        0.0803111        -45.9624
                               0               0                0               0        0.0803439        -46.0602        0.0293919         26.0214
75.54                          0               0                0               0            0.333        -49.2004         0.938975        -139.246
                               0               0                0               0         0.939138        -139.245         0.332927        -49.1283
                               0               0                0               0        0.0282007         32.3919        0.0795553        -48.1923
                               0               0                0               0        0.0795945        -48.3124        0.0282851         32.3831
75.585                         0               0                0               0         0.332492        -50.5599         0.939241        -140.538
                               0               0                0               0         0.939403        -140.535         0.332403        -50.4824
                               0               0                0               0         0.027563         39.5494         0.078726        -50.5394
                               0               0                0               0        0.0787718        -50.6764        0.0276484         39.5154
75.63                          0               0                0               0          0.33173        -51.9668         0.939598        -141.874
                               0               0                0               0         0.939751         -141.87         0.331633        -51.8872
                               0               0                0               0        0.0275127          47.221        0.0778259        -53.0022
                               0               0                0               0        0.0778779        -53.1496        0.0275947         47.1612
75.675                         0               0                0               0         0.330725        -53.4177         0.940035        -143.251
                               0               0                0               0         0.940172        -143.247         0.330628        -53.3389
                               0               0                0               0        0.0281309         55.0047         0.076858        -55.5783
                               0               0                0               0        0.0769152        -55.7296        0.0282056         54.9243
75.72                          0               0                0               0          0.32949         -54.909          0.94054        -144.667
                               0               0                0               0         0.940657        -144.663         0.329401        -54.8336
                               0               0                0               0        0.0294483         62.4528         0.075826        -58.2647
                               0               0                0               0        0.0758866        -58.4135        0.0295131         62.3609
75.765                         0               0                0               0         0.328038        -56.4369         0.941099        -146.119
                               0               0                0               0         0.941196        -146.116         0.327967         -56.367
                               0               0                0               0        0.0314425         69.1943         0.074734        -61.0579
                               0               0                0               0        0.0747959        -61.1983        0.0314964         69.1006
75.81                          0               0                0               0         0.326383        -57.9977           0.9417        -147.604
                               0               0                0               0         0.941777        -147.603         0.326336        -57.9348
                               0               0                0               0        0.0340514         75.0118        0.0735868        -63.9537
                               0               0                0               0        0.0736472         -64.081        0.0340946         74.9239
75.855                         0               0                0               0         0.324539        -59.5875         0.942331        -149.121
                               0               0                0               0         0.942393        -149.122         0.324524        -59.5328
                               0               0                0               0        0.0371932         79.8427          0.07239        -66.9479
                               0               0                0               0        0.0724456        -67.0585        0.0372266         79.7645
75.9                           0               0                0               0         0.322523        -61.2027         0.942982        -150.666
                               0               0                0               0         0.943034        -150.668         0.322544        -61.1565
                               0               0                0               0        0.0407829         83.7326        0.0711498         -70.036
                               0               0                0               0        0.0711968         -70.128        0.0408075         83.6651
75.945                         0               0                0               0         0.320349        -62.8398         0.943642        -152.236
                               0               0                0               0         0.943692         -152.24         0.320409        -62.8019
                               0               0                0               0        0.0447418         86.7828        0.0698731        -73.2136
                               0               0                0               0        0.0699072        -73.2869        0.0447584         86.7251
75.99                          0               0                0               0         0.318033        -64.4955         0.944305         -153.83
                               0               0                0               0         0.944361        -153.834         0.318134        -64.4652
                               0               0                0               0        0.0490012         89.1119        0.0685671        -76.4767
                               0               0                0               0        0.0685842        -76.5328        0.0490103         89.0622
76.035                         0               0                0               0         0.315593        -66.1665         0.944965        -155.443
                               0               0                0               0         0.945034        -155.448         0.315733        -66.1428
                               0               0                0               0        0.0535027         90.8349        0.0672397        -79.8217
                               0               0                0               0        0.0672354        -79.8637         0.053504         90.7911
76.08                          0               0                0               0         0.313046          -67.85         0.945618        -157.074
                               0               0                0               0         0.945709        -157.079          0.31322        -67.8315
                               0               0                0               0        0.0581967         92.0538        0.0658985        -83.2457
                               0               0                0               0        0.0658694         -83.278        0.0581896          92.014
76.125                         0               0                0               0         0.310407        -69.5432         0.946262        -158.719
                               0               0                0               0          0.94638        -158.723         0.310611        -69.5282
                               0               0                0               0        0.0630405         92.8552        0.0645513        -86.7464
                               0               0                0               0        0.0644948        -86.7741        0.0630245          92.818
76.17                          0               0                0               0         0.307695        -71.2434         0.946896        -160.375
                               0               0                0               0         0.947045        -160.378         0.307919        -71.2304
                               0               0                0               0        0.0679977         93.3109        0.0632055        -90.3223
                               0               0                0               0        0.0631209         -90.351        0.0679722         93.2755
76.215                         0               0                0               0         0.304925        -72.9481          0.94752        -162.039
                               0               0                0               0         0.947699        -162.041         0.305161        -72.9355
                               0               0                0               0         0.073036         93.4799        0.0618677        -93.9727
                               0               0                0               0        0.0617566        -94.0073        0.0730008         93.4461
76.26                          0               0                0               0         0.302114        -74.6546         0.948132        -163.709
                               0               0                0               0         0.948338        -163.709         0.302351        -74.6411
                               0               0                0               0        0.0781268         93.4101         0.060544        -97.6973
                               0               0                0               0        0.0604113        -97.7414        0.0780827         93.3782
76.305                         0               0                0               0         0.299276        -76.3601         0.948727        -165.381
                               0               0                0               0         0.948953        -165.379         0.299503        -76.3446
                               0               0                0               0        0.0832443         93.1407        0.0592396        -101.496
                               0               0                0               0        0.0590934        -101.551        0.0831927         93.1114
76.35                          0               0                0               0         0.296427        -78.0613         0.949296        -167.052
                               0               0                0               0         0.949534         -167.05         0.296632        -78.0432
                               0               0                0               0        0.0883647         92.7033         0.057959        -105.368
                               0               0                0               0        0.0578111        -105.433        0.0883084         92.6775
76.395                         0               0                0               0         0.293578        -79.7548         0.949825        -168.719
                               0               0                0               0         0.950062        -168.717         0.293752         -79.734
                               0               0                0               0        0.0934659         92.1232         0.056706        -109.313
                               0               0                0               0         0.056571        -109.383        0.0934086         92.1021
76.44                          0               0                0               0         0.290738        -81.4362          0.95029         -170.38
                               0               0                0               0         0.950514        -170.379         0.290873         -81.413
