! TOUCHSTONE file generated by CST MICROWAVE STUDIO
! Date and time: Sun Jun 20 22:36:55 2021
! Project name: HIPS_d_sweep.cst
! Parameters = {fmax=120; fmin=75; b=0.46; d=17.25; a=0.63; phi=0; theta=0}
! Header version: 2018
! Port assignment regex: !\s*Touchstone port\s*([0-9]+)\s*=\s*(CST MWS port|CST DS port)\s*([0-9]+|Zmin|Zmax)\s*\(\"(.*)\"\)(\s*mode\s*([0-9]+))?.*
! Touchstone port assignment:
! Touchstone port 1 = CST MWS port Zmin ("") mode 1
! Touchstone port 2 = CST MWS port Zmin ("") mode 2
! Touchstone port 3 = CST MWS port Zmax ("") mode 1
! Touchstone port 4 = CST MWS port Zmax ("") mode 2
! S-Parameters are not renormalized. Unphysical impedance of 0 will be written to the file.
# GHz S MA R 0
75                             0               0                0               0         0.352694         63.4677         0.916443        -26.4882
                               0               0                0               0         0.916389        -26.4909         0.352693         63.4843
                               0               0                0               0         0.176424         63.4304        0.0681054         154.103
                               0               0                0               0        0.0681714         154.086         0.176445         63.4169
75.045                         0               0                0               0          0.35538         62.8793         0.915599        -27.0783
                               0               0                0               0          0.91565        -27.0846         0.355356         62.9062
                               0               0                0               0         0.176389         62.9378        0.0687313         153.063
                               0               0                0               0        0.0687905         153.027         0.176414         62.9311
75.09                          0               0                0               0         0.357787          62.248         0.914743        -27.7223
                               0               0                0               0         0.914861        -27.7308         0.357748         62.2811
                               0               0                0               0         0.176466         62.3951        0.0693274         151.879
                               0               0                0               0        0.0693824         151.832         0.176493         62.3925
75.135                         0               0                0               0         0.359909          61.572         0.913896        -28.4209
                               0               0                0               0         0.914048        -28.4304         0.359862         61.6079
                               0               0                0               0         0.176655          61.805        0.0698998         150.554
                               0               0                0               0        0.0699526         150.501         0.176682         61.8041
75.18                          0               0                0               0         0.361744         60.8499         0.913078        -29.1745
                               0               0                0               0         0.913237        -29.1841         0.361694         60.8859
                               0               0                0               0         0.176951         61.1694        0.0704549         149.088
                               0               0                0               0        0.0705065         149.034         0.176977         61.1687
75.225                         0               0                0               0         0.363291         60.0804         0.912307        -29.9831
                               0               0                0               0          0.91245         -29.992         0.363244         60.1145
                               0               0                0               0          0.17735         60.4903        0.0709984         147.485
                               0               0                0               0        0.0710497         147.434         0.177376         60.4884
75.27                          0               0                0               0         0.364555         59.2629         0.911598        -30.8462
                               0               0                0               0         0.911709        -30.8541         0.364515         59.2937
                               0               0                0               0         0.177846         59.7694         0.071536         145.748
                               0               0                0               0        0.0715873         145.702         0.177871         59.7655
75.315                         0               0                0               0         0.365541          58.397         0.910964        -31.7633
                               0               0                0               0         0.911032        -31.7697         0.365511         58.4238
                               0               0                0               0         0.178431          59.008        0.0720728         143.882
                               0               0                0               0        0.0721241         143.844         0.178455         59.0016
75.36                          0               0                0               0         0.366257          57.483         0.910415        -32.7332
                               0               0                0               0         0.910434        -32.7381         0.366238         57.5054
                               0               0                0               0         0.179096         58.2071        0.0726132         141.894
                               0               0                0               0        0.0726642         141.863          0.17912         58.1981
75.405                         0               0                0               0         0.366714         56.5213         0.909958        -33.7548
                               0               0                0               0         0.909927        -33.7581         0.366707         56.5394
                               0               0                0               0         0.179833         57.3679        0.0731611         139.788
                               0               0                0               0        0.0732115         139.765         0.179857         57.3562
75.45                          0               0                0               0         0.366924         55.5129         0.909597        -34.8263
                               0               0                0               0         0.909519        -34.8283         0.366928         55.5272
                               0               0                0               0         0.180631         56.4909        0.0737195         137.573
                               0               0                0               0        0.0737687         137.557         0.180654          56.477
75.495                         0               0                0               0           0.3669         54.4593         0.909335         -35.946
                               0               0                0               0         0.909216        -35.9467         0.366914         54.4704
                               0               0                0               0         0.181479         55.5769        0.0742907         135.256
                               0               0                0               0        0.0743383         135.246           0.1815         55.5612
75.54                          0               0                0               0         0.366656          53.362          0.90917        -37.1117
                               0               0                0               0         0.909019        -37.1115         0.366678         53.3708
                               0               0                0               0         0.182364         54.6266        0.0748763         132.845
                               0               0                0               0        0.0749216         132.839         0.182385         54.6096
75.585                         0               0                0               0         0.366208         52.2233         0.909099        -38.3212
                               0               0                0               0         0.908927        -38.3203         0.366235         52.2305
                               0               0                0               0         0.183274         53.6407        0.0754771         130.347
                               0               0                0               0        0.0755194         130.345         0.183294         53.6229
75.63                          0               0                0               0         0.365571         51.0453         0.909118        -39.5719
                               0               0                0               0         0.908935        -39.5708           0.3656         51.0518
                               0               0                0               0         0.184196         52.6199        0.0760931         127.772
                               0               0                0               0        0.0761319         127.771         0.184216         52.6019
75.675                         0               0                0               0          0.36476         49.8306         0.909221        -40.8614
                               0               0                0               0         0.909038        -40.8604         0.364789         49.8373
                               0               0                0               0         0.185117         51.5651        0.0767238         125.129
                               0               0                0               0        0.0767584         125.127         0.185137         51.5474
75.72                          0               0                0               0         0.363792         48.5819         0.909398        -42.1869
                               0               0                0               0         0.909226        -42.1863         0.363818         48.5893
                               0               0                0               0         0.186024         50.4774        0.0773681         122.425
                               0               0                0               0        0.0773978         122.421         0.186045         50.4605
75.765                         0               0                0               0         0.362681         47.3019         0.909643        -43.5456
                               0               0                0               0         0.909491        -43.5457         0.362702         47.3107
                               0               0                0               0         0.186902         49.3579        0.0780244         119.669
                               0               0                0               0        0.0780485         119.661         0.186924         49.3421
75.81                          0               0                0               0         0.361443         45.9935         0.909946        -44.9347
                               0               0                0               0          0.90982        -44.9357         0.361458         46.0039
                               0               0                0               0          0.18774         48.2081        0.0786905          116.87
                               0               0                0               0        0.0787084         116.858         0.187763         48.1937
75.855                         0               0                0               0         0.360092         44.6594           0.9103        -46.3513
                               0               0                0               0         0.910203        -46.3533         0.360101         44.6717
                               0               0                0               0         0.188523         47.0297        0.0793643         114.035
                               0               0                0               0        0.0793754         114.019         0.188548         47.0167
75.9                           0               0                0               0         0.358643         43.3024         0.910697        -47.7926
                               0               0                0               0         0.910631        -47.7958         0.358645         43.3165
                               0               0                0               0         0.189239         45.8246        0.0800432         111.172
                               0               0                0               0         0.080047         111.152         0.189266          45.813
75.945                         0               0                0               0          0.35711         41.9252         0.911129        -49.2558
                               0               0                0               0         0.911092        -49.2601         0.357106         41.9409
                               0               0                0               0         0.189877         44.5949        0.0807247         108.289
                               0               0                0               0        0.0807208         108.265         0.189907         44.5844
75.99                          0               0                0               0         0.355505         40.5303         0.911592        -50.7381
                               0               0                0               0         0.911578        -50.7435         0.355497         40.5473
                               0               0                0               0         0.190427          43.343        0.0814062         105.392
                               0               0                0               0        0.0813944         105.365          0.19046         43.3333
76.035                         0               0                0               0         0.353843         39.1201          0.91208        -52.2368
                               0               0                0               0         0.912084         -52.243         0.353832         39.1379
                               0               0                0               0          0.19088         42.0713        0.0820853         102.487
                               0               0                0               0        0.0820655         102.459         0.190914          42.062
76.08                          0               0                0               0         0.352135         37.6968         0.912592        -53.7493
                               0               0                0               0         0.912604        -53.7561         0.352124         37.7149
                               0               0                0               0         0.191226         40.7824        0.0827597         99.5806
                               0               0                0               0        0.0827321         99.5534         0.191262          40.773
76.125                         0               0                0               0         0.350395         36.2624         0.913126        -55.2731
                               0               0                0               0         0.913136        -55.2801         0.350386         36.2801
                               0               0                0               0          0.19146          39.479        0.0834272         96.6785
                               0               0                0               0        0.0833924         96.6535         0.191497         39.4689
76.17                          0               0                0               0         0.348634         34.8186         0.913683        -56.8057
                               0               0                0               0          0.91368        -56.8125          0.34863         34.8355
                               0               0                0               0         0.191576         38.1636         0.084086         93.7855
                               0               0                0               0        0.0840447         93.7642         0.191613         38.1525
76.215                         0               0                0               0         0.346864         33.3672         0.914263        -58.3447
                               0               0                0               0         0.914238        -58.3511         0.346868         33.3828
                               0               0                0               0          0.19157         36.8388        0.0847344         90.9063
                               0               0                0               0        0.0846878           90.89         0.191606         36.8263
76.26                          0               0                0               0         0.345099         31.9094          0.91487        -59.8877
                               0               0                0               0         0.914815        -59.8936         0.345112         31.9237
                               0               0                0               0         0.191438         35.5072        0.0853707         88.0453
                               0               0                0               0        0.0853202         88.0346         0.191473         35.4931
76.305                         0               0                0               0          0.34335         30.4467         0.915504        -61.4326
                               0               0                0               0         0.915414        -61.4379         0.343372         30.4596
                               0               0                0               0         0.191179         34.1712        0.0859936         85.2065
                               0               0                0               0        0.0859409         85.2013         0.191213         34.1554
76.35                          0               0                0               0          0.34163         28.9805         0.916166        -62.9769
                               0               0                0               0          0.91604        -62.9819         0.341661         28.9924
                               0               0                0               0          0.19079         32.8329        0.0866011         82.3935
                               0               0                0               0        0.0865483         82.3927         0.190822         32.8156
76.395                         0               0                0               0         0.339949         27.5122         0.916852        -64.5186
                               0               0                0               0         0.916696        -64.5237         0.339987         27.5238
                               0               0                0               0          0.19027         31.4944        0.0871915           79.61
                               0               0                0               0        0.0871407         79.6114         0.190302          31.476
76.44                          0               0                0               0          0.33832         26.0435         0.917556        -66.0555
                               0               0                0               0         0.917379        -66.0613          0.33836         26.0558
