! TOUCHSTONE file generated by CST MICROWAVE STUDIO
! Date and time: Sun Jun 20 22:37:42 2021
! Project name: HIPS_d_sweep.cst
! Parameters = {fmax=120; fmin=75; b=0.46; d=22.45; a=0.63; phi=0; theta=0}
! Header version: 2018
! Port assignment regex: !\s*Touchstone port\s*([0-9]+)\s*=\s*(CST MWS port|CST DS port)\s*([0-9]+|Zmin|Zmax)\s*\(\"(.*)\"\)(\s*mode\s*([0-9]+))?.*
! Touchstone port assignment:
! Touchstone port 1 = CST MWS port Zmin ("") mode 1
! Touchstone port 2 = CST MWS port Zmin ("") mode 2
! Touchstone port 3 = CST MWS port Zmax ("") mode 1
! Touchstone port 4 = CST MWS port Zmax ("") mode 2
! S-Parameters are not renormalized. Unphysical impedance of 0 will be written to the file.
# GHz S MA R 0
75                             0               0                0               0        0.0185002        -141.362         0.979611         104.596
                               0               0                0               0         0.979657          104.59        0.0184945        -141.816
                               0               0                0               0         0.196539         14.7646        0.0379498         19.8165
                               0               0                0               0        0.0379275         19.9771         0.196519         14.7554
75.045                         0               0                0               0        0.0221824        -146.304         0.979846         103.865
                               0               0                0               0         0.979892          103.86        0.0221708         -146.69
                               0               0                0               0         0.195038         14.0842          0.03834         20.1768
                               0               0                0               0        0.0383158         20.3231         0.195018         14.0757
75.09                          0               0                0               0        0.0255588        -149.847         0.980081         103.058
                               0               0                0               0         0.980128         103.053        0.0255518        -150.183
                               0               0                0               0         0.193382         13.3237        0.0386959         20.3074
                               0               0                0               0        0.0386754         20.4517         0.193363         13.3153
75.135                         0               0                0               0        0.0285923        -152.633         0.980334         102.175
                               0               0                0               0          0.98038          102.17        0.0285942        -152.929
                               0               0                0               0          0.19157          12.484        0.0390157         20.2161
                               0               0                0               0        0.0390019         20.3644         0.191549         12.4755
75.18                          0               0                0               0        0.0312698        -154.982         0.980617         101.219
                               0               0                0               0         0.980662         101.213        0.0312807        -155.246
                               0               0                0               0         0.189595         11.5664        0.0392968         19.9114
                               0               0                0               0        0.0392905          20.065         0.189572         11.5576
75.225                         0               0                0               0        0.0335888         -157.07         0.980938         100.189
                               0               0                0               0         0.980981         100.182        0.0336058        -157.311
                               0               0                0               0         0.187451         10.5721        0.0395356         19.4023
                               0               0                0               0        0.0395357         19.5592         0.187426         10.5631
75.27                          0               0                0               0        0.0355515        -158.999         0.981305         99.0874
                               0               0                0               0         0.981346         99.0803        0.0355705        -159.225
                               0               0                0               0          0.18513         9.50232        0.0397275         18.6983
                               0               0                0               0        0.0397316         18.8545         0.185104         9.49331
75.315                         0               0                0               0        0.0371628        -160.831         0.981721         97.9157
                               0               0                0               0         0.981759         97.9086        0.0371795         -161.05
                               0               0                0               0         0.182624          8.3585        0.0398677         17.8088
                               0               0                0               0        0.0398722         17.9598         0.182596         8.34972
75.36                          0               0                0               0        0.0384289        -162.605         0.982187         96.6754
                               0               0                0               0         0.982222          96.669        0.0384396        -162.826
                               0               0                0               0         0.179922          7.1422         0.039951         16.7438
                               0               0                0               0        0.0399518         16.8849         0.179894         7.13388
75.405                         0               0                0               0         0.039357        -164.348         0.982701         95.3685
                               0               0                0               0         0.982734         95.3634        0.0393591        -164.576
                               0               0                0               0         0.177016          5.8551        0.0399719          15.513
                               0               0                0               0        0.0399649         15.6406         0.176988         5.84747
75.45                          0               0                0               0         0.039955        -166.076         0.983262         93.9971
                               0               0                0               0         0.983293         93.9938        0.0399471        -166.318
                               0               0                0               0         0.173894         4.49906        0.0399251         14.1263
                               0               0                0               0        0.0399063         14.2378         0.173867         4.49231
75.495                         0               0                0               0        0.0402313          -167.8         0.983865         92.5633
                               0               0                0               0         0.983894         92.5624        0.0402138        -168.061
                               0               0                0               0         0.170549         3.07613        0.0398055         12.5934
                               0               0                0               0        0.0397717         12.6879         0.170524         3.07038
75.54                          0               0                0               0        0.0401948        -169.528         0.984505         91.0694
                               0               0                0               0         0.984533         91.0713        0.0401696        -169.812
                               0               0                0               0         0.166971         1.58855        0.0396084         10.9243
                               0               0                0               0        0.0395573         11.0022         0.166947         1.58386
75.585                         0               0                0               0        0.0398553        -171.264         0.985179         89.5179
                               0               0                0               0         0.985204         89.5228        0.0398255        -171.575
                               0               0                0               0         0.163152       0.0388047        0.0393296         9.12839
                               0               0                0               0        0.0392601          9.1916         0.163131       0.0351503
75.63                          0               0                0               0        0.0392231        -173.014         0.985881         87.9115
                               0               0                0               0         0.985902         87.9193        0.0391931        -173.353
                               0               0                0               0         0.159086        -1.57045        0.0389655         7.21511
                               0               0                0               0         0.038878         7.26665         0.159067        -1.57317
75.675                         0               0                0               0        0.0383094        -174.777         0.986606         86.2527
                               0               0                0               0         0.986623         86.2633        0.0382843        -175.146
                               0               0                0               0         0.154767        -3.23636        0.0385131         5.19357
                               0               0                0               0        0.0384094         5.23729          0.15475        -3.23828
75.72                          0               0                0               0        0.0371264        -176.557         0.987351         84.5444
                               0               0                0               0         0.987361         84.5575        0.0371116        -176.955
                               0               0                0               0         0.150193        -4.95588        0.0379705          3.0726
                               0               0                0               0        0.0378536         3.11279         0.150178         -4.9572
75.765                         0               0                0               0         0.035687        -178.353         0.988113         82.7896
                               0               0                0               0         0.988113         82.8046        0.0356881        -178.779
                               0               0                0               0         0.145362        -6.72585        0.0373362        0.860691
                               0               0                0               0        0.0372101         0.90167         0.145349        -6.72677
75.81                          0               0                0               0        0.0340054         179.835         0.988889         80.9914
                               0               0                0               0         0.988876         81.0074        0.0340273         179.383
                               0               0                0               0         0.140276          -8.543        0.0366097        -1.43402
                               0               0                0               0        0.0364793        -1.38823         0.140263         -8.5437
75.855                         0               0                0               0        0.0320966         178.007         0.989679         79.1528
                               0               0                0               0          0.98965         79.1689        0.0321436         177.531
                               0               0                0               0         0.134937         -10.404        0.0357911        -3.80373
                               0               0                0               0        0.0356618        -3.74974         0.134924        -10.4046
75.9                           0               0                0               0        0.0299768         176.166         0.990482         77.2772
                               0               0                0               0         0.990433         77.2922        0.0300519          175.67
                               0               0                0               0          0.12935        -12.3057        0.0348813        -6.24092
                               0               0                0               0        0.0347584        -6.17626         0.129337        -12.3062
75.945                         0               0                0               0        0.0276631         174.315         0.991298         75.3678
                               0               0                0               0         0.991226         75.3808        0.0277681         173.802
                               0               0                0               0         0.123522        -14.2448        0.0338817        -8.73829
                               0               0                0               0        0.0337704        -8.66157         0.123508        -14.2452
75.99                          0               0                0               0        0.0251736         172.462         0.992126         73.4281
                               0               0                0               0          0.99203          73.438        0.0253086         171.935
                               0               0                0               0         0.117463        -16.2181        0.0327947        -11.2887
                               0               0                0               0         0.032699        -11.1996         0.117447        -16.2183
76.035                         0               0                0               0        0.0225273         170.617         0.992965         71.4615
                               0               0                0               0         0.992843         71.4675         0.022691          170.08
                               0               0                0               0         0.111183        -18.2229        0.0316228        -13.8848
                               0               0                0               0        0.0315459        -13.7844         0.111166        -18.2224
76.08                          0               0                0               0        0.0197441         168.803         0.993812         69.4716
                               0               0                0               0         0.993666         69.4731        0.0199335         168.257
                               0               0                0               0         0.104694        -20.2563        0.0303694        -16.5192
                               0               0                0               0        0.0303129        -16.4093         0.104675        -20.2548
76.125                         0               0                0               0        0.0168443          167.06         0.994661         67.4619
                               0               0                0               0         0.994494         67.4586        0.0170552         166.502
                               0               0                0               0        0.0980103        -22.3158         0.029038        -19.1837
                               0               0                0               0        0.0290019         -19.067        0.0979897        -22.3127
76.17                          0               0                0               0        0.0138491         165.466         0.995502         65.4362
                               0               0                0               0         0.995319         65.4281        0.0140762         164.887
                               0               0                0               0         0.091145        -24.3987        0.0276329        -21.8692
                               0               0                0               0        0.0276156         -21.749        0.0911238        -24.3934
76.215                         0               0                0               0        0.0107805         164.201         0.996322         63.3979
                               0               0                0               0          0.99613         63.3854        0.0110176         163.574
                               0               0                0               0        0.0841138        -26.5025        0.0261586        -24.5652
                               0               0                0               0         0.026157        -24.4447        0.0840926        -26.4944
76.26                          0               0                0               0       0.00766253         163.743         0.997101         61.3507
                               0               0                0               0         0.996908         61.3348       0.00790276         162.988
                               0               0                0               0        0.0769327        -28.6241        0.0246205        -27.2588
                               0               0                0               0        0.0246296        -27.1409        0.0769123        -28.6127
76.305                         0               0                0               0       0.00452952         165.914         0.997814          59.298
                               0               0                0               0         0.997627         59.2799       0.00476366         164.696
                               0               0                0               0        0.0696185        -30.7597        0.0230241        -29.9341
                               0               0                0               0        0.0230379        -29.8204        0.0695995        -30.7445
76.35                          0               0                0               0       0.00153558        -172.805         0.998429         57.2433
                               0               0                0               0         0.998258         57.2246       0.00172086        -178.393
                               0               0                0               0        0.0621891         -32.904        0.0213756        -32.5705
                               0               0                0               0        0.0213873        -32.4607        0.0621714        -32.8848
76.395                         0               0                0               0       0.00211801        -55.0045         0.998908         55.1898
                               0               0                0               0         0.998761         55.1722       0.00190197        -57.2969
                               0               0                0               0        0.0546631         -35.049         0.019682        -35.1407
                               0               0                0               0        0.0196845        -35.0318        0.0546463        -35.0256
76.44                          0               0                0               0       0.00516625         -42.919          0.99921         53.1405
                               0               0                0               0         0.999092         53.1257       0.00495323        -43.2131
