! TOUCHSTONE file generated by CST MICROWAVE STUDIO
! Date and time: Sun Jun 20 22:37:46 2021
! Project name: HIPS_d_sweep.cst
! Parameters = {fmax=120; fmin=75; b=0.46; d=22.85; a=0.63; phi=0; theta=0}
! Header version: 2018
! Port assignment regex: !\s*Touchstone port\s*([0-9]+)\s*=\s*(CST MWS port|CST DS port)\s*([0-9]+|Zmin|Zmax)\s*\(\"(.*)\"\)(\s*mode\s*([0-9]+))?.*
! Touchstone port assignment:
! Touchstone port 1 = CST MWS port Zmin ("") mode 1
! Touchstone port 2 = CST MWS port Zmin ("") mode 2
! Touchstone port 3 = CST MWS port Zmax ("") mode 1
! Touchstone port 4 = CST MWS port Zmax ("") mode 2
! S-Parameters are not renormalized. Unphysical impedance of 0 will be written to the file.
# GHz S MA R 0
75                             0               0                0               0        0.0103643        -35.9915         0.998018         58.9592
                               0               0                0               0         0.998083          58.964        0.0105148        -36.8126
                               0               0                0               0        0.0592303        -31.0302        0.0183259        -32.5092
                               0               0                0               0        0.0183562        -32.5412        0.0591836        -31.0968
75.045                         0               0                0               0       0.00633698        -39.4066         0.998603         58.2051
                               0               0                0               0         0.998621         58.2039       0.00622227        -44.1821
                               0               0                0               0        0.0566964        -31.7073        0.0186976        -31.9317
                               0               0                0               0        0.0187793          -32.28        0.0566798        -31.7657
75.09                          0               0                0               0       0.00280112        -49.2486         0.999003         57.3675
                               0               0                0               0         0.998957         57.3633       0.00269318        -65.7935
                               0               0                0               0        0.0538561        -32.4663        0.0190082        -31.8158
                               0               0                0               0        0.0191028        -32.3627        0.0538602        -32.5208
75.135                         0               0                0               0      0.000900833        -155.207         0.999261          56.448
                               0               0                0               0         0.999149         56.4427       0.00181977        -158.087
                               0               0                0               0         0.050709        -33.3057        0.0192288         -32.103
                               0               0                0               0        0.0193134        -32.7405        0.0507254        -33.3606
75.18                          0               0                0               0       0.00327938         158.274         0.999419         55.4481
                               0               0                0               0         0.999246         55.4432       0.00406849         166.134
                               0               0                0               0        0.0472554        -34.2235        0.0193378        -32.7312
                               0               0                0               0        0.0194015        -33.3707        0.0472771         -34.283
75.225                         0               0                0               0       0.00554031         151.407         0.999506         54.3696
                               0               0                0               0          0.99929         54.3659       0.00623348         156.499
                               0               0                0               0        0.0434964        -35.2168        0.0193204        -33.6414
                               0               0                0               0         0.019361         -34.217        0.0435177        -35.2851
75.27                          0               0                0               0       0.00741017         147.985         0.999548         53.2144
                               0               0                0               0         0.999312         53.2127       0.00800222         151.383
                               0               0                0               0        0.0394343        -36.2814        0.0191682        -34.7808
                               0               0                0               0        0.0191886        -35.2489        0.0394507        -36.3628
75.315                         0               0                0               0       0.00888086         145.467         0.999566         51.9848
                               0               0                0               0         0.999338         51.9852       0.00935795         147.726
                               0               0                0               0        0.0350725        -37.4112        0.0188775        -36.1048
                               0               0                0               0        0.0188834        -36.4415        0.0350808        -37.5105
75.36                          0               0                0               0       0.00995822         143.268         0.999574         50.6831
                               0               0                0               0         0.999381         50.6858        0.0103136         144.699
                               0               0                0               0        0.0304157        -38.5965        0.0184487        -37.5767
                               0               0                0               0        0.0184461         -37.774        0.0304139        -38.7202
75.405                         0               0                0               0        0.0106514         141.183          0.99958         49.3117
                               0               0                0               0         0.999449         49.3166        0.0108878         141.988
                               0               0                0               0        0.0254703        -39.8209        0.0178846        -39.1672
                               0               0                0               0        0.0178786        -39.2297        0.0254575        -39.9781
75.45                          0               0                0               0        0.0109713         139.122         0.999589         47.8731
                               0               0                0               0          0.99954           47.88        0.0111005         139.446
                               0               0                0               0        0.0202443        -41.0513        0.0171896        -40.8532
                               0               0                0               0        0.0171839        -40.7945        0.0202206        -41.2581
75.495                         0               0                0               0        0.0109299         137.035         0.999604           46.37
                               0               0                0               0         0.999647         46.3786        0.0109714         136.994
                               0               0                0               0        0.0147474        -42.2053        0.0163694        -42.6164
                               0               0                0               0        0.0163655        -42.4564        0.0147139         -42.496
75.54                          0               0                0               0        0.0105407          134.89         0.999621          44.805
                               0               0                0               0         0.999755         44.8151        0.0105193         134.583
                               0               0                0               0       0.00899195        -42.9857        0.0154297        -44.4414
                               0               0                0               0        0.0154274         -44.204       0.00895028        -43.4626
75.585                         0               0                0               0       0.00981851         132.657         0.999636         43.1811
                               0               0                0               0         0.999843         43.1922       0.00976265         132.176
                               0               0                0               0        0.0029984        -40.6732        0.0143765        -46.3145
                               0               0                0               0        0.0143738        -46.0258        0.0029478        -42.0355
75.63                          0               0                0               0       0.00877957         130.293         0.999644         41.5011
                               0               0                0               0         0.999887         41.5128       0.00871865          129.73
                               0               0                0               0       0.00326737         126.395        0.0132157        -48.2209
                               0               0                0               0        0.0132093        -47.9075       0.00330658         127.723
75.675                         0               0                0               0       0.00744162         127.717         0.999638         39.7682
                               0               0                0               0         0.999857         39.7802       0.00740404         127.186
                               0               0                0               0       0.00970805         128.251        0.0119531        -50.1417
                               0               0                0               0        0.0119388        -49.8304       0.00974933         128.666
75.72                          0               0                0               0       0.00582412         124.739         0.999608         37.9855
                               0               0                0               0         0.999724         37.9977       0.00583501         124.413
                               0               0                0               0        0.0163526         127.212        0.0105945        -52.0488
                               0               0                0               0        0.0105678        -51.7651        0.0163892         127.443
75.765                         0               0                0               0       0.00394933         120.737         0.999547         36.1564
                               0               0                0               0         0.999458         36.1689       0.00402793         121.025
                               0               0                0               0        0.0231745         125.705       0.00914571        -53.8943
                               0               0                0               0       0.00910217        -53.6624        0.0232026         125.856
75.81                          0               0                0               0       0.00185134         112.007         0.999448         34.2844
                               0               0                0               0         0.999034         34.2978       0.00200291         114.925
                               0               0                0               0        0.0301516         124.011       0.00761315        -55.5868
                               0               0                0               0       0.00754887        -55.4287        0.0301683         124.118
75.855                         0               0                0               0      0.000659023        -21.2749         0.999301         32.3731
                               0               0                0               0         0.998435         32.3887      0.000374995        -13.1729
                               0               0                0               0        0.0372611         122.212       0.00600408        -56.9282
                               0               0                0               0       0.00591613        -56.8609        0.0372642         122.292
75.9                           0               0                0               0       0.00308577        -52.8158           0.9991         30.4264
                               0               0                0               0         0.997653         30.4464        0.0027102        -55.8868
                               0               0                0               0        0.0444791          120.34       0.00432799        -57.3938
                               0               0                0               0       0.00421474        -57.4136        0.0444674         120.402
75.945                         0               0                0               0       0.00577612        -58.4664         0.998838         28.4482
                               0               0                0               0         0.996702         28.4759       0.00531903        -60.8578
                               0               0                0               0        0.0517811         118.413       0.00260232        -55.0196
                               0               0                0               0       0.00246402        -54.9525        0.0517545         118.463
75.99                          0               0                0               0        0.0086198        -62.0017          0.99851         26.4428
                               0               0                0               0         0.995617         26.4823       0.00809344        -64.0037
                               0               0                0               0        0.0591417         116.442      0.000924841        -32.8412
                               0               0                0               0      0.000783014        -27.7811        0.0591013         116.483
76.035                         0               0                0               0        0.0115871        -64.9311         0.998109         24.4144
                               0               0                0               0         0.994462         24.4702        0.0110124        -66.6495
                               0               0                0               0        0.0665352         114.434       0.00124874         80.4018
                               0               0                0               0       0.00139379         84.8548        0.0664831         114.469
76.08                          0               0                0               0        0.0146524          -67.61         0.997629         22.3676
                               0               0                0               0         0.993322         22.4434        0.0140558        -69.0864
                               0               0                0               0        0.0739354         112.395       0.00305399         93.6728
                               0               0                0               0       0.00323202         94.7802         0.073875         112.425
76.125                         0               0                0               0        0.0177909        -70.1657         0.997064         20.3068
                               0               0                0               0         0.992301         20.4041        0.0172025        -71.4165
                               0               0                0               0        0.0813159         110.331       0.00494343         94.8526
                               0               0                0               0       0.00512995         95.3122        0.0812518         110.357
76.17                          0               0                0               0        0.0209785        -72.6554         0.996406         18.2365
                               0               0                0               0         0.991496         18.3529        0.0204296        -73.6866
                               0               0                0               0        0.0886503         108.245       0.00685446         93.7354
                               0               0                0               0       0.00703836         93.9196        0.0885878         108.268
76.215                         0               0                0               0        0.0241919        -75.1091         0.995647         16.1614
                               0               0                0               0         0.990978          16.289        0.0237126        -75.9229
                               0               0                0               0        0.0959122         106.141       0.00876663         91.7795
                               0               0                0               0       0.00893778         91.8102        0.0958573         106.161
76.26                          0               0                0               0        0.0274086        -77.5447         0.994776         14.0857
                               0               0                0               0         0.990768         14.2113        0.0270253        -78.1428
                               0               0                0               0         0.103075         104.024        0.0106642         89.4178
                               0               0                0               0        0.0108129         89.3568         0.103034         104.041
76.305                         0               0                0               0        0.0306074         -79.974         0.993782         12.0137
                               0               0                0               0         0.990831         12.1201        0.0303408        -80.3601
                               0               0                0               0         0.110114         101.895        0.0125329         86.8283
                               0               0                0               0        0.0126503         86.7169         0.110093         101.909
76.35                          0               0                0               0         0.033768        -82.4055         0.992651         9.94918
                               0               0                0               0         0.991081         10.0182        0.0336314        -82.5867
                               0               0                0               0         0.117002         99.7598         0.014359         84.1013
                               0               0                0               0        0.0144378         83.9712         0.117008         99.7698
76.395                         0               0                0               0         0.036872        -84.8462         0.991369         7.89569
                               0               0                0               0         0.991394         7.91112        0.0368703        -84.8337
                               0               0                0               0         0.123714           97.62        0.0161302         81.2899
                               0               0                0               0        0.0161652         81.1676         0.123752         97.6261
76.44                          0               0                0               0        0.0399021        -87.3014          0.98992         5.85622
                               0               0                0               0         0.991633         5.80656        0.0400316        -87.1114
