! TOUCHSTONE file generated by CST MICROWAVE STUDIO
! Date and time: Sun Jun 20 22:38:08 2021
! Project name: HIPS_d_sweep.cst
! Parameters = {fmax=120; fmin=75; b=0.46; d=24.8; a=0.63; phi=0; theta=0}
! Header version: 2018
! Port assignment regex: !\s*Touchstone port\s*([0-9]+)\s*=\s*(CST MWS port|CST DS port)\s*([0-9]+|Zmin|Zmax)\s*\(\"(.*)\"\)(\s*mode\s*([0-9]+))?.*
! Touchstone port assignment:
! Touchstone port 1 = CST MWS port Zmin ("") mode 1
! Touchstone port 2 = CST MWS port Zmin ("") mode 2
! Touchstone port 3 = CST MWS port Zmax ("") mode 1
! Touchstone port 4 = CST MWS port Zmax ("") mode 2
! S-Parameters are not renormalized. Unphysical impedance of 0 will be written to the file.
# GHz S MA R 0
75                             0               0                0               0          0.15284         105.249         0.981761        -163.274
                               0               0                0               0         0.981731        -163.278         0.152866         105.291
                               0               0                0               0         0.104904         103.737        0.0390137         82.4183
                               0               0                0               0         0.038999         82.3935         0.104954         103.745
75.045                         0               0                0               0         0.145732         105.789         0.982895        -164.092
                               0               0                0               0         0.982961        -164.106         0.145218         104.642
                               0               0                0               0         0.107373          103.08        0.0385092         81.4833
                               0               0                0               0        0.0384305         81.5821         0.107388          103.09
75.09                          0               0                0               0         0.139887         105.276         0.983611        -164.991
                               0               0                0               0         0.983729        -165.011          0.13995         103.681
                               0               0                0               0         0.110042         102.333        0.0380843         80.3737
                               0               0                0               0        0.0379663         80.5549         0.110035         102.346
75.135                         0               0                0               0         0.135555         104.124         0.983977        -165.974
                               0               0                0               0         0.984105        -165.994         0.136239         102.553
                               0               0                0               0         0.112918         101.497        0.0377502          79.105
                               0               0                0               0        0.0376156         79.3371         0.112899         101.511
75.18                          0               0                0               0         0.132559         102.632         0.984054        -167.038
                               0               0                0               0          0.98416        -167.057          0.13359         101.325
                               0               0                0               0         0.116004         100.571        0.0375153         77.6937
                               0               0                0               0        0.0373837          77.954         0.115981         100.585
75.225                         0               0                0               0         0.130613          100.99         0.983899        -168.184
                               0               0                0               0         0.983957        -168.199         0.131691         100.032
                               0               0                0               0         0.119302         99.5539        0.0373856         76.1566
                               0               0                0               0        0.0372721         76.4285         0.119282         99.5674
75.27                          0               0                0               0         0.129449         99.3003         0.983562         -169.41
                               0               0                0               0         0.983555        -169.421         0.130336         98.6874
                               0               0                0               0         0.122808         98.4468        0.0373649         74.5091
                               0               0                0               0        0.0372801         74.7812         0.122797         98.4589
75.315                         0               0                0               0         0.128849         97.6179         0.983088        -170.713
                               0               0                0               0         0.983006        -170.719         0.129386         97.2947
                               0               0                0               0         0.126517         97.2502        0.0374551         72.7645
                               0               0                0               0        0.0374049         73.0288         0.126517         97.2603
75.36                          0               0                0               0         0.128638         95.9645         0.982511        -172.092
                               0               0                0               0         0.982355        -172.094         0.128746         95.8522
                               0               0                0               0         0.130419         95.9653        0.0376566         70.9329
                               0               0                0               0        0.0376425          71.184         0.130432         95.9729
75.405                         0               0                0               0         0.128678         94.3422          0.98186        -173.544
                               0               0                0               0         0.981637        -173.542          0.12835         94.3543
                               0               0                0               0         0.134501         94.5937         0.037968         69.0212
                               0               0                0               0        0.0379876         69.2559         0.134526         94.5987
75.45                          0               0                0               0         0.128859          92.738         0.981159        -175.066
                               0               0                0               0          0.98088        -175.061         0.128156         92.7936
                               0               0                0               0         0.138744         93.1379        0.0383866         67.0326
                               0               0                0               0        0.0384342         67.2495         0.138779         93.1402
75.495                         0               0                0               0         0.129104         91.1272         0.980422        -176.655
                               0               0                0               0         0.980104        -176.648         0.128141         91.1623
                               0               0                0               0         0.143127         91.6005        0.0389079          64.967
                               0               0                0               0        0.0389754         65.1671         0.143169         91.6006
75.54                          0               0                0               0         0.129367         89.4754         0.979658        -178.307
                               0               0                0               0          0.97932        -178.299         0.128298         89.4535
                               0               0                0               0         0.147625         89.9852        0.0395254         62.8217
                               0               0                0               0        0.0396033         63.0083         0.147671         89.9836
75.585                         0               0                0               0          0.12965         87.7449         0.978874          179.98
                               0               0                0               0         0.978533         179.989         0.128631         87.6627
                               0               0                0               0         0.152209         88.2962        0.0402303         60.5923
                               0               0                0               0        0.0403088         60.7709         0.152254         88.2935
75.63                          0               0                0               0             0.13         85.9039         0.978069         178.211
                               0               0                0               0         0.977744         178.219         0.129154         85.7896
                               0               0                0               0         0.156848         86.5381        0.0410112         58.2742
                               0               0                0               0        0.0410817         58.4519         0.156889         86.5353
75.675                         0               0                0               0         0.130504         83.9393         0.977241          176.39
                               0               0                0               0         0.976946         176.396         0.129888         83.8384
                               0               0                0               0         0.161508         84.7165        0.0418545         55.8635
                               0               0                0               0        0.0419104         56.0485         0.161543         84.7144
75.72                          0               0                0               0         0.131255         81.8627         0.976385         174.519
                               0               0                0               0         0.976131         174.524          0.13085         81.8188
                               0               0                0               0         0.166156         82.8372        0.0427441         53.3588
                               0               0                0               0        0.0427819         53.5585         0.166183         82.8365
75.765                         0               0                0               0          0.13232         79.7073         0.975495         172.603
                               0               0                0               0         0.975288         172.606         0.132056         79.7443
                               0               0                0               0         0.170759         80.9064        0.0436626          50.762
                               0               0                0               0        0.0436824         50.9816         0.170777         80.9076
75.81                          0               0                0               0         0.133717         77.5145         0.974566         170.646
                               0               0                0               0         0.974406         170.646         0.133509         77.6312
                               0               0                0               0         0.175283         78.9303        0.0445923         48.0781
                               0               0                0               0         0.044597         48.3193         0.175292         78.9338
75.855                         0               0                0               0         0.135422         75.3202         0.973592         168.651
                               0               0                0               0         0.973475         168.648         0.135204         75.4959
                               0               0                0               0         0.179698         76.9152        0.0455163         45.3155
                               0               0                0               0         0.045511         45.5756           0.1797          76.921
75.9                           0               0                0               0         0.137383          73.147         0.972569         166.623
                               0               0                0               0         0.972486         166.618         0.137122         73.3528
                               0               0                0               0         0.183976         74.8671        0.0464196         42.4846
                               0               0                0               0        0.0464102         42.7565         0.183971          74.875
75.945                         0               0                0               0         0.139542         71.0041         0.971498         164.564
                               0               0                0               0         0.971435         164.557         0.139239         71.2127
                               0               0                0               0          0.18809         72.7917        0.0472901         39.5967
                               0               0                0               0        0.0472817           39.87         0.188081         72.8011
75.99                          0               0                0               0         0.141847         68.8907         0.970381         162.479
                               0               0                0               0         0.970324         162.472         0.141523          69.082
                               0               0                0               0         0.192017          70.694        0.0481185         36.6625
                               0               0                0               0        0.0481147         36.9248         0.192006         70.7042
76.035                         0               0                0               0         0.144257         66.8006         0.969225         160.373
                               0               0                0               0          0.96916         160.364         0.143941         66.9631
                               0               0                0               0         0.195738         68.5783        0.0488984          33.691
                               0               0                0               0        0.0489003         33.9302         0.195726         68.5886
76.08                          0               0                0               0         0.146739         64.7251         0.968043         158.247
                               0               0                0               0         0.967957         158.239         0.146462         64.8552
                               0               0                0               0         0.199235         66.4485        0.0496256          30.689
                               0               0                0               0        0.0496321         30.8947         0.199223         66.4582
76.125                         0               0                0               0         0.149274         62.6554         0.966851         156.107
                               0               0                0               0         0.966738         156.099         0.149057         62.7549
                               0               0                0               0         0.202492         64.3076        0.0502973         27.6607
                               0               0                0               0        0.0503059         27.8257          0.20248         64.3162
76.17                          0               0                0               0         0.151847         60.5836         0.965669         153.956
                               0               0                0               0         0.965529         153.949         0.151703         60.6577
                               0               0                0               0         0.205496         62.1582        0.0509111          24.608
                               0               0                0               0        0.0509186          24.729         0.205485         62.1656
76.215                         0               0                0               0         0.154452         58.5038         0.964521         151.798
                               0               0                0               0         0.964363         151.791          0.15438         58.5588
                               0               0                0               0         0.208235         60.0023        0.0514648         21.5308
                               0               0                0               0        0.0514687         21.6089         0.208223         60.0086
76.26                          0               0                0               0         0.157086         56.4118         0.963431         149.635
                               0               0                0               0         0.963276         149.629         0.157073         56.4539
                               0               0                0               0         0.210698         57.8418        0.0519552         18.4277
                               0               0                0               0        0.0519543         18.4676         0.210685         57.8477
76.305                         0               0                0               0          0.15975         54.3064         0.962424         147.472
                               0               0                0               0         0.962297         147.466         0.159773         54.3401
                               0               0                0               0         0.212875         55.6786        0.0523787         15.2965
                               0               0                0               0        0.0523738         15.3063          0.21286         55.6851
76.35                          0               0                0               0         0.162445         52.1897         0.961518         145.312
                               0               0                0               0          0.96145         145.305         0.162474         52.2164
                               0               0                0               0         0.214759         53.5147        0.0527304         12.1351
                               0               0                0               0        0.0527244         12.1253          0.21474         53.5232
76.395                         0               0                0               0         0.165172         50.0681         0.960724         143.156
                               0               0                0               0         0.960743         143.148         0.165172         50.0855
                               0               0                0               0         0.216342         51.3529        0.0530045         8.94171
                               0               0                0               0        0.0530023         8.92443         0.216321         51.3648
76.44                          0               0                0               0         0.167923         47.9528         0.960042         141.009
                               0               0                0               0         0.960163         140.998         0.167865         47.9546
