! TOUCHSTONE file generated by CST MICROWAVE STUDIO
! Date and time: Sun Jun 20 22:37:54 2021
! Project name: HIPS_d_sweep.cst
! Parameters = {fmax=120; fmin=75; b=0.46; d=23.55; a=0.63; phi=0; theta=0}
! Header version: 2018
! Port assignment regex: !\s*Touchstone port\s*([0-9]+)\s*=\s*(CST MWS port|CST DS port)\s*([0-9]+|Zmin|Zmax)\s*\(\"(.*)\"\)(\s*mode\s*([0-9]+))?.*
! Touchstone port assignment:
! Touchstone port 1 = CST MWS port Zmin ("") mode 1
! Touchstone port 2 = CST MWS port Zmin ("") mode 2
! Touchstone port 3 = CST MWS port Zmax ("") mode 1
! Touchstone port 4 = CST MWS port Zmax ("") mode 2
! S-Parameters are not renormalized. Unphysical impedance of 0 will be written to the file.
# GHz S MA R 0
75                             0               0                0               0          0.06401        -117.607         0.976044        -21.4063
                               0               0                0               0          0.97594        -21.3994        0.0640329        -117.494
                               0               0                0               0         0.204647         67.8794        0.0352296         46.0523
                               0               0                0               0        0.0352557         46.0264         0.204708         67.8733
75.045                         0               0                0               0        0.0599503        -118.776         0.976089        -22.1746
                               0               0                0               0         0.975908         -22.161        0.0599728         -118.66
                               0               0                0               0         0.205412         67.1584         0.034582         46.3405
                               0               0                0               0        0.0346309          46.355         0.205476         67.1547
75.09                          0               0                0               0         0.056278        -120.026         0.976115         -23.012
                               0               0                0               0         0.975937        -22.9978        0.0563021          -119.9
                               0               0                0               0         0.206302         66.3635        0.0340948         46.5155
                               0               0                0               0        0.0341465         46.5223         0.206367           66.36
75.135                         0               0                0               0        0.0530021        -121.357         0.976114        -23.9212
                               0               0                0               0          0.97598        -23.9102        0.0530286        -121.219
                               0               0                0               0         0.207304         65.4915        0.0337448         46.5534
                               0               0                0               0        0.0337851         46.5257         0.207366         65.4871
75.18                          0               0                0               0        0.0501266        -122.769         0.976078        -24.9039
                               0               0                0               0         0.976005         -24.898        0.0501556        -122.616
                               0               0                0               0         0.208401         64.5405         0.033512         46.4369
                               0               0                0               0        0.0335319         46.3636         0.208458         64.5347
75.225                         0               0                0               0        0.0476513        -124.257         0.976001        -25.9608
                               0               0                0               0         0.975988        -25.9606        0.0476825        -124.089
                               0               0                0               0         0.209577         63.5096        0.0333788         46.1537
                               0               0                0               0        0.0333741         46.0347         0.209626         63.5025
75.27                          0               0                0               0        0.0455718        -125.813         0.975878        -27.0919
                               0               0                0               0         0.975914        -27.0968        0.0456046        -125.631
                               0               0                0               0          0.21081         62.3992        0.0333301         45.6964
                               0               0                0               0        0.0333004         45.5385         0.210853         62.3913
75.315                         0               0                0               0        0.0438801        -127.426         0.975707        -28.2966
                               0               0                0               0         0.975776        -28.3053        0.0439141        -127.232
                               0               0                0               0         0.212081         61.2106        0.0333524         45.0608
                               0               0                0               0        0.0333005          44.875         0.212117         61.2024
75.36                          0               0                0               0        0.0425653        -129.082         0.975492        -29.5733
                               0               0                0               0         0.975577         -29.584        0.0425999         -128.88
                               0               0                0               0         0.213368         59.9458        0.0334343         44.2458
                               0               0                0               0         0.033365         44.0448         0.213399          59.938
75.405                         0               0                0               0        0.0416134        -130.766         0.975236        -30.9199
                               0               0                0               0         0.975322        -30.9309        0.0416487         -130.56
                               0               0                0               0         0.214651         58.6077        0.0335653         43.2527
                               0               0                0               0        0.0334849          43.049         0.214678         58.6006
75.45                          0               0                0               0        0.0410089        -132.465         0.974947        -32.3339
                               0               0                0               0         0.975021        -32.3436        0.0410447        -132.258
                               0               0                0               0         0.215908         57.1993        0.0337361         42.0843
                               0               0                0               0        0.0336519         41.8895         0.215935         57.1933
75.495                         0               0                0               0        0.0407344        -134.164         0.974636        -33.8122
                               0               0                0               0         0.974688        -33.8194         0.040771        -133.958
                               0               0                0               0         0.217119         55.7241        0.0339383          40.745
                               0               0                0               0        0.0338576         40.5686          0.21715         55.7194
75.54                          0               0                0               0        0.0407716        -135.851         0.974314        -35.3517
                               0               0                0               0         0.974337        -35.3555        0.0408094        -135.649
                               0               0                0               0         0.218266         54.1856        0.0341638           39.24
                               0               0                0               0        0.0340936         39.0891         0.218301         54.1821
75.585                         0               0                0               0        0.0411016         -137.52         0.973994        -36.9488
                               0               0                0               0         0.973983        -36.9488         0.041141        -137.322
                               0               0                0               0         0.219327         52.5876        0.0344051         37.5756
                               0               0                0               0        0.0343517         37.4546          0.21937         52.5849
75.63                          0               0                0               0        0.0417055        -139.165         0.973687        -38.5999
                               0               0                0               0         0.973643        -38.5963        0.0417468        -138.971
                               0               0                0               0         0.220285         50.9335        0.0346548         35.7586
                               0               0                0               0        0.0346234         35.6694         0.220336         50.9314
75.675                         0               0                0               0        0.0425643        -140.785         0.973405        -40.3015
                               0               0                0               0         0.973328        -40.2947        0.0426078        -140.595
                               0               0                0               0         0.221121         49.2269        0.0349058         33.7964
                               0               0                0               0           0.0349         33.7384          0.22118          49.225
75.72                          0               0                0               0        0.0436596        -142.382         0.973157        -42.0498
                               0               0                0               0          0.97305        -42.0407        0.0437054        -142.194
                               0               0                0               0         0.221816         47.4712        0.0351509         31.6968
                               0               0                0               0        0.0351729         31.6672         0.221884          47.469
75.765                         0               0                0               0        0.0449735        -143.959         0.972952        -43.8413
                               0               0                0               0         0.972819        -43.8308        0.0450216        -143.772
                               0               0                0               0         0.222352         45.6698        0.0353829         29.4676
                               0               0                0               0        0.0354333         29.4622         0.222428         45.6671
75.81                          0               0                0               0        0.0464888         -145.52         0.972796        -45.6725
                               0               0                0               0         0.972641        -45.6616        0.0465389        -145.334
                               0               0                0               0         0.222712          43.826         0.035595         27.1172
                               0               0                0               0        0.0356725         27.1304         0.222794         43.8224
75.855                         0               0                0               0        0.0481891        -147.072         0.972692          -47.54
                               0               0                0               0         0.972521        -47.5298        0.0482406        -146.884
                               0               0                0               0         0.222879         41.9432          0.03578         24.6539
                               0               0                0               0        0.0358819         24.6795         0.222965         41.9385
75.9                           0               0                0               0        0.0500585         -148.62         0.972642        -49.4405
                               0               0                0               0         0.972461        -49.4318        0.0501106         -148.43
                               0               0                0               0         0.222835         40.0247        0.0359312         22.0862
                               0               0                0               0        0.0360535         22.1178         0.222924         40.0189
75.945                         0               0                0               0         0.052082        -150.169         0.972646        -51.3708
                               0               0                0               0         0.972458        -51.3645        0.0521337        -149.976
                               0               0                0               0         0.222566         38.0739         0.036042         19.4223
                               0               0                0               0        0.0361795          19.454         0.222655         38.0669
75.99                          0               0                0               0        0.0542453        -151.723         0.972701         -53.328
                               0               0                0               0         0.972511        -53.3244        0.0542952        -151.527
                               0               0                0               0         0.222058         36.0941        0.0361062         16.6703
                               0               0                0               0        0.0362529         16.6968         0.222146         36.0862
76.035                         0               0                0               0        0.0565344        -153.287         0.972803         -55.309
                               0               0                0               0         0.972616        -55.3083         0.056581        -153.089
                               0               0                0               0         0.221297          34.089        0.0361178          13.838
                               0               0                0               0        0.0362677         13.8552         0.221382         34.0804
76.08                          0               0                0               0        0.0589358        -154.863         0.972949        -57.3111
                               0               0                0               0         0.972768        -57.3131        0.0589775        -154.663
                               0               0                0               0         0.220274         32.0622        0.0360716         10.9329
                               0               0                0               0        0.0362187         10.9379         0.220354         32.0532
76.125                         0               0                0               0        0.0614365        -156.454         0.973135        -59.3314
                               0               0                0               0          0.97296        -59.3357        0.0614714        -156.254
                               0               0                0               0         0.218979         30.0173        0.0359629         7.96178
                               0               0                0               0        0.0361018         7.95286         0.219055         30.0082
76.17                          0               0                0               0        0.0640233         -158.06         0.973356        -61.3671
                               0               0                0               0         0.973188         -61.373        0.0640496        -157.862
                               0               0                0               0         0.217406          27.958        0.0357878         4.93065
                               0               0                0               0         0.035914         4.90753         0.217477         27.9492
76.215                         0               0                0               0        0.0666832        -159.683         0.973611        -63.4155
                               0               0                0               0         0.973449        -63.4221        0.0666992        -159.487
                               0               0                0               0         0.215553         25.8881        0.0355429         1.84478
                               0               0                0               0         0.035653         1.80826          0.21562         25.8797
76.26                          0               0                0               0        0.0694026        -161.322         0.973898        -65.4737
                               0               0                0               0         0.973739        -65.4801         0.069407        -161.131
                               0               0                0               0          0.21342         23.8111        0.0352258        -1.29156
                               0               0                0               0         0.035318         -1.3398         0.213482         23.8034
76.305                         0               0                0               0        0.0721677        -162.976         0.974218        -67.5386
                               0               0                0               0         0.974058         -67.544        0.0721597        -162.792
                               0               0                0               0         0.211008         21.7305        0.0348347        -4.47514
                               0               0                0               0        0.0349086        -4.53283         0.211068         21.7235
76.35                          0               0                0               0        0.0749642        -164.644         0.974574        -69.6072
                               0               0                0               0          0.97441        -69.6109        0.0749435        -164.468
                               0               0                0               0         0.208325         19.6494        0.0343687        -7.70387
                               0               0                0               0        0.0344254        -7.76839         0.208382         19.6431
76.395                         0               0                0               0        0.0777771        -166.324         0.974971         -71.676
                               0               0                0               0         0.974799         -71.678         0.077744        -166.158
                               0               0                0               0         0.205377         17.5708        0.0338278        -10.9767
                               0               0                0               0        0.0338696        -11.0454         0.205433          17.565
76.44                          0               0                0               0        0.0805908        -168.015         0.975413        -73.7417
                               0               0                0               0          0.97523        -73.7421        0.0805465        -167.859
