! TOUCHSTONE file generated by CST MICROWAVE STUDIO
! Date and time: Sun Jun 20 22:38:21 2021
! Project name: HIPS_d_sweep.cst
! Parameters = {fmax=120; fmin=75; b=0.46; d=26; a=0.63; phi=0; theta=0}
! Header version: 2018
! Port assignment regex: !\s*Touchstone port\s*([0-9]+)\s*=\s*(CST MWS port|CST DS port)\s*([0-9]+|Zmin|Zmax)\s*\(\"(.*)\"\)(\s*mode\s*([0-9]+))?.*
! Touchstone port assignment:
! Touchstone port 1 = CST MWS port Zmin ("") mode 1
! Touchstone port 2 = CST MWS port Zmin ("") mode 2
! Touchstone port 3 = CST MWS port Zmax ("") mode 1
! Touchstone port 4 = CST MWS port Zmax ("") mode 2
! S-Parameters are not renormalized. Unphysical impedance of 0 will be written to the file.
# GHz S MA R 0
75                             0               0                0               0         0.232047        -27.9952         0.970445         61.4931
                               0               0                0               0         0.970655         61.4928         0.231852        -28.0571
                               0               0                0               0        0.0587268        -21.8897        0.0310679         178.074
                               0               0                0               0        0.0311374         178.049        0.0587169        -21.8949
75.045                         0               0                0               0         0.227533        -28.8226         0.972524         60.6321
                               0               0                0               0         0.972359         60.6741         0.227428         -28.922
                               0               0                0               0         0.056103        -22.6558         0.030306         176.113
                               0               0                0               0        0.0303676         176.067        0.0560955        -22.6652
75.09                          0               0                0               0         0.223574        -29.7701         0.974032          59.689
                               0               0                0               0         0.973467         59.7446         0.223489        -29.8833
                               0               0                0               0        0.0531307        -23.4013        0.0297224         173.756
                               0               0                0               0        0.0297852         173.706         0.053124        -23.4134
75.135                         0               0                0               0         0.220147        -30.8295         0.975001         58.6606
                               0               0                0               0         0.974252         58.7054         0.220036        -30.9392
                               0               0                0               0        0.0498088        -24.1047        0.0293105         171.038
                               0               0                0               0        0.0293787         170.995        0.0498019        -24.1183
75.18                          0               0                0               0         0.217229        -31.9937         0.975445         57.5433
                               0               0                0               0         0.974919          57.564         0.217067        -32.0878
                               0               0                0               0        0.0461382        -24.7324        0.0290665         167.997
                               0               0                0               0         0.029141         167.966        0.0461311        -24.7462
75.225                         0               0                0               0         0.214798        -33.2559         0.975349         56.3305
                               0               0                0               0         0.975565         56.3303         0.214577        -33.3272
                               0               0                0               0        0.0421232         -25.231        0.0289882          164.67
                               0               0                0               0        0.0290679         164.653        0.0421162         -25.244
75.27                          0               0                0               0         0.212833        -34.6106         0.974699         55.0053
                               0               0                0               0         0.976194         55.0131         0.212558        -34.6556
                               0               0                0               0        0.0377721        -25.5137        0.0290745         161.099
                               0               0                0               0        0.0291571         161.096        0.0377657         -25.525
75.315                         0               0                0               0         0.211313        -36.0524         0.973874         53.5246
                               0               0                0               0         0.976767         53.6182         0.210999        -36.0709
                               0               0                0               0        0.0330994        -25.4327        0.0293246         157.324
                               0               0                0               0        0.0294072         157.331        0.0330944        -25.4419
75.36                          0               0                0               0         0.210221         -37.577         0.975183         51.8859
                               0               0                0               0         0.977233         52.1487         0.209887        -37.5711
                               0               0                0               0          0.02813        -24.7182        0.0297372         153.386
                               0               0                0               0         0.029817           153.4         0.028127        -24.7253
75.405                         0               0                0               0         0.209536        -39.1803         0.978629         50.3479
                               0               0                0               0         0.977556         50.6061         0.209205        -39.1542
                               0               0                0               0        0.0229102        -22.8274        0.0303106         149.324
                               0               0                0               0        0.0303848          149.34        0.0229097        -22.8334
75.45                          0               0                0               0         0.209241         -40.859         0.979678         48.8473
                               0               0                0               0         0.977718          48.991         0.208935         -40.818
                               0               0                0               0        0.0175385        -18.5122        0.0310421         145.173
                               0               0                0               0        0.0311083         145.188        0.0175405        -18.5201
75.495                         0               0                0               0         0.209317        -42.6098          0.97931         47.2348
                               0               0                0               0         0.977718         47.3046         0.209058          -42.56
                               0               0                0               0        0.0122833        -8.36353        0.0319277         140.965
                               0               0                0               0         0.031984         140.975        0.0122872        -8.38225
75.54                          0               0                0               0         0.209747        -44.4301         0.978595         45.5162
                               0               0                0               0         0.977563         45.5483         0.209552        -44.3779
                               0               0                0               0       0.00812383         17.6948         0.032962         136.727
                               0               0                0               0        0.0330071         136.729       0.00812616         17.6415
75.585                         0               0                0               0         0.210513        -46.3174         0.977808         43.7108
                               0               0                0               0         0.977266         43.7244         0.210392        -46.2687
                               0               0                0               0       0.00798856         64.3898        0.0341386         132.478
                               0               0                0               0        0.0341714         132.472        0.0079831          64.331
75.63                          0               0                0               0         0.211594        -48.2693         0.977007         41.8308
                               0               0                0               0         0.976842         41.8358         0.211554        -48.2294
                               0               0                0               0        0.0124308          92.965        0.0354493         128.235
                               0               0                0               0        0.0354695          128.22        0.0124205         92.9449
75.675                         0               0                0               0         0.212972        -50.2833         0.976198         39.8846
                               0               0                0               0         0.976302          39.886          0.21301        -50.2567
                               0               0                0               0         0.018637         103.922        0.0368848         124.009
                               0               0                0               0        0.0368926         123.986        0.0186252         103.917
75.72                          0               0                0               0         0.214624        -52.3572         0.975376         37.8789
                               0               0                0               0         0.975657         37.8791         0.214732        -52.3467
                               0               0                0               0        0.0255002         108.299        0.0384344         119.807
                               0               0                0               0        0.0384305         119.778        0.0254881         108.299
75.765                         0               0                0               0         0.216528        -54.4881         0.974528         35.8196
                               0               0                0               0         0.974912         35.8194         0.216693        -54.4953
                               0               0                0               0        0.0327085         109.928        0.0400863         115.633
                               0               0                0               0        0.0400719         115.601        0.0326965         109.928
75.81                          0               0                0               0         0.218661        -56.6732          0.97364         33.7119
                               0               0                0               0         0.974071         33.7116         0.218864        -56.6981
                               0               0                0               0        0.0401374         110.187        0.0418273         111.488
                               0               0                0               0        0.0418043         111.457        0.0401252         110.185
75.855                         0               0                0               0         0.220996        -58.9091         0.972699         31.5611
                               0               0                0               0         0.973134         31.5606         0.221215        -58.9502
                               0               0                0               0        0.0477164         109.668        0.0436435         107.374
                               0               0                0               0        0.0436141         107.346        0.0477033         109.664
75.9                           0               0                0               0         0.223506        -61.1919         0.971691         29.3723
                               0               0                0               0         0.972101         29.3713         0.223719        -61.2465
                               0               0                0               0        0.0553948         108.663        0.0455197         103.289
                               0               0                0               0        0.0454868         103.269        0.0553794         108.657
75.945                         0               0                0               0         0.226164        -63.5169         0.970604         27.1504
                               0               0                0               0          0.97097         27.1488         0.226349        -63.5816
                               0               0                0               0          0.06313         107.334        0.0474404         99.2344
                               0               0                0               0        0.0474072         99.2237        0.0631109         107.327
75.99                          0               0                0               0         0.228941        -65.8792         0.969428         24.9003
                               0               0                0               0          0.96974         24.8979         0.229077        -65.9498
                               0               0                0               0        0.0708839         105.777        0.0493896         95.2085
                               0               0                0               0        0.0493596         95.2102        0.0708594         105.769
76.035                         0               0                0               0         0.231808        -68.2729         0.968155         22.6266
                               0               0                0               0         0.968412         22.6235         0.231879        -68.3453
                               0               0                0               0        0.0786203         104.054        0.0513512          91.212
                               0               0                0               0         0.051328         91.2278        0.0785894         104.047
76.08                          0               0                0               0         0.234737        -70.6918         0.966783         20.3338
                               0               0                0               0         0.966988         20.3304         0.234734        -70.7625
                               0               0                0               0        0.0863047         102.207        0.0533093         87.2458
                               0               0                0               0        0.0532966         87.2763         0.086267         102.202
76.125                         0               0                0               0           0.2377        -73.1291         0.965313         18.0263
                               0               0                0               0         0.965473          18.023         0.237619        -73.1952
                               0               0                0               0        0.0939041         100.266        0.0552489         83.3112
                               0               0                0               0        0.0552497         83.3566        0.0938602         100.265
76.17                          0               0                0               0         0.240673        -75.5778          0.96375         15.7084
                               0               0                0               0         0.963877         15.7055         0.240516        -75.6378
                               0               0                0               0         0.101387         98.2546         0.057156         79.4103
                               0               0                0               0        0.0571729         79.4696         0.101338         98.2564
76.215                         0               0                0               0         0.243632        -78.0309         0.962104         13.3839
                               0               0                0               0         0.962211         13.3822         0.243408        -78.0846
                               0               0                0               0         0.108723         96.1897        0.0590177         75.5451
                               0               0                0               0        0.0590525          75.617         0.108672         96.1947
76.26                          0               0                0               0         0.246559        -80.4815         0.960392         11.0566
                               0               0                0               0         0.960492         11.0566         0.246281        -80.5299
                               0               0                0               0         0.115885          94.086        0.0608231         71.7183
                               0               0                0               0        0.0608763         71.8006         0.115833         94.0935
76.305                         0               0                0               0         0.249435        -82.9232         0.958634         8.73025
                               0               0                0               0          0.95874         8.73251         0.249121        -82.9685
                               0               0                0               0         0.122847          91.956        0.0625626          67.932
                               0               0                0               0        0.0626335         68.0224         0.122796         91.9648
76.35                          0               0                0               0         0.252247        -85.3504         0.956853         6.40812
                               0               0                0               0         0.956975         6.41305         0.251916        -85.3953
                               0               0                0               0         0.129586           89.81        0.0642284         64.1882
                               0               0                0               0         0.064315         64.2842         0.129538         89.8189
76.395                         0               0                0               0         0.254983        -87.7584         0.955074          4.0935
                               0               0                0               0         0.955221         4.10136         0.254655        -87.8058
                               0               0                0               0         0.136085         87.6571        0.0658139         60.4884
                               0               0                0               0        0.0659131         60.5876         0.136038          87.665
76.44                          0               0                0               0         0.257633        -90.1438         0.953322         1.78947
                               0               0                0               0         0.953498          1.8003         0.257325        -90.1958
