! TOUCHSTONE file generated by CST MICROWAVE STUDIO
! Date and time: Sun Jun 20 22:37:08 2021
! Project name: HIPS_d_sweep.cst
! Parameters = {fmax=120; fmin=75; b=0.46; d=18.85; a=0.63; phi=0; theta=0}
! Header version: 2018
! Port assignment regex: !\s*Touchstone port\s*([0-9]+)\s*=\s*(CST MWS port|CST DS port)\s*([0-9]+|Zmin|Zmax)\s*\(\"(.*)\"\)(\s*mode\s*([0-9]+))?.*
! Touchstone port assignment:
! Touchstone port 1 = CST MWS port Zmin ("") mode 1
! Touchstone port 2 = CST MWS port Zmin ("") mode 2
! Touchstone port 3 = CST MWS port Zmax ("") mode 1
! Touchstone port 4 = CST MWS port Zmax ("") mode 2
! S-Parameters are not renormalized. Unphysical impedance of 0 will be written to the file.
# GHz S MA R 0
75                             0               0                0               0         0.249307        -117.612         0.947404          151.92
                               0               0                0               0         0.947225         151.912         0.249402        -117.605
                               0               0                0               0         0.194119         62.6584        0.0520744         141.486
                               0               0                0               0         0.052145         141.537         0.194172         62.6849
75.045                         0               0                0               0         0.252239        -118.474         0.950198         151.241
                               0               0                0               0         0.950013          151.22          0.25223         -118.45
                               0               0                0               0          0.19466         62.0634        0.0528695          140.15
                               0               0                0               0        0.0529608         140.202          0.19471         62.0879
75.09                          0               0                0               0         0.254988        -119.316          0.95199          150.54
                               0               0                0               0          0.95184          150.51         0.254893        -119.282
                               0               0                0               0         0.195158         61.4246        0.0536498         138.761
                               0               0                0               0        0.0537576         138.815         0.195205         61.4473
75.135                         0               0                0               0         0.257507         -120.14         0.952795         149.804
                               0               0                0               0         0.952703         149.768          0.25735        -120.104
                               0               0                0               0         0.195617         60.7386        0.0544123         137.315
                               0               0                0               0        0.0545321          137.37         0.195663         60.7602
75.18                          0               0                0               0         0.259751        -120.954         0.952685          149.02
                               0               0                0               0         0.952651         148.983         0.259558        -120.921
                               0               0                0               0         0.196046         60.0029        0.0551542         135.802
                               0               0                0               0        0.0552811         135.859         0.196093         60.0237
75.225                         0               0                0               0         0.261681        -121.767         0.951781         148.179
                               0               0                0               0         0.951792         148.144         0.261482         -121.74
                               0               0                0               0         0.196455         59.2151        0.0558731         134.217
                               0               0                0               0        0.0560023         134.274         0.196504         59.2358
75.27                          0               0                0               0         0.263266        -122.588         0.950247         147.273
                               0               0                0               0         0.950276         147.243         0.263091        -122.568
                               0               0                0               0         0.196854         58.3739        0.0565675         132.552
                               0               0                0               0        0.0566941         132.608         0.196904          58.395
75.315                         0               0                0               0         0.264487        -123.428          0.94827         146.296
                               0               0                0               0         0.948285         146.272         0.264362        -123.415
                               0               0                0               0         0.197252         57.4786        0.0572367           130.8
                               0               0                0               0        0.0573563         130.852         0.197304         57.5004
75.36                          0               0                0               0         0.265339        -124.297          0.94604         145.248
                               0               0                0               0         0.946012          145.23         0.265285         -124.29
                               0               0                0               0          0.19766         56.5294        0.0578814         128.951
                               0               0                0               0        0.0579898         128.999         0.197713         56.5523
75.405                         0               0                0               0         0.265831        -125.206         0.943738         144.129
                               0               0                0               0         0.943643         144.117         0.265859        -125.203
                               0               0                0               0         0.198084          55.527        0.0585032         127.001
                               0               0                0               0        0.0585972          127.04         0.198138         55.5514
75.45                          0               0                0               0         0.265981        -126.165         0.941521         142.942
                               0               0                0               0         0.941344         142.935         0.266098        -126.162
                               0               0                0               0         0.198532         54.4731        0.0591053         124.942
                               0               0                0               0        0.0591825          124.97         0.198586         54.4992
75.495                         0               0                0               0         0.265821        -127.179         0.939512         141.693
                               0               0                0               0         0.939248          141.69         0.266023        -127.173
                               0               0                0               0         0.199006         53.3699        0.0596922         122.769
                               0               0                0               0        0.0597514         122.783          0.19906         53.3977
75.54                          0               0                0               0         0.265388        -128.253         0.937802         140.389
                               0               0                0               0         0.937454         140.388         0.265665        -128.243
                               0               0                0               0         0.199509         52.2199        0.0602695         120.479
                               0               0                0               0        0.0603108         120.477         0.199562         52.2493
75.585                         0               0                0               0         0.264721         -129.39         0.936447         139.035
                               0               0                0               0         0.936027         139.037          0.26506        -129.375
                               0               0                0               0         0.200037         51.0259        0.0608438         118.071
                               0               0                0               0        0.0608685         118.052         0.200088         51.0568
75.63                          0               0                0               0         0.263861        -130.591         0.935477          137.64
                               0               0                0               0         0.934998         137.642         0.264244        -130.569
                               0               0                0               0         0.200585         49.7907        0.0614221         115.545
                               0               0                0               0        0.0614326         115.508         0.200634          49.823
75.675                         0               0                0               0         0.262844        -131.853         0.934894         136.209
                               0               0                0               0         0.934375         136.211         0.263253        -131.825
                               0               0                0               0         0.201145         48.5173        0.0620115         112.907
                               0               0                0               0         0.062011         112.852         0.201193         48.5506
75.72                          0               0                0               0         0.261705        -133.173         0.934684         134.748
                               0               0                0               0         0.934144         134.749         0.262123         -133.14
                               0               0                0               0         0.201708         47.2084        0.0626182         110.162
                               0               0                0               0        0.0626106          110.09         0.201753         47.2424
75.765                         0               0                0               0          0.26047        -134.546         0.934821         133.261
                               0               0                0               0         0.934277         133.262         0.260883         -134.51
                               0               0                0               0         0.202259         45.8664        0.0632474         107.318
                               0               0                0               0        0.0632368         107.234         0.202302         45.9009
75.81                          0               0                0               0         0.259163        -135.966         0.935266         131.754
                               0               0                0               0         0.934735         131.754         0.259557        -135.931
                               0               0                0               0         0.202784         44.4938        0.0639022         104.388
                               0               0                0               0        0.0638925         104.294         0.202827         44.5283
75.855                         0               0                0               0         0.257799        -137.429         0.935979         130.229
                               0               0                0               0         0.935476         130.228         0.258164        -137.396
                               0               0                0               0         0.203268         43.0926        0.0645835         101.383
                               0               0                0               0        0.0645784         101.285          0.20331          43.127
75.9                           0               0                0               0         0.256391        -138.928         0.936913         128.689
                               0               0                0               0          0.93645         128.687         0.256721        -138.899
                               0               0                0               0         0.203692         41.6648          0.06529          98.318
                               0               0                0               0        0.0652922         98.2201         0.203734         41.6987
75.945                         0               0                0               0         0.254948        -140.457         0.938025         127.136
                               0               0                0               0         0.937612         127.134         0.255237        -140.434
                               0               0                0               0          0.20404         40.2122        0.0660174         95.2062
                               0               0                0               0        0.0660289         95.1146         0.204082         40.2453
75.99                          0               0                0               0         0.253473         -142.01         0.939267         125.573
                               0               0                0               0         0.938912         125.571         0.253719        -141.995
                               0               0                0               0         0.204291         38.7364        0.0667592         92.0621
                               0               0                0               0        0.0667813         91.9821         0.204336         38.7686
76.035                         0               0                0               0         0.251971        -143.582         0.940597         124.001
                               0               0                0               0         0.940305         123.998         0.252171        -143.576
                               0               0                0               0          0.20443         37.2394         0.067507         88.8995
                               0               0                0               0        0.0675401         88.8357         0.204476         37.2704
76.08                          0               0                0               0         0.250442        -145.167         0.941972          122.42
                               0               0                0               0         0.941747         122.417         0.250596        -145.171
                               0               0                0               0         0.204437         35.7228        0.0682504         85.7309
                               0               0                0               0        0.0682944         85.6875         0.204487         35.7525
76.125                         0               0                0               0         0.248885         -146.76         0.943352         120.833
                               0               0                0               0         0.943197         120.829         0.248994        -146.776
                               0               0                0               0         0.204296         34.1886        0.0689783          82.568
                               0               0                0               0        0.0690326         82.5481         0.204349          34.217
76.17                          0               0                0               0           0.2473        -148.358           0.9447         119.239
                               0               0                0               0         0.944615         119.235         0.247365        -148.385
                               0               0                0               0         0.203991         32.6391        0.0696791         79.4213
                               0               0                0               0        0.0697429         79.4269         0.204048         32.6659
76.215                         0               0                0               0         0.245687        -149.955         0.945982          117.64
                               0               0                0               0         0.945966         117.636          0.24571        -149.993
                               0               0                0               0         0.203507         31.0765        0.0703413         76.2998
                               0               0                0               0        0.0704135          76.332         0.203568         31.1017
76.26                          0               0                0               0         0.244046        -151.549         0.947164         116.036
                               0               0                0               0         0.947215         116.032         0.244027        -151.597
                               0               0                0               0         0.202831         29.5035        0.0709541         73.2116
                               0               0                0               0        0.0710338         73.2706         0.202896         29.5271
76.305                         0               0                0               0         0.242375        -153.136         0.948216         114.428
                               0               0                0               0         0.948332         114.423         0.242318        -153.194
                               0               0                0               0         0.201952         27.9231        0.0715078         70.1633
                               0               0                0               0        0.0715942         70.2484         0.202021          27.945
76.35                          0               0                0               0         0.240676        -154.712         0.949112         112.817
                               0               0                0               0         0.949288         112.812         0.240582        -154.779
                               0               0                0               0         0.200861         26.3384        0.0719941          67.161
                               0               0                0               0        0.0720866         67.2708         0.200933         26.3587
76.395                         0               0                0               0         0.238949        -156.276         0.949826         111.204
                               0               0                0               0         0.950057         111.198         0.238821         -156.35
                               0               0                0               0         0.199551         24.7529        0.0724065         64.2094
                               0               0                0               0        0.0725046         64.3419         0.199627         24.7716
76.44                          0               0                0               0         0.237198        -157.824         0.950336         109.588
                               0               0                0               0         0.950617         109.582         0.237038        -157.904
