! TOUCHSTONE file generated by CST MICROWAVE STUDIO
! Date and time: Sun Jun 20 22:37:26 2021
! Project name: HIPS_d_sweep.cst
! Parameters = {fmax=120; fmin=75; b=0.46; d=20.95; a=0.63; phi=0; theta=0}
! Header version: 2018
! Port assignment regex: !\s*Touchstone port\s*([0-9]+)\s*=\s*(CST MWS port|CST DS port)\s*([0-9]+|Zmin|Zmax)\s*\(\"(.*)\"\)(\s*mode\s*([0-9]+))?.*
! Touchstone port assignment:
! Touchstone port 1 = CST MWS port Zmin ("") mode 1
! Touchstone port 2 = CST MWS port Zmin ("") mode 2
! Touchstone port 3 = CST MWS port Zmax ("") mode 1
! Touchstone port 4 = CST MWS port Zmax ("") mode 2
! S-Parameters are not renormalized. Unphysical impedance of 0 will be written to the file.
# GHz S MA R 0
75                             0               0                0               0         0.119972         9.17684          0.97571        -85.2272
                               0               0                0               0         0.975877        -85.2425         0.120049         9.21285
                               0               0                0               0         0.173858         6.76191        0.0551266          27.636
                               0               0                0               0        0.0551611          27.686         0.173804         6.76212
75.045                         0               0                0               0         0.123624         8.32203         0.975609        -85.9177
                               0               0                0               0         0.975766        -85.9328         0.123763         8.34746
                               0               0                0               0         0.172083         6.17645        0.0557541         27.1468
                               0               0                0               0        0.0557864         27.2016          0.17203         6.17541
75.09                          0               0                0               0         0.127013         7.43654         0.975463        -86.6846
                               0               0                0               0         0.975631         -86.699         0.127133         7.46818
                               0               0                0               0         0.170138         5.51607        0.0563026         26.5303
                               0               0                0               0         0.056331         26.5779         0.170086         5.51485
75.135                         0               0                0               0         0.130103         6.51139         0.975316        -87.5253
                               0               0                0               0         0.975505        -87.5387         0.130148         6.55407
                               0               0                0               0         0.168024         4.78229        0.0567764         25.7785
                               0               0                0               0        0.0568011         25.8117         0.167974         4.78162
75.18                          0               0                0               0         0.132869           5.538           0.9752        -88.4373
                               0               0                0               0         0.975418        -88.4495         0.132806         5.58938
                               0               0                0               0         0.165743         3.97664        0.0571799         24.8864
                               0               0                0               0        0.0572019          24.902         0.165695         3.97692
75.225                         0               0                0               0         0.135292         4.50862         0.975142        -89.4183
                               0               0                0               0         0.975391        -89.4291          0.13511         4.56293
                               0               0                0               0         0.163292         3.10064        0.0575167         23.8515
                               0               0                0               0        0.0575371         23.8497         0.163246         3.10205
75.27                          0               0                0               0          0.13736         3.41672         0.975161        -90.4658
                               0               0                0               0         0.975441        -90.4752         0.137067          3.4675
                               0               0                0               0         0.160668         2.15584        0.0577893         22.6736
                               0               0                0               0        0.0578088          22.657         0.160624         2.15834
75.315                         0               0                0               0         0.139068          2.2572         0.975272        -91.5775
                               0               0                0               0         0.975579        -91.5855         0.138685         2.29912
                               0               0                0               0         0.157868          1.1438        0.0579989         21.3546
                               0               0                0               0        0.0580176         21.3272         0.157825         1.14721
75.36                          0               0                0               0         0.140418          1.0266         0.975483        -92.7513
                               0               0                0               0         0.975811         -92.758         0.139977         1.05648
                               0               0                0               0         0.154886       0.0661232        0.0581451         19.8979
                               0               0                0               0        0.0581629         19.8645         0.154844       0.0701439
75.405                         0               0                0               0         0.141417       -0.276874         0.975799         -93.985
                               0               0                0               0          0.97614        -93.9906         0.140951       -0.259744
                               0               0                0               0         0.151717        -1.07551        0.0582265         18.3081
                               0               0                0               0        0.0582425         18.2735         0.151675        -1.07126
75.45                          0               0                0               0         0.142076        -1.65341          0.97622        -95.2768
                               0               0                0               0         0.976565        -95.2813         0.141621        -1.64733
                               0               0                0               0         0.148352         -2.2793        0.0582402          16.591
                               0               0                0               0        0.0582536         16.5596         0.148311        -2.27526
75.495                         0               0                0               0         0.142409        -3.10172         0.976743        -96.6247
                               0               0                0               0         0.977084        -96.6283         0.141994          -3.103
                               0               0                0               0         0.144787        -3.54331        0.0581826          14.753
                               0               0                0               0        0.0581924         14.7284         0.144746        -3.53993
75.54                          0               0                0               0         0.142435         -4.6192          0.97736        -98.0268
                               0               0                0               0          0.97769        -98.0298         0.142082        -4.62275
                               0               0                0               0         0.141015        -4.86538        0.0580496         12.8014
                               0               0                0               0        0.0580549         12.7861         0.140973        -4.86311
75.585                         0               0                0               0         0.142171         -6.2022         0.978063        -99.4814
                               0               0                0               0         0.978374        -99.4838         0.141894        -6.20218
                               0               0                0               0          0.13703        -6.24312        0.0578366         10.7438
                               0               0                0               0        0.0578369         10.7391         0.136987        -6.24237
75.63                          0               0                0               0         0.141635        -7.84628         0.978839        -100.987
                               0               0                0               0         0.979127        -100.989          0.14144        -7.83678
                               0               0                0               0         0.132827        -7.67382        0.0575396         8.58817
                               0               0                0               0        0.0575343         8.59405         0.132784        -7.67496
75.675                         0               0                0               0         0.140845        -9.54643         0.979675        -102.541
                               0               0                0               0         0.979936        -102.542         0.140729        -9.52208
                               0               0                0               0         0.128402        -9.15443        0.0571546         6.34261
                               0               0                0               0        0.0571437          6.3579         0.128358        -9.15776
75.72                          0               0                0               0         0.139818        -11.2974         0.980555        -104.141
                               0               0                0               0         0.980789        -104.143         0.139771        -11.2539
                               0               0                0               0         0.123753        -10.6815        0.0566787         4.01526
                               0               0                0               0        0.0566621         4.03763         0.123707        -10.6873
75.765                         0               0                0               0         0.138571        -13.0937         0.981462        -105.787
                               0               0                0               0         0.981671        -105.788         0.138577        -13.0285
                               0               0                0               0         0.118878        -12.2512        0.0561098         1.61401
                               0               0                0               0        0.0560876         1.64021         0.118832        -12.2595
75.81                          0               0                0               0         0.137118        -14.9304          0.98238        -107.474
                               0               0                0               0         0.982566        -107.476         0.137158        -14.8425
                               0               0                0               0         0.113779        -13.8592        0.0554468       -0.853624
                               0               0                0               0        0.0554194       -0.827506         0.113733          -13.87
75.855                         0               0                0               0         0.135474        -16.8027         0.983293        -109.201
                               0               0                0               0         0.983461        -109.204         0.135526        -16.6935
                               0               0                0               0         0.108459        -15.5007          0.05469        -3.38073
                               0               0                0               0        0.0546576        -3.35894         0.108412        -15.5138
75.9                           0               0                0               0         0.133649        -18.7064         0.984189        -110.964
                               0               0                0               0         0.984341        -110.968         0.133696        -18.5795
                               0               0                0               0         0.102924        -17.1704        0.0538408        -5.96119
                               0               0                0               0        0.0538039        -5.94798         0.102877        -17.1855
75.945                         0               0                0               0         0.131655        -20.6383         0.985061         -112.76
                               0               0                0               0         0.985197        -112.765         0.131683        -20.4992
                               0               0                0               0        0.0971812        -18.8624        0.0529016         -8.5898
                               0               0                0               0        0.0528608        -8.58905         0.097134         -18.879
75.99                          0               0                0               0         0.129504        -22.5959         0.985908        -114.585
                               0               0                0               0         0.986027        -114.591         0.129502         -22.452
                               0               0                0               0        0.0912409        -20.5705         0.051876        -11.2625
                               0               0                0               0        0.0518321        -11.2774        0.0911938        -20.5878
76.035                         0               0                0               0         0.127204         -24.578         0.986738        -116.434
                               0               0                0               0         0.986835        -116.441         0.127173        -24.4379
                               0               0                0               0        0.0851155        -22.2875        0.0507683        -13.9762
                               0               0                0               0        0.0507223        -14.0089        0.0850686        -22.3045
76.08                          0               0                0               0         0.124767        -26.5844          0.98757        -118.303
                               0               0                0               0         0.987639         -118.31         0.124713        -26.4572
                               0               0                0               0         0.078819        -24.0057        0.0495836         -16.729
                               0               0                0               0        0.0495368        -16.7805        0.0787724        -24.0211
76.125                         0               0                0               0         0.122206         -28.616         0.988426        -120.189
                               0               0                0               0         0.988465        -120.195         0.122144        -28.5102
                               0               0                0               0        0.0723672        -25.7163        0.0483273        -19.5203
                               0               0                0               0        0.0482814        -19.5901        0.0723207        -25.7284
76.17                          0               0                0               0         0.119535        -30.6743         0.989331        -122.087
                               0               0                0               0         0.989346        -122.091         0.119486        -30.5972
                               0               0                0               0        0.0657768        -27.4088        0.0470054        -22.3499
                               0               0                0               0        0.0469623        -22.4363        0.0657302        -27.4153
76.215                         0               0                0               0          0.11677        -32.7611         0.990305        -123.995
                               0               0                0               0         0.990311        -123.995         0.116758        -32.7177
                               0               0                0               0        0.0590652          -29.07        0.0456238        -25.2185
                               0               0                0               0        0.0455857        -25.3184        0.0590181        -29.0679
76.26                          0               0                0               0         0.113934        -34.8776         0.991357        -125.909
                               0               0                0               0         0.991374        -125.905         0.113981        -34.8699
                               0               0                0               0          0.05225        -30.6814        0.0441885        -28.1268
                               0               0                0               0        0.0441577        -28.2362         0.052202        -30.6669
76.305                         0               0                0               0         0.111049        -37.0231         0.992476        -127.828
                               0               0                0               0         0.992525         -127.82          0.11117        -37.0505
                               0               0                0               0        0.0453484        -32.2147        0.0427054        -31.0753
                               0               0                0               0         0.042684        -31.1897        0.0452993         -32.183
76.35                          0               0                0               0          0.10814        -39.1941         0.993638        -129.748
                               0               0                0               0         0.993733        -129.737         0.108338        -39.2537
                               0               0                0               0        0.0383776        -33.6215        0.0411803        -34.0635
                               0               0                0               0        0.0411699        -34.1786        0.0383271        -33.5659
76.395                         0               0                0               0         0.105231        -41.3826         0.994797        -131.668
                               0               0                0               0         0.994941        -131.655         0.105494        -41.4701
                               0               0                0               0        0.0313547        -34.8088        0.0396186        -37.0895
                               0               0                0               0        0.0396201        -37.2015        0.0313028        -34.7198
76.44                          0               0                0               0         0.102341        -43.5764         0.995895        -133.585
                               0               0                0               0          0.99608        -133.571         0.102641        -43.6863
