! TOUCHSTONE file generated by CST MICROWAVE STUDIO
! Date and time: Sun Jun 20 22:38:15 2021
! Project name: HIPS_d_sweep.cst
! Parameters = {fmax=120; fmin=75; b=0.46; d=25.4; a=0.63; phi=0; theta=0}
! Header version: 2018
! Port assignment regex: !\s*Touchstone port\s*([0-9]+)\s*=\s*(CST MWS port|CST DS port)\s*([0-9]+|Zmin|Zmax)\s*\(\"(.*)\"\)(\s*mode\s*([0-9]+))?.*
! Touchstone port assignment:
! Touchstone port 1 = CST MWS port Zmin ("") mode 1
! Touchstone port 2 = CST MWS port Zmin ("") mode 2
! Touchstone port 3 = CST MWS port Zmax ("") mode 1
! Touchstone port 4 = CST MWS port Zmax ("") mode 2
! S-Parameters are not renormalized. Unphysical impedance of 0 will be written to the file.
# GHz S MA R 0
75                             0               0                0               0         0.181309         37.2265         0.957568         129.497
                               0               0                0               0          0.95759         129.498         0.181387         37.2015
                               0               0                0               0         0.218093         37.8197        0.0513779        -13.3642
                               0               0                0               0        0.0513461        -13.3445          0.21803         37.8496
75.045                         0               0                0               0         0.176828         36.4054         0.958668         128.687
                               0               0                0               0         0.958687         128.689         0.176859         36.3729
                               0               0                0               0         0.217879         37.0614        0.0502977        -13.7709
                               0               0                0               0        0.0502636        -13.6929         0.217804         37.0956
75.09                          0               0                0               0         0.172956            35.5         0.959533         127.794
                               0               0                0               0          0.95955         127.796         0.172983         35.4663
                               0               0                0               0         0.217514         36.2195        0.0492836        -14.3307
                               0               0                0               0        0.0492506        -14.2436         0.217436         36.2542
75.135                         0               0                0               0         0.169624         34.5165         0.960223         126.816
                               0               0                0               0         0.960243         126.818         0.169669         34.4862
                               0               0                0               0          0.21701         35.2929        0.0483283          -15.05
                               0               0                0               0         0.048297        -14.9862         0.216937         35.3258
75.18                          0               0                0               0         0.166774         33.4599         0.960796         125.756
                               0               0                0               0         0.960819         125.757         0.166846         33.4357
                               0               0                0               0         0.216375         34.2813        0.0474238         -15.936
                               0               0                0               0        0.0473928        -15.9134         0.216313         34.3113
75.225                         0               0                0               0         0.164361         32.3338         0.961298         124.615
                               0               0                0               0         0.961327         124.615         0.164459         32.3169
                               0               0                0               0         0.215613         33.1854        0.0465612        -16.9964
                               0               0                0               0        0.0465286        -17.0204         0.215565         33.2124
75.27                          0               0                0               0         0.162345         31.1408          0.96177         123.393
                               0               0                0               0         0.961804         123.392         0.162464         31.1309
                               0               0                0               0         0.214725         32.0066        0.0457314        -18.2389
                               0               0                0               0        0.0456953        -18.3045         0.214689          32.031
75.315                         0               0                0               0         0.160697         29.8828         0.962243         122.093
                               0               0                0               0          0.96228         122.092         0.160826         29.8782
                               0               0                0               0         0.213704         30.7465        0.0449245        -19.6713
                               0               0                0               0        0.0448843        -19.7651         0.213677         30.7694
75.36                          0               0                0               0         0.159391         28.5609          0.96274         120.718
                               0               0                0               0         0.962779         120.717          0.15952         28.5589
                               0               0                0               0         0.212541         29.4072        0.0441307         -21.301
                               0               0                0               0        0.0440876        -21.4033         0.212517         29.4298
75.405                         0               0                0               0         0.158408         27.1759         0.963275         119.269
                               0               0                0               0         0.963314         119.268         0.158523         27.1728
                               0               0                0               0         0.211222          27.991          0.04334        -23.1347
                               0               0                0               0        0.0432974        -23.2216         0.211195         28.0148
75.45                          0               0                0               0         0.157731         25.7282         0.963856          117.75
                               0               0                0               0         0.963892          117.75         0.157823         25.7197
                               0               0                0               0         0.209732         26.5003         0.042543        -25.1787
                               0               0                0               0        0.0425063        -25.2244         0.209693          26.527
75.495                         0               0                0               0         0.157351         24.2181         0.964484         116.164
                               0               0                0               0         0.964515         116.163          0.15741         24.1995
                               0               0                0               0         0.208052         24.9378        0.0417309        -27.4385
                               0               0                0               0        0.0417078        -27.4171         0.207993         24.9692
75.54                          0               0                0               0          0.15726         22.6459         0.965152         114.512
                               0               0                0               0         0.965176         114.512         0.157279         22.6121
                               0               0                0               0         0.206161         23.3066        0.0408963        -29.9191
                               0               0                0               0        0.0408956        -29.8069         0.206074         23.3444
75.585                         0               0                0               0         0.157453          21.012         0.965852         112.798
                               0               0                0               0         0.965867         112.799         0.157429         20.9582
                               0               0                0               0         0.204037           21.61        0.0400332         -32.625
                               0               0                0               0        0.0400643        -32.4021         0.203915         21.6561
75.63                          0               0                0               0         0.157931         19.3173         0.966566         111.025
                               0               0                0               0         0.966573         111.027         0.157861          19.239
                               0               0                0               0         0.201658         19.8516        0.0391376         -35.561
                               0               0                0               0        0.0392095        -35.2128         0.201497         19.9078
75.675                         0               0                0               0         0.158693         17.5633         0.967278         109.195
                               0               0                0               0         0.967277         109.198          0.15858         17.4567
                               0               0                0               0         0.199003         18.0355        0.0382077        -38.7324
                               0               0                0               0        0.0383278        -38.2504         0.198799         18.1036
75.72                          0               0                0               0         0.159744         15.7517         0.967966         107.313
                               0               0                0               0          0.96796         107.316         0.159592         15.6142
                               0               0                0               0         0.196052         16.1664        0.0372441        -42.1455
                               0               0                0               0        0.0374171        -41.5282         0.195805         16.2478
75.765                         0               0                0               0         0.161087         13.8857          0.96861          105.38
                               0               0                0               0         0.968602         105.383         0.160906         13.7157
                               0               0                0               0         0.192788         14.2494        0.0362499        -45.8083
                               0               0                0               0        0.0364772        -45.0612         0.192498         14.3455
75.81                          0               0                0               0         0.162729         11.9689         0.969189         103.399
                               0               0                0               0         0.969184         103.402         0.162529         11.7667
                               0               0                0               0         0.189195         12.2901        0.0352307        -49.7312
                               0               0                0               0        0.0355097        -48.8663         0.188868         12.4016
75.855                         0               0                0               0         0.164672          10.006         0.969683         101.374
                               0               0                0               0         0.969688         101.377         0.164465         9.77347
                               0               0                0               0         0.185262         10.2945        0.0341944        -53.9269
                               0               0                0               0        0.0345186        -52.9623         0.184904         10.4218
75.9                           0               0                0               0          0.16692         8.00253         0.970077         99.3074
                               0               0                0               0         0.970099         99.3092          0.16672         7.74337
                               0               0                0               0         0.180983         8.26913        0.0331513        -58.4109
                               0               0                0               0        0.0335107        -57.3698         0.180603         8.41172
75.945                         0               0                0               0         0.169473         5.96486         0.970361         97.2013
                               0               0                0               0         0.970407         97.2021         0.169292         5.68429
                               0               0                0               0         0.176356         6.22053         0.032114         -63.201
                               0               0                0               0        0.0324959        -62.1109         0.175963         6.37721
75.99                          0               0                0               0         0.172325         3.89957         0.970528         95.0586
                               0               0                0               0         0.970608         95.0582         0.172175         3.60424
                               0               0                0               0         0.171383          4.1554        0.0310972        -68.3168
                               0               0                0               0        0.0314871        -67.2081          0.17099         4.32408
76.035                         0               0                0               0         0.175467         1.81329         0.970583         92.8822
                               0               0                0               0         0.970705         92.8804         0.175355         1.51088
                               0               0                0               0         0.166073         2.08027        0.0301177        -73.7782
                               0               0                0               0        0.0305009        -72.6832          0.16569         2.25795
76.08                          0               0                0               0         0.178881       -0.287836         0.970538         90.6746
                               0               0                0               0         0.970707         90.6716         0.178814       -0.589133
                               0               0                0               0         0.160437      0.00129321        0.0291943        -79.6038
                               0               0                0               0        0.0295573        -78.5549         0.160075        0.184174
76.125                         0               0                0               0         0.182543        -2.39861         0.970414         88.4388
                               0               0                0               0         0.970634         88.4348         0.182524        -2.69059
                               0               0                0               0         0.154493         -2.0759        0.0283475        -85.8071
                               0               0                0               0        0.0286794        -84.8353         0.154162        -1.89227
76.17                          0               0                0               0         0.186422         -4.5152         0.970241         86.1779
                               0               0                0               0         0.970514         86.1732         0.186449        -4.79018
                               0               0                0               0          0.14826        -4.14634        0.0275991        -92.3936
                               0               0                0               0        0.0278923        -91.5264         0.147967        -3.96676
76.215                         0               0                0               0          0.19048        -6.63549          0.97006         83.8953
                               0               0                0               0         0.970379         83.8906         0.190548        -6.88673
                               0               0                0               0         0.141761        -6.20569        0.0269716        -99.3563
                               0               0                0               0        0.0272226        -98.6148         0.141512        -6.03494
76.26                          0               0                0               0         0.194675        -8.75916         0.969914         81.5951
                               0               0                0               0         0.970268         81.5911         0.194776        -8.98118
                               0               0                0               0         0.135022        -8.25004         0.026487        -106.671
                               0               0                0               0        0.0266959        -106.068         0.134819        -8.09236
76.305                         0               0                0               0         0.198958        -10.8876         0.969844         79.2821
                               0               0                0               0         0.970217         79.2794         0.199083        -11.0765
                               0               0                0               0         0.128069        -10.2754        0.0261654        -114.296
                               0               0                0               0        0.0263352        -113.832         0.127911         -10.134
76.35                          0               0                0               0          0.20328        -13.0238         0.969884         76.9617
                               0               0                0               0         0.970252         76.9609         0.203419         -13.177
                               0               0                0               0          0.12093        -12.2767         0.026023        -122.167
                               0               0                0               0        0.0261581        -121.832         0.120812        -12.1533
76.395                         0               0                0               0         0.207591        -15.1717         0.970048         74.6401
                               0               0                0               0         0.970386         74.6414         0.207734        -15.2885
                               0               0                0               0          0.11363        -14.2468        0.0260706        -130.206
                               0               0                0               0        0.0261751        -129.978         0.113547        -14.1412
76.44                          0               0                0               0         0.211841         -17.336         0.970319         72.3237
                               0               0                0               0         0.970604         72.3269          0.21198        -17.4169
