! TOUCHSTONE file generated by CST MICROWAVE STUDIO
! Date and time: Sun Jun 20 22:37:05 2021
! Project name: HIPS_d_sweep.cst
! Parameters = {fmax=120; fmin=75; b=0.46; d=18.55; a=0.63; phi=0; theta=0}
! Header version: 2018
! Port assignment regex: !\s*Touchstone port\s*([0-9]+)\s*=\s*(CST MWS port|CST DS port)\s*([0-9]+|Zmin|Zmax)\s*\(\"(.*)\"\)(\s*mode\s*([0-9]+))?.*
! Touchstone port assignment:
! Touchstone port 1 = CST MWS port Zmin ("") mode 1
! Touchstone port 2 = CST MWS port Zmin ("") mode 2
! Touchstone port 3 = CST MWS port Zmax ("") mode 1
! Touchstone port 4 = CST MWS port Zmax ("") mode 2
! S-Parameters are not renormalized. Unphysical impedance of 0 will be written to the file.
# GHz S MA R 0
75                             0               0                0               0         0.278964        -85.0217         0.951667        -174.002
                               0               0                0               0         0.951675        -174.011         0.278976        -85.0035
                               0               0                0               0         0.117889         90.5838        0.0502519        -126.905
                               0               0                0               0        0.0502887        -126.892         0.117883         90.6038
75.045                         0               0                0               0         0.281816        -85.7228         0.951237        -174.645
                               0               0                0               0         0.951221        -174.652         0.281833        -85.7086
                               0               0                0               0         0.119064          90.041        0.0506815        -128.455
                               0               0                0               0        0.0507081        -128.444         0.119058         90.0607
75.09                          0               0                0               0         0.284396        -86.4443         0.950582         -175.34
                               0               0                0               0         0.950554        -175.346         0.284415        -86.4327
                               0               0                0               0         0.120391         89.4362        0.0510109        -130.094
                               0               0                0               0        0.0510306         -130.08         0.120385         89.4558
75.135                         0               0                0               0         0.286676        -87.1922         0.949742        -176.089
                               0               0                0               0         0.949715        -176.095         0.286692        -87.1819
                               0               0                0               0         0.121879         88.7745        0.0512413        -131.839
                               0               0                0               0        0.0512564        -131.821         0.121873         88.7943
75.18                          0               0                0               0         0.288632        -87.9727         0.948765        -176.895
                               0               0                0               0          0.94875        -176.901         0.288642        -87.9631
                               0               0                0               0         0.123532         88.0613        0.0513775        -133.712
                               0               0                0               0        0.0513893        -133.686         0.123527         88.0814
75.225                         0               0                0               0         0.290249        -88.7923           0.9477        -177.758
                               0               0                0               0         0.947705        -177.765         0.290248        -88.7828
                               0               0                0               0         0.125354         87.3019        0.0514276        -135.728
                               0               0                0               0        0.0514367        -135.695         0.125349         87.3223
75.27                          0               0                0               0         0.291517        -89.6571         0.946598        -178.682
                               0               0                0               0         0.946629        -178.688         0.291502        -89.6475
                               0               0                0               0         0.127344         86.5009        0.0514025        -137.905
                               0               0                0               0        0.0514093        -137.863         0.127339         86.5217
75.315                         0               0                0               0         0.292436        -90.5726         0.945509        -179.665
                               0               0                0               0         0.945571        -179.671         0.292404        -90.5631
                               0               0                0               0         0.129501         85.6628        0.0513158        -140.254
                               0               0                0               0        0.0513204        -140.205         0.129495         85.6839
75.36                          0               0                0               0         0.293011        -91.5435         0.944481         179.293
                               0               0                0               0         0.944575         179.287          0.29296        -91.5345
                               0               0                0               0         0.131819         84.7908        0.0511826        -142.785
                               0               0                0               0        0.0511851        -142.729         0.131814         84.8121
75.405                         0               0                0               0         0.293255        -92.5736         0.943557         178.193
                               0               0                0               0         0.943681         178.187         0.293184        -92.5655
                               0               0                0               0         0.134293         83.8877        0.0510189        -145.504
                               0               0                0               0        0.0510199        -145.444         0.134287         83.9091
75.45                          0               0                0               0         0.293186        -93.6651         0.942774         177.035
                               0               0                0               0         0.942927         177.031         0.293095        -93.6585
                               0               0                0               0         0.136914         82.9553        0.0508413        -148.412
                               0               0                0               0        0.0508412         -148.35         0.136908         82.9768
75.495                         0               0                0               0         0.292824        -94.8191         0.942164         175.823
                               0               0                0               0         0.942339         175.821         0.292716        -94.8147
                               0               0                0               0         0.139672         81.9948        0.0506655        -151.509
                               0               0                0               0        0.0506653        -151.447         0.139667         82.0161
75.54                          0               0                0               0         0.292193        -96.0351         0.941749         174.559
                               0               0                0               0         0.941939         174.558         0.292071        -96.0335
                               0               0                0               0         0.142557         81.0066        0.0505065        -154.788
                               0               0                0               0        0.0505073        -154.729         0.142551         81.0275
75.585                         0               0                0               0          0.29132        -97.3115         0.941543         173.246
                               0               0                0               0         0.941741         173.248         0.291185        -97.3132
                               0               0                0               0         0.145555         79.9906        0.0503778        -158.241
                               0               0                0               0        0.0503805        -158.185          0.14555          80.011
75.63                          0               0                0               0         0.290227        -98.6454          0.94155         171.887
                               0               0                0               0         0.941749         171.891         0.290084        -98.6508
                               0               0                0               0         0.148654         78.9462        0.0502907        -161.854
                               0               0                0               0        0.0502965        -161.805         0.148649          78.966
75.675                         0               0                0               0         0.288938        -100.033         0.941769         170.485
                               0               0                0               0         0.941962         170.492         0.288791        -100.042
                               0               0                0               0         0.151838         77.8726        0.0502546        -165.614
                               0               0                0               0        0.0502644        -165.571         0.151833         77.8918
75.72                          0               0                0               0         0.287476        -101.469         0.942189         169.045
                               0               0                0               0          0.94237         169.054         0.287328        -101.482
                               0               0                0               0         0.155093         76.7688        0.0502764        -169.503
                               0               0                0               0        0.0502909        -169.468         0.155088         76.7872
75.765                         0               0                0               0         0.285859        -102.948         0.942793         167.569
                               0               0                0               0         0.942957          167.58         0.285714        -102.966
                               0               0                0               0         0.158401         75.6337        0.0503606        -173.502
                               0               0                0               0        0.0503801        -173.475         0.158396         75.6514
75.81                          0               0                0               0         0.284106        -104.464         0.943557          166.06
                               0               0                0               0         0.943699         166.074         0.283967        -104.486
                               0               0                0               0         0.161745         74.4664        0.0505094        -177.591
                               0               0                0               0        0.0505338        -177.572         0.161741         74.4834
75.855                         0               0                0               0         0.282233        -106.011         0.944453         164.524
                               0               0                0               0         0.944572          164.54         0.282101        -106.038
                               0               0                0               0         0.165108         73.2661        0.0507227         178.249
                               0               0                0               0        0.0507516         178.261         0.165104         73.2823
75.9                           0               0                0               0         0.280252        -107.583         0.945448         162.962
                               0               0                0               0         0.945542          162.98          0.28013        -107.614
                               0               0                0               0          0.16847         72.0322        0.0509983         174.039
                               0               0                0               0         0.051031         174.043         0.168466         72.0476
75.945                         0               0                0               0         0.278176        -109.173         0.946507         161.378
                               0               0                0               0         0.946578         161.398         0.278065        -109.207
                               0               0                0               0         0.171812         70.7644        0.0513323         169.797
                               0               0                0               0        0.0513675         169.795         0.171808          70.779
75.99                          0               0                0               0         0.276017        -110.776         0.947595         159.775
                               0               0                0               0         0.947642         159.797         0.275917        -110.813
                               0               0                0               0         0.175114         69.4628        0.0517191         165.542
                               0               0                0               0        0.0517556         165.534          0.17511         69.4768
76.035                         0               0                0               0         0.273784        -112.385         0.948673         158.157
                               0               0                0               0           0.9487          158.18         0.273695        -112.425
                               0               0                0               0         0.178354          68.128        0.0521521         161.291
                               0               0                0               0        0.0521882         161.277          0.17835         68.1413
76.08                          0               0                0               0         0.271486        -113.995         0.949705         156.525
                               0               0                0               0         0.949715         156.549         0.271408        -114.038
                               0               0                0               0         0.181513         66.7608        0.0526238         157.059
                               0               0                0               0        0.0526577          157.04         0.181509         66.7736
76.125                         0               0                0               0         0.269135          -115.6         0.950654         154.883
                               0               0                0               0         0.950651         154.908         0.269066        -115.646
                               0               0                0               0         0.184571         65.3627        0.0531259         152.859
                               0               0                0               0         0.053156         152.836         0.184566          65.375
76.17                          0               0                0               0         0.266737        -117.197         0.951487         153.234
                               0               0                0               0         0.951475         153.259         0.266677        -117.244
                               0               0                0               0         0.187506         63.9354        0.0536503         148.704
                               0               0                0               0        0.0536748         148.676         0.187501         63.9474
76.215                         0               0                0               0         0.264302         -118.78         0.952172         151.578
                               0               0                0               0         0.952156         151.604         0.264251        -118.829
                               0               0                0               0           0.1903         62.4813        0.0541885         144.603
                               0               0                0               0        0.0542059         144.572         0.190294          62.493
76.26                          0               0                0               0          0.26184        -120.346         0.952682          149.92
                               0               0                0               0         0.952666         149.946         0.261795        -120.397
                               0               0                0               0         0.192934         61.0028        0.0547327         140.565
                               0               0                0               0        0.0547415         140.531         0.192928         61.0144
76.305                         0               0                0               0         0.259358        -121.892          0.95299         148.262
                               0               0                0               0         0.952978         148.287         0.259318        -121.944
                               0               0                0               0         0.195392         59.5031        0.0552752         136.598
                               0               0                0               0        0.0552743         136.562         0.195384         59.5146
76.35                          0               0                0               0         0.256866        -123.415         0.953077         146.604
                               0               0                0               0         0.953072         146.629         0.256831        -123.468
                               0               0                0               0         0.197657         57.9855        0.0558094         132.708
                               0               0                0               0        0.0557978          132.67         0.197649          57.997
76.395                         0               0                0               0         0.254373        -124.912         0.952924          144.95
                               0               0                0               0          0.95293         144.974         0.254341        -124.965
                               0               0                0               0         0.199717         56.4534         0.056329         128.899
                               0               0                0               0        0.0563062          128.86         0.199708          56.465
76.44                          0               0                0               0         0.251887        -126.382          0.95252         143.301
                               0               0                0               0         0.952538         143.325         0.251857        -126.435
