! TOUCHSTONE file generated by CST MICROWAVE STUDIO
! Date and time: Sun Jun 20 22:37:48 2021
! Project name: HIPS_d_sweep.cst
! Parameters = {fmax=120; fmin=75; b=0.46; d=23; a=0.63; phi=0; theta=0}
! Header version: 2018
! Port assignment regex: !\s*Touchstone port\s*([0-9]+)\s*=\s*(CST MWS port|CST DS port)\s*([0-9]+|Zmin|Zmax)\s*\(\"(.*)\"\)(\s*mode\s*([0-9]+))?.*
! Touchstone port assignment:
! Touchstone port 1 = CST MWS port Zmin ("") mode 1
! Touchstone port 2 = CST MWS port Zmin ("") mode 2
! Touchstone port 3 = CST MWS port Zmax ("") mode 1
! Touchstone port 4 = CST MWS port Zmax ("") mode 2
! S-Parameters are not renormalized. Unphysical impedance of 0 will be written to the file.
# GHz S MA R 0
75                             0               0                0               0        0.0232414        -48.5483         0.999679         41.4935
                               0               0                0               0          0.99963          41.519         0.023348        -48.7555
                               0               0                0               0       0.00922998         132.862       0.00535465         -49.149
                               0               0                0               0       0.00525391        -50.0601         0.009222         132.825
75.045                         0               0                0               0        0.0192215        -49.7757         0.999776         40.7305
                               0               0                0               0                1         40.7169        0.0193057        -48.7787
                               0               0                0               0        0.0118074         132.005       0.00579037        -50.0337
                               0               0                0               0       0.00569668        -50.4229         0.011795         131.969
75.09                          0               0                0               0         0.015605        -50.9415         0.999782         39.8832
                               0               0                0               0                1         39.8527        0.0157054        -49.0529
                               0               0                0               0        0.0146747         130.935       0.00610228        -51.0262
                               0               0                0               0       0.00601811          -51.12        0.0146621         130.898
75.135                         0               0                0               0        0.0124032        -52.0255         0.999722         38.9535
                               0               0                0               0                1         38.9225        0.0125451         -49.575
                               0               0                0               0        0.0178368         129.764        0.0062844        -52.1398
                               0               0                0               0       0.00621061        -52.0761         0.017827         129.726
75.18                          0               0                0               0       0.00962354        -52.9974         0.999615         37.9434
                               0               0                0               0                1         37.9228       0.00981958        -50.3428
                               0               0                0               0        0.0212963         128.536       0.00633225         -53.383
                               0               0                0               0       0.00626852        -53.2452         0.021291         128.499
75.225                         0               0                0               0       0.00726944        -53.8126         0.999474         36.8553
                               0               0                0               0                1         36.8513       0.00752124        -51.3564
                               0               0                0               0        0.0250529         127.272       0.00624283        -54.7617
                               0               0                0               0       0.00618809        -54.5979        0.0250527         127.236
75.27                          0               0                0               0       0.00534037        -54.4108          0.99931         35.6914
                               0               0                0               0         0.999765         35.7061       0.00564108        -52.6181
                               0               0                0               0        0.0291035         125.975       0.00601471         -56.281
                               0               0                0               0       0.00596745        -56.1153        0.0291081         125.941
75.315                         0               0                0               0         0.003832        -54.7328         0.999128         34.4541
                               0               0                0               0         0.999332         34.4864       0.00416918        -54.1311
                               0               0                0               0        0.0334426         124.644       0.00564799        -57.9467
                               0               0                0               0       0.00560656        -57.7866        0.0334511         124.612
75.36                          0               0                0               0       0.00273623        -54.8096          0.99893         33.1457
                               0               0                0               0         0.998914         33.1921       0.00309486        -55.8855
                               0               0                0               0        0.0380617         123.274       0.00514427        -59.7686
                               0               0                0               0       0.00510715        -59.6085        0.0380727         123.245
75.405                         0               0                0               0       0.00204091        -55.0198         0.998717         31.7687
                               0               0                0               0          0.99854         31.8242       0.00240665        -57.8207
                               0               0                0               0          0.04295         121.859       0.00450666        -61.7662
                               0               0                0               0       0.00447254        -61.5885         0.042962         121.832
75.45                          0               0                0               0       0.00173028        -56.3078         0.998484         30.3257
                               0               0                0               0         0.998225         30.3844       0.00209209        -59.7866
                               0               0                0               0        0.0480937         120.395       0.00373966        -63.9845
                               0               0                0               0       0.00370758        -63.7559        0.0481051         120.371
75.495                         0               0                0               0       0.00178787        -59.2895         0.998228         28.8193
                               0               0                0               0         0.997969         28.8754       0.00213757        -61.6369
                               0               0                0               0        0.0534765         118.878       0.00284914        -66.5449
                               0               0                0               0       0.00281846        -66.2004        0.0534861         118.857
75.54                          0               0                0               0       0.00219813        -63.0609          0.99794         27.2521
                               0               0                0               0         0.997755         27.3005       0.00252812        -63.4117
                               0               0                0               0        0.0590796         117.306       0.00184243        -69.8854
                               0               0                0               0        0.0018127        -69.2588        0.0590865         117.287
75.585                         0               0                0               0       0.00294274        -66.4887         0.997615          25.627
                               0               0                0               0         0.997553          25.664       0.00324715        -65.2563
                               0               0                0               0        0.0648817         115.678      0.000730695        -77.3486
                               0               0                0               0      0.000700405        -75.6103        0.0648853         115.661
75.63                          0               0                0               0       0.00399964        -69.3114         0.997243         23.9468
                               0               0                0               0         0.997329         23.9706       0.00427629         -67.242
                               0               0                0               0        0.0708595         113.992      0.000506743         121.589
                               0               0                0               0      0.000526041         117.827        0.0708599         113.978
75.675                         0               0                0               0       0.00534511        -71.6934         0.996817         22.2148
                               0               0                0               0         0.997044         22.2256        0.0055954        -69.3609
                               0               0                0               0        0.0769878         112.252       0.00180565         110.149
                               0               0                0               0       0.00182696         109.059        0.0769856         112.239
75.72                          0               0                0               0       0.00695485        -73.8218          0.99633          20.434
                               0               0                0               0         0.996662         20.4343       0.00718282        -71.5785
                               0               0                0               0        0.0832404         110.459       0.00319269          106.18
                               0               0                0               0       0.00321219         105.522        0.0832364         110.448
75.765                         0               0                0               0       0.00880444        -75.8222         0.995778         18.6079
                               0               0                0               0          0.99616         18.6018       0.00901566        -73.8594
                               0               0                0               0        0.0895901         108.616       0.00465126         103.047
                               0               0                0               0       0.00466829         102.576        0.0895854         108.606
75.81                          0               0                0               0        0.0108696        -77.7705         0.995156         16.7403
                               0               0                0               0         0.995527         16.7327        0.0110703        -76.1736
                               0               0                0               0        0.0960096         106.728       0.00617047         100.141
                               0               0                0               0        0.0061848         99.7818        0.0960057         106.719
75.855                         0               0                0               0        0.0131264        -79.7129         0.994465          14.835
                               0               0                0               0         0.994766         14.8306        0.0133228        -78.4968
                               0               0                0               0         0.102472         104.798          0.00774         97.3064
                               0               0                0               0        0.0077516         97.0245          0.10247         104.791
75.9                           0               0                0               0        0.0155522        -81.6789         0.993708         12.8961
                               0               0                0               0         0.993902         12.8982        0.0157492        -80.8095
                               0               0                0               0         0.108952         102.833       0.00934982         94.4885
                               0               0                0               0       0.00935887         94.2633         0.108953         102.826
75.945                         0               0                0               0        0.0181259        -83.6891         0.992893         10.9282
                               0               0                0               0         0.992972         10.9376        0.0183264        -83.0965
                               0               0                0               0         0.115425         100.837        0.0109903         91.6637
                               0               0                0               0        0.0109972         91.4807         0.115429          100.83
75.99                          0               0                0               0        0.0208295        -85.7592         0.992031           8.936
                               0               0                0               0         0.992029         8.95012        0.0210317        -85.3468
                               0               0                0               0         0.121868         98.8157        0.0126525         88.8212
                               0               0                0               0        0.0126578         88.6689         0.121875         98.8092
76.035                         0               0                0               0        0.0236498         -87.901         0.991141         6.92431
                               0               0                0               0         0.991135         6.93763        0.0238432         -87.553
                               0               0                0               0          0.12826         96.7735        0.0143278         85.9565
                               0               0                0               0        0.0143325          85.825         0.128268         96.7674
76.08                          0               0                0               0        0.0265817        -90.1222         0.990244         4.89807
                               0               0                0               0         0.990348         4.90273        0.0267399        -89.7118
                               0               0                0               0         0.134582         94.7157        0.0160087         83.0684
                               0               0                0               0        0.0160142         82.9493          0.13459           94.71
76.125                         0               0                0               0        0.0296334        -92.4205         0.989369         2.86208
                               0               0                0               0         0.989718         2.84932        0.0297014        -91.8232
                               0               0                0               0         0.140813         92.6467        0.0176885         80.1587
                               0               0                0               0        0.0176967         80.0454         0.140819         92.6418
76.17                          0               0                0               0        0.0328327        -94.7682         0.988546        0.820735
                               0               0                0               0         0.989268        0.782678        0.0327073        -93.8909
                               0               0                0               0         0.146936          90.571        0.0193613         77.2317
                               0               0                0               0        0.0193748         77.1208         0.146937         90.5668
76.215                         0               0                0               0        0.0362265        -97.0801         0.987803        -1.22228
                               0               0                0               0         0.988988        -1.29102        0.0357378        -95.9221
                               0               0                0               0         0.152931         88.4924        0.0210218         74.2953
                               0               0                0               0        0.0210442         74.1877         0.152925         88.4888
76.26                          0               0                0               0        0.0398406        -99.1765         0.987165        -3.26427
                               0               0                0               0          0.98883        -3.36541        0.0387726        -97.9266
                               0               0                0               0         0.158776          86.414         0.022665         71.3618
                               0               0                0               0        0.0226997         71.2643         0.158761          86.411
76.305                         0               0                0               0        0.0435567         -100.84         0.986637        -5.30368
                               0               0                0               0         0.988719         -5.4347         0.041792        -99.9167
                               0               0                0               0         0.164448         84.3386        0.0242847         68.4483
                               0               0                0               0        0.0243336         68.3741         0.164425          84.336
76.35                          0               0                0               0        0.0470337        -102.093         0.986202           -7.34
                               0               0                0               0         0.988557        -7.49427        0.0447761        -101.907
                               0               0                0               0         0.169921         82.2681         0.025871         65.5758
                               0               0                0               0        0.0259318         65.5417          0.16989         82.2655
76.395                         0               0                0               0        0.0499932        -103.337          0.98581        -9.37333
                               0               0                0               0         0.988244        -9.54082         0.047706        -103.911
                               0               0                0               0         0.175166         80.2037         0.027408         62.7648
                               0               0                0               0        0.0274722         62.7846         0.175131         80.2007
76.44                          0               0                0               0        0.0525131         -104.93         0.985378        -11.4037
                               0               0                0               0         0.987688        -11.5722        0.0505636        -105.946
