! TOUCHSTONE file generated by CST MICROWAVE STUDIO
! Date and time: Sun Jun 20 22:37:09 2021
! Project name: HIPS_d_sweep.cst
! Parameters = {fmax=120; fmin=75; b=0.46; d=18.95; a=0.63; phi=0; theta=0}
! Header version: 2018
! Port assignment regex: !\s*Touchstone port\s*([0-9]+)\s*=\s*(CST MWS port|CST DS port)\s*([0-9]+|Zmin|Zmax)\s*\(\"(.*)\"\)(\s*mode\s*([0-9]+))?.*
! Touchstone port assignment:
! Touchstone port 1 = CST MWS port Zmin ("") mode 1
! Touchstone port 2 = CST MWS port Zmin ("") mode 2
! Touchstone port 3 = CST MWS port Zmax ("") mode 1
! Touchstone port 4 = CST MWS port Zmax ("") mode 2
! S-Parameters are not renormalized. Unphysical impedance of 0 will be written to the file.
# GHz S MA R 0
75                             0               0                0               0         0.242107        -128.016         0.946479         140.687
                               0               0                0               0         0.946483         140.701         0.242099        -128.007
                               0               0                0               0         0.205593         52.4649        0.0574467         116.212
                               0               0                0               0        0.0575211         116.071         0.205675         52.4407
75.045                         0               0                0               0         0.245122        -128.708         0.946734         140.088
                               0               0                0               0         0.946629         140.092         0.245158        -128.779
                               0               0                0               0         0.205438         51.9112        0.0582541          115.34
                               0               0                0               0        0.0583586         115.193         0.205497         51.8868
75.09                          0               0                0               0         0.247905        -129.423         0.946536         139.417
                               0               0                0               0         0.946395         139.416         0.247997        -129.546
                               0               0                0               0         0.205263         51.2968        0.0590376          114.35
                               0               0                0               0        0.0591589         114.202         0.205309         51.2717
75.135                         0               0                0               0         0.250436        -130.167          0.94601         138.675
                               0               0                0               0         0.945882         138.672         0.250576        -130.314
                               0               0                0               0          0.20508         50.6217        0.0597994         113.235
                               0               0                0               0        0.0599251         113.091         0.205121         50.5957
75.18                          0               0                0               0         0.252695        -130.945         0.945271         137.861
                               0               0                0               0         0.945185          137.86         0.252862        -131.092
                               0               0                0               0           0.2049         49.8868        0.0605422         111.991
                               0               0                0               0        0.0606613         111.854         0.204944           49.86
75.225                         0               0                0               0         0.254671        -131.761          0.94442         136.979
                               0               0                0               0         0.944388         136.981         0.254829         -131.89
                               0               0                0               0         0.204733         49.0932        0.0612691         110.617
                               0               0                0               0        0.0613724         110.487         0.204784         49.0659
75.27                          0               0                0               0         0.256354        -132.621         0.943542         136.031
                               0               0                0               0         0.943562         136.039         0.256462        -132.717
                               0               0                0               0         0.204584         48.2426        0.0619835          109.11
                               0               0                0               0        0.0620642         108.988         0.204646         48.2152
75.315                         0               0                0               0         0.257741        -133.529         0.942704          135.02
                               0               0                0               0         0.942769         135.035         0.257757        -133.584
                               0               0                0               0         0.204455         47.3371        0.0626884         107.471
                               0               0                0               0        0.0627422         107.355         0.204529         47.3099
75.36                          0               0                0               0         0.258836        -134.487          0.94196          133.95
                               0               0                0               0         0.942056         133.972         0.258722          -134.5
                               0               0                0               0         0.204346         46.3786        0.0633869         105.701
                               0               0                0               0         0.063412         105.591         0.204434         46.3519
75.405                         0               0                0               0         0.259643        -135.499         0.941345         132.825
                               0               0                0               0         0.941458         132.853         0.259374         -135.47
                               0               0                0               0         0.204255         45.3694        0.0640813         103.805
                               0               0                0               0        0.0640782         103.698         0.204356         45.3433
75.45                          0               0                0               0         0.260174        -136.567         0.940886         131.649
                               0               0                0               0         0.941001         131.682         0.259739        -136.503
                               0               0                0               0         0.204176         44.3114        0.0647733         101.786
                               0               0                0               0        0.0647448         101.682         0.204289          44.286
75.495                         0               0                0               0         0.260441         -137.69         0.940593         130.424
                               0               0                0               0         0.940699         130.463         0.259849          -137.6
                               0               0                0               0         0.204101         43.2065        0.0654638         99.6502
                               0               0                0               0        0.0654144         99.5483         0.204223         43.1818
75.54                          0               0                0               0         0.260461        -138.868         0.940469         129.155
                               0               0                0               0         0.940558         129.197         0.259738        -138.763
                               0               0                0               0          0.20402         42.0566        0.0661527          97.406
                               0               0                0               0        0.0660884         97.3052         0.204149         42.0324
75.585                         0               0                0               0         0.260249        -140.099         0.940508         127.845
                               0               0                0               0         0.940576         127.888          0.25944        -139.992
                               0               0                0               0         0.203923         40.8634        0.0668391         95.0615
                               0               0                0               0        0.0667666         94.9611         0.204054         40.8394
75.63                          0               0                0               0         0.259824        -141.383         0.940697         126.497
                               0               0                0               0         0.940745         126.539         0.258989        -141.283
                               0               0                0               0         0.203795         39.6285        0.0675209         92.6257
                               0               0                0               0        0.0674473         92.5253         0.203925         39.6044
75.675                         0               0                0               0         0.259204        -142.715         0.941019         125.114
                               0               0                0               0         0.941053         125.152         0.258414        -142.634
                               0               0                0               0         0.203621         38.3534        0.0681955         90.1087
                               0               0                0               0        0.0681277         90.0079         0.203747         38.3289
75.72                          0               0                0               0         0.258407        -144.092         0.941453         123.697
                               0               0                0               0         0.941482         123.731         0.257742        -144.037
                               0               0                0               0         0.203388         37.0395        0.0688593         87.5206
                               0               0                0               0        0.0688035          87.419         0.203505         37.0144
75.765                         0               0                0               0          0.25745         -145.51         0.941973         122.249
                               0               0                0               0         0.942013         122.276         0.256996        -145.486
                               0               0                0               0         0.203077         35.6886        0.0695087         84.8719
                               0               0                0               0        0.0694698         84.7689         0.203181         35.6627
75.81                          0               0                0               0         0.256349        -146.964         0.942557         120.771
                               0               0                0               0         0.942623         120.791         0.256192        -146.973
                               0               0                0               0         0.202672         34.3022        0.0701394         82.1729
                               0               0                0               0        0.0701209         82.0678         0.202761         34.2756
75.855                         0               0                0               0          0.25512        -148.451         0.943178         119.266
                               0               0                0               0         0.943291         119.278         0.255344        -148.488
                               0               0                0               0         0.202156         32.8823        0.0707472         79.4339
                               0               0                0               0        0.0707508         79.3258         0.202226         32.8552
75.9                           0               0                0               0         0.253779        -149.965         0.943816         117.733
                               0               0                0               0         0.943995         117.737         0.254457         -150.02
                               0               0                0               0         0.201512         31.4311        0.0713284         76.6644
                               0               0                0               0        0.0713536         76.5524         0.201562         31.4037
75.945                         0               0                0               0         0.252339        -151.503         0.944451         116.175
                               0               0                0               0         0.944716         116.171         0.253523        -151.556
                               0               0                0               0         0.200723         29.9511        0.0718792         73.8736
                               0               0                0               0        0.0719238         73.7568         0.200752          29.924
75.99                          0               0                0               0         0.250814         -153.06         0.945071         114.591
                               0               0                0               0         0.945435          114.58         0.252513        -153.082
                               0               0                0               0         0.199774         28.4452        0.0723966         71.0697
                               0               0                0               0        0.0724562         70.9474         0.199783         28.4191
76.035                         0               0                0               0         0.249215        -154.632         0.945672         112.983
                               0               0                0               0         0.946139         112.968         0.251357        -154.584
                               0               0                0               0         0.198651         26.9169        0.0728781         68.2599
                               0               0                0               0        0.0729468         68.1319         0.198644         26.8923
76.08                          0               0                0               0         0.247556        -156.217         0.946258         111.352
                               0               0                0               0         0.946822         111.334         0.249941        -156.059
                               0               0                0               0         0.197343           25.37         0.073322         65.4506
                               0               0                0               0        0.0733925         65.3171         0.197324         25.3474
76.125                         0               0                0               0         0.245847         -157.81         0.946845         109.698
                               0               0                0               0         0.947481         109.682          0.24814        -157.529
                               0               0                0               0         0.195842         23.8087        0.0737269         62.6469
                               0               0                0               0        0.0737914         62.5087         0.195818         23.7885
76.17                          0               0                0               0         0.244099        -159.412         0.947457         108.024
                               0               0                0               0         0.948124         108.012         0.245934         -159.04
                               0               0                0               0         0.194145         22.2375         0.074092         59.8529
                               0               0                0               0        0.0741427         59.7114         0.194123         22.2195
76.215                         0               0                0               0         0.242322        -161.019         0.948127         106.333
                               0               0                0               0         0.948763         106.327         0.243498        -160.636
                               0               0                0               0         0.192251         20.6608         0.074417         57.0714
                               0               0                0               0        0.0744469         56.9285         0.192242         20.6443
76.26                          0               0                0               0         0.240526        -162.633         0.948882         104.629
                               0               0                0               0         0.949418         104.631         0.241092        -162.315
                               0               0                0               0         0.190168         19.0828        0.0747016         54.3044
                               0               0                0               0        0.0747053         54.1622         0.190179         19.0664
76.305                         0               0                0               0         0.238721        -164.253          0.94974         102.919
                               0               0                0               0         0.950111         102.927         0.238869        -164.042
                               0               0                0               0         0.187907         17.5068        0.0749458          51.553
                               0               0                0               0        0.0749202         51.4133         0.187945         17.4884
76.35                          0               0                0               0         0.236917         -165.88         0.950699         101.208
                               0               0                0               0         0.950861         101.221         0.236844        -165.778
                               0               0                0               0         0.185483         15.9345        0.0751493         48.8176
                               0               0                0               0        0.0750944         48.6817         0.185551         15.9122
76.395                         0               0                0               0         0.235124        -167.517         0.951729         99.5033
                               0               0                0               0          0.95168         99.5187         0.234967        -167.498
                               0               0                0               0         0.182916         14.3659        0.0753118         46.0984
                               0               0                0               0        0.0752308         45.9665         0.183011         14.3382
76.44                          0               0                0               0         0.233353        -169.166         0.952779         97.8104
                               0               0                0               0         0.952566          97.825         0.233187        -169.193
