! TOUCHSTONE file generated by CST MICROWAVE STUDIO
! Date and time: Sun Jun 20 22:37:35 2021
! Project name: HIPS_d_sweep.cst
! Parameters = {fmax=120; fmin=75; b=0.46; d=21.75; a=0.63; phi=0; theta=0}
! Header version: 2018
! Port assignment regex: !\s*Touchstone port\s*([0-9]+)\s*=\s*(CST MWS port|CST DS port)\s*([0-9]+|Zmin|Zmax)\s*\(\"(.*)\"\)(\s*mode\s*([0-9]+))?.*
! Touchstone port assignment:
! Touchstone port 1 = CST MWS port Zmin ("") mode 1
! Touchstone port 2 = CST MWS port Zmin ("") mode 2
! Touchstone port 3 = CST MWS port Zmax ("") mode 1
! Touchstone port 4 = CST MWS port Zmax ("") mode 2
! S-Parameters are not renormalized. Unphysical impedance of 0 will be written to the file.
# GHz S MA R 0
75                             0               0                0               0        0.0591299        -86.8826         0.987782        -177.336
                               0               0                0               0         0.987621        -177.359        0.0592077        -86.7082
                               0               0                0               0         0.145091         92.6384       0.00936324         157.806
                               0               0                0               0       0.00933942         158.262         0.145074         92.6196
75.045                         0               0                0               0        0.0628054        -87.5657         0.987362        -178.051
                               0               0                0               0         0.987206        -178.076        0.0629653         -87.486
                               0               0                0               0         0.146534         91.9309       0.00995274         159.746
                               0               0                0               0       0.00990005         160.181          0.14652         91.9101
75.09                          0               0                0               0        0.0661503        -88.3782         0.986886        -178.841
                               0               0                0               0         0.986734        -178.867        0.0663194        -88.3107
                               0               0                0               0          0.14822         91.1445        0.0105106         160.581
                               0               0                0               0        0.0104579         160.978         0.148208         91.1239
75.135                         0               0                0               0        0.0691312        -89.2842         0.986372        -179.704
                               0               0                0               0         0.986223         -179.73        0.0692669         -89.185
                               0               0                0               0         0.150132         90.2839        0.0110523          160.43
                               0               0                0               0        0.0110141         160.809         0.150121         90.2645
75.18                          0               0                0               0        0.0717246        -90.2581         0.985834          179.36
                               0               0                0               0         0.985687         179.335        0.0718086        -90.1101
                               0               0                0               0         0.152257         89.3528        0.0115942         159.424
                               0               0                0               0        0.0115736         159.813         0.152246         89.3351
75.225                         0               0                0               0        0.0739172        -91.2827         0.985284         178.353
                               0               0                0               0         0.985139         178.329        0.0739489        -91.0864
                               0               0                0               0         0.154577         88.3541        0.0121507         157.698
                               0               0                0               0        0.0121431         158.112         0.154567          88.338
75.27                          0               0                0               0        0.0757042        -92.3466         0.984727         177.276
                               0               0                0               0         0.984586         177.254        0.0756953        -92.1133
                               0               0                0               0         0.157078         87.2901        0.0127324         155.377
                               0               0                0               0        0.0127301         155.816         0.157069         87.2752
75.315                         0               0                0               0        0.0770895        -93.4435         0.984169         176.132
                               0               0                0               0         0.984034          176.11        0.0770582        -93.1894
                               0               0                0               0         0.159743         86.1626        0.0133462         152.574
                               0               0                0               0        0.0133416         153.024         0.159736         86.1486
75.36                          0               0                0               0        0.0780834          -94.57         0.983614         174.922
                               0               0                0               0         0.983486         174.899        0.0780503        -94.3128
                               0               0                0               0         0.162557         84.9732        0.0139959         149.385
                               0               0                0               0        0.0139836         149.824         0.162552         84.9596
75.405                         0               0                0               0        0.0787023        -95.7254         0.983061         173.648
                               0               0                0               0         0.982943         173.625        0.0786865        -95.4808
                               0               0                0               0         0.165502         83.7234        0.0146831         145.888
                               0               0                0               0        0.0146605         146.297           0.1655         83.7098
75.45                          0               0                0               0         0.078967        -96.9103          0.98251         172.313
                               0               0                0               0         0.982404         172.289        0.0789831        -96.6906
                               0               0                0               0          0.16856         82.4145        0.0154075         142.148
                               0               0                0               0         0.015375         142.513         0.168562         82.4006
75.495                         0               0                0               0        0.0789014        -98.1265         0.981959          170.92
                               0               0                0               0         0.981867         170.894         0.078958        -97.9386
                               0               0                0               0         0.171713          81.048        0.0161682         138.218
                               0               0                0               0        0.0161281         138.534         0.171719         81.0338
75.54                          0               0                0               0        0.0785314        -99.3762         0.981408          169.47
                               0               0                0               0          0.98133         169.443          0.07863        -99.2212
                               0               0                0               0         0.174941         79.6256        0.0169636         134.143
                               0               0                0               0        0.0169192         134.414          0.17495          79.611
75.585                         0               0                0               0        0.0778837        -100.661         0.980853         167.966
                               0               0                0               0         0.980791         167.938        0.0780185        -100.534
                               0               0                0               0         0.178223         78.1491        0.0177919         129.961
                               0               0                0               0        0.0177463         130.196         0.178236         78.1342
75.63                          0               0                0               0        0.0769852        -101.984         0.980295         166.413
                               0               0                0               0         0.980247         166.384        0.0771436        -101.874
                               0               0                0               0         0.181537         76.6207        0.0186511         125.706
                               0               0                0               0        0.0186063          125.92         0.181554         76.6057
75.675                         0               0                0               0        0.0758617        -103.346         0.979731         164.812
                               0               0                0               0         0.979698         164.783        0.0760254        -103.234
                               0               0                0               0         0.184863         75.0427        0.0195393         121.411
                               0               0                0               0        0.0194953         121.614         0.184882          75.028
75.72                          0               0                0               0        0.0745374        -104.747         0.979163         163.166
                               0               0                0               0         0.979145         163.138        0.0746844        -104.612
                               0               0                0               0         0.188175         73.4179         0.020454         117.102
                               0               0                0               0        0.0204092         117.306         0.188198         73.4037
75.765                         0               0                0               0        0.0730345        -106.189         0.978593          161.48
                               0               0                0               0         0.978588         161.453        0.0731408        -106.002
                               0               0                0               0         0.191453         71.7494        0.0213923         112.807
                               0               0                0               0        0.0213438         113.015         0.191479          71.736
75.81                          0               0                0               0        0.0713729        -107.669         0.978024         159.757
                               0               0                0               0         0.978031         159.732        0.0714146        -107.399
                               0               0                0               0         0.194672         70.0405        0.0223508         108.549
                               0               0                0               0        0.0222948         108.761         0.194701         70.0282
75.855                         0               0                0               0        0.0695693        -109.189         0.977461             158
                               0               0                0               0         0.977479         157.978        0.0695255        -108.797
                               0               0                0               0         0.197811         68.2947        0.0233254         104.348
                               0               0                0               0        0.0232585         104.558         0.197842         68.2837
75.9                           0               0                0               0        0.0676377        -110.744          0.97691         156.213
                               0               0                0               0         0.976939         156.193        0.0674929        -110.193
                               0               0                0               0         0.200847         66.5159        0.0243114         100.221
                               0               0                0               0        0.0242312         100.419         0.200882         66.5063
75.945                         0               0                0               0        0.0655877        -112.332         0.976377         154.399
                               0               0                0               0         0.976416         154.383        0.0653358        -111.579
                               0               0                0               0         0.203761          64.708        0.0253032         96.1802
                               0               0                0               0        0.0252096         96.3571         0.203798         64.6997
75.99                          0               0                0               0        0.0634249        -113.949         0.975871         152.562
                               0               0                0               0         0.975919         152.548        0.0630727        -112.951
                               0               0                0               0         0.206532          62.875         0.026295         92.2347
                               0               0                0               0        0.0261902         92.3815         0.206573         62.8678
76.035                         0               0                0               0        0.0611484        -115.587         0.975398         150.705
                               0               0                0               0         0.975456         150.694        0.0607219        -114.303
                               0               0                0               0         0.209143         61.0207        0.0272804           88.39
                               0               0                0               0        0.0271691         88.5017         0.209188         61.0143
76.08                          0               0                0               0        0.0587486        -117.235         0.974967         148.833
                               0               0                0               0         0.975035         148.823        0.0583012        -115.629
                               0               0                0               0         0.211579          59.149        0.0282529         84.6479
                               0               0                0               0        0.0281417         84.7246         0.211628          59.143
76.125                         0               0                0               0        0.0562042        -118.865         0.974583         146.948
                               0               0                0               0         0.974661         146.939        0.0558278        -116.924
                               0               0                0               0         0.213826         57.2633        0.0292059         81.0076
                               0               0                0               0        0.0291025         81.0552         0.213879         57.2574
76.17                          0               0                0               0        0.0534839        -120.408          0.97425         145.053
                               0               0                0               0          0.97434         145.044         0.053319        -118.181
                               0               0                0               0         0.215872          55.367        0.0301328         77.4657
                               0               0                0               0        0.0300446         77.4954          0.21593         55.3607
76.215                         0               0                0               0        0.0505831        -121.698          0.97397         143.152
                               0               0                0               0         0.974073         143.141        0.0507916        -119.394
                               0               0                0               0         0.217708         53.4631        0.0310273         74.0172
                               0               0                0               0        0.0309604         74.0437         0.217769         53.4561
76.26                          0               0                0               0        0.0476691        -122.453         0.973743         141.247
                               0               0                0               0          0.97386         141.234        0.0482619        -120.557
                               0               0                0               0         0.219325         51.5541        0.0318832          70.656
                               0               0                0               0        0.0318409         70.6953         0.219389         51.5461
76.305                         0               0                0               0        0.0451742        -122.668         0.973565         139.341
                               0               0                0               0         0.973696         139.326         0.045746        -121.664
                               0               0                0               0         0.220717         49.6425        0.0326948         67.3754
                               0               0                0               0        0.0326772         67.4413         0.220784         49.6334
76.35                          0               0                0               0        0.0431849        -123.007         0.973431         137.437
                               0               0                0               0         0.973576         137.419        0.0432596        -122.707
                               0               0                0               0         0.221879         47.7302        0.0334572         64.1686
                               0               0                0               0        0.0334606         64.2696         0.221949         47.7202
76.395                         0               0                0               0        0.0412247        -123.791         0.973335         135.536
                               0               0                0               0          0.97349         135.516        0.0408173         -123.68
                               0               0                0               0         0.222807         45.8192        0.0341658         61.0297
                               0               0                0               0        0.0341837         61.1652         0.222879         45.8085
76.44                          0               0                0               0        0.0390426        -124.752         0.973269         133.641
                               0               0                0               0         0.973428         133.621        0.0384328        -124.576
