! TOUCHSTONE file generated by CST MICROWAVE STUDIO
! Date and time: Sun Jun 20 22:37:56 2021
! Project name: HIPS_d_sweep.cst
! Parameters = {fmax=120; fmin=75; b=0.46; d=23.7; a=0.63; phi=0; theta=0}
! Header version: 2018
! Port assignment regex: !\s*Touchstone port\s*([0-9]+)\s*=\s*(CST MWS port|CST DS port)\s*([0-9]+|Zmin|Zmax)\s*\(\"(.*)\"\)(\s*mode\s*([0-9]+))?.*
! Touchstone port assignment:
! Touchstone port 1 = CST MWS port Zmin ("") mode 1
! Touchstone port 2 = CST MWS port Zmin ("") mode 2
! Touchstone port 3 = CST MWS port Zmax ("") mode 1
! Touchstone port 4 = CST MWS port Zmax ("") mode 2
! S-Parameters are not renormalized. Unphysical impedance of 0 will be written to the file.
# GHz S MA R 0
75                             0               0                0               0        0.0717912        -134.343         0.971775        -38.0215
                               0               0                0               0         0.971671        -38.0551         0.071588        -134.407
                               0               0                0               0         0.222536         51.3267         0.038073         26.5627
                               0               0                0               0         0.037998         26.5007         0.222463         51.2938
75.045                         0               0                0               0        0.0677486        -136.666         0.973016        -38.7815
                               0               0                0               0          0.97293        -38.8171        0.0677117        -136.827
                               0               0                0               0         0.222933         50.5979        0.0377237         27.2592
                               0               0                0               0         0.037659         27.0481         0.222858         50.5637
75.09                          0               0                0               0        0.0640409        -138.595         0.973823        -39.6159
                               0               0                0               0         0.973755        -39.6532        0.0640782        -138.841
                               0               0                0               0         0.223224         49.7939        0.0373502         27.6715
                               0               0                0               0        0.0372988          27.378         0.223147         49.7589
75.135                         0               0                0               0         0.060725        -140.198         0.974277        -40.5262
                               0               0                0               0         0.974224        -40.5646         0.060775        -140.504
                               0               0                0               0         0.223422         48.9128        0.0369801         27.8171
                               0               0                0               0        0.0369385         27.4932         0.223344         48.8773
75.18                          0               0                0               0        0.0578248        -141.549         0.974453        -41.5126
                               0               0                0               0         0.974414        -41.5518        0.0578509        -141.888
                               0               0                0               0         0.223537         47.9536        0.0366322         27.7165
                               0               0                0               0        0.0365942         27.4005         0.223459         47.9181
75.225                         0               0                0               0        0.0553424        -142.722         0.974424         -42.575
                               0               0                0               0         0.974397        -42.6147         0.055326        -143.068
                               0               0                0               0         0.223578         46.9163        0.0363178         27.3905
                               0               0                0               0        0.0362773         27.1086         0.223501         46.8811
75.27                          0               0                0               0        0.0532667        -143.787         0.974256        -43.7125
                               0               0                0               0         0.974239        -43.7523        0.0532013        -144.117
                               0               0                0               0         0.223552         45.8017        0.0360427         26.8578
                               0               0                0               0        0.0359952         26.6265         0.223475         45.7671
75.315                         0               0                0               0        0.0515803        -144.804         0.974007        -44.9236
                               0               0                0               0         0.973997        -44.9633        0.0514667        -145.104
                               0               0                0               0         0.223458         44.6112        0.0358087         26.1344
                               0               0                0               0        0.0357514         25.9628         0.223381         44.5773
75.36                          0               0                0               0        0.0502636        -145.827         0.973725        -46.2065
                               0               0                0               0         0.973723        -46.2458        0.0501066        -146.088
                               0               0                0               0         0.223295         43.3465        0.0356141         25.2332
                               0               0                0               0        0.0355467         25.1242         0.223219         43.3136
75.405                         0               0                0               0        0.0492978        -146.894         0.973453        -47.5588
                               0               0                0               0         0.973457        -47.5976        0.0491037        -147.113
                               0               0                0               0         0.223056         42.0099        0.0354554         24.1638
                               0               0                0               0        0.0353791         24.1162          0.22298          41.978
75.45                          0               0                0               0        0.0486656        -148.033         0.973223        -48.9781
                               0               0                0               0         0.973232        -49.0161        0.0484414        -148.212
                               0               0                0               0         0.222733         40.6035        0.0353269         22.9335
                               0               0                0               0        0.0352446         22.9422         0.222656         40.5727
75.495                         0               0                0               0        0.0483522        -149.259         0.973057        -50.4615
                               0               0                0               0         0.973073        -50.4986        0.0481047        -149.404
                               0               0                0               0         0.222311           39.13        0.0352218          21.547
                               0               0                0               0         0.035137         21.6047         0.222234         39.1002
75.54                          0               0                0               0        0.0483449        -150.576         0.972973        -52.0061
                               0               0                0               0         0.972994        -52.0421        0.0480804        -150.694
                               0               0                0               0         0.221777          37.592        0.0351323         20.0077
                               0               0                0               0        0.0350489         20.1049         0.221699         37.5631
75.585                         0               0                0               0        0.0486321        -151.978         0.972979        -53.6088
                               0               0                0               0         0.973006        -53.6436        0.0483564        -152.079
                               0               0                0               0         0.221111         35.9921        0.0350496         18.3176
                               0               0                0               0        0.0349712         18.4437         0.221033          35.964
75.63                          0               0                0               0        0.0492029        -153.453         0.973077        -55.2665
                               0               0                0               0         0.973111        -55.3001        0.0489209        -153.543
                               0               0                0               0         0.220296         34.3333        0.0349639         16.4783
                               0               0                0               0        0.0348936         16.6218         0.220217         34.3059
75.675                         0               0                0               0        0.0500456        -154.984         0.973264        -56.9762
                               0               0                0               0         0.973306        -57.0084        0.0497618        -155.071
                               0               0                0               0         0.219311         32.6184        0.0348653         14.4914
                               0               0                0               0         0.034805         14.6411         0.219231         32.5916
75.72                          0               0                0               0         0.051148        -156.553         0.973532        -58.7346
                               0               0                0               0         0.973584        -58.7653        0.0508659        -156.641
                               0               0                0               0         0.218136         30.8508        0.0347433         12.3588
                               0               0                0               0        0.0346938         12.5042         0.218055         30.8245
75.765                         0               0                0               0        0.0524961        -158.143          0.97387        -60.5387
                               0               0                0               0         0.973933        -60.5679        0.0522184        -158.236
                               0               0                0               0         0.216749         29.0339        0.0345876          10.083
                               0               0                0               0        0.0345482         10.2153         0.216668         29.0078
75.81                          0               0                0               0        0.0540746         -159.74         0.974263        -62.3853
                               0               0                0               0         0.974339         -62.413        0.0538034         -159.84
                               0               0                0               0         0.215134         27.1713         0.034388         7.66766
                               0               0                0               0         0.034357         7.78021         0.215051         27.1453
75.855                         0               0                0               0         0.055867        -161.333         0.974697        -64.2716
                               0               0                0               0         0.974788        -64.2977        0.0556034        -161.442
                               0               0                0               0          0.21327         25.2668        0.0341354         5.11709
                               0               0                0               0        0.0341102         5.20618         0.213187         25.2408
75.9                           0               0                0               0        0.0578559        -162.918         0.975157        -66.1944
                               0               0                0               0         0.975264         -66.219        0.0576003        -163.034
                               0               0                0               0         0.211144         23.3248        0.0338214         2.43648
                               0               0                0               0        0.0337991         2.50148          0.21106         23.2986
75.945                         0               0                0               0        0.0600234        -164.491         0.975629        -68.1508
                               0               0                0               0         0.975754        -68.1738        0.0597756        -164.615
                               0               0                0               0         0.208744         21.3494        0.0334395       -0.368547
                               0               0                0               0        0.0334171       -0.325217         0.208658         21.3229
75.99                          0               0                0               0        0.0623519        -166.057         0.976101        -70.1377
                               0               0                0               0         0.976245        -70.1592        0.0621112        -166.187
                               0               0                0               0         0.206059         19.3451        0.0329846        -3.29246
                               0               0                0               0        0.0329598         -3.2656         0.205972         19.3184
76.035                         0               0                0               0        0.0648242        -167.619         0.976564        -72.1522
                               0               0                0               0          0.97673        -72.1722        0.0645895        -167.754
                               0               0                0               0         0.203084         17.3165        0.0324536        -6.33037
                               0               0                0               0        0.0324248        -6.31264         0.202997         17.2893
76.08                          0               0                0               0        0.0674237        -169.185         0.977015        -74.1912
                               0               0                0               0         0.977202        -74.2097        0.0671937        -169.323
                               0               0                0               0         0.199818         15.2677        0.0318452        -9.47875
                               0               0                0               0         0.031812        -9.46142          0.19973         15.2402
76.125                         0               0                0               0        0.0701351        -170.763         0.977455        -76.2515
                               0               0                0               0         0.977665        -76.2686        0.0699083        -170.902
                               0               0                0               0         0.196263         13.2029          0.03116         -12.736
                               0               0                0               0        0.0311226        -12.7098         0.196176         13.1751
76.17                          0               0                0               0        0.0729438        -172.362         0.977893        -78.3296
                               0               0                0               0         0.978124        -78.3455         0.072719        -172.501
                               0               0                0               0         0.192426         11.1256        0.0303999        -16.1032
                               0               0                0               0        0.0303593        -16.0593         0.192338         11.0976
76.215                         0               0                0               0        0.0758364        -173.989         0.978341        -80.4219
                               0               0                0               0         0.978593        -80.4368        0.0756123        -174.126
                               0               0                0               0         0.188315         9.03896         0.029568        -19.5842
                               0               0                0               0        0.0295257        -19.5149         0.188228         9.01076
76.26                          0               0                0               0        0.0788007        -175.653          0.97882        -82.5246
                               0               0                0               0          0.97909        -82.5386        0.0785761        -175.786
                               0               0                0               0         0.183943          6.9452        0.0286684        -23.1864
                               0               0                0               0        0.0286257        -23.0857         0.183857         6.91702
76.305                         0               0                0               0        0.0818252         -177.36         0.979351        -84.6334
                               0               0                0               0         0.979638        -84.6467        0.0815991        -177.488
                               0               0                0               0         0.179324         4.84594        0.0277059        -26.9205
                               0               0                0               0        0.0276634        -26.7847          0.17924         4.81796
76.35                          0               0                0               0        0.0848992        -179.117         0.979958        -86.7437
                               0               0                0               0         0.980258        -86.7566        0.0846706        -179.237
                               0               0                0               0         0.174472         2.74217        0.0266855        -30.8006
                               0               0                0               0        0.0266434        -30.6289         0.174391         2.71456
76.395                         0               0                0               0        0.0880129         179.073         0.980659        -88.8509
                               0               0                0               0         0.980969        -88.8637        0.0877809         178.961
                               0               0                0               0         0.169403        0.634523        0.0256126        -34.8438
                               0               0                0               0          0.02557        -34.6386         0.169325        0.607474
76.44                          0               0                0               0        0.0911574         177.206         0.981465        -90.9505
                               0               0                0               0          0.98178        -90.9634        0.0909207         177.106
