! TOUCHSTONE file generated by CST MICROWAVE STUDIO
! Date and time: Sun Jun 20 22:36:51 2021
! Project name: HIPS_d_sweep.cst
! Parameters = {fmax=120; fmin=75; b=0.46; d=16.8; a=0.63; phi=0; theta=0}
! Header version: 2018
! Port assignment regex: !\s*Touchstone port\s*([0-9]+)\s*=\s*(CST MWS port|CST DS port)\s*([0-9]+|Zmin|Zmax)\s*\(\"(.*)\"\)(\s*mode\s*([0-9]+))?.*
! Touchstone port assignment:
! Touchstone port 1 = CST MWS port Zmin ("") mode 1
! Touchstone port 2 = CST MWS port Zmin ("") mode 2
! Touchstone port 3 = CST MWS port Zmax ("") mode 1
! Touchstone port 4 = CST MWS port Zmax ("") mode 2
! S-Parameters are not renormalized. Unphysical impedance of 0 will be written to the file.
# GHz S MA R 0
75                             0               0                0               0         0.401347         114.295         0.910328         24.9923
                               0               0                0               0         0.910481         24.9842         0.401251           114.3
                               0               0                0               0        0.0585875         78.6242        0.0813472        -79.9771
                               0               0                0               0        0.0813513         -79.951        0.0584734          78.564
75.045                         0               0                0               0         0.404185          113.61         0.910508         24.4109
                               0               0                0               0         0.910602         24.4089         0.404147          113.61
                               0               0                0               0        0.0596673         78.7745        0.0812895        -81.0787
                               0               0                0               0        0.0814491        -81.0912        0.0595442         78.7291
75.09                          0               0                0               0         0.406624         112.924         0.910006         23.7824
                               0               0                0               0         0.910052         23.7834         0.406613         112.923
                               0               0                0               0        0.0608861         78.9126        0.0811832        -82.3054
                               0               0                0               0        0.0814182        -82.3325        0.0607593         78.8752
75.135                         0               0                0               0         0.408623         112.229         0.908932         23.0992
                               0               0                0               0          0.90895         23.1008         0.408606         112.226
                               0               0                0               0        0.0622488          79.044         0.081031        -83.6587
                               0               0                0               0        0.0812671        -83.6842        0.0621237         79.0094
75.18                          0               0                0               0         0.410157         111.514         0.907423         22.3556
                               0               0                0               0         0.907434         22.3562         0.410106          111.51
                               0               0                0               0        0.0637584         79.1734        0.0808349        -85.1397
                               0               0                0               0        0.0810061        -85.1542        0.0636402          79.138
75.225                         0               0                0               0         0.411221         110.767         0.905624         21.5481
                               0               0                0               0         0.905652         21.5469         0.411115          110.76
                               0               0                0               0        0.0654164         79.3042        0.0805968        -86.7493
                               0               0                0               0        0.0806467        -86.7493          0.06531          79.266
75.27                          0               0                0               0         0.411828         109.978         0.903684         20.6756
                               0               0                0               0         0.903748         20.6722         0.411656         109.968
                               0               0                0               0         0.067223         79.4385         0.080318         -88.488
                               0               0                0               0        0.0802011        -88.4743        0.0671322         79.3968
75.315                         0               0                0               0         0.412014         109.139          0.90174         19.7391
                               0               0                0               0         0.901853         19.7336         0.411771         109.122
                               0               0                0               0        0.0691769          79.577        0.0799993        -90.3562
                               0               0                0               0        0.0796818        -90.3331        0.0691044         79.5319
75.36                          0               0                0               0         0.411824         108.242         0.899912         18.7412
                               0               0                0               0         0.900081         18.7342         0.411517         108.218
                               0               0                0               0        0.0712757         79.7184        0.0796415        -92.3539
                               0               0                0               0        0.0791011        -92.3277        0.0712228         79.6706
75.405                         0               0                0               0         0.411316         107.282         0.898296          17.686
                               0               0                0               0         0.898524         17.6781         0.410957         107.249
                               0               0                0               0         0.073516         79.8601        0.0792446        -94.4806
                               0               0                0               0         0.078471        -94.4592        0.0734829         79.8107
75.45                          0               0                0               0         0.410552         106.257         0.896967         16.5783
                               0               0                0               0         0.897248         16.5702         0.410156         106.215
                               0               0                0               0        0.0758939         79.9983        0.0788086        -96.7359
                               0               0                0               0        0.0778028         -96.727        0.0758795         79.9484
75.495                         0               0                0               0         0.409589         105.166         0.895973         15.4233
                               0               0                0               0           0.8963         15.4157         0.409174         105.116
                               0               0                0               0        0.0784049         80.1279        0.0783336        -99.1186
                               0               0                0               0         0.077107        -99.1298        0.0784068         80.0784
75.54                          0               0                0               0         0.408481         104.012         0.895341         14.2265
                               0               0                0               0         0.895703         14.2197         0.408064         103.954
                               0               0                0               0        0.0810442         80.2432        0.0778191        -101.627
                               0               0                0               0         0.076393        -101.665        0.0810593         80.1948
75.585                         0               0                0               0         0.407273         102.796          0.89508         12.9926
                               0               0                0               0         0.895464         12.9871          0.40687         102.733
                               0               0                0               0        0.0838068         80.3378        0.0772648         -104.26
                               0               0                0               0        0.0756694        -104.329         0.083831         80.2912
75.63                          0               0                0               0            0.406         101.525         0.895183         11.7265
                               0               0                0               0         0.895577         11.7224         0.405622         101.459
                               0               0                0               0        0.0866874         80.4053        0.0766706        -107.015
                               0               0                0               0        0.0749438        -107.117        0.0867163         80.3609
75.675                         0               0                0               0         0.404686         100.204         0.895633         10.4322
                               0               0                0               0         0.896024         10.4296         0.404345         100.136
                               0               0                0               0        0.0896806         80.4393        0.0760365        -109.888
                               0               0                0               0        0.0742228        -110.025        0.0897094         80.3972
75.72                          0               0                0               0         0.403348         98.8372         0.896401         9.11309
                               0               0                0               0         0.896779         9.11211         0.403049         98.7701
                               0               0                0               0        0.0927806         80.4335        0.0753624        -112.877
                               0               0                0               0        0.0735122        -113.046        0.0928044         80.3938
75.765                         0               0                0               0         0.401992         97.4313         0.897456          7.7723
                               0               0                0               0         0.897809         7.77287          0.40174         97.3668
                               0               0                0               0        0.0959812          80.382        0.0746491        -115.977
                               0               0                0               0        0.0728169        -116.174        0.0959952         80.3448
75.81                          0               0                0               0          0.40062         95.9917         0.898759         6.41226
                               0               0                0               0          0.89908         6.41432         0.400417         95.9315
                               0               0                0               0        0.0992758         80.2796        0.0738972        -119.185
                               0               0                0               0         0.072141        -119.402        0.0992755          80.245
75.855                         0               0                0               0         0.399228         94.5237          0.90027           5.035
                               0               0                0               0         0.900552         5.03846         0.399074          94.469
                               0               0                0               0         0.102657         80.1216        0.0731082        -122.496
                               0               0                0               0         0.071488        -122.723         0.102638         80.0895
75.9                           0               0                0               0         0.397807         93.0324         0.901949         3.64216
                               0               0                0               0         0.902187         3.64695         0.397702         92.9842
                               0               0                0               0         0.106117         79.9038        0.0722837        -125.904
                               0               0                0               0        0.0708608        -126.129         0.106076         79.8745
75.945                         0               0                0               0         0.396347         91.5224         0.903755         2.23507
                               0               0                0               0         0.903945         2.24114          0.39629         91.4814
                               0               0                0               0         0.109646         79.6229        0.0714261        -129.405
                               0               0                0               0        0.0702617        -129.611          0.10958         79.5965
75.99                          0               0                0               0         0.394838         89.9983         0.905644        0.814848
                               0               0                0               0         0.905785        0.822157         0.394827         89.9647
                               0               0                0               0         0.113234         79.2762         0.070538        -132.993
                               0               0                0               0        0.0696926        -133.162         0.113141         79.2531
76.035                         0               0                0               0         0.393266          88.464         0.907577       -0.617587
                               0               0                0               0         0.907668        -0.60906           0.3933         88.4379
                               0               0                0               0         0.116872         78.8618        0.0696226        -136.662
                               0               0                0               0        0.0691547        -136.772         0.116749         78.8423
76.08                          0               0                0               0         0.391622         86.9235         0.909513        -2.06142
                               0               0                0               0         0.909556        -2.05167         0.391697         86.9047
                               0               0                0               0         0.120545         78.3787        0.0686837        -140.408
                               0               0                0               0        0.0686492        -140.433         0.120392         78.3631
76.125                         0               0                0               0         0.389894         85.3803         0.911414        -3.51591
                               0               0                0               0         0.911411        -3.50492         0.390009         85.3683
                               0               0                0               0         0.124241         77.8262        0.0677254        -144.226
                               0               0                0               0        0.0681767        -144.136         0.124058          77.815
76.17                          0               0                0               0         0.388075         83.8379         0.913241        -4.98032
                               0               0                0               0         0.913196        -4.96807         0.388226         83.8321
                               0               0                0               0         0.127946         77.2047        0.0667524        -148.113
                               0               0                0               0        0.0677375        -147.873         0.127733         77.1983
76.215                         0               0                0               0         0.386155         82.2995         0.914959         -6.4539
                               0               0                0               0         0.914875        -6.44036          0.38634         82.2991
                               0               0                0               0         0.131644         76.5152          0.06577        -152.066
                               0               0                0               0        0.0673317        -151.634         0.131403         76.5138
76.26                          0               0                0               0         0.384132         80.7684         0.916532        -7.93584
                               0               0                0               0         0.916416          -7.921         0.384347         80.7724
                               0               0                0               0         0.135318         75.7593        0.0647846        -156.086
                               0               0                0               0         0.066959        -155.411         0.135051         75.7631
76.305                         0               0                0               0         0.382001         79.2473         0.917927        -9.42526
                               0               0                0               0         0.917784        -9.40912         0.382243         79.2549
                               0               0                0               0         0.138952         74.9393        0.0638042        -160.175
                               0               0                0               0         0.066619        -159.197         0.138662         74.9485
76.35                          0               0                0               0         0.379762         77.7393         0.919114        -10.9212
                               0               0                0               0         0.918951        -10.9038         0.380026         77.7494
                               0               0                0               0         0.142529         74.0581        0.0628396         -164.34
                               0               0                0               0         0.066311        -162.983         0.142219         74.0726
76.395                         0               0                0               0         0.377416          76.247         0.920063        -12.4225
                               0               0                0               0         0.919887        -12.4039         0.377698         76.2587
                               0               0                0               0          0.14603         73.1191        0.0619066        -168.592
                               0               0                0               0        0.0660343        -166.762         0.145705         73.1388
76.44                          0               0                0               0         0.374967          74.773          0.92075         -13.928
                               0               0                0               0         0.920567        -13.9083         0.375263         74.7854
