! TOUCHSTONE file generated by CST MICROWAVE STUDIO
! Date and time: Sun Jun 20 22:36:45 2021
! Project name: HIPS_d_sweep.cst
! Parameters = {fmax=120; fmin=75; b=0.46; d=16; a=0.63; phi=0; theta=0}
! Header version: 2018
! Port assignment regex: !\s*Touchstone port\s*([0-9]+)\s*=\s*(CST MWS port|CST DS port)\s*([0-9]+|Zmin|Zmax)\s*\(\"(.*)\"\)(\s*mode\s*([0-9]+))?.*
! Touchstone port assignment:
! Touchstone port 1 = CST MWS port Zmin ("") mode 1
! Touchstone port 2 = CST MWS port Zmin ("") mode 2
! Touchstone port 3 = CST MWS port Zmax ("") mode 1
! Touchstone port 4 = CST MWS port Zmax ("") mode 2
! S-Parameters are not renormalized. Unphysical impedance of 0 will be written to the file.
# GHz S MA R 0
75                             0               0                0               0         0.431619        -152.679         0.879066         115.475
                               0               0                0               0         0.879448         115.507         0.431275        -152.676
                               0               0                0               0         0.174587         35.1202         0.101903          82.003
                               0               0                0               0         0.101918         82.0748          0.17453         35.1048
75.045                         0               0                0               0         0.434976        -153.397         0.880777         114.855
                               0               0                0               0         0.881454         114.903         0.434428        -153.448
                               0               0                0               0         0.173872         34.8015         0.102556         81.0571
                               0               0                0               0         0.102635         81.1303         0.173803         34.7862
75.09                          0               0                0               0         0.438029        -154.109         0.881941         114.218
                               0               0                0               0           0.8828         114.279         0.437376        -154.207
                               0               0                0               0           0.1731         34.4409         0.103159         80.0517
                               0               0                0               0         0.103285         80.1291         0.173024         34.4253
75.135                         0               0                0               0         0.440734        -154.822         0.882547         113.554
                               0               0                0               0         0.883482         113.628         0.440068        -154.957
                               0               0                0               0         0.172279         34.0377         0.103714         78.9825
                               0               0                0               0          0.10387         79.0654         0.172197         34.0217
75.18                          0               0                0               0         0.443059        -155.542         0.882609         112.858
                               0               0                0               0         0.883528         112.941         0.442453        -155.703
                               0               0                0               0         0.171415         33.5917         0.104221          77.845
                               0               0                0               0         0.104393         77.9336         0.171331         33.5754
75.225                         0               0                0               0         0.444982        -156.276         0.882165         112.123
                               0               0                0               0            0.883         112.211         0.444485        -156.451
                               0               0                0               0         0.170514         33.1033         0.104684         76.6353
                               0               0                0               0         0.104858         76.7284          0.17043         33.0868
75.27                          0               0                0               0         0.446494        -157.034         0.881282         111.343
                               0               0                0               0         0.881985         111.431         0.446128        -157.208
                               0               0                0               0         0.169582         32.5732         0.105108           75.35
                               0               0                0               0          0.10527         75.4454         0.169499         32.5567
75.315                         0               0                0               0         0.447604        -157.821         0.880044         110.512
                               0               0                0               0         0.880598         110.595         0.447364        -157.983
                               0               0                0               0         0.168621         32.0025         0.105497         73.9863
                               0               0                0               0         0.105638          74.081         0.168541         31.9861
75.36                          0               0                0               0         0.448334        -158.647         0.878555         109.626
                               0               0                0               0         0.878964         109.702         0.448191        -158.785
                               0               0                0               0         0.167635         31.3924         0.105857          72.542
                               0               0                0               0         0.105969         72.6327         0.167557         31.3763
75.405                         0               0                0               0          0.44872        -159.516         0.876926         108.684
                               0               0                0               0         0.877212         108.749         0.448627        -159.624
                               0               0                0               0         0.166625         30.7445         0.106193         71.0161
                               0               0                0               0         0.106272         71.0993          0.16655         30.7289
75.45                          0               0                0               0         0.448807        -160.432         0.875269         107.686
                               0               0                0               0         0.875463         107.737         0.448709        -160.507
                               0               0                0               0         0.165589         30.0604         0.106513         69.4082
                               0               0                0               0         0.106556         69.4806         0.165517         30.0455
75.495                         0               0                0               0         0.448644          -161.4         0.873687         106.634
                               0               0                0               0         0.873827         106.671         0.448486        -161.441
                               0               0                0               0         0.164527          29.342         0.106822          67.719
                               0               0                0               0         0.106829         67.7779         0.164458         29.3278
75.54                          0               0                0               0         0.448284        -162.419         0.872271         105.529
                               0               0                0               0         0.872389         105.554          0.44802        -162.428
                               0               0                0               0         0.163437         28.5911         0.107125         65.9502
                               0               0                0               0           0.1071         65.9935          0.16337         28.5777
75.585                         0               0                0               0         0.447774         -163.49          0.87109         104.378
                               0               0                0               0         0.871215         104.391         0.447374        -163.472
                               0               0                0               0         0.162315         27.8095         0.107427         64.1041
                               0               0                0               0         0.107373         64.1308          0.16225         27.7969
75.63                          0               0                0               0         0.447159         -164.61         0.870195         103.184
                               0               0                0               0         0.870344         103.187         0.446607        -164.571
                               0               0                0               0         0.161156         26.9993         0.107731         62.1841
                               0               0                0               0         0.107655          62.194         0.161093         26.9875
75.675                         0               0                0               0         0.446477        -165.777         0.869615         101.953
                               0               0                0               0         0.869798         101.949         0.445773        -165.722
                               0               0                0               0         0.159957         26.1624         0.108041         60.1941
                               0               0                0               0         0.107948         60.1882         0.159895         26.1514
75.72                          0               0                0               0         0.445756        -166.986          0.86936          100.69
                               0               0                0               0         0.869578         100.681         0.444915        -166.923
                               0               0                0               0         0.158711         25.3009         0.108356         58.1389
                               0               0                0               0         0.108252         58.1189         0.158649         25.2905
75.765                         0               0                0               0         0.445019        -168.235         0.869425         99.4004
                               0               0                0               0         0.869671         99.3887         0.444066        -168.169
                               0               0                0               0         0.157414         24.4167         0.108677         56.0233
                               0               0                0               0         0.108569         55.9918         0.157351         24.4069
75.81                          0               0                0               0         0.444279        -169.518         0.869791         98.0883
                               0               0                0               0         0.870054         98.0758         0.443246        -169.453
                               0               0                0               0         0.156058         23.5121         0.109001         53.8528
                               0               0                0               0         0.108894         53.8128         0.155994         23.5027
75.855                         0               0                0               0         0.443544        -170.831         0.870431         96.7578
                               0               0                0               0         0.870697         96.7462         0.442467        -170.772
                               0               0                0               0         0.154638         22.5893         0.109326         51.6329
                               0               0                0               0         0.109225          51.588         0.154573         22.5803
75.9                           0               0                0               0         0.442817        -172.171          0.87131         95.4121
                               0               0                0               0         0.871563         95.4027         0.441731         -172.12
                               0               0                0               0         0.153148         21.6507         0.109647         49.3692
                               0               0                0               0         0.109556          49.323         0.153081         21.6418
75.945                         0               0                0               0         0.442095        -173.533         0.872389         94.0541
                               0               0                0               0         0.872613         94.0478         0.441035        -173.492
                               0               0                0               0         0.151582         20.6987         0.109959         47.0674
                               0               0                0               0         0.109881         47.0237         0.151512         20.6899
75.99                          0               0                0               0         0.441374        -174.914         0.873628          92.686
                               0               0                0               0         0.873809         92.6837          0.44037        -174.885
                               0               0                0               0         0.149934         19.7359         0.110256          44.733
                               0               0                0               0         0.110193         44.6952         0.149861         19.7272
76.035                         0               0                0               0         0.440646        -176.311         0.874984         91.3097
                               0               0                0               0         0.875112         91.3118         0.439723        -176.293
                               0               0                0               0         0.148199         18.7654         0.110531         42.3715
                               0               0                0               0         0.110484         42.3426         0.148123         18.7566
76.08                          0               0                0               0         0.439903         -177.72         0.876417         89.9267
                               0               0                0               0         0.876482         89.9335         0.439081        -177.714
                               0               0                0               0         0.146372         17.7902         0.110777          39.988
                               0               0                0               0         0.110746         39.9709         0.146293         17.7812
76.125                         0               0                0               0         0.439133        -179.138         0.877889         88.5381
                               0               0                0               0         0.877885         88.5498         0.438429        -179.145
                               0               0                0               0          0.14445         16.8137         0.110986         37.5876
                               0               0                0               0         0.110972         37.5844         0.144367         16.8045
76.17                          0               0                0               0         0.438329         179.436         0.879361          87.145
                               0               0                0               0         0.879285         87.1615         0.437752         179.417
                               0               0                0               0         0.142429         15.8394         0.111152          35.175
                               0               0                0               0         0.111155         35.1875         0.142343         15.8302
76.215                         0               0                0               0         0.437479         178.006           0.8808         85.7481
                               0               0                0               0         0.880649         85.7694         0.437035         177.975
                               0               0                0               0         0.140307         14.8715         0.111268         32.7549
                               0               0                0               0         0.111287         32.7841         0.140217         14.8621
76.26                          0               0                0               0         0.436575         176.573         0.882171         84.3481
                               0               0                0               0         0.881949          84.374         0.436265         176.531
                               0               0                0               0         0.138084         13.9141         0.111328         30.3315
                               0               0                0               0         0.111361         30.3781          0.13799         13.9046
76.305                         0               0                0               0         0.435608         175.139         0.883446         82.9458
                               0               0                0               0         0.883156          82.976         0.435428         175.086
                               0               0                0               0         0.135758         12.9719         0.111326          27.909
                               0               0                0               0         0.111373          27.973         0.135661         12.9624
76.35                          0               0                0               0         0.434569         173.707         0.884597         81.5418
                               0               0                0               0         0.884245         81.5759         0.434515         173.643
                               0               0                0               0         0.133333         12.0497         0.111257         25.4912
                               0               0                0               0         0.111317         25.5722         0.133232         12.0403
76.395                         0               0                0               0         0.433454         172.277         0.885598         80.1366
                               0               0                0               0         0.885192         80.1744         0.433515         172.203
                               0               0                0               0         0.130809         11.1528         0.111118         23.0818
                               0               0                0               0         0.111189          23.179         0.130705         11.1436
76.44                          0               0                0               0         0.432257         170.852         0.886429          78.731
                               0               0                0               0         0.885977          78.772         0.432421         170.768
