! TOUCHSTONE file generated by CST MICROWAVE STUDIO
! Date and time: Sun Jun 20 22:38:10 2021
! Project name: HIPS_d_sweep.cst
! Parameters = {fmax=120; fmin=75; b=0.46; d=24.95; a=0.63; phi=0; theta=0}
! Header version: 2018
! Port assignment regex: !\s*Touchstone port\s*([0-9]+)\s*=\s*(CST MWS port|CST DS port)\s*([0-9]+|Zmin|Zmax)\s*\(\"(.*)\"\)(\s*mode\s*([0-9]+))?.*
! Touchstone port assignment:
! Touchstone port 1 = CST MWS port Zmin ("") mode 1
! Touchstone port 2 = CST MWS port Zmin ("") mode 2
! Touchstone port 3 = CST MWS port Zmax ("") mode 1
! Touchstone port 4 = CST MWS port Zmax ("") mode 2
! S-Parameters are not renormalized. Unphysical impedance of 0 will be written to the file.
# GHz S MA R 0
75                             0               0                0               0          0.16129         87.1983         0.972969         179.615
                               0               0                0               0         0.972954         179.616         0.161301         87.2102
                               0               0                0               0         0.158069         87.0828        0.0490205         57.3617
                               0               0                0               0        0.0490516         57.3975         0.158024         87.0909
75.045                         0               0                0               0         0.157432         86.8774         0.974234         178.761
                               0               0                0               0         0.973935         178.749         0.156822          87.051
                               0               0                0               0         0.159986         86.3641        0.0490089         56.8889
                               0               0                0               0        0.0484318         57.1551         0.160027         86.3779
75.09                          0               0                0               0          0.15366         86.2978         0.975076         177.842
                               0               0                0               0          0.97461         177.821         0.152582         86.5293
                               0               0                0               0         0.162048         85.5653         0.048869         56.3202
                               0               0                0               0        0.0478142          56.563         0.162145          85.582
75.135                         0               0                0               0         0.150088         85.4657         0.975537         176.856
                               0               0                0               0         0.975006          176.83         0.148739         85.6815
                               0               0                0               0         0.164256         84.6848        0.0486025         55.6104
                               0               0                0               0        0.0472535         55.6564         0.164381         84.7026
75.18                          0               0                0               0         0.146808         84.3967         0.975665           175.8
                               0               0                0               0          0.97515         175.773          0.14539          84.555
                               0               0                0               0         0.166607         83.7219        0.0482242         54.7108
                               0               0                0               0        0.0467838         54.4805         0.166738         83.7392
75.225                         0               0                0               0         0.143888         83.1136          0.97551         174.672
                               0               0                0               0         0.975076         174.646         0.142583         83.2012
                               0               0                0               0         0.169097         82.6761        0.0477637         53.5742
                               0               0                0               0        0.0464225          53.082         0.169215          82.692
75.27                          0               0                0               0         0.141371         81.6443         0.975124         173.471
                               0               0                0               0         0.974817         173.449         0.140325         81.6702
                               0               0                0               0         0.171717         81.5472        0.0472641         52.1629
                               0               0                0               0        0.0461742         51.5033         0.171809         81.5613
75.315                         0               0                0               0         0.139278         80.0184         0.974556         172.196
                               0               0                0               0         0.974405          172.18         0.138599         80.0077
                               0               0                0               0         0.174459         80.3357        0.0467779         50.4562
                               0               0                0               0        0.0460357           49.78         0.174514         80.3482
75.36                          0               0                0               0          0.13761         78.2659         0.973855         170.847
                               0               0                0               0         0.973875         170.839          0.13737         78.2526
                               0               0                0               0         0.177306         79.0424        0.0463604         48.4547
                               0               0                0               0        0.0459988         47.9399         0.177319         79.0537
75.405                         0               0                0               0         0.136357         76.4147         0.973063         169.426
                               0               0                0               0         0.973256         169.425         0.136598         76.4369
                               0               0                0               0         0.180243         77.6686        0.0460622         46.1817
                               0               0                0               0        0.0460533         46.0037         0.180213         77.6795
75.45                          0               0                0               0         0.135497         74.4893          0.97222         167.934
                               0               0                0               0         0.972577          167.94         0.136236         74.5857
                               0               0                0               0         0.183249         76.2162        0.0459248         43.6791
                               0               0                0               0        0.0461877         43.9857         0.183179         76.2275
75.495                         0               0                0               0         0.134997         72.5101         0.971358         166.372
                               0               0                0               0          0.97186         166.385         0.136241         72.7181
                               0               0                0               0         0.186301         74.6875        0.0459798         41.0013
                               0               0                0               0        0.0463908         41.8953         0.186196         74.7002
75.54                          0               0                0               0         0.134821         70.4932         0.970503         164.744
                               0               0                0               0         0.971125         164.762         0.136571         70.8483
                               0               0                0               0         0.189374         73.0856         0.046251         38.2112
                               0               0                0               0        0.0466515         39.7377         0.189242         73.1002
75.585                         0               0                0               0         0.134922         68.4499         0.969673         163.053
                               0               0                0               0         0.970387         163.074         0.137185         68.9863
                               0               0                0               0         0.192441         71.4138        0.0467592         35.3828
                               0               0                0               0        0.0469592          37.515         0.192291         71.4309
75.63                          0               0                0               0          0.13524          66.388         0.968883         161.301
                               0               0                0               0         0.969655         161.324         0.138046         67.1392
                               0               0                0               0         0.195472         69.6763         0.047522         32.6162
                               0               0                0               0         0.047304         35.2269         0.195315         69.6957
75.675                         0               0                0               0         0.135683         64.3146         0.968137         159.493
                               0               0                0               0         0.968934         159.517         0.139116         65.3117
                               0               0                0               0          0.19844         67.8774        0.0485293         30.0633
                               0               0                0               0         0.047676         32.8717         0.198285         67.8989
75.72                          0               0                0               0         0.136099         62.2499         0.967437         157.633
                               0               0                0               0         0.968228         157.655         0.140355         63.5063
                               0               0                0               0         0.201313         66.0219        0.0496625         27.9206
                               0               0                0               0        0.0480658         30.4463         0.201171         66.0449
75.765                         0               0                0               0         0.136226         60.2875         0.966779         155.725
                               0               0                0               0         0.967534         155.744         0.141715         61.7225
                               0               0                0               0         0.204064         64.1149        0.0505934         26.2629
                               0               0                0               0         0.048464          27.947         0.203941         64.1386
75.81                          0               0                0               0         0.135993         58.7957         0.966155         153.774
                               0               0                0               0         0.966851         153.788         0.143136         59.9526
                               0               0                0               0         0.206666         62.1618        0.0509607          24.754
                               0               0                0               0        0.0488611         25.3698         0.206566         62.1853
75.855                         0               0                0               0         0.137426         58.1027         0.965557         151.783
                               0               0                0               0         0.966174         151.793         0.144556          58.175
                               0               0                0               0         0.209091         60.1679        0.0508301          22.851
                               0               0                0               0        0.0492475         22.7109         0.209019         60.1902
75.9                           0               0                0               0         0.141607          56.773         0.964974         149.757
                               0               0                0               0           0.9655         149.762         0.145939         56.3467
                               0               0                0               0         0.211318         58.1385        0.0505814         20.3875
                               0               0                0               0        0.0496133         19.9668         0.211272         58.1589
75.945                         0               0                0               0          0.14529         54.6519         0.964397         147.701
                               0               0                0               0         0.964828         147.702          0.14735         54.4161
                               0               0                0               0         0.213324         56.0786        0.0504451         17.5366
                               0               0                0               0        0.0499485         17.1349         0.213304         56.0967
75.99                          0               0                0               0         0.148172         52.4435         0.963818         145.618
                               0               0                0               0         0.964159         145.615         0.148964          52.369
                               0               0                0               0         0.215092         53.9932        0.0504479         14.4874
                               0               0                0               0        0.0502433         14.2139         0.215094         54.0088
76.035                         0               0                0               0          0.15076         50.2963         0.963233         143.513
                               0               0                0               0         0.963495         143.508         0.150925         50.2562
                               0               0                0               0         0.216604         51.8867        0.0505406         11.3422
                               0               0                0               0        0.0504881         11.2039         0.216626            51.9
76.08                          0               0                0               0         0.153288         48.2026         0.962643          141.39
                               0               0                0               0         0.962841         141.382          0.15322         48.1436
                               0               0                0               0         0.217849         49.7634         0.050668         8.14081
                               0               0                0               0         0.050674         8.10723         0.217886         49.7748
76.125                         0               0                0               0         0.155842         46.1416         0.962052         139.251
                               0               0                0               0         0.962208         139.243         0.155744         46.0623
                               0               0                0               0         0.218815         47.6269        0.0507857           4.894
                               0               0                0               0        0.0507939         4.92841         0.218862          47.637
76.17                          0               0                0               0         0.158451         44.0974          0.96147           137.1
                               0               0                0               0         0.961605         137.093           0.1584         44.0105
                               0               0                0               0         0.219492         45.4808        0.0508608         1.60114
                               0               0                0               0        0.0508426         1.67412         0.219547           45.49
76.215                         0               0                0               0         0.161124         42.0598         0.960913          134.94
                               0               0                0               0         0.961044         134.934          0.16113         41.9758
                               0               0                0               0         0.219874         43.3282         0.050869        -1.74104
                               0               0                0               0        0.0508175        -1.64702         0.219934         43.3369
76.26                          0               0                0               0         0.163857         40.0226         0.960398         132.772
                               0               0                0               0         0.960537         132.769         0.163904         39.9465
                               0               0                0               0         0.219954          41.172        0.0507934        -5.13469
                               0               0                0               0        0.0507194        -5.02537         0.220018         41.1803
76.305                         0               0                0               0         0.166643         37.9828         0.959944           130.6
                               0               0                0               0         0.960092         130.599          0.16671         37.9157
                               0               0                0               0          0.21973          39.015        0.0506243         -8.5792
                               0               0                0               0        0.0505512        -8.45151         0.219797         39.0229
76.35                          0               0                0               0          0.16947         35.9405         0.959566         128.425
                               0               0                0               0         0.959717         128.427         0.169539         35.8812
                               0               0                0               0         0.219199         36.8602        0.0503605        -12.0707
                               0               0                0               0        0.0503175        -11.9181         0.219268         36.8674
76.395                         0               0                0               0         0.172323          33.899         0.959268          126.25
                               0               0                0               0         0.959411         126.255         0.172384         33.8455
                               0               0                0               0         0.218363         34.7108         0.050011         -15.603
                               0               0                0               0        0.0500211        -15.4219         0.218434         34.7171
76.44                          0               0                0               0         0.175181         31.8649         0.959039         124.079
                               0               0                0               0         0.959169         124.087          0.17524         31.8154
