! TOUCHSTONE file generated by CST MICROWAVE STUDIO
! Date and time: Sun Jun 20 22:38:19 2021
! Project name: HIPS_d_sweep.cst
! Parameters = {fmax=120; fmin=75; b=0.46; d=25.75; a=0.63; phi=0; theta=0}
! Header version: 2018
! Port assignment regex: !\s*Touchstone port\s*([0-9]+)\s*=\s*(CST MWS port|CST DS port)\s*([0-9]+|Zmin|Zmax)\s*\(\"(.*)\"\)(\s*mode\s*([0-9]+))?.*
! Touchstone port assignment:
! Touchstone port 1 = CST MWS port Zmin ("") mode 1
! Touchstone port 2 = CST MWS port Zmin ("") mode 2
! Touchstone port 3 = CST MWS port Zmax ("") mode 1
! Touchstone port 4 = CST MWS port Zmax ("") mode 2
! S-Parameters are not renormalized. Unphysical impedance of 0 will be written to the file.
# GHz S MA R 0
75                             0               0                0               0         0.207542        0.287237         0.965504         90.2573
                               0               0                0               0         0.965941         90.2545         0.207429        0.250612
                               0               0                0               0         0.153021        0.241032        0.0328689        -89.7993
                               0               0                0               0        0.0328302        -90.0139         0.152962        0.258781
75.045                         0               0                0               0         0.203857       -0.315972         0.966974         89.4299
                               0               0                0               0         0.967519         89.4308         0.203306       -0.338097
                               0               0                0               0         0.151248       -0.602636        0.0317445        -90.5359
                               0               0                0               0        0.0317182        -90.6998         0.151176       -0.582863
75.09                          0               0                0               0         0.200379        -1.11091         0.968252         88.5112
                               0               0                0               0         0.968852         88.5148         0.199593        -1.12175
                               0               0                0               0         0.149126        -1.52104        0.0306607        -91.6156
                               0               0                0               0        0.0306414        -91.7544         0.149048        -1.50033
75.135                         0               0                0               0         0.197179         -2.0721         0.969376         87.5024
                               0               0                0               0         0.969992         87.5076         0.196313        -2.07336
                               0               0                0               0         0.146666        -2.51497        0.0296152        -93.0563
                               0               0                0               0        0.0295997        -93.1893         0.146585        -2.49396
75.18                          0               0                0               0         0.194311        -3.17395         0.970378          86.405
                               0               0                0               0         0.970984         86.4109         0.193476        -3.16797
                               0               0                0               0         0.143875        -3.58413         0.028607        -94.8785
                               0               0                0               0        0.0285937        -95.0197         0.143795        -3.56318
75.225                         0               0                0               0         0.191816        -4.39256         0.971282         85.2205
                               0               0                0               0         0.971863         85.2264         0.191084        -4.38319
                               0               0                0               0         0.140758        -4.72737        0.0276366        -97.1053
                               0               0                0               0         0.027625         -97.264         0.140681        -4.70664
75.27                          0               0                0               0         0.189724        -5.70717         0.972108          83.951
                               0               0                0               0         0.972657         83.9564         0.189133         -5.6996
                               0               0                0               0         0.137317        -5.94279        0.0267064        -99.7625
                               0               0                0               0        0.0266972        -99.9438         0.137243        -5.92228
75.315                         0               0                0               0         0.188059        -7.10126         0.972871         82.5983
                               0               0                0               0         0.973387          82.603         0.187619        -7.10104
                               0               0                0               0         0.133553        -7.22777         0.025821        -102.877
                               0               0                0               0        0.0258156        -103.083         0.133483         -7.2074
75.36                          0               0                0               0         0.186838        -8.56316          0.97358         81.1647
                               0               0                0               0         0.974066         81.1687         0.186536        -8.57486
                               0               0                0               0         0.129465        -8.57896        0.0249878        -106.478
                               0               0                0               0        0.0249881        -106.707         0.129399        -8.55857
75.405                         0               0                0               0         0.186071         -10.086          0.97424         79.6525
                               0               0                0               0         0.974702          79.656          0.18588         -10.112
                               0               0                0               0         0.125053        -9.99222        0.0242174        -110.592
                               0               0                0               0        0.0242254         -110.84          0.12499        -9.97161
75.45                          0               0                0               0         0.185757        -11.6673         0.974853         78.0642
                               0               0                0               0         0.975299         78.0675         0.185644        -11.7071
                               0               0                0               0         0.120315        -11.4625        0.0235239        -115.242
                               0               0                0               0        0.0235414        -115.501         0.120255        -11.4414
75.495                         0               0                0               0         0.185888        -13.3073         0.975418         76.4025
                               0               0                0               0         0.975853         76.4061         0.185822        -13.3579
                               0               0                0               0         0.115251        -12.9836        0.0229248        -120.441
                               0               0                0               0        0.0229533        -120.703         0.115193        -12.9617
75.54                          0               0                0               0         0.186446        -15.0081         0.975929         74.6701
                               0               0                0               0         0.976361         74.6746         0.186403        -15.0648
                               0               0                0               0         0.109862        -14.5479         0.022441        -126.188
                               0               0                0               0        0.0224814        -126.442         0.109804        -14.5249
75.585                         0               0                0               0         0.187404        -16.7724         0.976382         72.8701
                               0               0                0               0         0.976814          72.876         0.187371          -16.83
                               0               0                0               0         0.104149        -16.1461        0.0220959        -132.462
                               0               0                0               0        0.0221483        -132.697         0.104092        -16.1215
75.63                          0               0                0               0         0.188735        -18.6019         0.976768         71.0057
                               0               0                0               0         0.977203         71.0133         0.188705        -18.6562
                               0               0                0               0        0.0981177        -17.7664        0.0219142        -139.216
                               0               0                0               0        0.0219777        -139.421        0.0980594        -17.7397
75.675                         0               0                0               0         0.190403        -20.4975         0.977081         69.0801
                               0               0                0               0         0.977518         69.0898          0.19038        -20.5459
                               0               0                0               0        0.0917747        -19.3937        0.0219197        -146.371
                               0               0                0               0        0.0219923        -146.536         0.091715        -19.3644
75.72                          0               0                0               0         0.192378        -22.4585         0.977311         67.0969
                               0               0                0               0         0.977749         67.1089         0.192366        -22.5005
                               0               0                0               0        0.0851301        -21.0085         0.022133        -153.823
                               0               0                0               0        0.0222119        -153.943        0.0850687        -20.9757
75.765                         0               0                0               0         0.194626        -24.4831         0.977451         65.0597
                               0               0                0               0         0.977887         65.0741         0.194633        -24.5197
                               0               0                0               0        0.0781977        -22.5843         0.022569         -161.45
                               0               0                0               0        0.0226511        -161.523        0.0781344        -22.5471
75.81                          0               0                0               0         0.197118        -26.5684         0.977494         62.9726
                               0               0                0               0         0.977924         62.9893         0.197151        -26.6015
                               0               0                0               0        0.0709948        -24.0845        0.0232354        -169.122
                               0               0                0               0        0.0233171        -169.151        0.0709298        -24.0415
75.855                         0               0                0               0         0.199829        -28.7107         0.977435         60.8395
                               0               0                0               0         0.977853         60.8581         0.199889        -28.7427
                               0               0                0               0        0.0635433        -25.4553        0.0241314        -176.721
                               0               0                0               0        0.0242098        -176.712        0.0634771        -25.4049
75.9                           0               0                0               0         0.202733        -30.9058         0.977268         58.6647
                               0               0                0               0         0.977671          58.685         0.202822        -30.9386
                               0               0                0               0        0.0558705        -26.6145        0.0252489         175.851
                               0               0                0               0        0.0253214          175.89        0.0558037        -26.5541
75.945                         0               0                0               0         0.205809        -33.1491         0.976991         56.4527
                               0               0                0               0         0.977376          56.474         0.205924        -33.1839
                               0               0                0               0        0.0480102        -27.4265         0.026573         168.665
                               0               0                0               0        0.0266381         168.723        0.0479438        -27.3523
75.99                          0               0                0               0         0.209036        -35.4358         0.976603         54.2079
                               0               0                0               0         0.976968         54.2298         0.209173        -35.4729
                               0               0                0               0        0.0400072        -27.6484        0.0280843         161.764
                               0               0                0               0        0.0281413         161.832        0.0399425        -27.5537
76.035                         0               0                0               0         0.212393        -37.7609         0.976103         51.9351
                               0               0                0               0         0.976449         51.9569         0.212548        -37.7997
                               0               0                0               0        0.0319269        -26.7941        0.0297606         155.164
                               0               0                0               0        0.0298095         155.235         0.031866        -26.6671
76.08                          0               0                0               0          0.21586        -40.1192         0.975495         49.6387
                               0               0                0               0         0.975824         49.6603         0.216028        -40.1584
                               0               0                0               0        0.0238873        -23.7375        0.0315783         148.868
                               0               0                0               0          0.03162         148.935        0.0238337        -23.5524
76.125                         0               0                0               0         0.219414        -42.5055          0.97478         47.3236
                               0               0                0               0         0.975096         47.3446         0.219589        -42.5435
                               0               0                0               0        0.0161824        -15.2856        0.0335136         142.861
                               0               0                0               0        0.0335494         142.921        0.0161449        -14.9794
76.17                          0               0                0               0          0.22303        -44.9146         0.973962         44.9943
                               0               0                0               0          0.97427         45.0146         0.223209        -44.9496
                               0               0                0               0        0.0099257         9.37648        0.0355433         137.127
                               0               0                0               0        0.0355748         137.175       0.00993257         9.91933
76.215                         0               0                0               0          0.22668        -47.3416         0.973048         42.6552
                               0               0                0               0         0.973352         42.6751          0.22686        -47.3717
                               0               0                0               0       0.00915396         60.7453        0.0376456         131.643
                               0               0                0               0        0.0376743         131.678       0.00923438         61.0567
76.26                          0               0                0               0         0.230334        -49.7814          0.97204         40.3105
                               0               0                0               0         0.972343         40.3302         0.230514        -49.8054
                               0               0                0               0        0.0147905         91.1573        0.0397999         126.387
                               0               0                0               0        0.0398268         126.407        0.0148859         91.1513
76.305                         0               0                0               0         0.233959        -52.2298         0.970947         37.9644
                               0               0                0               0         0.971248         37.9841         0.234141        -52.2467
                               0               0                0               0        0.0224131         101.533        0.0419871         121.338
                               0               0                0               0        0.0420126         121.342        0.0225072         101.475
76.35                          0               0                0               0         0.237519        -54.6827         0.969772         35.6203
                               0               0                0               0         0.970068         35.6405         0.237708        -54.6923
                               0               0                0               0        0.0305199         105.274        0.0441897         116.476
                               0               0                0               0        0.0442131         116.465        0.0306133         105.213
76.395                         0               0                0               0         0.240981        -57.1364         0.968522         33.2817
                               0               0                0               0         0.968805         33.3022         0.241184        -57.1391
                               0               0                0               0        0.0387446         106.418        0.0463916         111.784
                               0               0                0               0        0.0464112         111.759        0.0388389         106.361
76.44                          0               0                0               0         0.244313        -59.5876         0.967206         30.9516
                               0               0                0               0         0.967462         30.9722          0.24454        -59.5841
