! TOUCHSTONE file generated by CST MICROWAVE STUDIO
! Date and time: Sun Jun 20 22:38:20 2021
! Project name: HIPS_d_sweep.cst
! Parameters = {fmax=120; fmin=75; b=0.46; d=25.9; a=0.63; phi=0; theta=0}
! Header version: 2018
! Port assignment regex: !\s*Touchstone port\s*([0-9]+)\s*=\s*(CST MWS port|CST DS port)\s*([0-9]+|Zmin|Zmax)\s*\(\"(.*)\"\)(\s*mode\s*([0-9]+))?.*
! Touchstone port assignment:
! Touchstone port 1 = CST MWS port Zmin ("") mode 1
! Touchstone port 2 = CST MWS port Zmin ("") mode 2
! Touchstone port 3 = CST MWS port Zmax ("") mode 1
! Touchstone port 4 = CST MWS port Zmax ("") mode 2
! S-Parameters are not renormalized. Unphysical impedance of 0 will be written to the file.
# GHz S MA R 0
75                             0               0                0               0         0.222156        -16.4856         0.969373         73.0392
                               0               0                0               0         0.969281         73.0337         0.222097        -16.4866
                               0               0                0               0        0.0994749        -14.9824        0.0285517        -143.313
                               0               0                0               0        0.0285398        -143.373        0.0993708        -14.9871
75.045                         0               0                0               0         0.217791        -17.3428         0.970644         72.1901
                               0               0                0               0         0.970549         72.1847         0.217733        -17.3477
                               0               0                0               0        0.0970936        -15.8657        0.0276002        -145.005
                               0               0                0               0        0.0275884        -145.059        0.0969897        -15.8663
75.09                          0               0                0               0          0.21394        -18.2884         0.971794         71.2526
                               0               0                0               0         0.971699         71.2472         0.213883        -18.2919
                               0               0                0               0        0.0943585        -16.8004        0.0267593        -147.127
                               0               0                0               0        0.0267475        -147.188        0.0942542        -16.8012
75.135                         0               0                0               0         0.210592        -19.3218         0.972835         70.2269
                               0               0                0               0         0.972739         70.2215         0.210532         -19.321
                               0               0                0               0        0.0912704        -17.7865        0.0260304        -149.684
                               0               0                0               0        0.0260189        -149.761        0.0911657        -17.7902
75.18                          0               0                0               0         0.207731        -20.4421         0.973775         69.1134
                               0               0                0               0         0.973679          69.108         0.207668         -20.436
                               0               0                0               0        0.0878305        -18.8221        0.0254171        -152.677
                               0               0                0               0        0.0254069        -152.776        0.0877256        -18.8299
75.225                         0               0                0               0         0.205345        -21.6488         0.974621         67.9131
                               0               0                0               0         0.974525         67.9076         0.205278        -21.6377
                               0               0                0               0        0.0840402        -19.9033        0.0249258        -156.102
                               0               0                0               0        0.0249178        -156.223        0.0839353        -19.9152
75.27                          0               0                0               0          0.20342        -22.9409         0.975377         66.6271
                               0               0                0               0         0.975279         66.6216         0.203349        -22.9259
                               0               0                0               0        0.0799012        -21.0234        0.0245648        -159.944
                               0               0                0               0        0.0245598        -160.086        0.0797966        -21.0386
75.315                         0               0                0               0         0.201942        -24.3176         0.976046         65.2569
                               0               0                0               0         0.975946         65.2514         0.201868        -24.3001
                               0               0                0               0        0.0754163        -22.1723        0.0243439        -164.181
                               0               0                0               0        0.0243425        -164.338         0.075312        -22.1894
75.36                          0               0                0               0         0.200897        -25.7778         0.976627         63.8045
                               0               0                0               0         0.976526         63.7989         0.200821        -25.7594
                               0               0                0               0        0.0705891        -23.3355        0.0242737        -168.776
                               0               0                0               0         0.024276        -168.943        0.0704851        -23.3528
75.405                         0               0                0               0          0.20027        -27.3203          0.97712         62.2721
                               0               0                0               0         0.977018         62.2665         0.200193        -27.3022
                               0               0                0               0        0.0654251         -24.492        0.0243648        -173.684
                               0               0                0               0        0.0243703        -173.852        0.0653212        -24.5075
75.45                          0               0                0               0         0.200047        -28.9436         0.977522         60.6622
                               0               0                0               0         0.977419         60.6565         0.199971        -28.9266
                               0               0                0               0        0.0599317        -25.6111        0.0246264        -178.845
                               0               0                0               0        0.0246344         -179.01         0.059828        -25.6228
75.495                         0               0                0               0         0.200211        -30.6458         0.977829         58.9777
                               0               0                0               0         0.977725         58.9718         0.200137        -30.6304
                               0               0                0               0        0.0541193        -26.6466        0.0250658         175.802
                               0               0                0               0        0.0250752         175.647        0.0540158        -26.6522
75.54                          0               0                0               0         0.200747        -32.4248         0.978036         57.2217
                               0               0                0               0         0.977933         57.2156         0.200677        -32.4109
                               0               0                0               0        0.0480023        -27.5255        0.0256875         170.326
                               0               0                0               0        0.0256971         170.183        0.0478991        -27.5224
75.585                         0               0                0               0         0.201637        -34.2783         0.978139         55.3976
                               0               0                0               0         0.978038         55.3912          0.20157        -34.2654
                               0               0                0               0        0.0416005        -28.1261        0.0264925         164.789
                               0               0                0               0        0.0265012         164.658        0.0414977        -28.1108
75.63                          0               0                0               0         0.202861        -36.2034         0.978132          53.509
                               0               0                0               0         0.978033         53.5023         0.202799        -36.1906
                               0               0                0               0        0.0349426        -28.2272        0.0274781         159.248
                               0               0                0               0        0.0274853         159.129        0.0348407        -28.1945
75.675                         0               0                0               0         0.204401        -38.1969         0.978009         51.5598
                               0               0                0               0         0.977915         51.5528         0.204344        -38.1833
                               0               0                0               0        0.0280745        -27.3817        0.0286382         153.751
                               0               0                0               0        0.0286439          153.64        0.0279743        -27.3212
75.72                          0               0                0               0         0.206234        -40.2554         0.977768         49.5541
                               0               0                0               0         0.977678         49.5467         0.206181          -40.24
                               0               0                0               0        0.0210839         -24.535        0.0299635         148.333
                               0               0                0               0        0.0299682         148.225        0.0209873        -24.4221
75.765                         0               0                0               0         0.208338        -42.3748         0.977404          47.496
                               0               0                0               0          0.97732         47.4883         0.208288        -42.3569
                               0               0                0               0        0.0142004        -16.5874        0.0314418         143.018
                               0               0                0               0         0.031447         142.908        0.0141136        -16.3452
75.81                          0               0                0               0         0.210688         -44.551         0.976915           45.39
                               0               0                0               0         0.976837          45.382         0.210639        -44.5301
                               0               0                0               0        0.0083712         8.13353         0.033059         137.821
                               0               0                0               0        0.0330665         137.703       0.00832242          8.7744
75.855                         0               0                0               0         0.213258        -46.7793         0.976302         43.2405
                               0               0                0               0         0.976229         43.2321         0.213207        -46.7555
                               0               0                0               0       0.00767943         64.6963        0.0347992         132.747
                               0               0                0               0        0.0348114         132.613       0.00773435         65.3598
75.9                           0               0                0               0         0.216021        -49.0548         0.975565         41.0519
                               0               0                0               0         0.975496         41.0433         0.215965        -49.0286
                               0               0                0               0        0.0132615         95.7876        0.0366453         127.796
                               0               0                0               0        0.0366632         127.634        0.0133555         95.9761
75.945                         0               0                0               0         0.218948        -51.3724         0.974707         38.8288
                               0               0                0               0          0.97464         38.8202         0.218883        -51.3448
                               0               0                0               0        0.0206501         105.471        0.0385796         122.967
                               0               0                0               0         0.038586         122.736        0.0207497         105.533
75.99                          0               0                0               0         0.222008        -53.7266         0.973734         36.5759
                               0               0                0               0         0.973666         36.5672          0.22193        -53.6993
                               0               0                0               0        0.0285357         108.751        0.0405842         118.251
                               0               0                0               0        0.0404662         118.123         0.028635         108.772
76.035                         0               0                0               0         0.225172         -56.112         0.972652         34.2976
                               0               0                0               0         0.972579          34.289         0.225075        -56.0868
                               0               0                0               0        0.0366191         109.592        0.0426411         113.643
                               0               0                0               0         0.042627          113.59        0.0367162         109.597
76.08                          0               0                0               0         0.228409         -58.523         0.971469         31.9985
                               0               0                0               0         0.971387         31.9901         0.228288         -58.502
                               0               0                0               0        0.0447863         109.274        0.0447329         109.133
                               0               0                0               0        0.0447561         109.066        0.0448803          109.27
76.125                         0               0                0               0         0.231688         -60.954         0.970194         29.6829
                               0               0                0               0         0.970098         29.6748         0.231537         -60.939
                               0               0                0               0        0.0529724         108.321        0.0468428         104.717
                               0               0                0               0        0.0468857         104.648        0.0530626          108.31
76.17                          0               0                0               0         0.234979        -63.3993         0.968837         27.3552
                               0               0                0               0         0.968723         27.3475         0.234794        -63.3922
                               0               0                0               0        0.0611306         106.983        0.0489549         100.386
                               0               0                0               0        0.0490114         100.326        0.0612168         106.968
76.215                         0               0                0               0         0.238255        -65.8536          0.96741         25.0197
                               0               0                0               0         0.967273         25.0124         0.238031        -65.8553
                               0               0                0               0        0.0692225         105.398        0.0510547         96.1351
                               0               0                0               0        0.0511202         96.0946        0.0693047         105.381
76.26                          0               0                0               0         0.241488        -68.3117         0.965921         22.6803
                               0               0                0               0         0.965759         22.6735         0.241224        -68.3224
                               0               0                0               0        0.0772145         103.647        0.0531287         91.9604
                               0               0                0               0         0.053199         91.9471         0.077293         103.628
76.305                         0               0                0               0         0.244657        -70.7684         0.964382         20.3412
                               0               0                0               0         0.964192         20.3347         0.244355        -70.7876
                               0               0                0               0        0.0850764         101.781        0.0551647         87.8584
                               0               0                0               0        0.0552353         87.8788        0.0851521         101.762
76.35                          0               0                0               0         0.247744        -73.2193         0.962802         18.0061
                               0               0                0               0         0.962583         17.9998         0.247406        -73.2453
                               0               0                0               0        0.0927807          99.835        0.0571518         83.8272
                               0               0                0               0        0.0572178         83.8851        0.0928546         99.8179
76.395                         0               0                0               0         0.250733        -75.6599         0.961189         15.6785
                               0               0                0               0         0.960943         15.6723         0.250369        -75.6905
                               0               0                0               0         0.100302         97.8345        0.0590798         79.8662
                               0               0                0               0        0.0591368         79.9618         0.100376         97.8196
76.44                          0               0                0               0         0.253617        -78.0862         0.959551         13.3619
                               0               0                0               0         0.959283         13.3558         0.253237        -78.1189
