! TOUCHSTONE file generated by CST MICROWAVE STUDIO
! Date and time: Sun Jun 20 22:38:21 2021
! Project name: HIPS_d_sweep.cst
! Parameters = {fmax=120; fmin=75; b=0.46; d=25.95; a=0.63; phi=0; theta=0}
! Header version: 2018
! Port assignment regex: !\s*Touchstone port\s*([0-9]+)\s*=\s*(CST MWS port|CST DS port)\s*([0-9]+|Zmin|Zmax)\s*\(\"(.*)\"\)(\s*mode\s*([0-9]+))?.*
! Touchstone port assignment:
! Touchstone port 1 = CST MWS port Zmin ("") mode 1
! Touchstone port 2 = CST MWS port Zmin ("") mode 2
! Touchstone port 3 = CST MWS port Zmax ("") mode 1
! Touchstone port 4 = CST MWS port Zmax ("") mode 2
! S-Parameters are not renormalized. Unphysical impedance of 0 will be written to the file.
# GHz S MA R 0
75                             0               0                0               0         0.227102        -22.2489         0.970209         67.2538
                               0               0                0               0         0.970292          67.255         0.226988        -22.1942
                               0               0                0               0        0.0793959         -18.989        0.0291426        -163.092
                               0               0                0               0        0.0290766        -163.242        0.0793577        -19.0298
75.045                         0               0                0               0         0.222435        -22.9493         0.971856         66.4053
                               0               0                0               0         0.971956         66.4057         0.222255          -22.95
                               0               0                0               0         0.076819        -19.8901        0.0283585        -165.029
                               0               0                0               0        0.0282913        -165.131        0.0767871        -19.9268
75.09                          0               0                0               0         0.218465        -23.8752          0.97307         65.4653
                               0               0                0               0         0.973173         65.4658         0.218291        -23.8873
                               0               0                0               0        0.0739319        -20.7958        0.0276587        -167.364
                               0               0                0               0        0.0275943        -167.459        0.0739024        -20.8322
75.135                         0               0                0               0         0.215168        -24.9858         0.973931         64.4337
                               0               0                0               0         0.974025         64.4349         0.215026        -24.9764
                               0               0                0               0        0.0707254        -21.7038        0.0270593        -170.099
                               0               0                0               0        0.0270028        -170.218         0.070695        -21.7435
75.18                          0               0                0               0         0.212504        -26.2471         0.974514         63.3113
                               0               0                0               0          0.97459         63.3134         0.212393        -26.1937
                               0               0                0               0        0.0671921        -22.6087        0.0265764        -173.223
                               0               0                0               0        0.0265328        -173.389        0.0671582        -22.6549
75.225                         0               0                0               0         0.210425        -27.6312         0.974886         62.0993
                               0               0                0               0         0.974939         62.1025          0.21033        -27.5201
                               0               0                0               0        0.0633263        -23.5005        0.0262256        -176.718
                               0               0                0               0        0.0261997        -176.945        0.0632869        -23.5562
75.27                          0               0                0               0         0.208879        -29.1158         0.975104         60.7996
                               0               0                0               0         0.975133         60.8038         0.208779        -28.9405
                               0               0                0               0        0.0591245        -24.3625        0.0260214         179.445
                               0               0                0               0        0.0260172         179.151        0.0590781        -24.4305
75.315                         0               0                0               0         0.207818        -30.6832         0.975217         59.4145
                               0               0                0               0         0.975221         59.4197         0.207691         -30.443
                               0               0                0               0        0.0545858        -25.1678        0.0259771         175.304
                               0               0                0               0        0.0259973         174.946        0.0545313        -25.2505
75.36                          0               0                0               0         0.207194        -32.3196         0.975262          57.947
                               0               0                0               0         0.975245         57.9528         0.207019        -32.0182
                               0               0                0               0        0.0497123        -25.8733        0.0261038          170.91
                               0               0                0               0        0.0261498         170.495        0.0496489        -25.9732
75.405                         0               0                0               0         0.206962        -34.0144         0.975269         56.3999
                               0               0                0               0         0.975235         56.4063         0.206725        -33.6591
                               0               0                0               0        0.0445103        -26.4086        0.0264103         166.316
                               0               0                0               0        0.0264815         165.858        0.0444376        -26.5279
75.45                          0               0                0               0         0.207084        -35.7598         0.975255         54.7768
                               0               0                0               0         0.975213         54.7834         0.206772        -35.3603
                               0               0                0               0         0.038992        -26.6534         0.026902          161.58
                               0               0                0               0        0.0269962         161.093        0.0389098        -26.7948
75.495                         0               0                0               0         0.207523        -37.5499         0.975233          53.081
                               0               0                0               0          0.97519         53.0877         0.207128         -37.118
                               0               0                0               0         0.033179          -26.39        0.0275811         156.756
                               0               0                0               0        0.0276944         156.257        0.0330873        -26.5563
75.54                          0               0                0               0         0.208245        -39.3808         0.975205         51.3163
                               0               0                0               0          0.97517         51.3229         0.207765        -38.9294
                               0               0                0               0        0.0271108         -25.185        0.0284464         151.894
                               0               0                0               0        0.0285736         151.398        0.0270095         -25.379
75.585                         0               0                0               0         0.209221          -41.25         0.975168         49.4864
                               0               0                0               0         0.975149         49.4927         0.208659        -40.7928
                               0               0                0               0         0.020869        -22.0565        0.0294931         147.034
                               0               0                0               0        0.0296282         146.556        0.0207575        -22.2775
75.63                          0               0                0               0         0.210421         -43.156         0.975112         47.5952
                               0               0                0               0         0.975117          47.601         0.209786        -42.7072
                               0               0                0               0        0.0146644        -14.3317        0.0307136         142.209
                               0               0                0               0          0.03085         141.759        0.0145414        -14.5526
75.675                         0               0                0               0         0.211821        -45.0986         0.975025         45.6464
                               0               0                0               0          0.97506         45.6518         0.211129        -44.6724
                               0               0                0               0       0.00926491          6.7767        0.0320973         137.439
                               0               0                0               0        0.0322286         137.025       0.00913481          6.7787
75.72                          0               0                0               0         0.213396        -47.0783         0.974888          43.644
                               0               0                0               0         0.974959         43.6489         0.212669        -46.6885
                               0               0                0               0        0.0077061         55.2742        0.0336313         132.736
                               0               0                0               0        0.0337517         132.365       0.00763182         56.0008
75.765                         0               0                0               0         0.215124        -49.0966         0.974681         41.5918
                               0               0                0               0          0.97479         41.5963         0.214392        -48.7558
                               0               0                0               0        0.0120824         90.7094        0.0353002         128.106
                               0               0                0               0        0.0354051         127.783        0.0120856          91.242
75.81                          0               0                0               0         0.216983        -51.1557         0.974385         39.4938
                               0               0                0               0         0.974533         39.4979         0.216288        -50.8747
                               0               0                0               0        0.0188248         103.342        0.0370872          123.55
                               0               0                0               0        0.0371735         123.276        0.0188555         103.634
75.855                         0               0                0               0         0.218957        -53.2588         0.973979         37.3538
                               0               0                0               0         0.974163         37.3576         0.218347        -53.0457
                               0               0                0               0        0.0262934         107.994        0.0389736         119.066
                               0               0                0               0        0.0390398         118.841        0.0263316         108.165
75.9                           0               0                0               0         0.221029        -55.4099         0.973443         35.1757
                               0               0                0               0         0.973657         35.1793         0.220564        -55.2684
                               0               0                0               0        0.0340803         109.572        0.0409398         114.648
                               0               0                0               0        0.0409863         114.471        0.0341179         109.679
75.945                         0               0                0               0          0.22319        -57.6138          0.97276         32.9635
                               0               0                0               0         0.972998         32.9669         0.222937        -57.5417
                               0               0                0               0        0.0420343         109.697        0.0429657         110.295
                               0               0                0               0        0.0429944         110.162        0.0420674         109.765
75.99                          0               0                0               0         0.225443        -59.8761         0.971918         30.7209
                               0               0                0               0         0.972169         30.7243         0.225465        -59.8632
                               0               0                0               0         0.050072         109.025         0.045031         106.002
                               0               0                0               0         0.045045         105.907        0.0500989         109.069
76.035                         0               0                0               0         0.227802        -62.2018         0.970909         28.4519
                               0               0                0               0         0.971161         28.4554          0.22815        -62.2289
                               0               0                0               0        0.0581344         107.871         0.047116         101.766
                               0               0                0               0        0.0471191         101.705        0.0581542           107.9
76.08                          0               0                0               0         0.230304        -64.5935         0.969731         26.1604
                               0               0                0               0         0.969969         26.1641          0.23099        -64.6324
                               0               0                0               0        0.0661735         106.407        0.0492024         97.5871
                               0               0                0               0        0.0491985         97.5511        0.0661863         106.425
76.125                         0               0                0               0         0.233009         -67.047         0.968388         23.8505
                               0               0                0               0         0.968598         23.8545         0.233979        -67.0655
                               0               0                0               0        0.0741486         104.733        0.0512737         93.4636
                               0               0                0               0        0.0512662         93.4463        0.0741553         104.745
76.17                          0               0                0               0         0.235986        -69.5454         0.966894         21.5264
                               0               0                0               0         0.967061         21.5306         0.237101        -69.5181
                               0               0                0               0        0.0820245         102.914        0.0533156         89.3952
                               0               0                0               0        0.0533069         89.3904        0.0820262         102.921
76.215                         0               0                0               0         0.239271        -72.0565         0.965269         19.1923
                               0               0                0               0         0.965383         19.1967         0.240326        -71.9793
                               0               0                0               0        0.0897714         100.993        0.0553163         85.3815
                               0               0                0               0        0.0553076         85.3844        0.0897693         100.997
76.26                          0               0                0               0         0.242809        -74.5394         0.963542         16.8528
                               0               0                0               0         0.963594         16.8573         0.243608        -74.4392
                               0               0                0               0        0.0973639         99.0006        0.0572665         81.4215
                               0               0                0               0        0.0572579         81.4295        0.0973593         99.0023
76.305                         0               0                0               0          0.24643        -76.9655         0.961747         14.5126
                               0               0                0               0         0.961736         14.5172         0.246887          -76.89
                               0               0                0               0         0.104781         96.9587        0.0591589         77.5143
                               0               0                0               0        0.0591495          77.527         0.104775         96.9583
76.35                          0               0                0               0         0.249904         -79.337         0.959923         12.1765
                               0               0                0               0         0.959856         12.1813         0.250093        -79.3273
                               0               0                0               0         0.112006         94.8831        0.0609882          73.658
                               0               0                0               0        0.0609768         73.6775         0.111999         94.8808
76.395                         0               0                0               0         0.253061        -81.6848         0.958113         9.84965
                               0               0                0               0         0.958005         9.85471         0.253155        -81.7505
                               0               0                0               0         0.119025          92.786          0.06275          69.851
                               0               0                0               0         0.062735         69.8812         0.119017         92.7818
76.44                          0               0                0               0         0.255856        -84.0502         0.956353         7.53678
                               0               0                0               0         0.956226         7.54237         0.256011        -84.1619
