! TOUCHSTONE file generated by CST MICROWAVE STUDIO
! Date and time: Sun Jun 20 22:37:08 2021
! Project name: HIPS_d_sweep.cst
! Parameters = {fmax=120; fmin=75; b=0.46; d=18.8; a=0.63; phi=0; theta=0}
! Header version: 2018
! Port assignment regex: !\s*Touchstone port\s*([0-9]+)\s*=\s*(CST MWS port|CST DS port)\s*([0-9]+|Zmin|Zmax)\s*\(\"(.*)\"\)(\s*mode\s*([0-9]+))?.*
! Touchstone port assignment:
! Touchstone port 1 = CST MWS port Zmin ("") mode 1
! Touchstone port 2 = CST MWS port Zmin ("") mode 2
! Touchstone port 3 = CST MWS port Zmax ("") mode 1
! Touchstone port 4 = CST MWS port Zmax ("") mode 2
! S-Parameters are not renormalized. Unphysical impedance of 0 will be written to the file.
# GHz S MA R 0
75                             0               0                0               0         0.253474        -112.388          0.94804         157.542
                               0               0                0               0         0.948109         157.541         0.253532        -112.355
                               0               0                0               0         0.185727         67.6421        0.0495349         155.139
                               0               0                0               0        0.0495004         155.159         0.185659         67.6658
75.045                         0               0                0               0         0.256499        -113.045         0.947143         156.851
                               0               0                0               0         0.946812         156.886           0.2565         -113.01
                               0               0                0               0         0.186029         67.0836        0.0503586         154.028
                               0               0                0               0        0.0503192         154.048         0.185963         67.1071
75.09                          0               0                0               0         0.259214        -113.736         0.946307          156.13
                               0               0                0               0           0.9458         156.183         0.259183        -113.702
                               0               0                0               0         0.186416         66.4593        0.0511202         152.779
                               0               0                0               0        0.0510779         152.798         0.186351         66.4828
75.135                         0               0                0               0         0.261612        -114.466         0.945532          155.37
                               0               0                0               0         0.945002         155.429         0.261567        -114.433
                               0               0                0               0         0.186895         65.7723        0.0518272         151.383
                               0               0                0               0        0.0517835         151.402         0.186831          65.796
75.18                          0               0                0               0         0.263686        -115.238         0.944815         154.567
                               0               0                0               0          0.94436         154.622         0.263644        -115.207
                               0               0                0               0          0.18747         65.0257        0.0524885         149.834
                               0               0                0               0        0.0524448         149.852         0.187407         65.0496
75.225                         0               0                0               0         0.265437        -116.056         0.944154         153.715
                               0               0                0               0         0.943828         153.759          0.26541        -116.028
                               0               0                0               0         0.188142         64.2228        0.0531141         148.131
                               0               0                0               0        0.0530716         148.147         0.188078         64.2469
75.27                          0               0                0               0         0.266867        -116.922         0.943545         152.809
                               0               0                0               0          0.94337         152.839         0.266862        -116.896
                               0               0                0               0         0.188907         63.3666        0.0537145          146.27
                               0               0                0               0        0.0536743         146.285         0.188843         63.3909
75.315                         0               0                0               0         0.267983        -117.839          0.94299         151.846
                               0               0                0               0          0.94296         151.862         0.268003        -117.815
                               0               0                0               0         0.189763         62.4598        0.0543003         144.256
                               0               0                0               0        0.0542634         144.269         0.189698         62.4843
75.36                          0               0                0               0         0.268797        -118.809         0.942488         150.825
                               0               0                0               0         0.942584         150.827         0.268842        -118.784
                               0               0                0               0         0.190702          61.505        0.0548817         142.092
                               0               0                0               0        0.0548487         142.103         0.190636         61.5297
75.405                         0               0                0               0          0.26932        -119.831         0.942045         149.743
                               0               0                0               0         0.942235         149.735         0.269387        -119.806
                               0               0                0               0         0.191717         60.5046        0.0554676         139.785
                               0               0                0               0        0.0554393         139.793          0.19165         60.5294
75.45                          0               0                0               0         0.269568        -120.907         0.941667         148.601
                               0               0                0               0         0.941916         148.586          0.26965         -120.88
                               0               0                0               0         0.192796         59.4605        0.0560658         137.344
                               0               0                0               0        0.0560428         137.349         0.192729         59.4853
75.495                         0               0                0               0         0.269556        -122.034         0.941362         147.401
                               0               0                0               0         0.941632         147.383         0.269648        -122.006
                               0               0                0               0         0.193929         58.3743        0.0566826         134.778
                               0               0                0               0        0.0566654          134.78         0.193862         58.3992
75.54                          0               0                0               0         0.269303        -123.213         0.941139         146.144
                               0               0                0               0         0.941395         146.126         0.269396        -123.183
                               0               0                0               0         0.195103         57.2477        0.0573224           132.1
                               0               0                0               0        0.0573114         132.099         0.195035         57.2725
75.585                         0               0                0               0         0.268827         -124.44         0.941006         144.833
                               0               0                0               0         0.941216         144.819         0.268914        -124.408
                               0               0                0               0         0.196303         56.0818        0.0579877          129.32
                               0               0                0               0        0.0579832         129.316         0.196236         56.1065
75.63                          0               0                0               0         0.268145        -125.714          0.94097         143.471
                               0               0                0               0          0.94111         143.465         0.268218         -125.68
                               0               0                0               0         0.197516         54.8779        0.0586793         126.453
                               0               0                0               0        0.0586815         126.445         0.197448         54.9025
75.675                         0               0                0               0         0.267274         -127.03         0.941034         142.064
                               0               0                0               0         0.941086         142.066         0.267329        -126.995
                               0               0                0               0         0.198724         53.6371        0.0593962         123.509
                               0               0                0               0        0.0594052         123.498         0.198657         53.6615
75.72                          0               0                0               0         0.266234        -128.387         0.941201         140.614
                               0               0                0               0         0.941155         140.626         0.266265        -128.351
                               0               0                0               0         0.199913         52.3603        0.0601359         120.501
                               0               0                0               0        0.0601516         120.487         0.199846         52.3845
75.765                         0               0                0               0          0.26504        -129.781         0.941466         139.128
                               0               0                0               0         0.941319         139.148         0.265045        -129.744
                               0               0                0               0         0.201063         51.0488        0.0608943         117.441
                               0               0                0               0        0.0609166         117.424         0.200998         51.0728
75.81                          0               0                0               0         0.263708        -131.206         0.941825         137.608
                               0               0                0               0         0.941581         137.638         0.263686         -131.17
                               0               0                0               0          0.20216         49.7037        0.0616663          114.34
                               0               0                0               0        0.0616949         114.321         0.202095         49.7275
75.855                         0               0                0               0         0.262255        -132.661         0.942265          136.06
                               0               0                0               0         0.941936         136.098         0.262205        -132.626
                               0               0                0               0         0.203184         48.3264        0.0624459         111.209
                               0               0                0               0        0.0624803         111.188         0.203121         48.3499
75.9                           0               0                0               0         0.260693         -134.14         0.942775         134.488
                               0               0                0               0         0.942376         134.533         0.260618        -134.106
                               0               0                0               0         0.204118         46.9183        0.0632262         108.058
                               0               0                0               0        0.0632659         108.036         0.204056         46.9416
75.945                         0               0                0               0         0.259037         -135.64         0.943337         132.896
                               0               0                0               0         0.942888         132.946         0.258939        -135.608
                               0               0                0               0         0.204945         45.4812        0.0640001         104.896
                               0               0                0               0        0.0640445         104.872         0.204885         45.5042
75.99                          0               0                0               0         0.257299        -137.156         0.943933         131.288
                               0               0                0               0         0.943455         131.341         0.257183        -137.126
                               0               0                0               0         0.205648         44.0171        0.0647603         101.732
                               0               0                0               0        0.0648086         101.707          0.20559         44.0398
76.035                         0               0                0               0         0.255492        -138.684         0.944544         129.666
                               0               0                0               0         0.944059         129.721         0.255362        -138.657
                               0               0                0               0         0.206212         42.5281        0.0654994         98.5724
                               0               0                0               0        0.0655509         98.5481         0.206155         42.5506
76.08                          0               0                0               0         0.253626        -140.222         0.945148         128.035
                               0               0                0               0         0.944677          128.09         0.253486        -140.197
                               0               0                0               0          0.20662         41.0169        0.0662106         95.4256
                               0               0                0               0        0.0662644         95.4018         0.206564         41.0391
76.125                         0               0                0               0         0.251712        -141.765         0.945723         126.397
                               0               0                0               0         0.945287         126.449         0.251568        -141.742
                               0               0                0               0         0.206858          39.486        0.0668873         92.2978
                               0               0                0               0        0.0669427          92.275         0.206805         39.5081
76.17                          0               0                0               0          0.24976         -143.31         0.946248         124.754
                               0               0                0               0         0.945864         124.803         0.249616        -143.289
                               0               0                0               0         0.206915         37.9387        0.0675236         89.1948
                               0               0                0               0        0.0675798         89.1736         0.206863         37.9606
76.215                         0               0                0               0         0.247778        -144.853         0.946703         123.109
                               0               0                0               0         0.946384         123.153          0.24764        -144.835
                               0               0                0               0          0.20678          36.378        0.0681145         86.1219
                               0               0                0               0        0.0681706         86.1028         0.206729         36.3998
76.26                          0               0                0               0         0.245776        -146.391         0.947068         121.463
                               0               0                0               0         0.946824         121.501         0.245647        -146.375
                               0               0                0               0         0.206443         34.8076        0.0686554         83.0838
                               0               0                0               0        0.0687109         83.0673         0.206394         34.8293
76.305                         0               0                0               0          0.24376        -147.923         0.947324         119.818
                               0               0                0               0         0.947162         119.849         0.243644        -147.908
                               0               0                0               0         0.205898          33.231        0.0691431         80.0848
                               0               0                0               0        0.0691973         80.0713          0.20585         33.2526
76.35                          0               0                0               0         0.241738        -149.445         0.947454         118.175
                               0               0                0               0         0.947377         118.199         0.241639         -149.43
                               0               0                0               0          0.20514         31.6519         0.069575         77.1285
                               0               0                0               0        0.0696274         77.1184         0.205094         31.6736
76.395                         0               0                0               0         0.239718        -150.954         0.947443         116.536
                               0               0                0               0          0.94745         116.553         0.239638         -150.94
                               0               0                0               0         0.204168         30.0743        0.0699493         74.2181
                               0               0                0               0        0.0699996         74.2118         0.204123         30.0961
76.44                          0               0                0               0         0.237705         -152.45         0.947277         114.902
                               0               0                0               0         0.947364         114.911         0.237645        -152.436
