! TOUCHSTONE file generated by CST MICROWAVE STUDIO
! Date and time: Sun Jun 20 22:37:13 2021
! Project name: HIPS_d_sweep.cst
! Parameters = {fmax=120; fmin=75; b=0.46; d=19.45; a=0.63; phi=0; theta=0}
! Header version: 2018
! Port assignment regex: !\s*Touchstone port\s*([0-9]+)\s*=\s*(CST MWS port|CST DS port)\s*([0-9]+|Zmin|Zmax)\s*\(\"(.*)\"\)(\s*mode\s*([0-9]+))?.*
! Touchstone port assignment:
! Touchstone port 1 = CST MWS port Zmin ("") mode 1
! Touchstone port 2 = CST MWS port Zmin ("") mode 2
! Touchstone port 3 = CST MWS port Zmax ("") mode 1
! Touchstone port 4 = CST MWS port Zmax ("") mode 2
! S-Parameters are not renormalized. Unphysical impedance of 0 will be written to the file.
# GHz S MA R 0
75                             0               0                0               0         0.222972         177.598         0.960644          84.863
                               0               0                0               0          0.96055         84.8512         0.223157         177.597
                               0               0                0               0         0.145693         1.19249        0.0754091         21.5926
                               0               0                0               0        0.0754422          21.665         0.145748         1.15397
75.045                         0               0                0               0         0.226494          176.85          0.96048         84.2173
                               0               0                0               0         0.960491         84.1996         0.226355         176.882
                               0               0                0               0         0.143837        0.745095        0.0759463         20.7669
                               0               0                0               0        0.0759508         20.8513         0.143914        0.699782
75.09                          0               0                0               0          0.22972         176.067         0.960132         83.5016
                               0               0                0               0         0.960238         83.4833         0.229406         176.108
                               0               0                0               0          0.14183        0.249021         0.076401         19.8571
                               0               0                0               0        0.0763822         19.9503         0.141917        0.201505
75.135                         0               0                0               0         0.232633         175.242         0.959673         82.7165
                               0               0                0               0         0.959855         82.7015         0.232274         175.274
                               0               0                0               0         0.139668       -0.296907        0.0767744         18.8548
                               0               0                0               0        0.0767378         18.9544         0.139757        -0.34308
75.18                          0               0                0               0         0.235223         174.368         0.959173         81.8633
                               0               0                0               0         0.959404         81.8542         0.234924          174.38
                               0               0                0               0         0.137351        -0.89365        0.0770686         17.7525
                               0               0                0               0        0.0770201         17.8571         0.137434       -0.935893
75.225                         0               0                0               0         0.237482         173.438         0.958688         80.9436
                               0               0                0               0         0.958942          80.942         0.237325         173.424
                               0               0                0               0         0.134874        -1.54193        0.0772867         16.5439
                               0               0                0               0        0.0772317         16.6528         0.134946        -1.57853
75.27                          0               0                0               0         0.239411         172.448         0.958268         79.9596
                               0               0                0               0          0.95852         79.9657         0.239444         172.408
                               0               0                0               0         0.132236        -2.24221        0.0774322         15.2241
                               0               0                0               0        0.0773758         15.3372         0.132292        -2.27224
75.315                         0               0                0               0         0.241013         171.393         0.957952         78.9137
                               0               0                0               0         0.958184         78.9269         0.241257          171.33
                               0               0                0               0         0.129432        -2.99464        0.0775086         13.7894
                               0               0                0               0        0.0774552         13.9072         0.129471        -3.01791
75.36                          0               0                0               0         0.242295         170.272         0.957772         77.8086
                               0               0                0               0         0.957969         77.8276         0.242742         170.189
                               0               0                0               0         0.126458        -3.79905         0.077519         12.2377
                               0               0                0               0         0.077472         12.3609         0.126481        -3.81602
75.405                         0               0                0               0         0.243267         169.082         0.957749         76.6469
                               0               0                0               0         0.957905         76.6699         0.243882         168.986
                               0               0                0               0         0.123311        -4.65482        0.0774658         10.5681
                               0               0                0               0        0.0774279         10.6974         0.123319        -4.66662
75.45                          0               0                0               0         0.243941         167.824         0.957897         75.4313
                               0               0                0               0         0.958014         75.4562         0.244669         167.722
                               0               0                0               0         0.119986        -5.56086        0.0773505         8.78088
                               0               0                0               0        0.0773237         8.91702         0.119983        -5.56924
75.495                         0               0                0               0          0.24433         166.497         0.958221         74.1648
                               0               0                0               0         0.958308         74.1893         0.245101         166.396
                               0               0                0               0         0.116478         -6.5155        0.0771737         6.87757
                               0               0                0               0         0.077159         7.02121         0.116469        -6.52285
75.54                          0               0                0               0         0.244449         165.104          0.95872         72.8501
                               0               0                0               0         0.958793         72.8719         0.245181          165.01
                               0               0                0               0         0.112783         -7.5163        0.0769347         4.86074
                               0               0                0               0        0.0769324         5.01223         0.112774        -7.52572
75.585                         0               0                0               0          0.24431         163.647         0.959389         71.4898
                               0               0                0               0         0.959467         71.5068         0.244924         163.566
                               0               0                0               0         0.108897        -8.55998        0.0766319         2.73391
                               0               0                0               0        0.0766418          2.8933         0.108895        -8.57532
75.63                          0               0                0               0         0.243928         162.131         0.960212         70.0866
                               0               0                0               0         0.960321         70.0968         0.244345         162.065
                               0               0                0               0         0.104817        -9.64209        0.0762627        0.501501
                               0               0                0               0        0.0762841        0.668466         0.104827         -9.6681
75.675                         0               0                0               0         0.243315         160.558         0.961174          68.643
                               0               0                0               0         0.961341         68.6447          0.24347         160.511
                               0               0                0               0          0.10054        -10.7568        0.0758238        -1.83126
                               0               0                0               0        0.0758555        -1.65739         0.100568        -10.7993
75.72                          0               0                0               0         0.242483         158.933         0.962252         67.1613
                               0               0                0               0         0.962506         67.1533         0.242325         158.906
                               0               0                0               0        0.0960644        -11.8966        0.0753115        -4.25838
                               0               0                0               0         0.075352        -4.07863        0.0961154        -11.9624
75.765                         0               0                0               0         0.241446         157.261         0.963422         65.6438
                               0               0                0               0         0.963793         65.6253         0.240941         157.254
                               0               0                0               0        0.0913906        -13.0515        0.0747218        -6.77316
                               0               0                0               0        0.0747693        -6.58887        0.0914677        -13.1489
75.81                          0               0                0               0         0.240213         155.548         0.964655         64.0926
                               0               0                0               0          0.96517         64.0633          0.23935          155.56
                               0               0                0               0        0.0865208        -14.2088        0.0740509        -9.36821
                               0               0                0               0        0.0741036          -9.181        0.0866245        -14.3477
75.855                         0               0                0               0         0.238797         153.798         0.965922         62.5097
                               0               0                0               0         0.966608         62.4698         0.237585         153.829
                               0               0                0               0        0.0814593        -15.3516        0.0732956        -12.0356
                               0               0                0               0        0.0733512        -11.8473        0.0815876        -15.5436
75.9                           0               0                0               0         0.237207         152.017         0.967191         60.8969
                               0               0                0               0         0.968069         60.8472         0.235677         152.065
                               0               0                0               0         0.076214        -16.4581        0.0724532        -14.7667
                               0               0                0               0        0.0725096        -14.5793        0.0763609        -16.7166
75.945                         0               0                0               0         0.235453          150.21          0.96843         59.2558
                               0               0                0               0         0.969517         59.1978         0.233657         150.273
                               0               0                0               0         0.070796        -17.4989        0.0715226        -17.5525
                               0               0                0               0        0.0715774        -17.3682        0.0709514        -17.8393
75.99                          0               0                0               0         0.233546         148.383         0.969609          57.588
                               0               0                0               0         0.970913         57.5236         0.231551         148.458
                               0               0                0               0         0.065221        -18.4349        0.0705038        -20.3837
                               0               0                0               0        0.0705547        -20.2045          0.06537        -18.8734
76.035                         0               0                0               0         0.231497         146.539         0.970698         55.8946
                               0               0                0               0         0.972216         55.8268         0.229385         146.624
                               0               0                0               0        0.0595099        -19.2121        0.0693987        -23.2505
                               0               0                0               0        0.0694432        -23.0785        0.0596331        -19.7653
76.08                          0               0                0               0         0.229314         144.683          0.97167         54.1767
                               0               0                0               0         0.973387         54.1089         0.227177         144.775
                               0               0                0               0        0.0536904        -19.7547        0.0682111        -26.1432
                               0               0                0               0        0.0682466        -25.9802        0.0537642        -20.4363
76.125                         0               0                0               0         0.227009         142.821         0.972506          52.435
                               0               0                0               0         0.974387         52.3714         0.224946         142.916
                               0               0                0               0        0.0477981        -19.9538        0.0669469        -29.0521
                               0               0                0               0        0.0669708        -28.8996        0.0477972        -20.7692
76.17                          0               0                0               0         0.224592         140.955         0.973197           50.67
                               0               0                0               0         0.975177         50.6153         0.222702         141.048
                               0               0                0               0        0.0418794        -19.6467        0.0656144        -31.9678
                               0               0                0               0         0.065624        -31.8269        0.0417815        -20.5828
76.215                         0               0                0               0         0.222073          139.09          0.97375         48.8818
                               0               0                0               0         0.975726         48.8407         0.220455         139.175
                               0               0                0               0        0.0359955        -18.5811        0.0642243        -34.8817
                               0               0                0               0        0.0642169        -34.7528         0.035791        -19.5891
76.26                          0               0                0               0         0.219464         137.227         0.974195         47.0709
                               0               0                0               0         0.976014         47.0471         0.218206         137.298
                               0               0                0               0        0.0302295        -16.3467        0.0627901        -37.7867
                               0               0                0               0         0.062763         -37.669        0.0299374        -17.3198
76.305                         0               0                0               0         0.216774         135.369         0.974593         45.2383
                               0               0                0               0         0.976043         45.2322         0.215956         135.418
                               0               0                0               0        0.0247019        -12.2385        0.0613281        -40.6782
                               0               0                0               0        0.0612792        -40.5693        0.0243904        -13.0093
76.35                          0               0                0               0         0.214018         133.517         0.975044         43.3869
                               0               0                0               0          0.97587         43.3924         0.213696         133.536
                               0               0                0               0        0.0196082        -4.98655        0.0598575         -43.556
                               0               0                0               0        0.0597859        -43.4513        0.0193994        -5.43985
76.395                         0               0                0               0         0.211207          131.67         0.975675         41.5237
                               0               0                0               0         0.975657         41.5235         0.211416         131.653
                               0               0                0               0        0.0153144         7.65256        0.0583997        -46.4279
                               0               0                0               0        0.0583074        -46.3201        0.0153049         7.16203
76.44                          0               0                0               0         0.208359         129.829         0.976596         39.6614
                               0               0                0               0          0.97575         39.6259         0.209099          129.77
