! TOUCHSTONE file generated by CST MICROWAVE STUDIO
! Date and time: Sun Jun 20 22:37:01 2021
! Project name: HIPS_d_sweep.cst
! Parameters = {fmax=120; fmin=75; b=0.46; d=17.95; a=0.63; phi=0; theta=0}
! Header version: 2018
! Port assignment regex: !\s*Touchstone port\s*([0-9]+)\s*=\s*(CST MWS port|CST DS port)\s*([0-9]+|Zmin|Zmax)\s*\(\"(.*)\"\)(\s*mode\s*([0-9]+))?.*
! Touchstone port assignment:
! Touchstone port 1 = CST MWS port Zmin ("") mode 1
! Touchstone port 2 = CST MWS port Zmin ("") mode 2
! Touchstone port 3 = CST MWS port Zmax ("") mode 1
! Touchstone port 4 = CST MWS port Zmax ("") mode 2
! S-Parameters are not renormalized. Unphysical impedance of 0 will be written to the file.
# GHz S MA R 0
75                             0               0                0               0         0.325513        -13.1365         0.933809        -105.111
                               0               0                0               0         0.933855        -105.128         0.325585        -13.1103
                               0               0                0               0         0.115491      -0.0793476         0.093115         9.88304
                               0               0                0               0        0.0931185         9.80506         0.115479       -0.106812
75.045                         0               0                0               0         0.328598        -13.8103         0.933398        -105.716
                               0               0                0               0         0.933388        -105.734         0.328718        -13.7794
                               0               0                0               0         0.113857       -0.268993        0.0934674         8.99287
                               0               0                0               0        0.0934565         8.90884         0.113852       -0.300136
75.09                          0               0                0               0         0.331416        -14.5336         0.932864        -106.382
                               0               0                0               0         0.932825        -106.402         0.331565        -14.4992
                               0               0                0               0         0.112075        -0.48568        0.0937395         8.01033
                               0               0                0               0        0.0937189         7.92094         0.112074       -0.519266
75.135                         0               0                0               0         0.333961         -15.309         0.932262         -107.11
                               0               0                0               0         0.932213        -107.132         0.334122        -15.2722
                               0               0                0               0         0.110146       -0.729688        0.0939344         6.93115
                               0               0                0               0        0.0939085         6.83745         0.110147       -0.764771
75.18                          0               0                0               0         0.336228        -16.1385         0.931641          -107.9
                               0               0                0               0         0.931598        -107.922         0.336389        -16.1006
                               0               0                0               0         0.108071        -1.00062        0.0940556         5.75193
                               0               0                0               0         0.094028         5.65529         0.108073        -1.03653
75.225                         0               0                0               0         0.338216        -17.0239         0.931045         -108.75
                               0               0                0               0         0.931018        -108.772         0.338367         -16.986
                               0               0                0               0         0.105851        -1.29735        0.0941064         4.47018
                               0               0                0               0        0.0940803         4.37214         0.105852        -1.33365
75.27                          0               0                0               0         0.339924        -17.9665         0.930513        -109.659
                               0               0                0               0         0.930508        -109.681         0.340059        -17.9295
                               0               0                0               0         0.103485        -1.61794        0.0940902         3.08429
                               0               0                0               0        0.0940677         2.98654         0.103484        -1.65443
75.315                         0               0                0               0         0.341354        -18.9669         0.930074        -110.626
                               0               0                0               0         0.930095        -110.646         0.341469        -18.9316
                               0               0                0               0         0.100974        -1.95954        0.0940095         1.59351
                               0               0                0               0        0.0939923         1.49777         0.100969        -1.99622
75.36                          0               0                0               0         0.342511        -20.0253         0.929754        -111.648
                               0               0                0               0         0.929799        -111.667         0.342605        -19.9922
                               0               0                0               0        0.0983178        -2.31828        0.0938665     -0.00208179
                               0               0                0               0        0.0938557      -0.0941187        0.0983086        -2.35533
75.405                         0               0                0               0           0.3434        -21.1413          0.92957        -112.723
                               0               0                0               0         0.929638        -112.741         0.343473        -21.1108
                               0               0                0               0        0.0955158        -2.68907        0.0936626        -1.70166
                               0               0                0               0        0.0936589        -1.78836        0.0955014        -2.72681
75.45                          0               0                0               0         0.344027        -22.3141         0.929532         -113.85
                               0               0                0               0         0.929619        -113.866         0.344081        -22.2863
                               0               0                0               0         0.092568        -3.06538        0.0933987        -3.50367
                               0               0                0               0        0.0934022        -3.58353        0.0925478        -3.10429
75.495                         0               0                0               0         0.344399        -23.5422         0.929647        -115.026
                               0               0                0               0         0.929749         -115.04         0.344437        -23.5172
                               0               0                0               0        0.0894742        -3.43893         0.093075        -5.40591
                               0               0                0               0        0.0930854        -5.47761        0.0894478        -3.47962
75.54                          0               0                0               0         0.344526        -24.8239         0.929914        -116.248
                               0               0                0               0         0.930024         -116.26          0.34455        -24.8015
                               0               0                0               0         0.086235        -3.79936        0.0926909        -7.40559
                               0               0                0               0        0.0927078          -7.468         0.086202        -3.84249
75.585                         0               0                0               0         0.344416         -26.157         0.930328        -117.514
                               0               0                0               0         0.930441        -117.525          0.34443        -26.1369
                               0               0                0               0        0.0828516        -4.13362        0.0922456        -9.49935
                               0               0                0               0        0.0922685         -9.5516        0.0828118        -4.17998
75.63                          0               0                0               0         0.344077        -27.5388         0.930879        -118.823
                               0               0                0               0          0.93099        -118.832         0.344085        -27.5209
                               0               0                0               0        0.0793264         -4.4254        0.0917379        -11.6834
                               0               0                0               0         0.091766        -11.7249        0.0792794        -4.47578
75.675                         0               0                0               0          0.34352        -28.9666         0.931553        -120.171
                               0               0                0               0         0.931657        -120.179         0.343524        -28.9503
                               0               0                0               0        0.0756633        -4.65416        0.0911664        -13.9535
                               0               0                0               0         0.091199        -13.9839        0.0756089         -4.7094
75.72                          0               0                0               0         0.342755        -30.4371         0.932335        -121.556
                               0               0                0               0         0.932428        -121.563         0.342758        -30.4223
                               0               0                0               0        0.0718684          -4.794        0.0905297        -16.3052
                               0               0                0               0        0.0905662        -16.3244        0.0718064         -4.8549
75.765                         0               0                0               0         0.341792        -31.9472         0.933205        -122.977
                               0               0                0               0         0.933284        -122.982         0.341796        -31.9334
                               0               0                0               0        0.0679506        -4.81205        0.0898268        -18.7335
                               0               0                0               0        0.0898664         -18.742        0.0678808        -4.87931
75.81                          0               0                0               0         0.340641        -33.4935         0.934145         -124.43
                               0               0                0               0         0.934207        -124.435         0.340648        -33.4804
                               0               0                0               0        0.0639227         -4.6663         0.089057        -21.2335
                               0               0                0               0         0.089099        -21.2319        0.0638446        -4.74046
75.855                         0               0                0               0         0.339313        -35.0726         0.935132        -125.913
                               0               0                0               0         0.935177        -125.918         0.339323        -35.0599
                               0               0                0               0        0.0598018         -4.3027          0.08822        -23.8001
                               0               0                0               0        0.0882639        -23.7895        0.0597155        -4.38399
75.9                           0               0                0               0          0.33782        -36.6809         0.936147        -127.425
                               0               0                0               0         0.936176        -127.429         0.337833        -36.6685
                               0               0                0               0        0.0556117        -3.65114        0.0873166        -26.4283
                               0               0                0               0        0.0873616          -26.41         0.055517        -3.73936
75.945                         0               0                0               0         0.336173        -38.3152          0.93717        -128.963
                               0               0                0               0         0.937184        -128.967         0.336189        -38.3029
                               0               0                0               0        0.0513842        -2.62006         0.086348        -29.1132
                               0               0                0               0        0.0863935        -29.0889         0.051281        -2.71434
75.99                          0               0                0               0         0.334384        -39.9722         0.938183        -130.526
                               0               0                0               0         0.938186        -130.528         0.334402        -39.9599
                               0               0                0               0        0.0471618        -1.08941        0.0853166          -31.85
                               0               0                0               0        0.0853618        -31.8219        0.0470507        -1.18796
76.035                         0               0                0               0         0.332465        -41.6488         0.939172        -132.109
                               0               0                0               0         0.939168        -132.112         0.332483        -41.6365
                               0               0                0               0        0.0430024         1.09796        0.0842255        -34.6346
                               0               0                0               0        0.0842696        -34.6049        0.0428841        0.998238
76.08                          0               0                0               0         0.330429         -43.342         0.940124        -133.712
                               0               0                0               0          0.94012        -133.715         0.330447        -43.3298
                               0               0                0               0        0.0389839         4.14463        0.0830788        -37.4632
                               0               0                0               0         0.083121        -37.4343        0.0388598         4.04857
76.125                         0               0                0               0         0.328289        -45.0491         0.941035        -135.332
                               0               0                0               0         0.941037        -135.335         0.328304         -45.037
                               0               0                0               0        0.0352126         8.30107        0.0818813        -40.3327
                               0               0                0               0        0.0819206        -40.3072        0.0350846          8.2156
76.17                          0               0                0               0         0.326058        -46.7674         0.941903        -136.967
                               0               0                0               0         0.941918         -136.97         0.326071        -46.7555
                               0               0                0               0        0.0318315         13.8468        0.0806385        -43.2407
                               0               0                0               0        0.0806739         -43.221        0.0317025          13.781
76.215                         0               0                0               0         0.323751        -48.4944         0.942733        -138.613
                               0               0                0               0         0.942767        -138.616          0.32376        -48.4829
                               0               0                0               0        0.0290266         21.0198        0.0793564        -46.1855
                               0               0                0               0         0.079387         -46.174        0.0289001         20.9837
76.26                          0               0                0               0         0.321382        -50.2278         0.943534        -140.268
                               0               0                0               0         0.943594        -140.271         0.321386        -50.2167
                               0               0                0               0        0.0270178         29.8602        0.0780414        -49.1665
                               0               0                0               0        0.0780665        -49.1647        0.0268978         29.8616
76.305                         0               0                0               0         0.318965        -51.9651         0.944321        -141.928
                               0               0                0               0         0.944411        -141.931         0.318964        -51.9544
                               0               0                0               0        0.0260187          39.998        0.0766998        -52.1833
                               0               0                0               0         0.076719        -52.1924        0.0259086         40.0376
76.35                          0               0                0               0         0.316514        -53.7037          0.94511         -143.59
                               0               0                0               0         0.945232        -143.593          0.31651        -53.6936
                               0               0                0               0        0.0261626         50.5823        0.0753379        -55.2363
                               0               0                0               0        0.0753513        -55.2562        0.0260639         50.6518
76.395                         0               0                0               0         0.314042        -55.4407         0.945915        -145.249
                               0               0                0               0         0.946066        -145.252         0.314035        -55.4312
                               0               0                0               0        0.0274402         60.5691        0.0739618        -58.3258
                               0               0                0               0        0.0739698        -58.3554        0.0273521         60.6562
76.44                          0               0                0               0         0.311561        -57.1728         0.946744        -146.902
                               0               0                0               0         0.946918        -146.905         0.311553        -57.1639
