! TOUCHSTONE file generated by CST MICROWAVE STUDIO
! Date and time: Sun Jun 20 22:37:34 2021
! Project name: HIPS_d_sweep.cst
! Parameters = {fmax=120; fmin=75; b=0.46; d=21.7; a=0.63; phi=0; theta=0}
! Header version: 2018
! Port assignment regex: !\s*Touchstone port\s*([0-9]+)\s*=\s*(CST MWS port|CST DS port)\s*([0-9]+|Zmin|Zmax)\s*\(\"(.*)\"\)(\s*mode\s*([0-9]+))?.*
! Touchstone port assignment:
! Touchstone port 1 = CST MWS port Zmin ("") mode 1
! Touchstone port 2 = CST MWS port Zmin ("") mode 2
! Touchstone port 3 = CST MWS port Zmax ("") mode 1
! Touchstone port 4 = CST MWS port Zmax ("") mode 2
! S-Parameters are not renormalized. Unphysical impedance of 0 will be written to the file.
# GHz S MA R 0
75                             0               0                0               0        0.0632994        -81.8398         0.990032        -171.628
                               0               0                0               0         0.989666        -171.637        0.0635047        -82.0376
                               0               0                0               0         0.127003         98.2387       0.00842916        -160.686
                               0               0                0               0       0.00843134        -161.176         0.126939         98.2194
75.045                         0               0                0               0          0.06458        -80.6527         0.990755        -172.335
                               0               0                0               0         0.990215         -172.34        0.0660991        -80.9828
                               0               0                0               0         0.128502         97.5675       0.00861699        -159.351
                               0               0                0               0       0.00848615        -162.108         0.128467         97.6074
75.09                          0               0                0               0        0.0665244         -79.737         0.990993        -173.115
                               0               0                0               0         0.990327        -173.118        0.0689694        -80.5364
                               0               0                0               0         0.130282         96.7956       0.00893592        -159.291
                               0               0                0               0       0.00864521        -163.352         0.130257         96.8708
75.135                         0               0                0               0        0.0690844        -79.3213         0.990832         -173.97
                               0               0                0               0         0.990088        -173.972        0.0719319        -80.6999
                               0               0                0               0         0.132335         95.9343       0.00934522        -160.493
                               0               0                0               0       0.00891056        -165.018          0.13231         96.0255
75.18                          0               0                0               0        0.0720697        -79.5837         0.990357        -174.899
                               0               0                0               0          0.98958        -174.904        0.0747938        -81.4212
                               0               0                0               0         0.134651         94.9929       0.00981415        -162.836
                               0               0                0               0       0.00928111        -167.197         0.134621         95.0854
75.225                         0               0                0               0        0.0751646        -80.5862         0.989647        -175.904
                               0               0                0               0         0.988877        -175.911        0.0773796        -82.6102
                               0               0                0               0         0.137216          93.979        0.0103222        -166.151
                               0               0                0               0       0.00975247        -169.943         0.137179         94.0623
75.27                          0               0                0               0        0.0780074        -82.2535         0.988776        -176.982
                               0               0                0               0         0.988048        -176.992        0.0795532        -84.1578
                               0               0                0               0         0.140014         92.8985        0.0108575        -170.261
                               0               0                0               0        0.0103171        -173.277          0.13997         92.9657
75.315                         0               0                0               0        0.0802974        -84.4077         0.987807        -178.133
                               0               0                0               0         0.987148        -178.146        0.0812295        -85.9528
                               0               0                0               0         0.143025         91.7558        0.0114146        -174.996
                               0               0                0               0        0.0109644        -177.178         0.142974         91.8031
75.36                          0               0                0               0        0.0818698        -86.8351         0.986797        -179.353
                               0               0                0               0         0.986226        -179.369        0.0823752        -87.8944
                               0               0                0               0         0.146229         90.5542        0.0119926         179.795
                               0               0                0               0        0.0116818         178.407         0.146173         90.5801
75.405                         0               0                0               0        0.0827038        -89.3454         0.985789          179.36
                               0               0                0               0          0.98532         179.342        0.0830002        -89.8996
                               0               0                0               0         0.149605         89.2958        0.0125928         174.248
                               0               0                0               0        0.0124549         173.552         0.149543         89.3008
75.45                          0               0                0               0        0.0828797        -91.8019         0.984818         178.009
                               0               0                0               0         0.984457         177.989        0.0831447        -91.9052
                               0               0                0               0          0.15313         87.9825        0.0132178          168.48
                               0               0                0               0        0.0132688         168.347         0.153061         87.9682
75.495                         0               0                0               0        0.0825225        -94.1241         0.983909         176.597
                               0               0                0               0         0.983657         176.577        0.0828655        -93.8669
                               0               0                0               0         0.156779         86.6154        0.0138703         162.591
                               0               0                0               0         0.014109         162.889         0.156703         86.5845
75.54                          0               0                0               0        0.0817598        -96.2755         0.983078         175.129
                               0               0                0               0         0.982929         175.108        0.0822253        -95.7564
                               0               0                0               0         0.160526         85.1958        0.0145524         156.664
                               0               0                0               0        0.0149626         157.271         0.160443         85.1514
75.585                         0               0                0               0        0.0806998        -98.2482          0.98233         173.608
                               0               0                0               0         0.982278         173.587        0.0812845        -97.5579
                               0               0                0               0         0.164346         83.7248        0.0152654         150.765
                               0               0                0               0         0.015819         151.577         0.164255         83.6704
75.63                          0               0                0               0        0.0794243         -100.05         0.981667         172.038
                               0               0                0               0         0.981699         172.018        0.0800973        -99.2643
                               0               0                0               0         0.168212         82.2037        0.0160093         144.947
                               0               0                0               0        0.0166704         145.879         0.168114         82.1428
75.675                         0               0                0               0         0.077991        -101.697         0.981082         170.423
                               0               0                0               0         0.981184         170.404        0.0787093        -100.875
                               0               0                0               0         0.172096         80.6342        0.0167836         139.249
                               0               0                0               0         0.017512         140.238         0.171991         80.5701
75.72                          0               0                0               0        0.0764373        -103.208         0.980565         168.767
                               0               0                0               0         0.980722         168.748        0.0771572        -102.393
                               0               0                0               0         0.175972         79.0182        0.0175867         133.698
                               0               0                0               0        0.0183415         134.698         0.175861         78.9539
75.765                         0               0                0               0        0.0747861        -104.599         0.980101         167.073
                               0               0                0               0         0.980298         167.055        0.0754697        -103.823
                               0               0                0               0         0.179812         77.3582        0.0184165         128.311
                               0               0                0               0        0.0191591         129.289         0.179697         77.2963
75.81                          0               0                0               0        0.0730495        -105.888         0.979673         165.345
                               0               0                0               0         0.979896         165.328        0.0736679        -105.173
                               0               0                0               0         0.183592         75.6569        0.0192705         123.097
                               0               0                0               0        0.0199667         124.031         0.183474         75.5995
75.855                         0               0                0               0        0.0712327        -107.089         0.979266         163.586
                               0               0                0               0           0.9795          163.57        0.0717674         -106.45
                               0               0                0               0         0.187285         73.9175         0.020146          118.06
                               0               0                0               0        0.0207674         118.935         0.187168         73.8662
75.9                           0               0                0               0         0.069336        -108.218         0.978861           161.8
                               0               0                0               0         0.979094         161.784        0.0697787        -107.662
                               0               0                0               0         0.190869         72.1435        0.0210402         113.198
                               0               0                0               0        0.0215651         114.003         0.190755         72.0992
75.945                         0               0                0               0        0.0673572        -109.286         0.978445         159.991
                               0               0                0               0         0.978667         159.975        0.0677087        -108.817
                               0               0                0               0         0.194324         70.3385        0.0219504         108.506
                               0               0                0               0         0.022364         109.235         0.194215         70.3018
75.99                          0               0                0               0        0.0652931        -110.307         0.978004          158.16
                               0               0                0               0         0.978208         158.144        0.0655617        -109.924
                               0               0                0               0         0.197633         68.5066        0.0228736         103.978
                               0               0                0               0        0.0231682         104.625         0.197531         68.4774
76.035                         0               0                0               0        0.0631409        -111.294         0.977531         156.312
                               0               0                0               0         0.977713         156.294        0.0633408         -110.99
                               0               0                0               0          0.20078         66.6516        0.0238072         99.6058
                               0               0                0               0        0.0239817         100.168         0.200687         66.6296
76.08                          0               0                0               0        0.0608997        -112.261         0.977023         154.448
                               0               0                0               0         0.977182         154.429        0.0610482        -112.027
                               0               0                0               0         0.203754         64.7775         0.024748         95.3809
                               0               0                0               0        0.0248077         95.8574          0.20367         64.7619
76.125                         0               0                0               0        0.0585713        -113.221         0.976484         152.572
                               0               0                0               0         0.976622         152.552        0.0586872        -113.044
                               0               0                0               0         0.206549         62.8882        0.0256931         91.2952
                               0               0                0               0        0.0256484         91.6876         0.206473         62.8779
76.17                          0               0                0               0        0.0561617         -114.19         0.975923         150.685
                               0               0                0               0         0.976047         150.663        0.0562625        -114.052
                               0               0                0               0         0.209158         60.9873         0.026639         87.3407
                               0               0                0               0        0.0265047         87.6539         0.209089         60.9813
76.215                         0               0                0               0        0.0536816        -115.182         0.975359         148.791
                               0               0                0               0         0.975478         148.767        0.0537817        -115.064
                               0               0                0               0          0.21158         59.0784        0.0275815         83.5105
                               0               0                0               0        0.0273758         83.7525         0.211516         59.0753
76.26                          0               0                0               0        0.0511468        -116.212         0.974817         146.891
                               0               0                0               0         0.974942         146.864        0.0512561        -116.092
                               0               0                0               0         0.213814         57.1646        0.0285161         79.7981
                               0               0                0               0        0.0282584         79.9808         0.213752         57.1633
76.305                         0               0                0               0        0.0485781        -117.289         0.974327         144.988
                               0               0                0               0         0.974473         144.959        0.0487013        -117.147
                               0               0                0               0         0.215861          55.249        0.0294371         76.1981
                               0               0                0               0        0.0291471         76.3358         0.215799         55.2485
76.35                          0               0                0               0        0.0460001        -118.418         0.973925         143.084
                               0               0                0               0         0.974105         143.053        0.0461371        -118.236
                               0               0                0               0          0.21772         53.3344        0.0303379         72.7057
                               0               0                0               0        0.0300338         72.8149         0.217655         53.3338
76.395                         0               0                0               0        0.0434396        -119.595         0.973646         141.181
                               0               0                0               0          0.97387         141.149         0.043587         -119.36
                               0               0                0               0         0.219389         51.4235        0.0312106         69.3169
                               0               0                0               0        0.0309077         69.4141          0.21932         51.4224
76.44                          0               0                0               0        0.0409236        -120.803         0.973515         139.283
                               0               0                0               0         0.973791          139.25        0.0410765        -120.511
