! TOUCHSTONE file generated by CST MICROWAVE STUDIO
! Date and time: Sun Jun 20 22:36:50 2021
! Project name: HIPS_d_sweep.cst
! Parameters = {fmax=120; fmin=75; b=0.46; d=16.65; a=0.63; phi=0; theta=0}
! Header version: 2018
! Port assignment regex: !\s*Touchstone port\s*([0-9]+)\s*=\s*(CST MWS port|CST DS port)\s*([0-9]+|Zmin|Zmax)\s*\(\"(.*)\"\)(\s*mode\s*([0-9]+))?.*
! Touchstone port assignment:
! Touchstone port 1 = CST MWS port Zmin ("") mode 1
! Touchstone port 2 = CST MWS port Zmin ("") mode 2
! Touchstone port 3 = CST MWS port Zmax ("") mode 1
! Touchstone port 4 = CST MWS port Zmax ("") mode 2
! S-Parameters are not renormalized. Unphysical impedance of 0 will be written to the file.
# GHz S MA R 0
75                             0               0                0               0          0.41389         132.284         0.904445         42.1547
                               0               0                0               0         0.904309         42.1478         0.413977         132.294
                               0               0                0               0        0.0437435         31.5597        0.0939169        -45.5082
                               0               0                0               0        0.0939325        -45.5233        0.0436676         31.5008
75.045                         0               0                0               0         0.416589         131.687         0.903206         41.5931
                               0               0                0               0         0.903045         41.5818         0.416688         131.693
                               0               0                0               0        0.0438361         32.9655        0.0939107         -46.483
                               0               0                0               0        0.0939158        -46.4974        0.0437634         32.9247
75.09                          0               0                0               0          0.41896         131.031         0.902116          40.968
                               0               0                0               0         0.901959         40.9556          0.41906         131.037
                               0               0                0               0        0.0438797         34.5399        0.0938153        -47.5736
                               0               0                0               0         0.093818        -47.5873        0.0438069         34.5054
75.135                         0               0                0               0         0.421019         130.317         0.901175         40.2826
                               0               0                0               0         0.901034         40.2712         0.421111         130.324
                               0               0                0               0         0.043898         36.2815        0.0936394        -48.7801
                               0               0                0               0        0.0936448        -48.7928        0.0438232         36.2472
75.18                          0               0                0               0         0.422782         129.544         0.900379         39.5399
                               0               0                0               0         0.900257         39.5305         0.422859         129.553
                               0               0                0               0        0.0439158         38.1887        0.0933907        -50.1023
                               0               0                0               0        0.0934009        -50.1134         0.043838         38.1524
75.225                         0               0                0               0          0.42426         128.714         0.899722         38.7423
                               0               0                0               0         0.899616          38.735         0.424322         128.724
                               0               0                0               0        0.0439586         40.2585        0.0930751        -51.5393
                               0               0                0               0        0.0930901        -51.5484        0.0438777          40.221
75.27                          0               0                0               0         0.425466         127.827         0.899196         37.8919
                               0               0                0               0           0.8991         37.8861         0.425514         127.838
                               0               0                0               0        0.0440529         42.4849        0.0926973          -53.09
                               0               0                0               0        0.0927156        -53.0969        0.0439694         42.4488
75.315                         0               0                0               0         0.426409         126.884         0.898791         36.9905
                               0               0                0               0         0.898702         36.9852         0.426448         126.895
                               0               0                0               0        0.0442258          44.858        0.0922607        -54.7531
                               0               0                0               0        0.0922799        -54.7579        0.0441408         44.8265
75.36                          0               0                0               0         0.427095         125.888         0.898501         36.0396
                               0               0                0               0         0.898415         36.0337         0.427134         125.898
                               0               0                0               0        0.0445046         47.3623        0.0917678        -56.5272
                               0               0                0               0        0.0917851        -56.5301        0.0444197          47.339
75.405                         0               0                0               0         0.427531          124.84         0.898318         35.0404
                               0               0                0               0         0.898234         35.0329         0.427579         124.849
                               0               0                0               0        0.0449164         49.9766        0.0912201        -58.4107
                               0               0                0               0        0.0912326        -58.4123        0.0448333         49.9644
75.45                          0               0                0               0         0.427723         123.742         0.898236         33.9942
                               0               0                0               0         0.898157         33.9842         0.427789         123.749
                               0               0                0               0         0.045487         52.6736        0.0906184        -60.4023
                               0               0                0               0        0.0906238        -60.4033        0.0454078         52.6744
75.495                         0               0                0               0         0.427672         122.596         0.898252         32.9021
                               0               0                0               0         0.898181         32.8889         0.427767         122.602
                               0               0                0               0        0.0462408         55.4202        0.0899633        -62.5005
                               0               0                0               0        0.0899599        -62.5015        0.0461672         55.4347
75.54                          0               0                0               0         0.427385         121.404         0.898364         31.7653
                               0               0                0               0         0.898306         31.7488         0.427513         121.408
                               0               0                0               0         0.047199         58.1792        0.0892549        -64.7039
                               0               0                0               0         0.089242        -64.7055        0.0471325         58.2066
75.585                         0               0                0               0         0.426864         120.169         0.898572         30.5852
                               0               0                0               0          0.89853         30.5654          0.42703         120.172
                               0               0                0               0        0.0483795         60.9102        0.0884937        -67.0111
                               0               0                0               0        0.0884715        -67.0137        0.0483208         60.9489
75.63                          0               0                0               0         0.426114         118.892         0.898876         29.3631
                               0               0                0               0         0.898854         29.3407         0.426316         118.895
                               0               0                0               0        0.0497958          63.573        0.0876803        -69.4207
                               0               0                0               0          0.08765        -69.4244        0.0497449         63.6201
75.675                         0               0                0               0          0.42514         117.577          0.89928         28.1008
                               0               0                0               0         0.899276         28.0767         0.425374          117.58
                               0               0                0               0         0.051457         66.1289        0.0868159        -71.9313
                               0               0                0               0        0.0867796        -71.9358        0.0514129         66.1811
75.72                          0               0                0               0         0.423952         116.224         0.899783         26.8004
                               0               0                0               0         0.899794         26.7756         0.424207          116.23
                               0               0                0               0        0.0533668         68.5434        0.0859023        -74.5413
                               0               0                0               0         0.085863        -74.5458        0.0533279         68.5974
75.765                         0               0                0               0         0.422556         114.838         0.900387         25.4641
                               0               0                0               0         0.900404         25.4398         0.422819         114.846
                               0               0                0               0        0.0555246         70.7873        0.0849428        -77.2491
                               0               0                0               0        0.0849035        -77.2524        0.0554882         70.8402
75.81                          0               0                0               0         0.420966          113.42         0.901087         24.0946
                               0               0                0               0         0.901101          24.072          0.42122          113.43
                               0               0                0               0        0.0579247         72.8381        0.0839414        -80.0524
                               0               0                0               0        0.0839053        -80.0531         0.057888         72.8873
75.855                         0               0                0               0         0.419195         111.974         0.901879         22.6947
                               0               0                0               0         0.901875         22.6749         0.419424         111.986
                               0               0                0               0        0.0605578         74.6798        0.0829035        -82.9487
                               0               0                0               0        0.0828734        -82.9452        0.0605174         74.7236
75.9                           0               0                0               0          0.41726         110.502         0.902751         21.2678
                               0               0                0               0         0.902717         21.2514         0.417448         110.516
                               0               0                0               0        0.0634106         76.3029        0.0818362        -85.9349
                               0               0                0               0        0.0818136        -85.9258        0.0633636         76.3403
75.945                         0               0                0               0         0.415177         109.007         0.903687         19.8171
                               0               0                0               0          0.90361         19.8044         0.415316         109.022
                               0               0                0               0        0.0664668         77.7036        0.0807473        -89.0069
                               0               0                0               0        0.0807327        -88.9912        0.0664108         77.7342
75.99                          0               0                0               0         0.412968         107.493         0.904665          18.346
                               0               0                0               0         0.904538         18.3371         0.413055         107.508
                               0               0                0               0        0.0697075         78.8826         0.079646        -92.1598
                               0               0                0               0        0.0796381        -92.1377        0.0696413         78.9069
76.035                         0               0                0               0         0.410652         105.964          0.90566         16.8581
                               0               0                0               0         0.905481         16.8524         0.410695         105.978
                               0               0                0               0        0.0731115         79.8447        0.0785424        -95.3874
                               0               0                0               0        0.0785382        -95.3607        0.0730355         79.8636
76.08                          0               0                0               0         0.408252         104.424         0.906639         15.3568
                               0               0                0               0         0.906416         15.3534         0.408268         104.437
                               0               0                0               0        0.0766561         80.5974        0.0774467        -98.6827
                               0               0                0               0        0.0774414        -98.6551        0.0765725         80.6122
76.125                         0               0                0               0         0.405787         102.876         0.907569         13.8454
                               0               0                0               0         0.907319          13.843         0.405805         102.889
                               0               0                0               0        0.0803169         81.1507        0.0763693        -102.038
                               0               0                0               0        0.0763567        -102.015        0.0802306         81.1625
76.17                          0               0                0               0         0.403277         101.325         0.908412         12.3272
                               0               0                0               0         0.908165         12.3242         0.403334          101.34
                               0               0                0               0        0.0840686         81.5158          0.07532        -105.443
                               0               0                0               0        0.0752928        -105.435        0.0839869         81.5257
76.215                         0               0                0               0          0.40074         99.7748         0.909132         10.8051
                               0               0                0               0         0.908931         10.7996          0.40088         99.7948
                               0               0                0               0        0.0878848         81.7053        0.0743075        -108.891
                               0               0                0               0        0.0742582        -108.907        0.0878183         81.7139
76.26                          0               0                0               0         0.398191         98.2292         0.909695         9.28203
                               0               0                0               0         0.909594         9.27188         0.398463         98.2583
                               0               0                0               0        0.0917387          81.733        0.0733394        -112.373
                               0               0                0               0        0.0732602        -112.425        0.0917011         81.7398
76.305                         0               0                0               0         0.395644         96.6914          0.91007         7.76082
                               0               0                0               0         0.910137         7.74347         0.396095         96.7337
                               0               0                0               0        0.0956034         81.6135        0.0724213        -115.882
                               0               0                0               0        0.0723054        -115.981        0.0956117         81.6164
76.35                          0               0                0               0         0.393108         95.1638         0.910239         6.24402
                               0               0                0               0          0.91055         6.21663         0.393783         95.2228
                               0               0                0               0         0.099453         81.3626        0.0715567        -119.413
                               0               0                0               0        0.0713986        -119.569        0.0995269         81.3576
76.395                         0               0                0               0          0.39059          93.648         0.910198         4.73393
                               0               0                0               0         0.910835         4.69335         0.391523          93.725
                               0               0                0               0         0.103264         80.9981        0.0707462        -122.964
                               0               0                0               0        0.0705429        -123.183         0.103424         80.9784
76.44                          0               0                0               0         0.388091         92.1439         0.909976         3.23224
                               0               0                0               0         0.911016         3.17527         0.389298          92.238
