! TOUCHSTONE file generated by CST MICROWAVE STUDIO
! Date and time: Sun Jun 20 22:36:52 2021
! Project name: HIPS_d_sweep.cst
! Parameters = {fmax=120; fmin=75; b=0.46; d=16.85; a=0.63; phi=0; theta=0}
! Header version: 2018
! Port assignment regex: !\s*Touchstone port\s*([0-9]+)\s*=\s*(CST MWS port|CST DS port)\s*([0-9]+|Zmin|Zmax)\s*\(\"(.*)\"\)(\s*mode\s*([0-9]+))?.*
! Touchstone port assignment:
! Touchstone port 1 = CST MWS port Zmin ("") mode 1
! Touchstone port 2 = CST MWS port Zmin ("") mode 2
! Touchstone port 3 = CST MWS port Zmax ("") mode 1
! Touchstone port 4 = CST MWS port Zmax ("") mode 2
! S-Parameters are not renormalized. Unphysical impedance of 0 will be written to the file.
# GHz S MA R 0
75                             0               0                0               0         0.396388         108.371         0.911955         19.2467
                               0               0                0               0         0.912011         19.2469         0.396256         108.381
                               0               0                0               0         0.072557         83.4796        0.0768567        -92.3813
                               0               0                0               0        0.0768881         -92.358        0.0725088         83.4239
75.045                         0               0                0               0         0.396968         107.244         0.912536         18.2089
                               0               0                0               0         0.912573         18.2144         0.396841         107.252
                               0               0                0               0        0.0748045         83.7642        0.0765185        -94.5877
                               0               0                0               0        0.0765512        -94.5694        0.0747565         83.7111
75.09                          0               0                0               0         0.397449         106.111          0.91309         17.1607
                               0               0                0               0         0.913111          17.171         0.397327         106.118
                               0               0                0               0         0.077109         83.9801        0.0761685        -96.8363
                               0               0                0               0        0.0762024        -96.8226         0.077061         83.9293
75.135                         0               0                0               0         0.397831         104.972         0.913614         16.1021
                               0               0                0               0         0.913622         16.1167         0.397712         104.978
                               0               0                0               0         0.079468         84.1294         0.075807        -99.1274
                               0               0                0               0         0.075842         -99.118        0.0794199         84.0806
75.18                          0               0                0               0         0.398112         103.829         0.914106         15.0331
                               0               0                0               0         0.914104         15.0514         0.397996         103.834
                               0               0                0               0         0.081879         84.2142        0.0754344        -101.461
                               0               0                0               0        0.0754704        -101.456        0.0818307         84.1672
75.225                         0               0                0               0         0.398292         102.681         0.914562         13.9539
                               0               0                0               0         0.914553         13.9753         0.398179         102.686
                               0               0                0               0        0.0843392         84.2367        0.0750512        -103.838
                               0               0                0               0        0.0750881        -103.836        0.0842906         84.1912
75.27                          0               0                0               0         0.398372         101.529          0.91498         12.8642
                               0               0                0               0         0.914966         12.8884         0.398262         101.533
                               0               0                0               0        0.0868459         84.1989        0.0746581        -106.259
                               0               0                0               0        0.0746957        -106.259        0.0867968         84.1548
75.315                         0               0                0               0         0.398352         100.374         0.915357         11.7644
                               0               0                0               0          0.91534         11.7908         0.398244         100.377
                               0               0                0               0        0.0893962         84.1028        0.0742556        -108.722
                               0               0                0               0        0.0742939        -108.725        0.0893465         84.0599
75.36                          0               0                0               0         0.398232         99.2147         0.915691         10.6543
                               0               0                0               0         0.915672         10.6825         0.398126         99.2175
                               0               0                0               0        0.0919871         83.9503        0.0738446        -111.228
                               0               0                0               0        0.0738834        -111.233        0.0919365         83.9085
75.405                         0               0                0               0         0.398014          98.053         0.915978         9.53419
                               0               0                0               0          0.91596         9.56364         0.397909         98.0555
                               0               0                0               0        0.0946154         83.7434         0.073426        -113.777
                               0               0                0               0        0.0734651        -113.784        0.0945638         83.7025
75.45                          0               0                0               0         0.397698         96.8888         0.916216         8.40401
                               0               0                0               0         0.916199         8.43431         0.397594         96.8911
                               0               0                0               0        0.0972778         83.4838        0.0730006        -116.369
                               0               0                0               0        0.0730399        -116.377        0.0972249         83.4438
75.495                         0               0                0               0         0.397285         95.7227         0.916402          7.2639
                               0               0                0               0         0.916387         7.29464         0.397183         95.7249
                               0               0                0               0        0.0999707         83.1734        0.0725696        -119.003
                               0               0                0               0         0.072609        -119.012        0.0999163         83.1342
75.54                          0               0                0               0         0.396778         94.5549         0.916534           6.114
                               0               0                0               0         0.916522         6.14478         0.396678         94.5572
                               0               0                0               0         0.102691          82.814         0.072134        -121.679
                               0               0                0               0        0.0721733        -121.688         0.102635         82.7754
75.585                         0               0                0               0         0.396179         93.3859         0.916609         4.95443
                               0               0                0               0         0.916599         4.98487         0.396079         93.3884
                               0               0                0               0         0.105434         82.4071        0.0716951        -124.395
                               0               0                0               0        0.0717342        -124.405         0.105376         82.3691
75.63                          0               0                0               0         0.395488          92.216         0.916623         3.78533
                               0               0                0               0         0.916617         3.81508         0.395389         92.2187
                               0               0                0               0         0.108196         81.9544        0.0712542        -127.152
                               0               0                0               0         0.071293        -127.161         0.108136         81.9171
75.675                         0               0                0               0         0.394709         91.0456         0.916576         2.60687
                               0               0                0               0         0.916572          2.6356         0.394611         91.0487
                               0               0                0               0         0.110973         81.4577        0.0708127        -129.948
                               0               0                0               0        0.0708509        -129.957         0.110911         81.4209
75.72                          0               0                0               0         0.393844         89.8752         0.916463         1.41922
                               0               0                0               0         0.916462         1.44663         0.393747         89.8786
                               0               0                0               0          0.11376         80.9183         0.070372        -132.782
                               0               0                0               0        0.0704096         -132.79         0.113696         80.8822
75.765                         0               0                0               0         0.392895         88.7049         0.916284        0.222577
                               0               0                0               0         0.916284        0.248374           0.3928         88.7087
                               0               0                0               0         0.116554          80.338        0.0699336        -135.654
                               0               0                0               0        0.0699704         -135.66         0.116487         80.3024
75.81                          0               0                0               0         0.391866         87.5351         0.916035       -0.982857
                               0               0                0               0         0.916036       -0.958925         0.391772         87.5394
                               0               0                0               0         0.119349         79.7183         0.069499         -138.56
                               0               0                0               0        0.0695349        -138.566          0.11928         79.6833
75.855                         0               0                0               0          0.39076         86.3661         0.915715        -2.19686
                               0               0                0               0         0.915717        -2.17503         0.390667          86.371
                               0               0                0               0         0.122141         79.0606          0.06907        -141.501
                               0               0                0               0        0.0691048        -141.505         0.122069         79.0262
75.9                           0               0                0               0          0.38958         85.1982         0.915322         -3.4192
                               0               0                0               0         0.915323        -3.39967         0.389488         85.2037
                               0               0                0               0         0.124925         78.3666         0.068648        -144.474
                               0               0                0               0        0.0686816        -144.475         0.124849         78.3327
75.945                         0               0                0               0         0.388328         84.0317         0.914854        -4.64963
                               0               0                0               0         0.914852        -4.63259         0.388238         84.0378
                               0               0                0               0         0.127696         77.6376        0.0682347        -147.477
                               0               0                0               0        0.0682669        -147.477         0.127617         77.6044
75.99                          0               0                0               0         0.387009         82.8668          0.91431        -5.88789
                               0               0                0               0         0.914304        -5.87348         0.386921         82.8735
                               0               0                0               0         0.130447         76.8752        0.0678317        -150.509
                               0               0                0               0        0.0678624        -150.506         0.130365         76.8426
76.035                         0               0                0               0         0.385626         81.7038         0.913687         -7.1337
                               0               0                0               0         0.913677        -7.12206          0.38554         81.7111
                               0               0                0               0         0.133176          76.081        0.0674406        -153.566
                               0               0                0               0        0.0674697        -153.561          0.13309          76.049
76.08                          0               0                0               0         0.384182         80.5427         0.912986        -8.38677
                               0               0                0               0          0.91297          -8.378         0.384098         80.5507
                               0               0                0               0         0.135875         75.2563        0.0670631        -156.647
                               0               0                0               0        0.0670904         -156.64         0.135785          75.225
76.125                         0               0                0               0         0.382682          79.384         0.912205        -9.64681
                               0               0                0               0         0.912181        -9.64098           0.3826         79.3926
                               0               0                0               0         0.138539         74.4027        0.0667004         -159.75
                               0               0                0               0        0.0667259         -159.74         0.138447         74.3721
76.17                          0               0                0               0         0.381129         78.2276         0.911342        -10.9135
                               0               0                0               0          0.91131        -10.9107         0.381048         78.2369
                               0               0                0               0         0.141164         73.5217        0.0663542        -162.871
                               0               0                0               0        0.0663777        -162.858         0.141068         73.4918
76.215                         0               0                0               0         0.379526         77.0738         0.910399        -12.1865
                               0               0                0               0         0.910356        -12.1867         0.379448         77.0837
                               0               0                0               0         0.143743         72.6148        0.0660258        -166.008
                               0               0                0               0        0.0660471        -165.992         0.143644         72.5856
76.26                          0               0                0               0         0.377878         75.9226         0.909374        -13.4655
                               0               0                0               0         0.909319        -13.4687         0.377802         75.9332
                               0               0                0               0         0.146272         71.6835        0.0657163        -169.157
                               0               0                0               0        0.0657355         -169.14          0.14617         71.6551
76.305                         0               0                0               0         0.376188         74.7743         0.908267        -14.7502
                               0               0                0               0           0.9082        -14.7564         0.376115         74.7854
                               0               0                0               0         0.148746         70.7293         0.065427        -172.317
                               0               0                0               0        0.0654439        -172.297          0.14864         70.7018
76.35                          0               0                0               0         0.374459         73.6289          0.90708        -16.0401
                               0               0                0               0         0.906998        -16.0493         0.374389         73.6405
                               0               0                0               0         0.151159         69.7538        0.0651589        -175.484
                               0               0                0               0        0.0651734        -175.462         0.151049         69.7271
76.395                         0               0                0               0         0.372697         72.4864         0.905811         -17.335
                               0               0                0               0         0.905714        -17.3471          0.37263         72.4985
                               0               0                0               0         0.153506         68.7584        0.0649128        -178.654
                               0               0                0               0         0.064925         -178.63         0.153393         68.7325
76.44                          0               0                0               0         0.370904         71.3469         0.904463        -18.6345
                               0               0                0               0         0.904349        -18.6494          0.37084         71.3595
