! TOUCHSTONE file generated by CST MICROWAVE STUDIO
! Date and time: Sun Jun 20 22:38:10 2021
! Project name: HIPS_d_sweep.cst
! Parameters = {fmax=120; fmin=75; b=0.46; d=25; a=0.63; phi=0; theta=0}
! Header version: 2018
! Port assignment regex: !\s*Touchstone port\s*([0-9]+)\s*=\s*(CST MWS port|CST DS port)\s*([0-9]+|Zmin|Zmax)\s*\(\"(.*)\"\)(\s*mode\s*([0-9]+))?.*
! Touchstone port assignment:
! Touchstone port 1 = CST MWS port Zmin ("") mode 1
! Touchstone port 2 = CST MWS port Zmin ("") mode 2
! Touchstone port 3 = CST MWS port Zmax ("") mode 1
! Touchstone port 4 = CST MWS port Zmax ("") mode 2
! S-Parameters are not renormalized. Unphysical impedance of 0 will be written to the file.
# GHz S MA R 0
75                             0               0                0               0         0.163444         81.2929         0.970185         173.957
                               0               0                0               0         0.970071         173.969         0.163225         81.2661
                               0               0                0               0          0.17216         81.5168        0.0510577         49.2624
                               0               0                0               0        0.0510868         49.4882         0.172151         81.5282
75.045                         0               0                0               0         0.158506         80.4286         0.971067         173.203
                               0               0                0               0         0.971184         173.218          0.15834         80.4467
                               0               0                0               0         0.173771         80.7674        0.0502259         48.5866
                               0               0                0               0        0.0502264         48.7036         0.173762         80.7819
75.09                          0               0                0               0         0.154312         79.4733         0.971525         172.338
                               0               0                0               0         0.971739         172.354         0.154185         79.5101
                               0               0                0               0          0.17553         79.9549        0.0495117          47.793
                               0               0                0               0        0.0494931         47.8395          0.17552         79.9716
75.135                         0               0                0               0         0.150752         78.4336         0.971692         171.368
                               0               0                0               0          0.97192         171.383         0.150656         78.4722
                               0               0                0               0         0.177438         79.0739        0.0489134         46.8791
                               0               0                0               0        0.0488853         46.8849         0.177429         79.0919
75.18                          0               0                0               0         0.147738          77.314         0.971667         170.301
                               0               0                0               0         0.971865         170.315         0.147671         77.3448
                               0               0                0               0         0.179493         78.1189        0.0484276         45.8423
                               0               0                0               0        0.0483991         45.8286         0.179484         78.1375
75.225                         0               0                0               0         0.145202         76.1177          0.97152         169.146
                               0               0                0               0         0.971669         169.156         0.145162         76.1362
                               0               0                0               0         0.181687         77.0849        0.0480491         44.6799
                               0               0                0               0        0.0480276         44.6604         0.181679         77.1036
75.27                          0               0                0               0         0.143092         74.8469         0.971295         167.909
                               0               0                0               0         0.971397         167.915         0.143077         74.8526
                               0               0                0               0         0.184007         75.9678        0.0477712         43.3897
                               0               0                0               0         0.047762         43.3716            0.184         75.9862
75.315                         0               0                0               0         0.141365         73.5035         0.971021         166.596
                               0               0                0               0         0.971086         166.598         0.141372         73.4981
                               0               0                0               0         0.186436         74.7644        0.0475861         41.9701
                               0               0                0               0        0.0475921         41.9557         0.186428         74.7824
75.36                          0               0                0               0         0.139989         72.0887          0.97071         165.212
                               0               0                0               0         0.970755         165.211         0.140014         72.0758
                               0               0                0               0         0.188949         73.4733        0.0474848         40.4205
                               0               0                0               0        0.0475065         40.4091         0.188942         73.4908
75.405                         0               0                0               0         0.138939         70.6042         0.970366         163.762
                               0               0                0               0         0.970405         163.759         0.138978         70.5878
                               0               0                0               0          0.19152         72.0947        0.0474578         38.7415
                               0               0                0               0        0.0474937         38.7307         0.191512         72.1117
75.45                          0               0                0               0         0.138197         69.0515         0.969984         162.249
                               0               0                0               0          0.97003         162.245         0.138243         69.0357
                               0               0                0               0         0.194119         70.6305        0.0474954         36.9348
                               0               0                0               0        0.0475422         36.9216         0.194111         70.6472
75.495                         0               0                0               0         0.137751         67.4331         0.969557         160.678
                               0               0                0               0         0.969616         160.674         0.137797         67.4214
                               0               0                0               0         0.196714         69.0844        0.0475875         35.0031
                               0               0                0               0         0.047641         34.9852         0.196707         69.1009
75.54                          0               0                0               0         0.137592         65.7518         0.969074          159.05
                               0               0                0               0         0.969149         159.048          0.13763         65.7468
                               0               0                0               0         0.199275         67.4616        0.0477243         32.9503
                               0               0                0               0        0.0477799          32.926         0.199269          67.478
75.585                         0               0                0               0         0.137713         64.0117         0.968529         157.368
                               0               0                0               0         0.968614         157.369         0.137737         64.0146
                               0               0                0               0         0.201773         65.7684        0.0478962         30.7807
                               0               0                0               0        0.0479495         30.7496          0.20177         65.7847
75.63                          0               0                0               0          0.13811         62.2177         0.967918         155.634
                               0               0                0               0         0.968005         155.638         0.138116         62.2285
                               0               0                0               0         0.204184         64.0116         0.048094         28.4992
                               0               0                0               0        0.0481412          28.462         0.204184         64.0278
75.675                         0               0                0               0         0.138782         60.3756         0.967242         153.848
                               0               0                0               0          0.96732         153.855         0.138765         60.3932
                               0               0                0               0         0.206484         62.1981        0.0483092         26.1109
                               0               0                0               0        0.0483474          26.069         0.206487         62.2143
75.72                          0               0                0               0         0.139723         58.4923         0.966511         152.011
                               0               0                0               0          0.96657         152.021         0.139685         58.5145
                               0               0                0               0         0.208654         60.3347        0.0485335         23.6208
                               0               0                0               0        0.0485608         23.5763         0.208661         60.3508
75.765                         0               0                0               0         0.140931         56.5752         0.965744         150.126
                               0               0                0               0         0.965776         150.138         0.140873         56.5994
                               0               0                0               0         0.210678         58.4276        0.0487593         21.0338
                               0               0                0               0         0.048775          20.989         0.210689         58.4435
75.81                          0               0                0               0         0.142397         54.6323         0.964969         148.193
                               0               0                0               0         0.964972         148.205         0.142326         54.6557
                               0               0                0               0         0.212542         56.4821        0.0489793         18.3541
                               0               0                0               0        0.0489837         18.3114         0.212557         56.4978
75.855                         0               0                0               0         0.144112         52.6711         0.964219         146.214
                               0               0                0               0           0.9642         146.225         0.144036         52.6914
                               0               0                0               0         0.214232         54.5028        0.0491866         15.5856
                               0               0                0               0        0.0491808         15.5471         0.214251         54.5183
75.9                           0               0                0               0         0.146063         50.6989         0.963536         144.191
                               0               0                0               0         0.963507         144.201         0.145991         50.7146
                               0               0                0               0         0.215736         52.4934        0.0493746         12.7315
                               0               0                0               0        0.0493604          12.699         0.215759         52.5086
75.945                         0               0                0               0         0.148232         48.7219         0.962959         142.129
                               0               0                0               0         0.962941         142.135         0.148176         48.7322
                               0               0                0               0          0.21704         50.4569        0.0495368         9.79458
                               0               0                0               0        0.0495166         9.76935         0.217067         50.4719
75.99                          0               0                0               0         0.150599         46.7449         0.962527         140.031
                               0               0                0               0         0.962542         140.033         0.150568         46.7502
                               0               0                0               0         0.218131         48.3958        0.0496668         6.77678
                               0               0                0               0        0.0496433         6.75955         0.218161         48.4107
76.035                         0               0                0               0         0.153139         44.7711         0.962266         137.902
                               0               0                0               0         0.962338         137.901         0.153142         44.7724
                               0               0                0               0         0.218993         46.3124        0.0497583         3.67966
                               0               0                0               0        0.0497342         3.67059         0.219026         46.3273
76.08                          0               0                0               0         0.155829         42.8021          0.96219         135.749
                               0               0                0               0         0.962336         135.744          0.15587         42.8008
                               0               0                0               0         0.219609         44.2085         0.049805         0.50425
                               0               0                0               0        0.0497828        0.502968         0.219646         44.2235
76.125                         0               0                0               0         0.158638         40.8377         0.962296         133.577
                               0               0                0               0         0.962525          133.57          0.15872         40.8357
                               0               0                0               0         0.219963         42.0864        0.0498005        -2.74881
                               0               0                0               0        0.0497825        -2.74317         0.220002         42.1015
76.17                          0               0                0               0         0.161541         38.8764          0.96256         131.393
                               0               0                0               0         0.962873         131.384         0.161662         38.8751
                               0               0                0               0         0.220036         39.9482        0.0497384        -6.07914
                               0               0                0               0        0.0497266        -6.06788         0.220078         39.9636
76.215                         0               0                0               0          0.16451         36.9156         0.962942         129.202
                               0               0                0               0         0.963329         129.193         0.164663         36.9161
                               0               0                0               0          0.21981         37.7966        0.0496124        -9.48661
                               0               0                0               0        0.0496082        -9.47135         0.219855         37.8125
76.26                          0               0                0               0         0.167516         34.9515         0.963387          127.01
                               0               0                0               0         0.963831         127.002         0.167695         34.9545
                               0               0                0               0         0.219269         35.6349        0.0494162        -12.9711
                               0               0                0               0        0.0494203        -12.9538         0.219316         35.6512
76.305                         0               0                0               0         0.170537         32.9803         0.963832          124.82
                               0               0                0               0         0.964311         124.813         0.170731         32.9858
                               0               0                0               0         0.218395         33.4666        0.0491437        -16.5326
                               0               0                0               0        0.0491563        -16.5152         0.218446         33.4836
76.35                          0               0                0               0         0.173548         30.9978         0.964206         122.637
                               0               0                0               0         0.964696         122.632         0.173745         31.0054
                               0               0                0               0         0.217177         31.2962        0.0487891         -20.171
                               0               0                0               0        0.0488098        -20.1556         0.217231         31.3138
76.395                         0               0                0               0         0.176527         28.9999         0.964442         120.463
                               0               0                0               0         0.964921         120.459         0.176717         29.0088
                               0               0                0               0         0.215603         29.1286        0.0483473        -23.8859
                               0               0                0               0         0.048375        -23.8747          0.21566         29.1468
76.44                          0               0                0               0         0.179455          26.983         0.964475         118.299
                               0               0                0               0         0.964922         118.296         0.179625         26.9925
