! TOUCHSTONE file generated by CST MICROWAVE STUDIO
! Date and time: Sun Jun 20 22:36:49 2021
! Project name: HIPS_d_sweep.cst
! Parameters = {fmax=120; fmin=75; b=0.46; d=16.45; a=0.63; phi=0; theta=0}
! Header version: 2018
! Port assignment regex: !\s*Touchstone port\s*([0-9]+)\s*=\s*(CST MWS port|CST DS port)\s*([0-9]+|Zmin|Zmax)\s*\(\"(.*)\"\)(\s*mode\s*([0-9]+))?.*
! Touchstone port assignment:
! Touchstone port 1 = CST MWS port Zmin ("") mode 1
! Touchstone port 2 = CST MWS port Zmin ("") mode 2
! Touchstone port 3 = CST MWS port Zmax ("") mode 1
! Touchstone port 4 = CST MWS port Zmax ("") mode 2
! S-Parameters are not renormalized. Unphysical impedance of 0 will be written to the file.
# GHz S MA R 0
75                             0               0                0               0         0.424205         156.305         0.894655          64.885
                               0               0                0               0         0.894591         64.8745         0.424363         156.335
                               0               0                0               0        0.0913601         6.53693         0.106999        -4.70495
                               0               0                0               0         0.106984        -4.69386        0.0913538         6.51274
75.045                         0               0                0               0         0.424595         155.054         0.895842         63.7391
                               0               0                0               0         0.895793         63.7274         0.424785         155.092
                               0               0                0               0        0.0889758         6.41999         0.106967        -6.57516
                               0               0                0               0         0.106943        -6.54287        0.0889771         6.39461
75.09                          0               0                0               0         0.424929           153.8          0.89699         62.5884
                               0               0                0               0         0.896954         62.5757         0.425152         153.845
                               0               0                0               0         0.086568          6.3526         0.106895        -8.46614
                               0               0                0               0         0.106863        -8.41358        0.0865761         6.32576
75.135                         0               0                0               0         0.425207         152.542         0.898097         61.4331
                               0               0                0               0         0.898073         61.4194         0.425462         152.594
                               0               0                0               0        0.0841388         6.34067         0.106781        -10.3778
                               0               0                0               0         0.106745         -10.306        0.0841532         6.31212
75.18                          0               0                0               0         0.425429         151.281         0.899161         60.2732
                               0               0                0               0         0.899148         60.2586         0.425714         151.339
                               0               0                0               0         0.081691         6.39093         0.106626        -12.3102
                               0               0                0               0         0.106586        -12.2201        0.0817111         6.36043
75.225                         0               0                0               0         0.425594         150.018         0.900182         59.1088
                               0               0                0               0         0.900179         59.0934         0.425908         150.081
                               0               0                0               0        0.0792277         6.51099         0.106428         -14.263
                               0               0                0               0         0.106387         -14.156        0.0792527         6.47828
75.27                          0               0                0               0         0.425701         148.752         0.901159         57.9399
                               0               0                0               0         0.901164         57.9239         0.426043         148.819
                               0               0                0               0        0.0767527         6.70948         0.106187        -16.2363
                               0               0                0               0         0.106146        -16.1135        0.0767821         6.67433
75.315                         0               0                0               0          0.42575         147.484         0.902091         56.7667
                               0               0                0               0         0.902103         56.7501         0.426118         147.555
                               0               0                0               0        0.0742705         6.99616         0.105903        -18.2299
                               0               0                0               0         0.105863        -18.0927        0.0743035         6.95834
75.36                          0               0                0               0          0.42574         146.214         0.902976         55.5892
                               0               0                0               0         0.902995         55.5722         0.426134         146.287
                               0               0                0               0        0.0717863         7.38208         0.105574        -20.2437
                               0               0                0               0         0.105537        -20.0934        0.0718223          7.3414
75.405                         0               0                0               0         0.425673         144.941         0.903815         54.4075
                               0               0                0               0         0.903838         54.3901         0.426088         145.017
                               0               0                0               0        0.0693065         7.87974         0.105201        -22.2775
                               0               0                0               0         0.105168        -22.1156        0.0693447         7.83601
75.45                          0               0                0               0         0.425547         143.668         0.904604         53.2217
                               0               0                0               0         0.904632         53.2041         0.425983         143.745
                               0               0                0               0        0.0668383          8.5032         0.104783        -24.3312
                               0               0                0               0         0.104755        -24.1592        0.0668782         8.45627
75.495                         0               0                0               0         0.425362         142.392         0.905345         52.0319
                               0               0                0               0         0.905376         52.0141         0.425816         142.471
                               0               0                0               0        0.0643905         9.26821         0.104321        -26.4047
                               0               0                0               0         0.104298        -26.2241        0.0644313         9.21796
75.54                          0               0                0               0         0.425119         141.116         0.906035         50.8382
                               0               0                0               0         0.906069         50.8203         0.425588         141.195
                               0               0                0               0        0.0619734         10.1923         0.103814        -28.4978
                               0               0                0               0         0.103796        -28.3101        0.0620145         10.1386
75.585                         0               0                0               0         0.424818         139.839         0.906675         49.6406
                               0               0                0               0          0.90671         49.6228         0.425299         139.917
                               0               0                0               0        0.0595989         11.2947         0.103262        -30.6103
                               0               0                0               0         0.103251        -30.4172        0.0596397         11.2377
75.63                          0               0                0               0         0.424458         138.561         0.907262         48.4394
                               0               0                0               0         0.907298         48.4217         0.424949         138.638
                               0               0                0               0        0.0572811         12.5962         0.102667         -32.742
                               0               0                0               0         0.102662        -32.5451        0.0573211         12.5359
75.675                         0               0                0               0         0.424041         137.283         0.907797         47.2345
                               0               0                0               0         0.907833          47.217         0.424539         137.359
                               0               0                0               0        0.0550366          14.119         0.102028        -34.8928
                               0               0                0               0         0.102028        -34.6938        0.0550752         14.0555
75.72                          0               0                0               0         0.423567         136.004         0.908279         46.0261
                               0               0                0               0         0.908315          46.009         0.424068         136.078
                               0               0                0               0        0.0528843         15.8855         0.101346        -37.0626
                               0               0                0               0         0.101352        -36.8631        0.0529211         15.8191
75.765                         0               0                0               0         0.423036         134.725         0.908706         44.8143
                               0               0                0               0         0.908741         44.7976         0.423538         134.798
                               0               0                0               0        0.0508463         17.9175         0.100621        -39.2512
                               0               0                0               0         0.100632        -39.0528         0.050881         17.8487
75.81                          0               0                0               0         0.422448         133.447         0.909079         43.5992
                               0               0                0               0         0.909113          43.583         0.422948         133.517
                               0               0                0               0        0.0489474         20.2344        0.0998557        -41.4584
                               0               0                0               0        0.0998701        -41.2628        0.0489798         20.1636
75.855                         0               0                0               0         0.421805         132.169         0.909396         42.3809
                               0               0                0               0         0.909428         42.3653           0.4223         132.237
                               0               0                0               0        0.0472154         22.8503        0.0990496        -43.6841
                               0               0                0               0        0.0990668        -43.4929        0.0472454         22.7782
75.9                           0               0                0               0         0.421108         130.892         0.909657         41.1595
                               0               0                0               0         0.909687         41.1446         0.421594         130.956
                               0               0                0               0        0.0456803         25.7712        0.0982043        -45.9283
                               0               0                0               0         0.098223        -45.7429        0.0457081         25.6987
75.945                         0               0                0               0         0.420357         129.616         0.909862         39.9352
                               0               0                0               0          0.90989         39.9211         0.420832         129.677
                               0               0                0               0        0.0443741         28.9912         0.097321        -48.1907
                               0               0                0               0        0.0973399        -48.0128        0.0443999          28.919
75.99                          0               0                0               0         0.419553         128.341          0.91001          38.708
                               0               0                0               0         0.910035         38.6948         0.420013         128.399
                               0               0                0               0        0.0433286         32.4885        0.0964012        -50.4712
                               0               0                0               0        0.0964188        -50.3023         0.043353         32.4176
76.035                         0               0                0               0         0.418697         127.067           0.9101         37.4781
                               0               0                0               0         0.910123         37.4658          0.41914         127.121
                               0               0                0               0        0.0425742         36.2231        0.0954463        -52.7699
                               0               0                0               0        0.0954611        -52.6113        0.0425978         36.1542
76.08                          0               0                0               0          0.41779         125.795         0.910133         36.2456
                               0               0                0               0         0.910153         36.2343         0.418213         125.846
                               0               0                0               0        0.0421372         40.1359        0.0944581        -55.0867
                               0               0                0               0        0.0944683        -54.9398         0.042161         40.0695
76.125                         0               0                0               0         0.416834         124.525         0.910108         35.0107
                               0               0                0               0         0.910126         35.0005         0.417234         124.572
                               0               0                0               0        0.0420378         44.1509        0.0934383        -57.4216
                               0               0                0               0        0.0934422        -57.2876        0.0420627         44.0874
76.17                          0               0                0               0          0.41583         123.257         0.910024         33.7734
                               0               0                0               0         0.910039         33.7643         0.416203           123.3
                               0               0                0               0        0.0422875         48.1816        0.0923888        -59.7745
                               0               0                0               0        0.0923845        -59.6547        0.0423147         48.1206
76.215                         0               0                0               0         0.414778         121.991         0.909882         32.5338
                               0               0                0               0         0.909895          32.526         0.415123          122.03
                               0               0                0               0        0.0428888         52.1384        0.0913115        -62.1454
                               0               0                0               0        0.0912973        -62.0411        0.0429192         52.0795
76.26                          0               0                0               0         0.413681         120.728         0.909682         31.2922
                               0               0                0               0         0.909692         31.2856         0.413995         120.763
                               0               0                0               0        0.0438345         55.9378        0.0902086        -64.5345
                               0               0                0               0        0.0901826        -64.4466        0.0438692         55.8801
76.305                         0               0                0               0          0.41254         119.468         0.909423         30.0485
                               0               0                0               0         0.909431         30.0433         0.412821         119.498
                               0               0                0               0         0.045109           59.51        0.0890822        -66.9418
                               0               0                0               0        0.0890427        -66.8713        0.0451489         59.4524
76.35                          0               0                0               0         0.411356          118.21         0.909105         28.8031
                               0               0                0               0         0.909111         28.7992         0.411602         118.237
                               0               0                0               0        0.0466903          62.803        0.0879345        -69.3675
                               0               0                0               0        0.0878796        -69.3153        0.0467362         62.7444
76.395                         0               0                0               0          0.41013         116.955         0.908729         27.5559
                               0               0                0               0         0.908733         27.5535         0.410339         116.978
                               0               0                0               0        0.0485519         65.7843        0.0867679        -71.8117
                               0               0                0               0        0.0866959        -71.7785        0.0486043         65.7236
76.44                          0               0                0               0         0.408866         115.704         0.908294         26.3071
                               0               0                0               0         0.908297         26.3062         0.409035         115.723
