! TOUCHSTONE file generated by CST MICROWAVE STUDIO
! Date and time: Sun Jun 20 22:38:14 2021
! Project name: HIPS_d_sweep.cst
! Parameters = {fmax=120; fmin=75; b=0.46; d=25.35; a=0.63; phi=0; theta=0}
! Header version: 2018
! Port assignment regex: !\s*Touchstone port\s*([0-9]+)\s*=\s*(CST MWS port|CST DS port)\s*([0-9]+|Zmin|Zmax)\s*\(\"(.*)\"\)(\s*mode\s*([0-9]+))?.*
! Touchstone port assignment:
! Touchstone port 1 = CST MWS port Zmin ("") mode 1
! Touchstone port 2 = CST MWS port Zmin ("") mode 2
! Touchstone port 3 = CST MWS port Zmax ("") mode 1
! Touchstone port 4 = CST MWS port Zmax ("") mode 2
! S-Parameters are not renormalized. Unphysical impedance of 0 will be written to the file.
# GHz S MA R 0
75                             0               0                0               0         0.178587         42.4666         0.957628         135.025
                               0               0                0               0         0.957666          135.02         0.178799         42.4224
                               0               0                0               0         0.219043         43.2481        0.0529676        -5.24171
                               0               0                0               0        0.0529442        -5.30051         0.219149         43.3023
75.045                         0               0                0               0         0.173597         41.8003         0.959547         134.204
                               0               0                0               0         0.959816         134.205         0.173703           41.73
                               0               0                0               0          0.21903         42.4129        0.0521158        -6.00743
                               0               0                0               0        0.0521319        -5.93274         0.219139         42.4674
75.09                          0               0                0               0         0.169388         40.9609         0.960892         133.309
                               0               0                0               0          0.96128         133.314         0.169458         40.8775
                               0               0                0               0         0.218944         41.5277        0.0512352        -6.81996
                               0               0                0               0        0.0512864        -6.64621         0.219055         41.5822
75.135                         0               0                0               0         0.165875         39.9801         0.961752         132.336
                               0               0                0               0         0.962163         132.345         0.165948         39.8947
                               0               0                0               0          0.21878          40.589        0.0503313        -7.67959
                               0               0                0               0        0.0504136        -7.44582         0.218893         40.6433
75.18                          0               0                0               0         0.162982         38.8833         0.962216         131.284
                               0               0                0               0         0.962576         131.294         0.163079         38.8045
                               0               0                0               0         0.218531         39.5934         0.049412        -8.58601
                               0               0                0               0        0.0495202        -8.33617         0.218646         39.6473
75.225                         0               0                0               0         0.160643         37.6907         0.962374         130.151
                               0               0                0               0         0.962632          130.16         0.160773         37.6248
                               0               0                0               0          0.21819         38.5373        0.0484882        -9.53871
                               0               0                0               0        0.0486136        -9.32168         0.218307         38.5907
75.27                          0               0                0               0           0.1588         36.4182         0.962314         128.937
                               0               0                0               0         0.962438         128.943         0.158962         36.3692
                               0               0                0               0         0.217748         37.4174        0.0475752        -10.5383
                               0               0                0               0        0.0477026        -10.4068         0.217868           37.47
75.315                         0               0                0               0         0.157403         35.0783         0.962117         127.642
                               0               0                0               0         0.962095         127.644         0.157593         35.0481
                               0               0                0               0         0.217197         36.2301         0.046694        -11.5893
                               0               0                0               0        0.0467971        -11.5965         0.217319         36.2818
75.36                          0               0                0               0         0.156409         33.6806         0.961857          126.27
                               0               0                0               0         0.961689         126.264          0.15662         33.6693
                               0               0                0               0         0.216524         34.9721        0.0458715        -12.7053
                               0               0                0               0         0.045909        -12.8973         0.216647          35.023
75.405                         0               0                0               0          0.15578         32.2321         0.961597         124.821
                               0               0                0               0         0.961299         124.808         0.156005         32.2387
                               0               0                0               0         0.215715         33.6403        0.0451388        -13.9182
                               0               0                0               0         0.045052        -14.3185          0.21584         33.6904
75.45                          0               0                0               0         0.155487         30.7383         0.961389         123.298
                               0               0                0               0         0.960983         123.278         0.155716         30.7605
                               0               0                0               0         0.214753          32.232        0.0445238        -15.2875
                               0               0                0               0        0.0442419        -15.8757         0.214879         32.2813
75.495                         0               0                0               0         0.155501         29.2027         0.961273         121.705
                               0               0                0               0          0.96079         121.678         0.155728         29.2376
                               0               0                0               0          0.21362         30.7447         0.044036        -16.9058
                               0               0                0               0        0.0434952        -17.5942         0.213747         30.7934
75.54                          0               0                0               0         0.155801         27.6278          0.96128         120.046
                               0               0                0               0          0.96075         120.012         0.156017         27.6718
                               0               0                0               0         0.212294         29.1768        0.0436461        -18.8838
                               0               0                0               0        0.0428257        -19.5141          0.21242         29.2253
75.585                         0               0                0               0         0.156367         26.0147         0.961426         118.323
                               0               0                0               0         0.960883         118.284         0.156568         26.0641
                               0               0                0               0         0.210748         27.5276        0.0432782        -21.3082
                               0               0                0               0         0.042238        -21.6939         0.210875          27.576
75.63                          0               0                0               0         0.157184         24.3639         0.961721         116.542
                               0               0                0               0         0.961194           116.5         0.157366         24.4148
                               0               0                0               0         0.208956         25.7975        0.0428316        -24.1953
                               0               0                0               0        0.0417169         -24.206         0.209083         25.8463
75.675                         0               0                0               0         0.158239          22.675         0.962161         114.705
                               0               0                0               0         0.961679         114.662           0.1584         22.7238
                               0               0                0               0         0.206889         23.9884        0.0422283        -27.4817
                               0               0                0               0        0.0412186        -27.1182         0.207016         24.0379
75.72                          0               0                0               0         0.159522         20.9474         0.962737         112.817
                               0               0                0               0         0.962321         112.775         0.159661         20.9907
                               0               0                0               0         0.204517         22.1041        0.0414447        -31.0663
                               0               0                0               0        0.0406751        -30.4619         0.204645         22.1549
75.765                         0               0                0               0         0.161025         19.1798         0.963432         110.882
                               0               0                0               0         0.963098         110.843         0.161143         19.2147
                               0               0                0               0         0.201811         20.1509        0.0405073        -34.8617
                               0               0                0               0        0.0400188        -34.2076         0.201942         20.2032
75.81                          0               0                0               0         0.162745          17.371          0.96422         108.902
                               0               0                0               0         0.963978         108.869         0.162845         17.3955
                               0               0                0               0         0.198749         18.1375        0.0394652        -38.8193
                               0               0                0               0         0.039215        -38.2744         0.198884         18.1915
75.855                         0               0                0               0         0.164678         15.5198         0.965073         106.882
                               0               0                0               0         0.964926         106.857         0.164763         15.5325
                               0               0                0               0         0.195315          16.075        0.0383674        -42.9276
                               0               0                0               0        0.0382755         -42.572         0.195456         16.1308
75.9                           0               0                0               0         0.166823         13.6255         0.965959         104.825
                               0               0                0               0           0.9659         104.809         0.166898         13.6261
                               0               0                0               0         0.191505         13.9767        0.0372525        -47.1981
                               0               0                0               0        0.0372438        -47.0386         0.191653         14.0341
75.945                         0               0                0               0         0.169183         11.6877         0.966841         102.733
                               0               0                0               0         0.966857         102.729         0.169253         11.6771
                               0               0                0               0         0.187329         11.8571        0.0361476        -51.6531
                               0               0                0               0        0.0361709        -51.6541         0.187486         11.9155
75.99                          0               0                0               0         0.171759         9.70726         0.967682          100.61
                               0               0                0               0          0.96775         100.618         0.171828         9.68711
                               0               0                0               0         0.182811         9.72997        0.0350712        -56.3189
                               0               0                0               0         0.035099        -56.4295         0.182976         9.78902
76.035                         0               0                0               0         0.174556         7.68615         0.968447         98.4582
                               0               0                0               0         0.968535         98.4777         0.174626         7.65907
                               0               0                0               0         0.177988         7.60718        0.0340361        -61.2209
                               0               0                0               0        0.0340574        -61.3923         0.178159         7.66626
76.08                          0               0                0               0         0.177574         5.62781         0.969101         96.2795
                               0               0                0               0         0.969169         96.3102         0.177646         5.59696
                               0               0                0               0         0.172902         5.49636        0.0330518        -66.3822
                               0               0                0               0        0.0330646        -66.5745         0.173078         5.55514
76.125                         0               0                0               0         0.180811         3.53722         0.969612         94.0759
                               0               0                0               0          0.96962         94.1155         0.180883         3.50587
                               0               0                0               0         0.167593         3.40016        0.0321265        -71.8226
                               0               0                0               0        0.0321328        -72.0063         0.167772         3.45864
76.17                          0               0                0               0          0.18426         1.42067         0.969961         91.8489
                               0               0                0               0         0.969867         91.8937         0.184325         1.39164
                               0               0                0               0         0.162093          1.3165        0.0312679        -77.5577
                               0               0                0               0        0.0312706        -77.7131         0.162272         1.37503
76.215                         0               0                0               0         0.187904       -0.714781         0.970135         89.5996
                               0               0                0               0         0.969917         89.6444         0.187953       -0.739651
                               0               0                0               0         0.156415       -0.759712         0.030484        -83.5982
                               0               0                0               0        0.0304853        -83.7137         0.156594       -0.700534
76.26                          0               0                0               0         0.191714        -2.86229         0.970147         87.3292
                               0               0                0               0         0.969813         87.3671         0.191738        -2.88245
                               0               0                0               0         0.150559        -2.83386        0.0297833        -89.9486
                               0               0                0               0        0.0297847        -90.0194         0.150737        -2.77336
76.305                         0               0                0               0         0.195649        -5.01637         0.970032          85.039
                               0               0                0               0         0.969646         85.0631          0.19564         -5.0326
                               0               0                0               0         0.144511        -4.90864        0.0291745         -96.606
                               0               0                0               0        0.0291766        -96.6327          0.14469        -4.84626
76.35                          0               0                0               0         0.199658        -7.17397         0.969863         82.7314
                               0               0                0               0          0.96955         82.7374         0.199613        -7.18803
                               0               0                0               0         0.138251        -6.98165         0.028667        -103.559
                               0               0                0               0        0.0286697        -103.546         0.138431        -6.91708
76.395                         0               0                0               0         0.203682        -9.33521         0.969744          80.412
                               0               0                0               0         0.969657         80.4014         0.203601        -9.34918
                               0               0                0               0         0.131762        -9.04384        0.0282698        -110.786
                               0               0                0               0        0.0282728        -110.742         0.131944        -8.97704
76.44                          0               0                0               0         0.207658        -11.5034          0.96978         78.0914
                               0               0                0               0         0.970012         78.0729          0.20755        -11.5189
