! TOUCHSTONE file generated by CST MICROWAVE STUDIO
! Date and time: Sun Jun 20 22:37:44 2021
! Project name: HIPS_d_sweep.cst
! Parameters = {fmax=120; fmin=75; b=0.46; d=22.65; a=0.63; phi=0; theta=0}
! Header version: 2018
! Port assignment regex: !\s*Touchstone port\s*([0-9]+)\s*=\s*(CST MWS port|CST DS port)\s*([0-9]+|Zmin|Zmax)\s*\(\"(.*)\"\)(\s*mode\s*([0-9]+))?.*
! Touchstone port assignment:
! Touchstone port 1 = CST MWS port Zmin ("") mode 1
! Touchstone port 2 = CST MWS port Zmin ("") mode 2
! Touchstone port 3 = CST MWS port Zmax ("") mode 1
! Touchstone port 4 = CST MWS port Zmax ("") mode 2
! S-Parameters are not renormalized. Unphysical impedance of 0 will be written to the file.
# GHz S MA R 0
75                             0               0                0               0       0.00642878        -145.809         0.989649         82.0197
                               0               0                0               0         0.989704         82.0083       0.00648986        -144.168
                               0               0                0               0         0.139606        -8.02571        0.0315853        -6.45904
                               0               0                0               0        0.0316125         -6.4294         0.139639        -8.02592
75.045                         0               0                0               0       0.00960398        -159.963         0.990382         81.2804
                               0               0                0               0         0.990454         81.2717       0.00964709        -159.684
                               0               0                0               0         0.137419          -8.749        0.0320198        -6.27923
                               0               0                0               0        0.0320565         -6.3261         0.137451        -8.74952
75.09                          0               0                0               0        0.0127849        -167.876         0.990858         80.4589
                               0               0                0               0          0.99093         80.4514        0.0128386        -167.917
                               0               0                0               0         0.134995         -9.5378        0.0323686        -6.30916
                               0               0                0               0        0.0324096        -6.38867         0.135026        -9.53845
75.135                         0               0                0               0        0.0157915         -173.29         0.991157         79.5563
                               0               0                0               0          0.99122         79.5486        0.0158449        -173.289
                               0               0                0               0         0.132329         -10.395        0.0326297        -6.54433
                               0               0                0               0        0.0326717         -6.6244         0.132359        -10.3956
75.18                          0               0                0               0        0.0185378        -177.451          0.99135         78.5737
                               0               0                0               0         0.991398          78.565        0.0185757         -177.28
                               0               0                0               0         0.129416        -11.3232        0.0328011        -6.97904
                               0               0                0               0        0.0328421        -7.03771         0.129447        -11.3236
75.225                         0               0                0               0        0.0209689         179.122         0.991495         77.5133
                               0               0                0               0         0.991528         77.5026        0.0209804           179.5
                               0               0                0               0         0.126251        -12.3246          0.03288        -7.60653
                               0               0                0               0        0.0329199        -7.63046         0.126282        -12.3247
75.27                          0               0                0               0        0.0230468         176.173         0.991641          76.377
                               0               0                0               0          0.99166          76.364        0.0230268         176.753
                               0               0                0               0         0.122829        -13.4009        0.0328638        -8.41919
                               0               0                0               0        0.0329037        -8.40224          0.12286        -13.4006
75.315                         0               0                0               0        0.0247455         173.559         0.991825         75.1675
                               0               0                0               0         0.991833          75.152        0.0246945         174.315
                               0               0                0               0         0.119145        -14.5535        0.0327495        -9.40861
                               0               0                0               0        0.0327912        -9.35066         0.119176        -14.5527
75.36                          0               0                0               0        0.0260493          171.19         0.992072         73.8873
                               0               0                0               0         0.992073         73.8694        0.0259725         172.088
                               0               0                0               0         0.115192        -15.7832        0.0325344        -10.5658
                               0               0                0               0        0.0325799        -10.4715         0.115223        -15.7819
75.405                         0               0                0               0        0.0269518         169.005           0.9924         72.5392
                               0               0                0               0         0.992396         72.5194        0.0268572         170.005
                               0               0                0               0         0.110967        -17.0904         0.032216        -11.8811
                               0               0                0               0         0.032267        -11.7589         0.110999        -17.0886
75.45                          0               0                0               0        0.0274547         166.957         0.992816          71.126
                               0               0                0               0          0.99281         71.1047        0.0273519          168.02
                               0               0                0               0         0.106466        -18.4749        0.0317922        -13.3448
                               0               0                0               0        0.0318496        -13.2056         0.106497        -18.4726
75.495                         0               0                0               0        0.0275668         165.009         0.993318         69.6505
                               0               0                0               0         0.993312         69.6285        0.0274658         166.098
                               0               0                0               0         0.101687        -19.9359        0.0312613        -14.9463
                               0               0                0               0        0.0313251        -14.8026         0.101718        -19.9331
75.54                          0               0                0               0        0.0273026         163.131           0.9939         68.1153
                               0               0                0               0         0.993892         68.0934        0.0272123         164.213
                               0               0                0               0        0.0966278         -21.472        0.0306225        -16.6755
                               0               0                0               0        0.0306912        -16.5402        0.0966579        -21.4687
75.585                         0               0                0               0        0.0266813         161.298         0.994548         66.5232
                               0               0                0               0         0.994537         66.5022        0.0266088         162.342
                               0               0                0               0        0.0912906        -23.0812        0.0298756        -18.5216
                               0               0                0               0        0.0299466         -18.407        0.0913196        -23.0775
75.63                          0               0                0               0        0.0257254         159.486         0.995242         64.8768
                               0               0                0               0         0.995226         64.8574        0.0256755         160.469
                               0               0                0               0        0.0856784        -24.7609        0.0290214        -20.4744
                               0               0                0               0        0.0290906        -20.3909         0.085706        -24.7569
75.675                         0               0                0               0        0.0244596         157.678          0.99596         63.1786
                               0               0                0               0         0.995936         63.1617        0.0244341         158.579
                               0               0                0               0        0.0797974        -26.5081        0.0280614        -22.5234
                               0               0                0               0        0.0281241        -22.4789        0.0798231        -26.5037
75.72                          0               0                0               0        0.0229099         155.855         0.996679         61.4311
                               0               0                0               0         0.996644         61.4172        0.0229076          156.66
                               0               0                0               0        0.0736562        -28.3192        0.0269978        -24.6583
                               0               0                0               0        0.0270488        -24.6574        0.0736799        -28.3146
75.765                         0               0                0               0        0.0211021         154.004         0.997371         59.6369
                               0               0                0               0         0.997325         59.6263        0.0211195         154.702
                               0               0                0               0        0.0672666        -30.1908        0.0258335        -26.8692
                               0               0                0               0        0.0258678         -26.912         0.067288        -30.1859
75.81                          0               0                0               0        0.0190619         152.112         0.998013         57.7983
                               0               0                0               0         0.997957         57.7913        0.0190928         152.697
                               0               0                0               0        0.0606429        -32.1195        0.0245723         -29.146
                               0               0                0               0        0.0245853        -29.2279        0.0606619        -32.1144
75.855                         0               0                0               0        0.0168136          150.17          0.99858         55.9179
                               0               0                0               0         0.998521         55.9144        0.0168501         150.639
                               0               0                0               0        0.0538021         -34.103        0.0232181        -31.4782
                               0               0                0               0        0.0232066        -31.5897        0.0538185        -34.0978
75.9                           0               0                0               0          0.01438         148.171         0.999055         53.9983
                               0               0                0               0         0.999003          53.998        0.0144132         148.522
                               0               0                0               0        0.0467629        -36.1412        0.0217755        -33.8548
                               0               0                0               0        0.0217379        -33.9811        0.0467768        -36.1359
75.945                         0               0                0               0        0.0117823         146.108         0.999424         52.0425
                               0               0                0               0         0.999396         52.0448        0.0118028         146.343
                               0               0                0               0        0.0395456        -38.2383        0.0202495        -36.2634
                               0               0                0               0        0.0201859        -36.3845        0.0395571        -38.2328
75.99                          0               0                0               0       0.00903974          143.98         0.999679         50.0537
                               0               0                0               0         0.999699         50.0579       0.00903857         144.098
                               0               0                0               0        0.0321713        -40.4086        0.0186451        -38.6887
                               0               0                0               0        0.0185577        -38.7796        0.0321804        -40.4029
76.035                         0               0                0               0       0.00616958         141.791         0.999821         48.0356
                               0               0                0               0         0.999917         48.0411       0.00613888          141.78
                               0               0                0               0        0.0246609        -42.6912        0.0169681        -41.1107
                               0               0                0               0        0.0168609         -41.142        0.0246678        -42.6852
76.08                          0               0                0               0       0.00318729         139.582          0.99986         45.9925
                               0               0                0               0                1         45.9986       0.00312122          139.36
                               0               0                0               0        0.0170351        -45.2066        0.0152242        -43.5011
                               0               0                0               0        0.0151028        -43.4394        0.0170399        -45.1997
76.125                         0               0                0               0      0.000106954         142.099         0.999813         43.9297
                               0               0                0               0                1         43.9359      7.28143e-06         63.7354
                               0               0                0               0       0.00931502        -48.4932        0.0134202        -45.8168
                               0               0                0               0        0.0132911        -45.6251       0.00931781        -48.4833
76.17                          0               0                0               0       0.00306058        -45.5658         0.999706         41.8531
                               0               0                0               0                1         41.8592       0.00320272        -45.2714
                               0               0                0               0        0.0015619        -64.0173        0.0115633        -47.9868
                               0               0                0               0        0.0114335        -47.6253       0.00156241        -63.9624
76.215                         0               0                0               0       0.00630338        -47.9765          0.99957         39.7694
                               0               0                0               0                1         39.7751       0.00647789        -47.8488
                               0               0                0               0       0.00638172         133.876       0.00966256        -49.8847
                               0               0                0               0       0.00953821        -49.3102       0.00638272         133.862
76.26                          0               0                0               0       0.00961237        -50.5031         0.999439         37.6857
                               0               0                0               0                1         37.6911       0.00980822        -50.4199
                               0               0                0               0        0.0142891         129.617       0.00772894        -51.2594
                               0               0                0               0       0.00761472         -50.422        0.0142923         129.608
76.305                         0               0                0               0        0.0129786        -53.0843         0.999349         35.6091
                               0               0                0               0         0.999946          35.614        0.0131781        -53.0034
                               0               0                0               0        0.0222343         126.887       0.00577821        -51.5287
                               0               0                0               0       0.00567635        -50.3557        0.0222399         126.878
76.35                          0               0                0               0        0.0163923        -55.6892         0.999335         33.5451
                               0               0                0               0         0.999725         33.5498        0.0165704        -55.5887
                               0               0                0               0         0.030195         124.482       0.00383895        -48.9707
                               0               0                0               0       0.00374937        -47.2816        0.0302036         124.471
76.395                         0               0                0               0        0.0198407        -58.2852          0.99942         31.4963
                               0               0                0               0         0.999404         31.5028        0.0199654        -58.1568
                               0               0                0               0        0.0381486         122.201       0.00200525        -35.7071
                               0               0                0               0       0.00193366        -32.5499        0.0381606         122.188
76.44                          0               0                0               0        0.0233029         -60.832         0.999594         29.4615
                               0               0                0               0          0.99898         29.4739        0.0233385        -60.6827
