! TOUCHSTONE file generated by CST MICROWAVE STUDIO
! Date and time: Sun Jun 20 22:37:15 2021
! Project name: HIPS_d_sweep.cst
! Parameters = {fmax=120; fmin=75; b=0.46; d=19.75; a=0.63; phi=0; theta=0}
! Header version: 2018
! Port assignment regex: !\s*Touchstone port\s*([0-9]+)\s*=\s*(CST MWS port|CST DS port)\s*([0-9]+|Zmin|Zmax)\s*\(\"(.*)\"\)(\s*mode\s*([0-9]+))?.*
! Touchstone port assignment:
! Touchstone port 1 = CST MWS port Zmin ("") mode 1
! Touchstone port 2 = CST MWS port Zmin ("") mode 2
! Touchstone port 3 = CST MWS port Zmax ("") mode 1
! Touchstone port 4 = CST MWS port Zmax ("") mode 2
! S-Parameters are not renormalized. Unphysical impedance of 0 will be written to the file.
# GHz S MA R 0
75                             0               0                0               0         0.207819         141.052         0.975525         50.5262
                               0               0                0               0         0.975682          50.524         0.207737         141.072
                               0               0                0               0        0.0348938        -17.7127        0.0609682        -32.9843
                               0               0                0               0          0.06097         -33.005        0.0349767        -17.7095
75.045                         0               0                0               0          0.20807         139.625           0.9754         49.2898
                               0               0                0               0         0.976418         49.2964         0.207993         139.645
                               0               0                0               0         0.030826        -16.9611        0.0604491        -35.1596
                               0               0                0               0        0.0604955        -35.2202        0.0308953        -16.9564
75.09                          0               0                0               0         0.208259         138.192         0.975311         48.0394
                               0               0                0               0         0.977094         48.0552         0.208187         138.212
                               0               0                0               0        0.0267424        -15.5189         0.059893        -37.3687
                               0               0                0               0        0.0599789        -37.4697        0.0267996        -15.5104
75.135                         0               0                0               0         0.208385         136.753         0.975257         46.7755
                               0               0                0               0          0.97771         46.8007         0.208318         136.774
                               0               0                0               0        0.0226817        -12.9993        0.0593001        -39.6123
                               0               0                0               0        0.0594202        -39.7535        0.0227286        -12.9837
75.18                          0               0                0               0         0.208447         135.311         0.975234         45.4984
                               0               0                0               0         0.978268          45.533         0.208384         135.331
                               0               0                0               0        0.0187139        -8.70582        0.0586708        -41.8906
                               0               0                0               0          0.05882        -42.0717        0.0187527        -8.67922
75.225                         0               0                0               0         0.208445         133.865          0.97524         44.2086
                               0               0                0               0         0.978767         44.2523         0.208387         133.885
                               0               0                0               0        0.0149796        -1.32794        0.0580056        -44.2043
                               0               0                0               0        0.0581787        -44.4244        0.0150135        -1.28643
75.27                          0               0                0               0         0.208378         132.416         0.975272         42.9064
                               0               0                0               0         0.979209         42.9588         0.208325         132.435
                               0               0                0               0        0.0117844         11.5163        0.0573053         -46.554
                               0               0                0               0        0.0574973        -46.8117        0.0118176         11.5691
75.315                         0               0                0               0         0.208248         130.965         0.975328         41.5923
                               0               0                0               0         0.979593         41.6529           0.2082         130.984
                               0               0                0               0        0.0097681         32.6112        0.0565707        -48.9403
                               0               0                0               0        0.0567768         -49.234       0.00980491         32.6409
75.36                          0               0                0               0         0.208054         129.512         0.975404         40.2666
                               0               0                0               0         0.979921         40.3347          0.20801          129.53
                               0               0                0               0       0.00977888         59.0202        0.0558028        -51.3641
                               0               0                0               0        0.0560183        -51.6916       0.00981918          58.972
75.405                         0               0                0               0         0.207797         128.058         0.975496         38.9298
                               0               0                0               0         0.980193         39.0045         0.207757         128.076
                               0               0                0               0        0.0118722         80.4074        0.0550029        -53.8263
                               0               0                0               0        0.0552234        -54.1849        0.0119121         80.2989
75.45                          0               0                0               0         0.207477         126.604         0.975602         37.5822
                               0               0                0               0         0.980409         37.6626         0.207442         126.621
                               0               0                0               0        0.0152526         93.4675        0.0541724        -56.3277
                               0               0                0               0        0.0543936        -56.7145        0.0152906         93.3411
75.495                         0               0                0               0         0.207096         125.151         0.975717         36.2243
                               0               0                0               0         0.980571         36.3093         0.207065         125.167
                               0               0                0               0        0.0192814         100.926        0.0533127        -58.8697
                               0               0                0               0        0.0535309         -59.281        0.0193169           100.8
75.54                          0               0                0               0         0.206655         123.699         0.975839         34.8565
                               0               0                0               0         0.980677          34.945         0.206628         123.714
                               0               0                0               0         0.023647          105.21        0.0524257        -61.4533
                               0               0                0               0        0.0526373        -61.8853        0.0236795         105.089
75.585                         0               0                0               0         0.206154         122.249         0.975962          33.479
                               0               0                0               0         0.980729         33.5699         0.206131         122.263
                               0               0                0               0        0.0282044         107.661        0.0515131          -64.08
                               0               0                0               0        0.0517151        -64.5284        0.0282331         107.547
75.63                          0               0                0               0         0.205596         120.801         0.976083         32.0924
                               0               0                0               0         0.980727         32.1845         0.205577         120.815
                               0               0                0               0        0.0328795         108.993         0.050577        -66.7514
                               0               0                0               0        0.0507667        -67.2113        0.0329034         108.885
75.675                         0               0                0               0         0.204982         119.356         0.976199         30.6971
                               0               0                0               0         0.980672         30.7891         0.204966         119.369
                               0               0                0               0        0.0376302           109.6        0.0496197        -69.4693
                               0               0                0               0        0.0497946        -69.9356        0.0376481         109.498
75.72                          0               0                0               0         0.204314         117.915         0.976305         29.2933
                               0               0                0               0         0.980562          29.384         0.204301         117.927
                               0               0                0               0        0.0424294         109.715        0.0486433        -72.2354
                               0               0                0               0        0.0488015        -72.7027        0.0424403          109.62
75.765                         0               0                0               0         0.203593         116.478         0.976397         27.8815
                               0               0                0               0         0.980399         27.9697         0.203583         116.489
                               0               0                0               0        0.0472583         109.482        0.0476506         -75.052
                               0               0                0               0        0.0477905        -75.5144         0.047261         109.393
75.81                          0               0                0               0         0.202822         115.046         0.976471         26.4621
                               0               0                0               0         0.980183         26.5465         0.202815         115.056
                               0               0                0               0        0.0521022         108.994         0.046644        -77.9213
                               0               0                0               0        0.0467644        -78.3727        0.0520956         108.911
75.855                         0               0                0               0         0.202003         113.619         0.976524         25.0355
                               0               0                0               0         0.979913         25.1149         0.201998         113.628
                               0               0                0               0        0.0569492         108.315        0.0456265        -80.8458
                               0               0                0               0        0.0457264        -81.2798        0.0569324         108.238
75.9                           0               0                0               0         0.201137         112.198         0.976551         23.6019
                               0               0                0               0         0.979589         23.6752         0.201136         112.206
                               0               0                0               0        0.0617891         107.488        0.0446009        -83.8283
                               0               0                0               0        0.0446797        -84.2383        0.0617612         107.417
75.945                         0               0                0               0         0.200228         110.783         0.976549         22.1619
                               0               0                0               0         0.979213         22.2279         0.200229          110.79
                               0               0                0               0        0.0666127         106.545        0.0435702        -86.8717
                               0               0                0               0        0.0436277        -87.2507         0.066573         106.481
75.99                          0               0                0               0         0.199278         109.375         0.976513         20.7157
                               0               0                0               0         0.978782         20.7735         0.199281         109.381
                               0               0                0               0        0.0714117         105.511        0.0425379         -89.979
                               0               0                0               0        0.0425738        -90.3199        0.0713596         105.453
76.035                         0               0                0               0         0.198289         107.974         0.976441         19.2638
                               0               0                0               0         0.978298         19.3123         0.198294         107.979
                               0               0                0               0        0.0761784         104.402         0.041507        -93.1536
                               0               0                0               0        0.0415216        -93.4492        0.0761134         104.351
76.08                          0               0                0               0         0.197264         106.581         0.976328         17.8064
                               0               0                0               0          0.97776         17.8447          0.19727         106.584
                               0               0                0               0        0.0809056         103.233        0.0404813        -96.3988
                               0               0                0               0        0.0404746        -96.6418        0.0808274         103.189
76.125                         0               0                0               0         0.196205         105.195         0.976172          16.344
                               0               0                0               0         0.977169         16.3713         0.196212         105.198
                               0               0                0               0        0.0855864         102.014        0.0394641        -99.7181
                               0               0                0               0        0.0394365        -99.9012        0.0854948         101.977
76.17                          0               0                0               0         0.195114         103.818         0.975968         14.8769
                               0               0                0               0         0.976523         14.8924         0.195122         103.819
                               0               0                0               0        0.0902144         100.755        0.0384593        -103.115
                               0               0                0               0        0.0384111        -103.231        0.0901095         100.726
76.215                         0               0                0               0         0.193994         102.449         0.975715         13.4054
                               0               0                0               0         0.975822         13.4084         0.194004         102.449
                               0               0                0               0        0.0947836         99.4625        0.0374706        -106.594
                               0               0                0               0        0.0374022        -106.635        0.0946655         99.4402
76.26                          0               0                0               0         0.192848         101.089         0.975408         11.9299
                               0               0                0               0         0.975067         11.9199         0.192858         101.088
                               0               0                0               0        0.0992883         98.1421        0.0365021        -110.157
                               0               0                0               0        0.0364136        -110.116        0.0991573         98.1273
76.305                         0               0                0               0         0.191678         99.7371         0.975045         10.4507
                               0               0                0               0         0.974258         10.4272         0.191689         99.7352
                               0               0                0               0         0.103723         96.7988        0.0355576        -113.808
                               0               0                0               0        0.0354492        -113.678          0.10358         96.7915
76.35                          0               0                0               0         0.190486         98.3948         0.974624         8.96825
                               0               0                0               0         0.973393          8.9308         0.190498         98.3918
                               0               0                0               0         0.108083         95.4367        0.0346414         -117.55
                               0               0                0               0        0.0345131        -117.324         0.107928          95.437
76.395                         0               0                0               0         0.189276         97.0617         0.974142         7.48274
                               0               0                0               0         0.972474         7.43107         0.189287         97.0577
                               0               0                0               0         0.112363         94.0593        0.0337575        -121.385
                               0               0                0               0        0.0336092        -121.058         0.112197         94.0671
76.44                          0               0                0               0         0.188048          95.738         0.973596         5.99456
                               0               0                0               0         0.971499         5.92844         0.188059          95.733
