! TOUCHSTONE file generated by CST MICROWAVE STUDIO
! Date and time: Sun Jun 20 22:38:04 2021
! Project name: HIPS_d_sweep.cst
! Parameters = {fmax=120; fmin=75; b=0.46; d=24.4; a=0.63; phi=0; theta=0}
! Header version: 2018
! Port assignment regex: !\s*Touchstone port\s*([0-9]+)\s*=\s*(CST MWS port|CST DS port)\s*([0-9]+|Zmin|Zmax)\s*\(\"(.*)\"\)(\s*mode\s*([0-9]+))?.*
! Touchstone port assignment:
! Touchstone port 1 = CST MWS port Zmin ("") mode 1
! Touchstone port 2 = CST MWS port Zmin ("") mode 2
! Touchstone port 3 = CST MWS port Zmax ("") mode 1
! Touchstone port 4 = CST MWS port Zmax ("") mode 2
! S-Parameters are not renormalized. Unphysical impedance of 0 will be written to the file.
# GHz S MA R 0
75                             0               0                0               0         0.119524         153.345         0.990267        -116.831
                               0               0                0               0         0.990289        -116.833          0.11957         153.319
                               0               0                0               0        0.0706276        -26.7444       0.00931794        -134.811
                               0               0                0               0       0.00925324        -134.572        0.0707803           -26.7
75.045                         0               0                0               0         0.114317         153.012         0.992062        -117.648
                               0               0                0               0         0.992096        -117.654         0.114299         152.964
                               0               0                0               0        0.0678089         -27.771       0.00888418         -134.72
                               0               0                0               0       0.00894952        -134.615          0.06797        -27.7143
75.09                          0               0                0               0         0.110121         152.284         0.993227        -118.542
                               0               0                0               0         0.993264        -118.549         0.110083          152.21
                               0               0                0               0        0.0647754        -28.8019       0.00837125        -135.155
                               0               0                0               0       0.00852233        -134.987        0.0649401        -28.7341
75.135                         0               0                0               0         0.106798         151.271         0.993864        -119.517
                               0               0                0               0         0.993894        -119.524         0.106766         151.171
                               0               0                0               0        0.0615096        -29.8359       0.00778997        -136.318
                               0               0                0               0       0.00797585        -135.953        0.0616737        -29.7588
75.18                          0               0                0               0         0.104216         150.051          0.99408        -120.574
                               0               0                0               0         0.994091         -120.58         0.104208          149.93
                               0               0                0               0        0.0579943        -30.8715       0.00715764        -138.483
                               0               0                0               0       0.00732692        -137.885        0.0581543        -30.7872
75.225                         0               0                0               0         0.102263         148.685         0.993978        -121.715
                               0               0                0               0         0.993959        -121.718         0.102289         148.548
                               0               0                0               0         0.054213        -31.9063       0.00650066         -142.03
                               0               0                0               0       0.00660937        -141.308        0.0543659        -31.8171
75.27                          0               0                0               0         0.100845         147.213         0.993657        -122.939
                               0               0                0               0         0.993598         -122.94         0.100907         147.066
                               0               0                0               0        0.0501497        -32.9361       0.00585888        -147.462
                               0               0                0               0       0.00588014        -146.948        0.0502937        -32.8446
75.315                         0               0                0               0        0.0998824         145.667         0.993206        -124.245
                               0               0                0               0         0.993102        -124.243         0.099983         145.514
                               0               0                0               0        0.0457904        -33.9538        0.0052918        -155.357
                               0               0                0               0       0.00522814        -155.667        0.0459241        -33.8625
75.36                          0               0                0               0         0.099312         144.067         0.992704        -125.631
                               0               0                0               0         0.992552        -125.626        0.0994496         143.913
                               0               0                0               0        0.0411225        -34.9461       0.00488332        -166.109
                               0               0                0               0       0.00477976        -168.022        0.0412457        -34.8574
75.405                         0               0                0               0        0.0990816         142.428         0.992217        -127.093
                               0               0                0               0         0.992018        -127.086        0.0992537         142.276
                               0               0                0               0        0.0361362        -35.8882       0.00473271        -179.325
                               0               0                0               0       0.00467555         176.811        0.0362493        -35.8043
75.45                          0               0                0               0        0.0991486         140.758         0.991797        -128.629
                               0               0                0               0         0.991554         -128.62         0.099352         140.612
                               0               0                0               0        0.0308249        -36.7317       0.00491775          166.62
                               0               0                0               0       0.00499604         161.515        0.0309289         -36.654
75.495                         0               0                0               0        0.0994786         139.063         0.991481        -130.235
                               0               0                0               0         0.991203        -130.225        0.0997096         138.925
                               0               0                0               0        0.0251857        -37.3731       0.00545191         153.825
                               0               0                0               0       0.00570775           148.7        0.0252822        -37.3022
75.54                          0               0                0               0         0.100043         137.346         0.991295        -131.906
                               0               0                0               0         0.990991        -131.896         0.100298         137.217
                               0               0                0               0        0.0192217        -37.5594       0.00628852          143.47
                               0               0                0               0       0.00671075         139.104        0.0193129        -37.4944
75.585                         0               0                0               0         0.100819         135.608         0.991252        -133.639
                               0               0                0               0         0.990933        -133.629         0.101093          135.49
                               0               0                0               0        0.0129483        -36.5005       0.00736309         135.579
                               0               0                0               0       0.00791048         132.177        0.0130367        -36.4407
75.63                          0               0                0               0         0.101786         133.847         0.991352        -135.429
                               0               0                0               0         0.991032        -135.419         0.102076         133.742
                               0               0                0               0       0.00643727        -30.0396       0.00862337         129.654
                               0               0                0               0       0.00924238         127.129       0.00652597        -30.0331
75.675                         0               0                0               0         0.102928         132.062         0.991587        -137.272
                               0               0                0               0         0.991278        -137.263         0.103231          131.97
                               0               0                0               0       0.00190559         65.7592        0.0100363         125.147
                               0               0                0               0        0.0106675          123.33        0.0019002         62.9997
75.72                          0               0                0               0         0.104233          130.25         0.991939        -139.164
                               0               0                0               0         0.991655        -139.157         0.104543         130.172
                               0               0                0               0       0.00818025         118.489        0.0115852         121.622
                               0               0                0               0        0.0121634          120.35       0.00809927         118.083
75.765                         0               0                0               0         0.105688         128.408         0.992383          -141.1
                               0               0                0               0         0.992135        -141.094         0.106002         128.344
                               0               0                0               0        0.0156015          122.63         0.013266         118.763
                               0               0                0               0         0.013718         117.911        0.0155096         122.392
75.81                          0               0                0               0         0.107284         126.531         0.992887        -143.077
                               0               0                0               0         0.992687        -143.073         0.107597         126.481
                               0               0                0               0        0.0233273         122.914        0.0150856         116.343
                               0               0                0               0        0.0153252         115.833        0.0232247         122.711
75.855                         0               0                0               0         0.109013         124.615         0.993417         -145.09
                               0               0                0               0         0.993273        -145.089         0.109321         124.579
                               0               0                0               0        0.0312835         122.073        0.0170613         114.194
                               0               0                0               0        0.0169827         114.005        0.0311681         121.878
75.9                           0               0                0               0         0.110867         122.654         0.993933        -147.137
                               0               0                0               0         0.993853        -147.138         0.111165         122.632
                               0               0                0               0        0.0394236         120.718        0.0192227         112.178
                               0               0                0               0        0.0186907         112.362        0.0392927         120.521
75.945                         0               0                0               0         0.112843         120.645         0.994394        -149.213
                               0               0                0               0         0.994384        -149.216         0.113126         120.636
                               0               0                0               0        0.0477021         119.062        0.0216142         110.164
                               0               0                0               0        0.0204513         110.878        0.0475527         118.863
75.99                          0               0                0               0         0.114935          118.58         0.994758        -151.315
                               0               0                0               0          0.99482        -151.321         0.115198         118.584
                               0               0                0               0        0.0560703         117.204        0.0242979         107.995
                               0               0                0               0        0.0222686         109.561        0.0558993             117
76.035                         0               0                0               0         0.117145         116.456         0.994983        -153.439
                               0               0                0               0         0.995116        -153.448         0.117382          116.47
                               0               0                0               0        0.0644758         115.193        0.0273491         105.454
                               0               0                0               0          0.02415         108.468        0.0642801         114.988
76.08                          0               0                0               0         0.119473         114.266         0.995027        -155.584
                               0               0                0               0          0.99523        -155.594         0.119679         114.288
                               0               0                0               0        0.0728623         113.063        0.0308235         102.215
                               0               0                0               0        0.0261099          107.73        0.0726391         112.859
76.125                         0               0                0               0         0.121928         112.005         0.994852        -157.744
                               0               0                0               0         0.995119        -157.757         0.122097         112.033
                               0               0                0               0        0.0811711         110.839        0.0346437         97.8396
                               0               0                0               0        0.0281813         107.638        0.0809181         110.639
76.17                          0               0                0               0         0.124524         109.671         0.994419        -159.919
                               0               0                0               0         0.994744        -159.933          0.12465         109.701
                               0               0                0               0         0.089341         108.539        0.0383621         91.9944
                               0               0                0               0        0.0304557         108.884        0.0890571         108.348
76.215                         0               0                0               0         0.127283         107.264         0.993696        -162.104
                               0               0                0               0         0.994067         -162.12         0.127364          107.29
                               0               0                0               0        0.0973103         106.183        0.0410614         85.0446
                               0               0                0               0        0.0332731         113.478        0.0969961         106.004
76.26                          0               0                0               0         0.130236         104.788         0.992653        -164.298
                               0               0                0               0         0.993056        -164.314         0.130275         104.804
                               0               0                0               0         0.105018         103.787        0.0420937         78.4019
                               0               0                0               0        0.0388712         130.211         0.104676         103.625
76.305                         0               0                0               0         0.133422         102.259         0.991266        -166.498
                               0               0                0               0         0.991683        -166.515         0.133428         102.259
                               0               0                0               0         0.112404          101.37        0.0419832         73.4126
                               0               0                0               0        0.0832871        -98.2922         0.112043          101.23
76.35                          0               0                0               0          0.13688         99.7018         0.989515        -168.702
                               0               0                0               0         0.989926        -168.719         0.136872         99.6808
                               0               0                0               0         0.119416         98.9533        0.0417523         70.1594
                               0               0                0               0        0.0397728         39.3878         0.119046         98.8382
76.395                         0               0                0               0         0.140629         97.1582         0.987388        -170.909
                               0               0                0               0         0.987766        -170.925         0.140633         97.1166
                               0               0                0               0         0.126005           96.56        0.0419421         67.9257
                               0               0                0               0        0.0394188         57.4742         0.125645         96.4721
76.44                          0               0                0               0         0.144636         94.6791         0.984885        -173.119
                               0               0                0               0         0.985195        -173.133          0.14468         94.6235
