! TOUCHSTONE file generated by CST MICROWAVE STUDIO
! Date and time: Sun Jun 20 22:37:17 2021
! Project name: HIPS_d_sweep.cst
! Parameters = {fmax=120; fmin=75; b=0.46; d=20.05; a=0.63; phi=0; theta=0}
! Header version: 2018
! Port assignment regex: !\s*Touchstone port\s*([0-9]+)\s*=\s*(CST MWS port|CST DS port)\s*([0-9]+|Zmin|Zmax)\s*\(\"(.*)\"\)(\s*mode\s*([0-9]+))?.*
! Touchstone port assignment:
! Touchstone port 1 = CST MWS port Zmin ("") mode 1
! Touchstone port 2 = CST MWS port Zmin ("") mode 2
! Touchstone port 3 = CST MWS port Zmax ("") mode 1
! Touchstone port 4 = CST MWS port Zmax ("") mode 2
! S-Parameters are not renormalized. Unphysical impedance of 0 will be written to the file.
# GHz S MA R 0
75                             0               0                0               0         0.180226         104.824         0.978453         15.7944
                               0               0                0               0         0.978461         15.7875         0.180301         104.842
                               0               0                0               0        0.0955069         102.434        0.0345669        -104.545
                               0               0                0               0        0.0345716        -104.586        0.0954311         102.427
75.045                         0               0                0               0         0.183549         104.124         0.978664         15.1405
                               0               0                0               0         0.977652         15.1159         0.183623         104.135
                               0               0                0               0        0.0970786         101.755        0.0349748         -106.08
                               0               0                0               0        0.0349854        -106.085         0.097006         101.747
75.09                          0               0                0               0         0.186514         103.372         0.978344         14.4105
                               0               0                0               0         0.976892         14.3759         0.186593         103.381
                               0               0                0               0        0.0989143         101.032         0.035264         -107.81
                               0               0                0               0        0.0352747        -107.808        0.0988424         101.024
75.135                         0               0                0               0         0.189109         102.563          0.97763         13.6044
                               0               0                0               0          0.97618         13.5678         0.189196         102.574
                               0               0                0               0         0.101001         100.268        0.0354437        -109.742
                               0               0                0               0        0.0354519         -109.75         0.100928          100.26
75.18                          0               0                0               0         0.191327         101.693         0.976648         12.7235
                               0               0                0               0         0.975514         12.6924         0.191424         101.708
                               0               0                0               0         0.103326         99.4619        0.0355228        -111.881
                               0               0                0               0         0.035528        -111.909         0.103252         99.4538
75.225                         0               0                0               0         0.193167         100.761         0.975504         11.7705
                               0               0                0               0         0.974892         11.7504         0.193272         100.781
                               0               0                0               0         0.105878         98.6146        0.0355106        -114.231
                               0               0                0               0        0.0355133        -114.285         0.105802         98.6065
75.27                          0               0                0               0         0.194631         99.7649         0.974289         10.7489
                               0               0                0               0         0.974314          10.743         0.194743         99.7906
                               0               0                0               0         0.108644         97.7252        0.0354163        -116.799
                               0               0                0               0        0.0354176        -116.878         0.108567         97.7169
75.315                         0               0                0               0         0.195726         98.7053         0.973075           9.663
                               0               0                0               0         0.973777         9.67168         0.195843         98.7357
                               0               0                0               0         0.111612         96.7926        0.0352492        -119.587
                               0               0                0               0        0.0352502        -119.688         0.111533         96.7842
75.36                          0               0                0               0         0.196461         97.5835         0.971923         8.51831
                               0               0                0               0         0.973281         8.53817         0.196582         97.6175
                               0               0                0               0          0.11477         95.8155        0.0350189        -122.599
                               0               0                0               0        0.0350205        -122.718          0.11469         95.8071
75.405                         0               0                0               0         0.196848         96.4015         0.970892         7.32135
                               0               0                0               0         0.972824          7.3444         0.196973          96.438
                               0               0                0               0         0.118103         94.7929        0.0347352        -125.838
                               0               0                0               0        0.0347383         -125.97         0.118023         94.7844
75.45                          0               0                0               0         0.196901         95.1623         0.970084         6.08018
                               0               0                0               0         0.972404         6.09255          0.19703         95.2002
                               0               0                0               0           0.1216         93.7235        0.0344085        -129.306
                               0               0                0               0        0.0344134        -129.446         0.121519          93.715
75.495                         0               0                0               0         0.196638         93.8695         0.969744         4.80096
                               0               0                0               0         0.972017         4.78501         0.196769         93.9079
                               0               0                0               0         0.125244         92.6066        0.0340495        -133.004
                               0               0                0               0        0.0340564        -133.147         0.125164         92.5981
75.54                          0               0                0               0         0.196074          92.527         0.970295         3.46485
                               0               0                0               0         0.971662         3.42436         0.196208         92.5655
                               0               0                0               0         0.129022         91.4416        0.0336695        -136.931
                               0               0                0               0        0.0336783        -137.076         0.128942         91.4331
75.585                         0               0                0               0         0.195229         91.1391         0.971247         2.01623
                               0               0                0               0         0.971335         2.01337         0.195365         91.1776
                               0               0                0               0         0.132917         90.2283        0.0332801        -141.086
                               0               0                0               0        0.0332907         -141.23         0.132837         90.2198
75.63                          0               0                0               0         0.194122         89.7104         0.971272        0.491829
                               0               0                0               0         0.971032        0.554922         0.194258         89.7492
                               0               0                0               0         0.136911          88.967        0.0328935        -145.464
                               0               0                0               0        0.0329058        -145.607         0.136831         88.9585
75.675                         0               0                0               0         0.192771         88.2455         0.970761        -1.04328
                               0               0                0               0         0.970751       -0.947964         0.192908          88.285
                               0               0                0               0         0.140987         87.6584        0.0325221        -150.057
                               0               0                0               0        0.0325361          -150.2         0.140907         87.6499
75.72                          0               0                0               0         0.191196         86.7487         0.970276           -2.59
                               0               0                0               0         0.970486        -2.49218         0.191332         86.7899
                               0               0                0               0         0.145125         86.3034        0.0321784        -154.854
                               0               0                0               0        0.0321943        -154.999         0.145045         86.2951
75.765                         0               0                0               0         0.189417         85.2246         0.969922        -4.15846
                               0               0                0               0         0.970235        -4.07455         0.189551         85.2681
                               0               0                0               0         0.149307         84.9039        0.0318746         -159.84
                               0               0                0               0        0.0318929        -159.989         0.149226         84.8957
75.81                          0               0                0               0         0.187454         83.6771         0.969671        -5.75296
                               0               0                0               0         0.969992        -5.69185         0.187583         83.7238
                               0               0                0               0         0.153511         83.4617        0.0316223        -164.995
                               0               0                0               0         0.031644        -165.152          0.15343         83.4537
75.855                         0               0                0               0         0.185325         82.1101         0.969477         -7.3745
                               0               0                0               0         0.969754        -7.34084         0.185446         82.1605
                               0               0                0               0         0.157717         81.9793        0.0314324        -170.295
                               0               0                0               0        0.0314583        -170.463         0.157635         81.9715
75.9                           0               0                0               0          0.18305          80.527         0.969304        -9.02278
                               0               0                0               0         0.969519        -9.01826         0.183162         80.5812
                               0               0                0               0         0.161903         80.4596        0.0313141        -175.711
                               0               0                0               0        0.0313455        -175.893         0.161821         80.4521
75.945                         0               0                0               0         0.180648         78.9309         0.969122         -10.697
                               0               0                0               0         0.969284        -10.7209         0.180747         78.9884
                               0               0                0               0          0.16605         78.9057        0.0312749         178.789
                               0               0                0               0        0.0313128         178.591         0.165967         78.8984
75.99                          0               0                0               0         0.178137         77.3244         0.968912        -12.3963
                               0               0                0               0         0.969046        -12.4455         0.178223         77.3844
                               0               0                0               0         0.170138         77.3209        0.0313204         173.239
                               0               0                0               0        0.0313656         173.026         0.170054         77.3138
76.035                         0               0                0               0         0.175536           75.71         0.968665        -14.1195
                               0               0                0               0         0.968805        -14.1888         0.175608         75.7709
                               0               0                0               0         0.174146         75.7088        0.0314536         167.675
                               0               0                0               0        0.0315063         167.448         0.174063          75.702
76.08                          0               0                0               0         0.172864         74.0894         0.968383        -15.8651
                               0               0                0               0         0.968562        -15.9478         0.172923         74.1494
                               0               0                0               0         0.178056         74.0731        0.0316751         162.133
                               0               0                0               0        0.0317351         161.894         0.177974         74.0664
76.125                         0               0                0               0          0.17014         72.4646         0.968076        -17.6313
                               0               0                0               0         0.968317        -17.7193         0.170187         72.5215
                               0               0                0               0         0.181852         72.4173        0.0319833         156.647
                               0               0                0               0        0.0320492           156.4          0.18177         72.4107
76.17                          0               0                0               0         0.167382         70.8373         0.967765        -19.4154
                               0               0                0               0         0.968073        -19.5002         0.167421         70.8889
                               0               0                0               0         0.185517         70.7452         0.032374         151.247
                               0               0                0               0        0.0324439         150.995         0.185437         70.7384
76.215                         0               0                0               0         0.164609          69.209         0.967477        -21.2138
                               0               0                0               0         0.967834        -21.2874         0.164643         69.2538
                               0               0                0               0         0.189037           69.06        0.0328414         145.959
                               0               0                0               0        0.0329125         145.707          0.18896         69.0531
76.26                          0               0                0               0         0.161841         67.5817         0.967234        -23.0218
                               0               0                0               0         0.967602        -23.0778         0.161873         67.6189
                               0               0                0               0         0.192401          67.365        0.0333779         140.805
                               0               0                0               0        0.0334468         140.557         0.192326         67.3577
76.305                         0               0                0               0         0.159095         65.9576         0.967051        -24.8336
                               0               0                0               0         0.967382        -24.8684         0.159128         65.9878
                               0               0                0               0         0.195597          65.663        0.0339748           135.8
                               0               0                0               0         0.034038         135.559         0.195525         65.6553
76.35                          0               0                0               0         0.156389         64.3396         0.966925        -26.6424
                               0               0                0               0         0.967176        -26.6562         0.156423         64.3643
                               0               0                0               0         0.198616         63.9567        0.0346227         130.957
                               0               0                0               0        0.0346768         130.726         0.198547         63.9486
76.395                         0               0                0               0         0.153739         62.7309         0.966834        -28.4418
                               0               0                0               0         0.966988        -28.4383         0.153769         62.7531
                               0               0                0               0          0.20145         62.2483        0.0353119         126.281
                               0               0                0               0        0.0353545         126.062         0.201383         62.2398
76.44                          0               0                0               0          0.15116         61.1353         0.966735        -30.2258
                               0               0                0               0         0.966816        -30.2119         0.151178         61.1587
