! TOUCHSTONE file generated by CST MICROWAVE STUDIO
! Date and time: Sun Jun 20 22:36:51 2021
! Project name: HIPS_d_sweep.cst
! Parameters = {fmax=120; fmin=75; b=0.46; d=16.75; a=0.63; phi=0; theta=0}
! Header version: 2018
! Port assignment regex: !\s*Touchstone port\s*([0-9]+)\s*=\s*(CST MWS port|CST DS port)\s*([0-9]+|Zmin|Zmax)\s*\(\"(.*)\"\)(\s*mode\s*([0-9]+))?.*
! Touchstone port assignment:
! Touchstone port 1 = CST MWS port Zmin ("") mode 1
! Touchstone port 2 = CST MWS port Zmin ("") mode 2
! Touchstone port 3 = CST MWS port Zmax ("") mode 1
! Touchstone port 4 = CST MWS port Zmax ("") mode 2
! S-Parameters are not renormalized. Unphysical impedance of 0 will be written to the file.
# GHz S MA R 0
75                             0               0                0               0         0.406205         120.286         0.908387         30.7444
                               0               0                0               0         0.908501         30.7369          0.40607         120.295
                               0               0                0               0        0.0475683         67.7021        0.0856218        -67.9938
                               0               0                0               0        0.0856919        -68.0338        0.0476057         67.7485
75.045                         0               0                0               0          0.40894         119.665         0.907606         30.1886
                               0               0                0               0         0.907723         30.1827         0.408812         119.673
                               0               0                0               0         0.048523         68.2627        0.0856298        -69.0866
                               0               0                0               0        0.0857042        -69.1243        0.0485625         68.3072
75.09                          0               0                0               0         0.411278         119.008          0.90659         29.5634
                               0               0                0               0         0.906706         29.5579         0.411153         119.016
                               0               0                0               0        0.0495979         68.9174        0.0855423        -70.2754
                               0               0                0               0        0.0856174        -70.3126        0.0496384         68.9598
75.135                         0               0                0               0         0.413226         118.309          0.90545         28.8703
                               0               0                0               0         0.905565         28.8644         0.413099         118.317
                               0               0                0               0        0.0507924         69.6558        0.0853635        -71.5673
                               0               0                0               0        0.0854368        -71.6055        0.0508334         69.6958
75.18                          0               0                0               0           0.4148         117.563         0.904285         28.1117
                               0               0                0               0         0.904401         28.1049         0.414667         117.571
                               0               0                0               0        0.0521073          70.465        0.0850987        -72.9687
                               0               0                0               0        0.0851686        -73.0092         0.052148         70.5026
75.225                         0               0                0               0         0.416019         116.765         0.903173         27.2909
                               0               0                0               0         0.903292         27.2829         0.415878         116.773
                               0               0                0               0        0.0535439         71.3308        0.0847542        -74.4854
                               0               0                0               0        0.0848197        -74.5289         0.053584         71.3657
75.27                          0               0                0               0         0.416911         115.912         0.902175         26.4114
                               0               0                0               0         0.902301         26.4021          0.41676          115.92
                               0               0                0               0        0.0551044         72.2377        0.0843366        -76.1222
                               0               0                0               0        0.0843973         -76.169        0.0551437         72.2698
75.315                         0               0                0               0         0.417503         115.001         0.901337          25.477
                               0               0                0               0         0.901472         25.4666         0.417343         115.009
                               0               0                0               0        0.0567917         73.1697        0.0838531        -77.8831
                               0               0                0               0        0.0839091        -77.9331          0.05683          73.199
75.36                          0               0                0               0         0.417824         114.032          0.90069         24.4916
                               0               0                0               0         0.900835         24.4804         0.417658         114.039
                               0               0                0               0        0.0586088         74.1107        0.0833109        -79.7711
                               0               0                0               0        0.0833625        -79.8238        0.0586462         74.1373
75.405                         0               0                0               0         0.417903         113.005          0.90025         23.4588
                               0               0                0               0         0.900406         23.4472         0.417733         113.012
                               0               0                0               0         0.060559         75.0452        0.0827172        -81.7884
                               0               0                0               0        0.0827649        -81.8429        0.0605957         75.0691
75.45                          0               0                0               0         0.417766         111.922         0.900026         22.3823
                               0               0                0               0          0.90019         22.3706         0.417594         111.927
                               0               0                0               0        0.0626453         75.9579         0.082079         -83.936
                               0               0                0               0        0.0821234        -83.9911        0.0626815         75.9792
75.495                         0               0                0               0         0.417434         110.784         0.900015         21.2653
                               0               0                0               0         0.900185         21.2539         0.417265         110.788
                               0               0                0               0        0.0648704         76.8347         0.081403        -86.2143
                               0               0                0               0        0.0814446        -86.2684        0.0649065         76.8535
75.54                          0               0                0               0         0.416927         109.594         0.900206         20.1108
                               0               0                0               0         0.900378         20.1001         0.416765         109.597
                               0               0                0               0        0.0672363         77.6624        0.0806954        -88.6224
                               0               0                0               0        0.0807347         -88.674        0.0672726         77.6789
75.585                         0               0                0               0         0.416259         108.355         0.900582         18.9215
                               0               0                0               0         0.900753         18.9118         0.416108         108.357
                               0               0                0               0        0.0697444         78.4292        0.0799619        -91.1588
                               0               0                0               0        0.0799994        -91.2061        0.0697813         78.4434
75.63                          0               0                0               0         0.415441          107.07         0.901124         17.6997
                               0               0                0               0         0.901288         17.6913         0.415304         107.072
                               0               0                0               0        0.0723948         79.1244        0.0792077         -93.821
                               0               0                0               0        0.0792436        -93.8622        0.0724327         79.1364
75.675                         0               0                0               0          0.41448         105.744         0.901805         16.4475
                               0               0                0               0         0.901958         16.4406         0.414362         105.745
                               0               0                0               0        0.0751867          79.739        0.0784377        -96.6054
                               0               0                0               0        0.0784722        -96.6392        0.0752259         79.7488
75.72                          0               0                0               0         0.413381         104.381         0.902598         15.1667
                               0               0                0               0         0.902735         15.1615         0.413283         104.381
                               0               0                0               0        0.0781177         80.2651        0.0776559        -99.5081
                               0               0                0               0        0.0776891        -99.5329        0.0781587         80.2728
75.765                         0               0                0               0         0.412145         102.985         0.903473         13.8587
                               0               0                0               0         0.903589         13.8553          0.41207         102.985
                               0               0                0               0        0.0811842         80.6962        0.0768663        -102.524
                               0               0                0               0        0.0768981        -102.539        0.0812272         80.7018
75.81                          0               0                0               0         0.410772          101.56         0.904397         12.5248
                               0               0                0               0         0.904489         12.5232          0.41072         101.559
                               0               0                0               0         0.084381         81.0275        0.0760721        -105.647
                               0               0                0               0        0.0761025        -105.651        0.0844263          81.031
75.855                         0               0                0               0         0.409259          100.11          0.90534         11.1659
                               0               0                0               0         0.905403         11.1659         0.409232         100.109
                               0               0                0               0        0.0877012          81.255        0.0752763        -108.871
                               0               0                0               0        0.0753052        -108.864         0.087749         81.2564
75.9                           0               0                0               0         0.407604         98.6396         0.906269         9.78258
                               0               0                0               0         0.906303         9.78407           0.4076         98.6386
                               0               0                0               0        0.0911363         81.3765        0.0744818         -112.19
                               0               0                0               0         0.074509        -112.172        0.0911866         81.3756
75.945                         0               0                0               0         0.405802         97.1525         0.907155         8.37526
                               0               0                0               0         0.907159         8.37792          0.40582         97.1516
                               0               0                0               0        0.0946761         81.3904        0.0736909        -115.594
                               0               0                0               0        0.0737164        -115.566        0.0947288         81.3874
75.99                          0               0                0               0          0.40385         95.6528         0.907972         6.94398
                               0               0                0               0         0.907948         6.94746         0.403888          95.652
                               0               0                0               0        0.0983086         81.2966         0.072906        -119.077
                               0               0                0               0        0.0729297        -119.039        0.0983636         81.2915
76.035                         0               0                0               0         0.401744          94.144         0.908699         5.48852
                               0               0                0               0         0.908651         5.49243         0.401798         94.1436
                               0               0                0               0          0.10202         81.0959        0.0721294        -122.629
                               0               0                0               0        0.0721511        -122.584         0.102077         81.0886
76.08                          0               0                0               0          0.39948         92.6298         0.909324         4.00841
                               0               0                0               0         0.909262         4.01237         0.399545         92.6297
                               0               0                0               0         0.105796         80.7899         0.071363        -126.242
                               0               0                0               0        0.0713828        -126.191         0.105854         80.7805
76.125                         0               0                0               0         0.397055         91.1134         0.909849         2.50308
                               0               0                0               0         0.909784         2.50683         0.397124         91.1135
                               0               0                0               0          0.10962         80.3811         0.070609        -129.906
                               0               0                0               0        0.0706268        -129.851         0.109678         80.3698
76.17                          0               0                0               0         0.394467         89.5974         0.910294        0.972124
                               0               0                0               0         0.910242        0.975638         0.394531         89.5977
                               0               0                0               0         0.113473         79.8727        0.0698695        -133.612
                               0               0                0               0        0.0698851        -133.557         0.113531         79.8597
76.215                         0               0                0               0         0.391714         88.0843         0.910697       -0.584206
                               0               0                0               0         0.910675       -0.580567         0.391763         88.0843
                               0               0                0               0         0.117337         79.2686        0.0691463        -137.351
                               0               0                0               0        0.0691597        -137.299         0.117394         79.2541
76.26                          0               0                0               0         0.388794         86.5754          0.91112        -2.16424
                               0               0                0               0         0.911145        -2.15961         0.388815         86.5744
                               0               0                0               0         0.121193          78.573        0.0684415        -141.113
                               0               0                0               0        0.0684524        -141.067         0.121247         78.5575
76.305                         0               0                0               0          0.38571         85.0713         0.911639        -3.76398
                               0               0                0               0         0.911719        -3.75696         0.385688         85.0677
                               0               0                0               0         0.125021         77.7907         0.067757        -144.888
                               0               0                0               0        0.0677652        -144.852          0.12507         77.7745
76.35                          0               0                0               0         0.382465         83.5712         0.912325         -5.3763
                               0               0                0               0         0.912456        -5.36527         0.382385         83.5624
                               0               0                0               0         0.128801         76.9265        0.0670948        -148.668
                               0               0                0               0        0.0670997        -148.646         0.128843         76.9102
76.395                         0               0                0               0         0.379071         82.0723         0.913213          -6.991
                               0               0                0               0         0.913378        -6.97459         0.378921          82.054
                               0               0                0               0         0.132514          75.985        0.0664568        -152.443
                               0               0                0               0        0.0664577         -152.44         0.132547         75.9694
76.44                          0               0                0               0         0.375554         80.5698         0.914278        -8.59616
                               0               0                0               0         0.914447        -8.57381         0.375333         80.5355
