! TOUCHSTONE file generated by CST MICROWAVE STUDIO
! Date and time: Sun Jun 20 22:38:07 2021
! Project name: HIPS_d_sweep.cst
! Parameters = {fmax=120; fmin=75; b=0.46; d=24.65; a=0.63; phi=0; theta=0}
! Header version: 2018
! Port assignment regex: !\s*Touchstone port\s*([0-9]+)\s*=\s*(CST MWS port|CST DS port)\s*([0-9]+|Zmin|Zmax)\s*\(\"(.*)\"\)(\s*mode\s*([0-9]+))?.*
! Touchstone port assignment:
! Touchstone port 1 = CST MWS port Zmin ("") mode 1
! Touchstone port 2 = CST MWS port Zmin ("") mode 2
! Touchstone port 3 = CST MWS port Zmax ("") mode 1
! Touchstone port 4 = CST MWS port Zmax ("") mode 2
! S-Parameters are not renormalized. Unphysical impedance of 0 will be written to the file.
# GHz S MA R 0
75                             0               0                0               0         0.141997         123.696         0.988569        -145.933
                               0               0                0               0         0.988535        -145.948         0.141847         123.614
                               0               0                0               0        0.0420426          119.04        0.0264165         110.228
                               0               0                0               0        0.0263723         110.331        0.0420341         118.969
75.045                         0               0                0               0         0.137445         122.826           0.9891        -146.751
                               0               0                0               0         0.989051        -146.768         0.137689         122.697
                               0               0                0               0        0.0446361         118.785        0.0257997          108.93
                               0               0                0               0        0.0258042         108.891        0.0446265         118.736
75.09                          0               0                0               0         0.133446         121.881         0.989518        -147.653
                               0               0                0               0         0.989464        -147.671         0.133856         121.725
                               0               0                0               0        0.0475578         118.358        0.0253871         107.387
                               0               0                0               0        0.0254112         107.293        0.0475483         118.318
75.135                         0               0                0               0         0.129972         120.856         0.989826        -148.639
                               0               0                0               0         0.989772        -148.657         0.130389          120.69
                               0               0                0               0        0.0508021          117.77        0.0251628         105.654
                               0               0                0               0        0.0251852         105.561        0.0507933         117.732
75.18                          0               0                0               0         0.126995         119.748         0.990028        -149.708
                               0               0                0               0         0.989976        -149.726         0.127321         119.586
                               0               0                0               0        0.0543611         117.032        0.0251119         103.776
                               0               0                0               0        0.0251184         103.719        0.0543534         116.992
75.225                         0               0                0               0         0.124491         118.553         0.990124        -150.859
                               0               0                0               0         0.990076        -150.876         0.124675         118.405
                               0               0                0               0        0.0582253         116.155        0.0252207          101.79
                               0               0                0               0        0.0252034         101.785        0.0582188         116.113
75.27                          0               0                0               0         0.122436         117.271         0.990119         -152.09
                               0               0                0               0         0.990074        -152.106         0.122464         117.144
                               0               0                0               0        0.0623831          115.15        0.0254769         99.7231
                               0               0                0               0        0.0254326         99.7725        0.0623779         115.105
75.315                         0               0                0               0         0.120809         115.901         0.990014        -153.399
                               0               0                0               0         0.989971        -153.415          0.12069         115.797
                               0               0                0               0        0.0668209         114.027        0.0258696         97.5941
                               0               0                0               0        0.0257989         97.6931         0.066817         113.979
75.36                          0               0                0               0         0.119589         114.444         0.989812        -154.785
                               0               0                0               0          0.98977        -154.799          0.11935         114.362
                               0               0                0               0         0.071523         112.794        0.0263889         95.4149
                               0               0                0               0        0.0262951          95.553        0.0715204         112.744
75.405                         0               0                0               0         0.118756         112.903         0.989515        -156.244
                               0               0                0               0         0.989473        -156.258         0.118432         112.838
                               0               0                0               0        0.0764718         111.459        0.0270259         93.1917
                               0               0                0               0        0.0269141         93.3555        0.0764704         111.409
75.45                          0               0                0               0         0.118293          111.28         0.989126        -157.775
                               0               0                0               0         0.989085        -157.788          0.11792         111.229
                               0               0                0               0        0.0816474         110.029        0.0277725         90.9261
                               0               0                0               0        0.0276482         91.1016        0.0816473          109.98
75.495                         0               0                0               0         0.118179         109.579         0.988646        -159.374
                               0               0                0               0         0.988607        -159.387         0.117792         109.535
                               0               0                0               0        0.0870281         108.511        0.0286206         88.6168
                               0               0                0               0        0.0284897         88.7905        0.0870292         108.464
75.54                          0               0                0               0         0.118397         107.806         0.988078        -161.038
                               0               0                0               0         0.988042        -161.051         0.118026         107.763
                               0               0                0               0        0.0925902         106.911        0.0295625         86.2603
                               0               0                0               0        0.0294303         86.4205        0.0925926         106.867
75.585                         0               0                0               0         0.118928         105.964         0.987424        -162.764
                               0               0                0               0         0.987394        -162.777         0.118596         105.919
                               0               0                0               0        0.0983082         105.235        0.0305902         83.8522
                               0               0                0               0         0.030461         83.9896        0.0983119         105.194
75.63                          0               0                0               0         0.119752          104.06         0.986686        -164.547
                               0               0                0               0         0.986664        -164.561         0.119474         104.007
                               0               0                0               0         0.104155         103.488        0.0316953         81.3879
                               0               0                0               0        0.0315723         81.4965          0.10416          103.45
75.675                         0               0                0               0         0.120851         102.098         0.985867        -166.386
                               0               0                0               0         0.985855          -166.4         0.120635         102.037
                               0               0                0               0         0.110102         101.676        0.0328688         78.8635
                               0               0                0               0         0.032754         78.9404         0.110109         101.642
75.72                          0               0                0               0         0.122206         100.084         0.984969        -168.275
                               0               0                0               0         0.984971        -168.289          0.12205         100.013
                               0               0                0               0          0.11612         99.8049        0.0341011         76.2762
                               0               0                0               0        0.0339952         76.3217         0.116129         99.7734
75.765                         0               0                0               0         0.123794         98.0233         0.983995         -170.21
                               0               0                0               0         0.984013        -170.225         0.123695          97.944
                               0               0                0               0         0.122179         97.8795        0.0353817         73.6246
                               0               0                0               0        0.0352849         73.6418         0.122189         97.8506
75.81                          0               0                0               0         0.125597          95.921          0.98295        -172.187
                               0               0                0               0         0.982985        -172.202         0.125542         95.8352
                               0               0                0               0         0.128248         95.9051        0.0366997         70.9094
                               0               0                0               0        0.0366114         70.9035          0.12826         95.8785
75.855                         0               0                0               0         0.127592         93.7821         0.981838        -174.202
                               0               0                0               0         0.981891        -174.218         0.127568         93.6925
                               0               0                0               0         0.134297         93.8872        0.0380438         68.1326
                               0               0                0               0        0.0379631         68.1105          0.13431         93.8623
75.9                           0               0                0               0         0.129757         91.6115         0.980664        -176.251
                               0               0                0               0         0.980734        -176.266          0.12975         91.5213
                               0               0                0               0         0.140296          91.831        0.0394023         65.2983
                               0               0                0               0        0.0393284         65.2674         0.140309         91.8074
75.945                         0               0                0               0         0.132071          89.414         0.979435         -178.33
                               0               0                0               0          0.97952        -178.344         0.132066         89.3265
                               0               0                0               0         0.146214         89.7416        0.0407638         62.4118
                               0               0                0               0        0.0406962         62.3793         0.146228         89.7189
75.99                          0               0                0               0          0.13451         87.1943         0.978159         179.566
                               0               0                0               0         0.978256         179.552         0.134494         87.1125
                               0               0                0               0         0.152024         87.6242        0.0421171         59.4796
                               0               0                0               0        0.0420554         59.4517         0.152039          87.602
76.035                         0               0                0               0         0.137053         84.9571         0.976844         177.441
                               0               0                0               0         0.976949         177.428         0.137016         84.8834
                               0               0                0               0           0.1577         85.4837        0.0434518         56.5089
                               0               0                0               0        0.0433958         56.4902         0.157715         85.4616
76.08                          0               0                0               0         0.139676         82.7073         0.975501         175.299
                               0               0                0               0         0.975609         175.288         0.139614          82.643
                               0               0                0               0         0.163216         83.3248         0.044758         53.5069
                               0               0                0               0        0.0447077            53.5         0.163231         83.3028
76.125                         0               0                0               0         0.142359         80.4496         0.974139         173.144
                               0               0                0               0         0.974245         173.133         0.142271         80.3953
                               0               0                0               0         0.168549         81.1523        0.0460268         50.4807
                               0               0                0               0        0.0459821         50.4864         0.168564         81.1301
76.17                          0               0                0               0         0.145081         78.1889         0.972772         170.979
                               0               0                0               0         0.972869          170.97         0.144971         78.1441
                               0               0                0               0         0.173679         78.9705        0.0472501         47.4368
                               0               0                0               0        0.0472104         47.4538         0.173695         78.9481
76.215                         0               0                0               0         0.147822         75.9305         0.971412         168.808
                               0               0                0               0         0.971495           168.8         0.147697         75.8936
                               0               0                0               0         0.178587         76.7836        0.0484202         44.3808
                               0               0                0               0        0.0483846         44.4064         0.178603          76.761
76.26                          0               0                0               0         0.150564         73.6792         0.970071         166.635
                               0               0                0               0         0.970136         166.628         0.150436         73.6481
                               0               0                0               0         0.183256         74.5956        0.0495297         41.3171
                               0               0                0               0        0.0494969         41.3476         0.183273         74.5728
76.305                         0               0                0               0         0.153292         71.4403          0.96876         164.462
                               0               0                0               0         0.968804         164.457         0.153171         71.4123
                               0               0                0               0         0.187672           72.41        0.0505716         38.2492
                               0               0                0               0        0.0505399         38.2804         0.187689         72.3872
76.35                          0               0                0               0          0.15599         69.2185         0.967488         162.293
                               0               0                0               0         0.967513         162.288         0.155886         69.1912
                               0               0                0               0         0.191822         70.2303        0.0515383          35.179
                               0               0                0               0        0.0515061         35.2072          0.19184         70.2076
76.395                         0               0                0               0         0.158647         67.0179         0.966262         160.131
                               0               0                0               0         0.966269         160.126         0.158566         66.9898
                               0               0                0               0         0.195695         68.0594        0.0524221         32.1079
                               0               0                0               0        0.0523883           32.13         0.195714         68.0371
76.44                          0               0                0               0         0.161251         64.8419         0.965079         157.977
                               0               0                0               0         0.965077         157.973         0.161189         64.8129
