! TOUCHSTONE file generated by CST MICROWAVE STUDIO
! Date and time: Sun Jun 20 22:37:50 2021
! Project name: HIPS_d_sweep.cst
! Parameters = {fmax=120; fmin=75; b=0.46; d=23.15; a=0.63; phi=0; theta=0}
! Header version: 2018
! Port assignment regex: !\s*Touchstone port\s*([0-9]+)\s*=\s*(CST MWS port|CST DS port)\s*([0-9]+|Zmin|Zmax)\s*\(\"(.*)\"\)(\s*mode\s*([0-9]+))?.*
! Touchstone port assignment:
! Touchstone port 1 = CST MWS port Zmin ("") mode 1
! Touchstone port 2 = CST MWS port Zmin ("") mode 2
! Touchstone port 3 = CST MWS port Zmax ("") mode 1
! Touchstone port 4 = CST MWS port Zmax ("") mode 2
! S-Parameters are not renormalized. Unphysical impedance of 0 will be written to the file.
# GHz S MA R 0
75                             0               0                0               0        0.0365993         -66.747         0.996311         24.0572
                               0               0                0               0         0.996342         24.0518        0.0365916        -66.9314
                               0               0                0               0        0.0764888         113.857       0.00839178         95.0403
                               0               0                0               0       0.00837102         95.2537        0.0765331         113.838
75.045                         0               0                0               0        0.0328889        -67.6789         0.996654         23.2872
                               0               0                0               0         0.996643         23.2823        0.0330468        -68.1253
                               0               0                0               0         0.078852         113.205       0.00784476          95.571
                               0               0                0               0       0.00780892         95.5204        0.0788839         113.225
75.09                          0               0                0               0        0.0293592        -68.6836         0.996712         22.4389
                               0               0                0               0         0.996683         22.4342         0.029584        -69.2941
                               0               0                0               0        0.0814575         112.415       0.00745429         95.8212
                               0               0                0               0       0.00741348           95.66        0.0814787          112.45
75.135                         0               0                0               0        0.0260865         -69.765         0.996549         21.5122
                               0               0                0               0         0.996521         21.5074        0.0263048         -70.433
                               0               0                0               0        0.0843152         111.504       0.00721818         95.8699
                               0               0                0               0       0.00717772         95.7202        0.0843316         111.536
75.18                          0               0                0               0        0.0231386        -70.9299         0.996223         20.5075
                               0               0                0               0          0.99621         20.5024        0.0233041        -71.5495
                               0               0                0               0        0.0874309         110.489       0.00713226         95.7848
                               0               0                0               0       0.00709467         95.7259        0.0874496         110.508
75.225                         0               0                0               0         0.020571        -72.1903         0.995787         19.4258
                               0               0                0               0         0.995794         19.4204        0.0206627        -72.6694
                               0               0                0               0        0.0908056         109.381       0.00719142         95.6095
                               0               0                0               0       0.00715765         95.6757        0.0908329         109.385
75.27                          0               0                0               0        0.0184248         -73.564         0.995282         18.2684
                               0               0                0               0         0.995313         18.2628        0.0184422        -73.8411
                               0               0                0               0        0.0944358         108.194       0.00739029         95.3581
                               0               0                0               0       0.00736044         95.5448        0.0944759         108.183
75.315                         0               0                0               0        0.0167252        -75.0737         0.994744         17.0374
                               0               0                0               0         0.994798         17.0315        0.0166819        -75.1336
                               0               0                0               0        0.0983143         106.937       0.00772347         95.0183
                               0               0                0               0       0.00769705         95.2947        0.0983681         106.913
75.36                          0               0                0               0        0.0154819        -76.7403         0.994201         15.7349
                               0               0                0               0         0.994272         15.7288        0.0153991        -76.6228
                               0               0                0               0          0.10243         105.615        0.0081856         94.5607
                               0               0                0               0       0.00816162          94.884         0.102496         105.584
75.405                         0               0                0               0        0.0146907        -78.5737          0.99367         14.3634
                               0               0                0               0         0.993753         14.3571        0.0145919        -78.3656
                               0               0                0               0         0.106768         104.233       0.00877111           93.95
                               0               0                0               0        0.0087481         94.2772         0.106841         104.201
75.45                          0               0                0               0        0.0143355        -80.5635         0.993164         12.9256
                               0               0                0               0         0.993249         12.9192        0.0142427        -80.3735
                               0               0                0               0         0.111311         102.796       0.00947395         93.1536
                               0               0                0               0       0.00945011         93.4499         0.111385         102.765
75.495                         0               0                0               0        0.0143912        -82.6767         0.992685         11.4245
                               0               0                0               0         0.992763          11.418        0.0143226        -82.6022
                               0               0                0               0         0.116039         101.303        0.0102874         92.1475
                               0               0                0               0        0.0102607         92.3895         0.116106         101.279
75.54                          0               0                0               0        0.0148262        -84.8657          0.99223         9.86326
                               0               0                0               0         0.992292         9.85666        0.0147951        -84.9671
                               0               0                0               0         0.120929         99.7554        0.0112036         90.9179
                               0               0                0               0        0.0111722          91.094         0.120982          99.741
75.585                         0               0                0               0        0.0156048         -87.082         0.991792         8.24501
                               0               0                0               0          0.99183         8.23839        0.0156192        -87.3748
                               0               0                0               0         0.125957         98.1543        0.0122139         89.4613
                               0               0                0               0        0.0121763         89.5699         0.125988         98.1512
75.63                          0               0                0               0          0.01669        -89.2869         0.991356         6.57311
                               0               0                0               0         0.991363         6.56655        0.0167522        -89.7503
                               0               0                0               0         0.131093         96.4997        0.0133081         87.7823
                               0               0                0               0        0.0132635         87.8295         0.131098         96.5088
75.675                         0               0                0               0        0.0180445        -91.4566         0.990905           4.851
                               0               0                0               0         0.990878          4.8446        0.0181523        -92.0482
                               0               0                0               0         0.136311         94.7919         0.014475         85.8926
                               0               0                0               0        0.0144236         85.8891         0.136286         94.8131
75.72                          0               0                0               0         0.019633        -93.5808          0.99042         3.08215
                               0               0                0               0         0.990358         3.07605        0.0197802        -94.2512
                               0               0                0               0         0.141579          93.032        0.0157024         83.8086
                               0               0                0               0        0.0156456         83.7675         0.141522         93.0644
75.765                         0               0                0               0        0.0214227        -95.6589          0.98988         1.27011
                               0               0                0               0         0.989785         1.26448        0.0216001         -96.361
                               0               0                0               0         0.146865         91.2213        0.0169773         81.5501
                               0               0                0               0        0.0169175         81.4849         0.146778         91.2633
75.81                          0               0                0               0        0.0233836        -97.6957         0.989265       -0.581531
                               0               0                0               0         0.989142       -0.586489        0.0235807        -98.3898
                               0               0                0               0         0.152137         89.3621        0.0182863         79.1393
                               0               0                0               0        0.0182273          79.062         0.152025         89.4115
75.855                         0               0                0               0        0.0254896        -99.6988         0.988554        -2.46913
                               0               0                0               0         0.988415        -2.47321        0.0256951        -100.354
                               0               0                0               0         0.157363         87.4573        0.0196161         76.5989
                               0               0                0               0        0.0195623         76.5199         0.157232         87.5114
75.9                           0               0                0               0        0.0277175        -101.676         0.987733        -4.38904
                               0               0                0               0          0.98759        -4.39202        0.0279205        -102.272
                               0               0                0               0         0.162512         85.5106        0.0209538          73.952
                               0               0                0               0        0.0209102          73.879         0.162371         85.5663
75.945                         0               0                0               0        0.0300478        -103.636          0.98679        -6.33757
                               0               0                0               0         0.986661        -6.33925        0.0302381        -104.159
                               0               0                0               0         0.167554         83.5264        0.0222875         71.2207
                               0               0                0               0        0.0222591          71.159         0.167413         83.5805
75.99                          0               0                0               0        0.0324636        -105.585         0.985721        -8.31101
                               0               0                0               0         0.985625        -8.31121        0.0326322        -106.029
                               0               0                0               0         0.172463         81.5097        0.0236064         68.4258
                               0               0                0               0        0.0235979         68.3786         0.172331         81.5591
76.035                         0               0                0               0         0.034951        -107.529          0.98453        -10.3057
                               0               0                0               0         0.984488        -10.3043        0.0350906        -107.894
                               0               0                0               0         0.177214         79.4659        0.0249017         65.5859
                               0               0                0               0        0.0249164         65.5547         0.177102          79.508
76.08                          0               0                0               0        0.0374982        -109.474          0.98323        -12.3178
                               0               0                0               0         0.983262        -12.3148        0.0376032        -109.763
                               0               0                0               0         0.181787         77.4011        0.0261656         62.7176
                               0               0                0               0        0.0262057         62.7027         0.181705         77.4337
76.125                         0               0                0               0        0.0400956        -111.423          0.98185        -14.3436
                               0               0                0               0         0.981971        -14.3391        0.0401623        -111.643
                               0               0                0               0         0.186169         75.3213        0.0273925         59.8348
                               0               0                0               0        0.0274583         59.8361         0.186122          75.343
76.17                          0               0                0               0        0.0427351        -113.379         0.980427        -16.3795
                               0               0                0               0         0.980648        -16.3737         0.042762         -113.54
                               0               0                0               0         0.190348         73.2326        0.0285778         56.9489
                               0               0                0               0        0.0286678         56.9661         0.190339         73.2433
76.215                         0               0                0               0        0.0454102        -115.344         0.979014        -18.4217
                               0               0                0               0         0.979333        -18.4149        0.0453978        -115.458
                               0               0                0               0         0.194318         71.1412        0.0297184         54.0691
                               0               0                0               0         0.029829          54.102         0.194346         71.1418
76.26                          0               0                0               0         0.048115        -117.317         0.977674        -20.4665
                               0               0                0               0         0.978078        -20.4591        0.0480666        -117.398
                               0               0                0               0         0.198078         69.0525        0.0308115         51.2022
                               0               0                0               0        0.0309376          51.251         0.198135         69.0453
76.305                         0               0                0               0        0.0508443        -119.298         0.976481          -22.51
                               0               0                0               0         0.976938        -22.5028        0.0507661        -119.358
                               0               0                0               0         0.201628         66.9719        0.0318551         48.3532
                               0               0                0               0        0.0319901         48.4181         0.201703         66.9601
76.35                          0               0                0               0        0.0535929        -121.285         0.975507        -24.5486
                               0               0                0               0          0.97597        -24.5422        0.0534943        -121.338
                               0               0                0               0         0.204969         64.9035        0.0328469         45.5256
                               0               0                0               0        0.0329833         45.6069         0.205046         64.8913
76.395                         0               0                0               0        0.0563547        -123.272         0.974816        -26.5787
                               0               0                0               0         0.975222         -26.574        0.0562492        -123.329
                               0               0                0               0           0.2081         62.8508        0.0337838         42.7214
                               0               0                0               0        0.0339139          42.819         0.208163         62.8426
76.44                          0               0                0               0        0.0591216        -125.254         0.974446        -28.5971
                               0               0                0               0         0.974725        -28.5946        0.0590269        -125.324
