! TOUCHSTONE file generated by CST MICROWAVE STUDIO
! Date and time: Sun Jun 20 22:37:32 2021
! Project name: HIPS_d_sweep.cst
! Parameters = {fmax=120; fmin=75; b=0.46; d=21.55; a=0.63; phi=0; theta=0}
! Header version: 2018
! Port assignment regex: !\s*Touchstone port\s*([0-9]+)\s*=\s*(CST MWS port|CST DS port)\s*([0-9]+|Zmin|Zmax)\s*\(\"(.*)\"\)(\s*mode\s*([0-9]+))?.*
! Touchstone port assignment:
! Touchstone port 1 = CST MWS port Zmin ("") mode 1
! Touchstone port 2 = CST MWS port Zmin ("") mode 2
! Touchstone port 3 = CST MWS port Zmax ("") mode 1
! Touchstone port 4 = CST MWS port Zmax ("") mode 2
! S-Parameters are not renormalized. Unphysical impedance of 0 will be written to the file.
# GHz S MA R 0
75                             0               0                0               0        0.0772383        -65.1762         0.994631        -154.316
                               0               0                0               0          0.99451        -154.307        0.0773332        -65.1123
                               0               0                0               0        0.0662889         114.303         0.017533        -80.0717
                               0               0                0               0        0.0175174         -80.698        0.0662094         114.332
75.045                         0               0                0               0        0.0800974         -66.098           0.9951        -155.022
                               0               0                0               0         0.995017        -155.016        0.0801932        -65.9442
                               0               0                0               0        0.0685738         113.635        0.0178297        -82.3913
                               0               0                0               0        0.0178838        -82.8186        0.0684952         113.663
75.09                          0               0                0               0        0.0828859        -67.0247         0.995178        -155.806
                               0               0                0               0         0.995125        -155.802        0.0829773        -66.8119
                               0               0                0               0        0.0710629         112.877        0.0180546        -84.7003
                               0               0                0               0        0.0181459        -84.9702        0.0709849         112.904
75.135                         0               0                0               0         0.085552        -67.9629         0.994952        -156.668
                               0               0                0               0         0.994918        -156.665         0.085636        -67.7197
                               0               0                0               0        0.0737644         112.037        0.0181949        -87.0466
                               0               0                0               0        0.0182982        -87.2118        0.0736866         112.064
75.18                          0               0                0               0        0.0880412        -68.9203           0.9945        -157.607
                               0               0                0               0         0.994476        -157.605        0.0881173        -68.6722
                               0               0                0               0        0.0766844          111.12         0.018241        -89.4813
                               0               0                0               0         0.018338        -89.5981        0.0766065         111.147
75.225                         0               0                0               0        0.0902984        -69.9058         0.993892        -158.622
                               0               0                0               0         0.993869        -158.619        0.0903686        -69.6742
                               0               0                0               0         0.079827         110.135        0.0181864         -92.058
                               0               0                0               0         0.018266          -92.18        0.0797488         110.162
75.27                          0               0                0               0        0.0922714        -70.9287         0.993188         -159.71
                               0               0                0               0         0.993157        -159.706        0.0923397        -70.7298
                               0               0                0               0         0.083194         109.085         0.018028        -94.8319
                               0               0                0               0        0.0180852        -95.0064        0.0831152         109.112
75.315                         0               0                0               0        0.0939137        -71.9978         0.992437        -160.869
                               0               0                0               0          0.99239        -160.864         0.093985        -71.8428
                               0               0                0               0        0.0867847         107.975        0.0177666        -97.8598
                               0               0                0               0        0.0178015        -98.1253        0.0867051         108.003
75.36                          0               0                0               0        0.0951873        -73.1212         0.991678        -162.097
                               0               0                0               0          0.99161        -162.089        0.0952671        -73.0158
                               0               0                0               0        0.0905955          106.81        0.0174063        -101.201
                               0               0                0               0        0.0174226        -101.585        0.0905151         106.838
75.405                         0               0                0               0        0.0960653        -74.3054         0.990941        -163.389
                               0               0                0               0         0.990848        -163.379        0.0961583        -74.2502
                               0               0                0               0        0.0946204          105.59        0.0169554        -104.917
                               0               0                0               0        0.0169592        -105.438        0.0945392         105.619
75.45                          0               0                0               0        0.0965332        -75.5545         0.990246        -164.744
                               0               0                0               0         0.990125        -164.732        0.0966426         -75.546
                               0               0                0               0        0.0988502         104.319        0.0164254        -109.073
                               0               0                0               0        0.0164242        -109.737        0.0987682         104.348
75.495                         0               0                0               0        0.0965889        -76.8702         0.989605        -166.158
                               0               0                0               0         0.989456        -166.143         0.096716        -76.9015
                               0               0                0               0         0.103273         102.996        0.0158321        -113.739
                               0               0                0               0        0.0158334        -114.541          0.10319         103.026
75.54                          0               0                0               0        0.0962427        -78.2517         0.989023        -167.627
                               0               0                0               0         0.988846         -167.61        0.0963866        -78.3136
                               0               0                0               0         0.107873         101.623        0.0151953        -118.988
                               0               0                0               0        0.0152061        -119.915          0.10779         101.653
75.585                         0               0                0               0        0.0955154        -79.6952         0.988498        -169.149
                               0               0                0               0         0.988297         -169.13        0.0956734        -79.7778
                               0               0                0               0         0.112634           100.2        0.0145391        -124.896
                               0               0                0               0        0.0145652        -125.923         0.112551          100.23
75.63                          0               0                0               0        0.0944364        -81.1953         0.988023        -170.719
                               0               0                0               0         0.987802        -170.699         0.094604        -81.2882
                               0               0                0               0         0.117534          98.727        0.0138926        -131.533
                               0               0                0               0        0.0139376        -132.627         0.117451         98.7574
75.675                         0               0                0               0         0.093041        -82.7441         0.987586        -172.336
                               0               0                0               0         0.987353        -172.315        0.0932129        -82.8383
                               0               0                0               0          0.12255         97.2054        0.0132889        -138.953
                               0               0                0               0        0.0133543        -140.073         0.122467         97.2358
75.72                          0               0                0               0        0.0913682        -84.3328         0.987172        -173.996
                               0               0                0               0         0.986937        -173.975        0.0915384        -84.4209
                               0               0                0               0         0.127656         95.6359        0.0127652        -147.173
                               0               0                0               0        0.0128497        -148.274         0.127574         95.6662
75.765                         0               0                0               0        0.0894583        -85.9518         0.986764        -175.696
                               0               0                0               0         0.986538        -175.675        0.0896206        -86.0284
                               0               0                0               0         0.132825         94.0201        0.0123597         -156.15
                               0               0                0               0        0.0124596        -157.187         0.132744           94.05
75.81                          0               0                0               0        0.0873506        -87.5907         0.986345        -177.432
                               0               0                0               0         0.986141        -177.413        0.0874994        -87.6531
                               0               0                0               0         0.138027         92.3601        0.0121086        -165.755
                               0               0                0               0        0.0122177        -166.693         0.137948         92.3896
75.855                         0               0                0               0        0.0850821        -89.2397         0.985896        -179.203
                               0               0                0               0          0.98573        -179.185        0.0852122        -89.2875
                               0               0                0               0         0.143234         90.6586        0.0120403        -175.766
                               0               0                0               0        0.0121516        -176.589         0.143156         90.6876
75.9                           0               0                0               0        0.0826862        -90.8888         0.985401         178.995
                               0               0                0               0         0.985289          179.01        0.0827932         -90.924
                               0               0                0               0         0.148415         88.9189        0.0121711         174.105
                               0               0                0               0        0.0122776         173.391         0.148338         88.9474
75.945                         0               0                0               0        0.0801917        -92.5286         0.984846         177.165
                               0               0                0               0         0.984805         177.177        0.0802723        -92.5554
                               0               0                0               0         0.153543         87.1449        0.0125019         164.156
                               0               0                0               0        0.0125986         163.529         0.153466         87.1727
75.99                          0               0                0               0        0.0776227        -94.1504         0.984221          175.31
                               0               0                0               0         0.984268         175.318        0.0776747        -94.1746
                               0               0                0               0         0.158589         85.3408          0.01302         154.642
                               0               0                0               0        0.0131041         154.069         0.158513         85.3679
76.035                         0               0                0               0        0.0749982        -95.7458          0.98352         173.432
                               0               0                0               0          0.98367         173.436        0.0750206        -95.7748
                               0               0                0               0         0.163531         83.5108        0.0137021         145.728
                               0               0                0               0        0.0137738         145.177         0.163454         83.5374
76.08                          0               0                0               0        0.0723323        -97.3074         0.982745         171.537
                               0               0                0               0          0.98301         171.535        0.0723255        -97.3491
                               0               0                0               0         0.168347         81.6594        0.0145206          137.49
                               0               0                0               0        0.0145821         136.936         0.168269         81.6855
76.125                         0               0                0               0        0.0696346        -98.8284         0.981905         169.626
                               0               0                0               0          0.98229         169.619        0.0696006        -98.8909
                               0               0                0               0          0.17302         79.7907        0.0154474         129.931
                               0               0                0               0         0.015502         129.363         0.172941         79.8165
76.17                          0               0                0               0        0.0669106        -100.303         0.981018         167.705
                               0               0                0               0          0.98152         167.692        0.0668531        -100.394
                               0               0                0               0         0.177538         77.9085        0.0164571          123.01
                               0               0                0               0        0.0165085         122.423         0.177458         77.9343
76.215                         0               0                0               0        0.0641625        -101.728         0.980109         165.777
                               0               0                0               0         0.980715         165.759        0.0640867        -101.852
                               0               0                0               0         0.181892         76.0162         0.017528         116.662
                               0               0                0               0        0.0175794         116.063         0.181809         76.0421
76.26                          0               0                0               0        0.0613907        -103.101         0.979216         163.847
                               0               0                0               0         0.979896         163.825        0.0613031         -103.26
                               0               0                0               0         0.186076         74.1167        0.0186428          110.82
                               0               0                0               0        0.0186958         110.219         0.185991          74.143
76.305                         0               0                0               0        0.0585955        -104.425          0.97838         161.921
                               0               0                0               0         0.979093         161.897        0.0585029        -104.618
                               0               0                0               0         0.190088         72.2124        0.0197877         105.417
                               0               0                0               0        0.0198421         104.827             0.19         72.2395
76.35                          0               0                0               0        0.0557806        -105.709         0.977652         160.004
                               0               0                0               0         0.978344         159.978        0.0556883        -105.926
                               0               0                0               0         0.193927         70.3057        0.0209512         100.397
                               0               0                0               0        0.0210046         99.8337         0.193837         70.3338
76.395                         0               0                0               0        0.0529571        -106.965         0.977074         158.098
                               0               0                0               0         0.977692         158.075        0.0528665        -107.192
                               0               0                0               0         0.197591         68.3995        0.0221234         95.7143
                               0               0                0               0        0.0221712          95.189         0.197498         68.4286
76.44                          0               0                0               0        0.0501484        -108.211         0.976677         156.208
                               0               0                0               0         0.977183          156.19        0.0500548        -108.428
