! TOUCHSTONE file generated by CST MICROWAVE STUDIO
! Date and time: Sun Jun 20 22:37:30 2021
! Project name: HIPS_d_sweep.cst
! Parameters = {fmax=120; fmin=75; b=0.46; d=21.35; a=0.63; phi=0; theta=0}
! Header version: 2018
! Port assignment regex: !\s*Touchstone port\s*([0-9]+)\s*=\s*(CST MWS port|CST DS port)\s*([0-9]+|Zmin|Zmax)\s*\(\"(.*)\"\)(\s*mode\s*([0-9]+))?.*
! Touchstone port assignment:
! Touchstone port 1 = CST MWS port Zmin ("") mode 1
! Touchstone port 2 = CST MWS port Zmin ("") mode 2
! Touchstone port 3 = CST MWS port Zmax ("") mode 1
! Touchstone port 4 = CST MWS port Zmax ("") mode 2
! S-Parameters are not renormalized. Unphysical impedance of 0 will be written to the file.
# GHz S MA R 0
75                             0               0                0               0        0.0953778        -40.6457         0.994382        -131.056
                               0               0                0               0         0.994444        -131.044        0.0953913        -40.6291
                               0               0                0               0        0.0239888        -33.3802        0.0361758        -37.5232
                               0               0                0               0        0.0361574        -37.5207        0.0239599        -33.1922
75.045                         0               0                0               0         0.098934        -41.3617         0.994014        -131.782
                               0               0                0               0         0.994596         -132.09         0.098831        -41.2791
                               0               0                0               0         0.021671        -33.0298         0.036638        -38.8447
                               0               0                0               0        0.0366943        -38.6475        0.0216406        -32.7569
75.09                          0               0                0               0         0.102183        -42.1897         0.993684        -132.578
                               0               0                0               0         0.993722        -133.139         0.102005        -42.0641
                               0               0                0               0        0.0190799        -32.3045        0.0369607        -40.1496
                               0               0                0               0        0.0370384        -39.8427        0.0190487        -31.9454
75.135                         0               0                0               0         0.105101        -43.1163         0.993396        -133.445
                               0               0                0               0         0.991814        -134.166          0.10488        -42.9686
                               0               0                0               0         0.016226        -30.9514        0.0371334        -41.4832
                               0               0                0               0         0.037205         -41.136        0.0161956        -30.4948
75.18                          0               0                0               0          0.10767        -44.1306         0.993153        -134.383
                               0               0                0               0         0.989239        -135.144         0.107427        -43.9788
                               0               0                0               0        0.0131311        -28.4235        0.0371535        -42.8857
                               0               0                0               0        0.0372092        -42.5467        0.0131046        -27.8385
75.225                         0               0                0               0         0.109874        -45.2237         0.992954        -135.392
                               0               0                0               0         0.986937        -136.059         0.109625         -45.083
                               0               0                0               0       0.00984792        -23.3464        0.0370247          -44.39
                               0               0                0               0        0.0370642         -44.087       0.00983144        -22.5593
75.27                          0               0                0               0         0.111703        -46.3886         0.992798         -136.47
                               0               0                0               0         0.986033        -136.948         0.111458        -46.2709
                               0               0                0               0       0.00654438        -11.3888         0.036754        -46.0216
                               0               0                0               0        0.0367816        -45.7644       0.00655341        -10.2285
75.315                         0               0                0               0         0.113152        -47.6194         0.992682        -137.617
                               0               0                0               0         0.986851        -137.894         0.112914        -47.5336
                               0               0                0               0       0.00402135         23.3151        0.0363504        -47.7991
                               0               0                0               0         0.036371        -47.5837       0.00409853         24.7541
75.36                          0               0                0               0          0.11422        -48.9115           0.9926        -138.832
                               0               0                0               0         0.988654        -138.959         0.113991        -48.8635
                               0               0                0               0       0.00484435           79.29        0.0358229        -49.7351
                               0               0                0               0        0.0358402         -49.548       0.00496637         79.2786
75.405                         0               0                0               0         0.114908        -50.2611         0.992546        -140.112
                               0               0                0               0         0.990491        -140.154         0.114687        -50.2541
                               0               0                0               0       0.00844748          103.23        0.0351804        -51.8382
                               0               0                0               0        0.0351958        -51.6601       0.00855512         102.934
75.45                          0               0                0               0         0.115225        -51.6652         0.992513        -141.456
                               0               0                0               0         0.991831        -141.458          0.11501        -51.7001
                               0               0                0               0        0.0129068         111.714        0.0344304        -54.1135
                               0               0                0               0        0.0344431        -53.9225        0.0130044          111.48
75.495                         0               0                0               0         0.115179        -53.1211         0.992492        -142.861
                               0               0                0               0         0.992547        -142.848          0.11497        -53.1967
                               0               0                0               0         0.017773         115.282        0.0335794        -56.5645
                               0               0                0               0        0.0335871        -56.3385        0.0178656         115.109
75.54                          0               0                0               0         0.114786        -54.6268         0.992477        -144.325
                               0               0                0               0         0.992721        -144.309         0.114581        -54.7401
                               0               0                0               0        0.0229316         116.804        0.0326331        -59.1936
                               0               0                0               0         0.032632        -58.9124        0.0230219         116.674
75.585                         0               0                0               0         0.114061        -56.1803         0.992458        -145.845
                               0               0                0               0         0.992493        -145.831         0.113861        -56.3269
                               0               0                0               0        0.0283354          117.28        0.0315965        -62.0034
                               0               0                0               0        0.0315823        -61.6502        0.0284248         117.177
75.63                          0               0                0               0         0.113022          -57.78         0.992428        -147.418
                               0               0                0               0         0.992009        -147.408         0.112828        -57.9544
                               0               0                0               0        0.0339555         117.137        0.0304741        -64.9974
                               0               0                0               0        0.0304427        -64.5598        0.0340447         117.052
75.675                         0               0                0               0         0.111692        -59.4241          0.99238         -149.04
                               0               0                0               0         0.991393        -149.034         0.111505        -59.6201
                               0               0                0               0        0.0397688         116.588        0.0292706         -68.181
                               0               0                0               0        0.0292182        -67.6524        0.0398582         116.515
75.72                          0               0                0               0          0.11009        -61.1109         0.992309        -150.708
                               0               0                0               0         0.990746        -150.707         0.109915        -61.3217
                               0               0                0               0         0.045754         115.754        0.0279909        -71.5625
                               0               0                0               0        0.0279148        -70.9427        0.0458435         115.687
75.765                         0               0                0               0         0.108241        -62.8386          0.99221        -152.419
                               0               0                0               0         0.990145        -152.423          0.10808        -63.0571
                               0               0                0               0        0.0518897         114.707        0.0266406        -75.1544
                               0               0                0               0        0.0265395        -74.4506        0.0519791         114.644
75.81                          0               0                0               0         0.106167        -64.6051         0.992081        -154.169
                               0               0                0               0         0.989644        -154.177         0.106024        -64.8244
                               0               0                0               0        0.0581543         113.494        0.0252264        -78.9756
                               0               0                0               0        0.0251006        -78.2027        0.0582431         113.433
75.855                         0               0                0               0         0.103893         -66.408         0.991921        -155.955
                               0               0                0               0         0.989277        -155.965         0.103771        -66.6213
                               0               0                0               0        0.0645255         112.149        0.0237561        -83.0533
                               0               0                0               0        0.0236082        -82.2344        0.0646131         112.089
75.9                           0               0                0               0          0.10144        -68.2446         0.991732        -157.772
                               0               0                0               0         0.989062        -157.785         0.101343        -68.4456
                               0               0                0               0        0.0709805         110.696        0.0222395        -87.4263
                               0               0                0               0        0.0220742        -86.5925        0.0710663         110.636
75.945                         0               0                0               0        0.0988323        -70.1115         0.991517        -159.617
                               0               0                0               0         0.988999         -159.63        0.0987617        -70.2947
                               0               0                0               0        0.0774964         109.153        0.0206885        -92.1495
                               0               0                0               0         0.020513        -91.3394        0.0775796         109.095
75.99                          0               0                0               0        0.0960915        -72.0052          0.99128        -161.486
                               0               0                0               0         0.989077        -161.499        0.0960483        -72.1656
                               0               0                0               0        0.0840499         107.538        0.0191183        -97.2993
                               0               0                0               0        0.0189421        -96.5573          0.08413          107.48
76.035                         0               0                0               0        0.0932388         -73.921         0.991026        -163.376
                               0               0                0               0         0.989272        -163.386        0.0932229         -74.055
                               0               0                0               0        0.0906181         105.862        0.0175481        -102.981
                               0               0                0               0         0.017383        -102.354        0.0906946         105.806
76.08                          0               0                0               0        0.0902946        -75.8539         0.990762        -165.283
                               0               0                0               0         0.989553        -165.288        0.0903043        -75.9588
                               0               0                0               0        0.0971785         104.138         0.016003        -109.336
                               0               0                0               0        0.0158624        -108.867        0.0972512         104.083
76.125                         0               0                0               0        0.0872782        -77.7979         0.990492        -167.203
                               0               0                0               0         0.989883        -167.202        0.0873109        -77.8722
                               0               0                0               0         0.103709         102.373        0.0145157        -116.549
                               0               0                0               0        0.0144137        -116.267         0.103778         102.321
76.17                          0               0                0               0        0.0842082        -79.7458         0.990221        -169.133
                               0               0                0               0         0.990222        -169.125        0.0842598        -79.7894
                               0               0                0               0         0.110189         100.577        0.0131297        -124.839
                               0               0                0               0        0.0130788        -124.747         0.110254         100.528
76.215                         0               0                0               0         0.081102        -81.6895         0.989949         -171.07
                               0               0                0               0         0.990527        -171.054        0.0811678        -81.7037
                               0               0                0               0         0.116597         98.7578        0.0119006        -134.438
                               0               0                0               0        0.0119092        -134.493         0.116659         98.7109
76.26                          0               0                0               0        0.0779763        -83.6195         0.989675        -173.011
                               0               0                0               0         0.990754        -172.985        0.0780509         -83.607
                               0               0                0               0         0.122913         96.9206        0.0108962        -145.499
                               0               0                0               0        0.0109648        -145.602         0.122973         96.8764
76.305                         0               0                0               0         0.074847        -85.5247         0.989391        -174.952
                               0               0                0               0         0.990862        -174.918        0.0749248        -85.4896
                               0               0                0               0         0.129118         95.0709        0.0101891         -157.95
                               0               0                0               0        0.0103069        -157.961         0.129177         95.0294
76.35                          0               0                0               0        0.0717296        -87.3925         0.989083        -176.889
                               0               0                0               0         0.990812        -176.849        0.0718052          -87.34
                               0               0                0               0         0.135192         93.2131       0.00983818        -171.339
                               0               0                0               0       0.00998292        -171.135          0.13525         93.1739
76.395                         0               0                0               0         0.068639         -89.208         0.988731        -178.821
                               0               0                0               0         0.990568        -178.776        0.0687074        -89.1446
                               0               0                0               0         0.141114         91.3504       0.00986475          175.14
                               0               0                0               0        0.0100082         175.587         0.141172         91.3129
76.44                          0               0                0               0        0.0655897        -90.9545         0.988307         179.256
                               0               0                0               0         0.990097         179.302        0.0656469        -90.8873
