! TOUCHSTONE file generated by CST MICROWAVE STUDIO
! Date and time: Sun Jun 20 22:37:41 2021
! Project name: HIPS_d_sweep.cst
! Parameters = {fmax=120; fmin=75; b=0.46; d=22.35; a=0.63; phi=0; theta=0}
! Header version: 2018
! Port assignment regex: !\s*Touchstone port\s*([0-9]+)\s*=\s*(CST MWS port|CST DS port)\s*([0-9]+|Zmin|Zmax)\s*\(\"(.*)\"\)(\s*mode\s*([0-9]+))?.*
! Touchstone port assignment:
! Touchstone port 1 = CST MWS port Zmin ("") mode 1
! Touchstone port 2 = CST MWS port Zmin ("") mode 2
! Touchstone port 3 = CST MWS port Zmax ("") mode 1
! Touchstone port 4 = CST MWS port Zmax ("") mode 2
! S-Parameters are not renormalized. Unphysical impedance of 0 will be written to the file.
# GHz S MA R 0
75                             0               0                0               0        0.0233285         -133.32         0.975716         115.715
                               0               0                0               0         0.975987         115.729         0.023286        -133.034
                               0               0                0               0         0.213799         25.9655        0.0386387         32.7426
                               0               0                0               0        0.0386931         32.6782         0.213806         25.9389
75.045                         0               0                0               0        0.0269982        -136.944         0.975897         114.988
                               0               0                0               0         0.976214         115.005        0.0269283        -136.719
                               0               0                0               0         0.212689         25.2882        0.0390107         33.1671
                               0               0                0               0        0.0390584          33.072         0.212697         25.2601
75.09                          0               0                0               0        0.0304158        -139.894         0.975996         114.188
                               0               0                0               0         0.976244         114.205        0.0303268        -139.632
                               0               0                0               0         0.211474          24.528        0.0393257         33.3775
                               0               0                0               0        0.0393772         33.2661         0.211483         24.5009
75.135                         0               0                0               0        0.0335368        -142.402         0.976054         113.314
                               0               0                0               0         0.976159          113.33        0.0334319        -142.063
                               0               0                0               0         0.210154          23.688        0.0396011         33.3706
                               0               0                0               0        0.0396617          33.255         0.210163         23.6634
75.18                          0               0                0               0        0.0363285        -144.606         0.976106         112.367
                               0               0                0               0         0.976029          112.38        0.0362092        -144.181
                               0               0                0               0         0.208723         22.7709        0.0398502          33.149
                               0               0                0               0        0.0399216         33.0379         0.208732         22.7495
75.225                         0               0                0               0        0.0387682        -146.596         0.976183         111.349
                               0               0                0               0         0.975912         111.358        0.0386362        -146.094
                               0               0                0               0         0.207175         21.7791         0.040082         32.7187
                               0               0                0               0        0.0401631         32.6171         0.207183         21.7611
75.27                          0               0                0               0        0.0408418        -148.434         0.976309          110.26
                               0               0                0               0         0.975857         110.266        0.0406992        -147.873
                               0               0                0               0         0.205502          20.715        0.0403012         32.0873
                               0               0                0               0        0.0403894         31.9971          0.20551         20.6998
75.315                         0               0                0               0        0.0425427        -150.162         0.976503         109.102
                               0               0                0               0         0.975902         109.104        0.0423928        -149.564
                               0               0                0               0         0.203694         19.5804        0.0405088         31.2631
                               0               0                0               0        0.0406007         31.1841         0.203703         19.5674
75.36                          0               0                0               0        0.0438716        -151.815         0.976777         107.878
                               0               0                0               0         0.976073         107.876        0.0437178        -151.201
                               0               0                0               0         0.201741         18.3773        0.0407024         30.2548
                               0               0                0               0        0.0407942         30.1849         0.201751         18.3656
75.405                         0               0                0               0        0.0448346        -153.419         0.977139         106.588
                               0               0                0               0         0.976385         106.584        0.0446809        -152.809
                               0               0                0               0         0.199631         17.1073        0.0408771         29.0708
                               0               0                0               0        0.0409651         29.0073         0.199643          17.096
75.45                          0               0                0               0         0.045443        -154.992         0.977592         105.235
                               0               0                0               0         0.976847         105.229        0.0452932        -154.404
                               0               0                0               0         0.197353         15.7722        0.0410257         27.7197
                               0               0                0               0        0.0411065         27.6598         0.197368         15.7602
75.495                         0               0                0               0        0.0457118        -156.553         0.978134          103.82
                               0               0                0               0         0.977456         103.815        0.0455692        -155.998
                               0               0                0               0         0.194893         14.3737        0.0411396         26.2103
                               0               0                0               0          0.04121         26.1517         0.194911         14.3601
75.54                          0               0                0               0         0.045659        -158.114         0.978759         102.347
                               0               0                0               0         0.978201         102.344        0.0455259        -157.602
                               0               0                0               0         0.192241         12.9136        0.0412087         24.5519
                               0               0                0               0        0.0412667         24.4929         0.192263         12.8976
75.585                         0               0                0               0        0.0453043        -159.685         0.979458         100.818
                               0               0                0               0         0.979063         100.816        0.0451821         -159.22
                               0               0                0               0         0.189383         11.3937        0.0412228         22.7546
                               0               0                0               0         0.041267         22.6946         0.189409         11.3746
75.63                          0               0                0               0        0.0446683        -161.274         0.980219         99.2341
                               0               0                0               0         0.980019         99.2361        0.0445575        -160.858
                               0               0                0               0          0.18631         9.81591        0.0411713         20.8292
                               0               0                0               0        0.0412017         20.7687         0.186339         9.79346
75.675                         0               0                0               0        0.0437722        -162.889         0.981027         97.5992
                               0               0                0               0         0.981038         97.6048        0.0436719        -162.518
                               0               0                0               0          0.18301         8.18251        0.0410444         18.7872
                               0               0                0               0        0.0410621         18.7276         0.183041         8.15653
75.72                          0               0                0               0        0.0426364        -164.533         0.981867         95.9155
                               0               0                0               0         0.982082         95.9245        0.0425451        -164.201
                               0               0                0               0         0.179474         6.49582        0.0408334         16.6412
                               0               0                0               0        0.0408408         16.5847         0.179508         6.46648
75.765                         0               0                0               0        0.0412808        -166.209         0.982722         94.1859
                               0               0                0               0         0.983114         94.1976        0.0411959        -165.907
                               0               0                0               0         0.175694         4.75843        0.0405311         14.4041
                               0               0                0               0         0.040532         14.3533          0.17573          4.7262
75.81                          0               0                0               0        0.0397239        -167.919         0.983577          92.413
                               0               0                0               0          0.98409         92.4262        0.0396425        -167.634
                               0               0                0               0         0.171665         2.97315        0.0401324          12.089
                               0               0                0               0        0.0401314         12.0467         0.171701         2.93883
75.855                         0               0                0               0        0.0379829        -169.662         0.984419         90.5999
                               0               0                0               0          0.98497         90.6129        0.0379015         -169.38
                               0               0                0               0         0.167383         1.14306        0.0396342         9.70876
                               0               0                0               0        0.0396368         9.67743         0.167419         1.10771
75.9                           0               0                0               0        0.0360732        -171.436         0.985234         88.7495
                               0               0                0               0         0.985712         88.7601        0.0359887        -171.139
                               0               0                0               0         0.162845       -0.728539        0.0390358         7.27532
                               0               0                0               0        0.0390476         7.25708         0.162881       -0.763614
75.945                         0               0                0               0         0.034009        -173.235         0.986016         86.8649
                               0               0                0               0         0.986283          86.871         0.033918        -172.906
                               0               0                0               0         0.158053        -2.63812        0.0383387         4.79936
                               0               0                0               0         0.038365         4.79565         0.158087        -2.67143
75.99                          0               0                0               0        0.0318025        -175.053         0.986759         84.9495
                               0               0                0               0         0.986658         84.9487        0.0317023        -174.671
                               0               0                0               0         0.153009        -4.58195        0.0375462         2.28975
                               0               0                0               0        0.0375916         2.30134         0.153043        -4.61194
76.035                         0               0                0               0        0.0294645        -176.878         0.987464         83.0065
                               0               0                0               0         0.986829         82.9969        0.0293531        -176.419
                               0               0                0               0         0.147719        -6.55615        0.0366633       -0.246753
                               0               0                0               0        0.0367307       -0.219811         0.147753        -6.58126
76.08                          0               0                0               0        0.0270045        -178.692         0.988139         81.0394
                               0               0                0               0         0.986809           81.02         0.026881        -178.133
                               0               0                0               0         0.142191         -8.5567        0.0356959        -2.80574
                               0               0                0               0        0.0357867        -2.76403         0.142226        -8.57558
76.125                         0               0                0               0        0.0244309         179.531         0.988795          79.052
                               0               0                0               0         0.986641         79.0228        0.0242953        -179.783
                               0               0                0               0         0.136437        -10.5795        0.0346511        -5.38514
                               0               0                0               0        0.0347639        -5.32984         0.136473        -10.5912
76.17                          0               0                0               0         0.021751         177.831          0.98945         77.0479
                               0               0                0               0         0.986406         77.0106        0.0216051         178.676
                               0               0                0               0         0.130468        -12.6205         0.033536        -7.98496
                               0               0                0               0        0.0336672        -7.91788         0.130506        -12.6244
76.215                         0               0                0               0        0.0189719         176.275         0.990126         75.0312
                               0               0                0               0         0.986223         74.9888        0.0188193         177.316
                               0               0                0               0         0.124298        -14.6755        0.0323577        -10.6068
                               0               0                0               0        0.0325012        -10.5307         0.124341         -14.672
76.26                          0               0                0               0        0.0161006         174.975         0.990847          73.006
                               0               0                0               0         0.986249          72.963        0.0159475         176.262
                               0               0                0               0         0.117946        -16.7404         0.031123        -13.2533
                               0               0                0               0        0.0312705         -13.172         0.117992        -16.7309
76.305                         0               0                0               0        0.0131457         174.151         0.991636         70.9765
                               0               0                0               0         0.986657         70.9379        0.0130018         175.758
                               0               0                0               0         0.111426        -18.8112        0.0298383        -15.9267
                               0               0                0               0        0.0299799        -15.8463         0.111477        -18.7981
76.35                          0               0                0               0        0.0101206          174.28         0.992512         68.9469
                               0               0                0               0         0.987609         68.9172        0.0100006         176.339
                               0               0                0               0         0.104757        -20.8837        0.0285089        -18.6279
                               0               0                0               0        0.0286342        -18.5572         0.104812        -20.8711
76.395                         0               0                0               0       0.00705374         176.677         0.993483         66.9213
                               0               0                0               0         0.989201          66.903        0.0069818         179.471
                               0               0                0               0         0.097958        -22.9537        0.0271391        -21.3548
                               0               0                0               0        0.0272384        -21.3059        0.0980147        -22.9469
76.44                          0               0                0               0        0.0040448        -173.448         0.994542         64.9031
                               0               0                0               0         0.991417         64.8961       0.00406992        -169.228
