! TOUCHSTONE file generated by CST MICROWAVE STUDIO
! Date and time: Sun Jun 20 22:38:02 2021
! Project name: HIPS_d_sweep.cst
! Parameters = {fmax=120; fmin=75; b=0.46; d=24.25; a=0.63; phi=0; theta=0}
! Header version: 2018
! Port assignment regex: !\s*Touchstone port\s*([0-9]+)\s*=\s*(CST MWS port|CST DS port)\s*([0-9]+|Zmin|Zmax)\s*\(\"(.*)\"\)(\s*mode\s*([0-9]+))?.*
! Touchstone port assignment:
! Touchstone port 1 = CST MWS port Zmin ("") mode 1
! Touchstone port 2 = CST MWS port Zmin ("") mode 2
! Touchstone port 3 = CST MWS port Zmax ("") mode 1
! Touchstone port 4 = CST MWS port Zmax ("") mode 2
! S-Parameters are not renormalized. Unphysical impedance of 0 will be written to the file.
# GHz S MA R 0
75                             0               0                0               0         0.106483         169.676         0.985345        -99.5351
                               0               0                0               0         0.985513         -99.551          0.10626          169.68
                               0               0                0               0         0.130597        -10.1015        0.0176635        -63.0045
                               0               0                0               0        0.0175439        -62.9028         0.130658        -10.0356
75.045                         0               0                0               0         0.102691         168.751         0.986326        -100.325
                               0               0                0               0         0.986447        -100.346         0.102137         168.722
                               0               0                0               0         0.128365         -10.908        0.0172226           -61.4
                               0               0                0               0        0.0171377        -61.2369         0.128415        -10.8455
75.09                          0               0                0               0        0.0990508         167.817         0.987104        -101.203
                               0               0                0               0         0.987214        -101.225        0.0984112         167.779
                               0               0                0               0         0.125839        -11.7899         0.016768         -60.175
                               0               0                0               0        0.0166975        -59.9839         0.125886        -11.7279
75.135                         0               0                0               0        0.0956665         166.857         0.987741        -102.167
                               0               0                0               0         0.987863        -102.188        0.0951034         166.825
                               0               0                0               0         0.123018        -12.7487        0.0162901        -59.3394
                               0               0                0               0        0.0162197        -59.1382         0.123067         -12.685
75.18                          0               0                0               0        0.0926254         165.853         0.988289        -103.215
                               0               0                0               0         0.988435        -103.234        0.0922266         165.839
                               0               0                0               0         0.119896        -13.7852        0.0157795        -58.9035
                               0               0                0               0        0.0157001        -58.6986          0.11995        -13.7183
75.225                         0               0                0               0         0.089994         164.792          0.98879        -104.346
                               0               0                0               0         0.988961        -104.361        0.0897877         164.803
                               0               0                0               0         0.116471        -14.8999        0.0152267        -58.8795
                               0               0                0               0        0.0151343        -58.6693         0.116532        -14.8287
75.27                          0               0                0               0        0.0878174         163.662         0.989273        -105.557
                               0               0                0               0         0.989468        -105.569        0.0877882           163.7
                               0               0                0               0         0.112738        -16.0925        0.0146231        -59.2832
                               0               0                0               0        0.0145174        -59.0618         0.112806        -16.0167
75.315                         0               0                0               0        0.0861201         162.456         0.989762        -106.846
                               0               0                0               0         0.989974        -106.854        0.0862251         162.519
                               0               0                0               0         0.108695        -17.3622        0.0139611         -60.137
                               0               0                0               0        0.0138448        -59.8967         0.108769        -17.2818
75.36                          0               0                0               0         0.084909          161.17         0.990268         -108.21
                               0               0                0               0          0.99049        -108.216        0.0850914         161.253
                               0               0                0               0         0.104339        -18.7077        0.0132341        -61.4741
                               0               0                0               0        0.0131123        -61.2075         0.104417        -18.6232
75.405                         0               0                0               0        0.0841761         159.804         0.990798        -109.647
                               0               0                0               0         0.991021        -109.651         0.084377         159.898
                               0               0                0               0         0.099669         -20.127        0.0124376        -63.3444
                               0               0                0               0        0.0123163        -63.0462        0.0997484         -20.039
75.45                          0               0                0               0        0.0839025          158.36          0.99135        -111.154
                               0               0                0               0         0.991566        -111.158        0.0840685         158.454
                               0               0                0               0        0.0946849        -21.6173        0.0115691        -65.8242
                               0               0                0               0        0.0114551         -65.492         0.094763        -21.5267
75.495                         0               0                0               0        0.0840615         156.841         0.991917        -112.729
                               0               0                0               0         0.992119        -112.734        0.0841503         156.926
                               0               0                0               0        0.0893883        -23.1751        0.0106297        -69.0325
                               0               0                0               0        0.0105291        -68.6675         0.089462        -23.0827
75.54                          0               0                0               0         0.084622         155.253         0.992487        -114.369
                               0               0                0               0         0.992669        -114.377        0.0846049         155.318
                               0               0                0               0        0.0837829        -24.7959       0.00962488        -73.1584
                               0               0                0               0        0.0095428        -72.7644        0.0838493        -24.7024
75.585                         0               0                0               0        0.0855506           153.6         0.993045        -116.071
                               0               0                0               0         0.993204        -116.083        0.0854129         153.636
                               0               0                0               0        0.0778744        -26.4742       0.00856786        -78.5085
                               0               0                0               0       0.00850783          -78.09        0.0779311        -26.3799
75.63                          0               0                0               0        0.0868134         151.884         0.993573        -117.833
                               0               0                0               0         0.993707        -117.849        0.0865539         151.889
                               0               0                0               0         0.071671        -28.2028       0.00748436        -85.5894
                               0               0                0               0       0.00744787        -85.1474        0.0717161        -28.1077
75.675                         0               0                0               0        0.0883774         150.111         0.994054        -119.652
                               0               0                0               0         0.994161        -119.672        0.0880063         150.082
                               0               0                0               0        0.0651832        -29.9726       0.00642325         -95.235
                               0               0                0               0       0.00640944        -94.7577        0.0652158         -29.876
75.72                          0               0                0               0        0.0902116         148.282         0.994469        -121.525
                               0               0                0               0         0.994548         -121.55        0.0897484         148.221
                               0               0                0               0        0.0584242        -31.7713       0.00547681        -108.704
                               0               0                0               0       0.00548179        -108.153        0.0584446        -31.6717
75.765                         0               0                0               0        0.0922871           146.4         0.994799        -123.449
                               0               0                0               0         0.994853        -123.478        0.0917576         146.311
                               0               0                0               0        0.0514099        -33.5816       0.00480885        -127.265
                               0               0                0               0       0.00482462        -126.574        0.0514191        -33.4764
75.81                          0               0                0               0        0.0945776         144.466          0.99503        -125.422
                               0               0                0               0          0.99506        -125.454        0.0940118         144.357
                               0               0                0               0        0.0441582        -35.3766       0.00464291        -150.163
                               0               0                0               0       0.00465783        -149.317        0.0441588        -35.2614
75.855                         0               0                0               0        0.0970596         142.481         0.995149        -127.439
                               0               0                0               0         0.995159        -127.472        0.0964887          142.36
                               0               0                0               0          0.03669        -37.1102       0.00511719        -172.872
                               0               0                0               0       0.00512254        -172.004        0.0366849        -36.9779
75.9                           0               0                0               0        0.0997117         140.448         0.995148        -129.497
                               0               0                0               0         0.995141         -129.53        0.0991662         140.324
                               0               0                0               0         0.029028        -38.6909       0.00615357         168.795
                               0               0                0               0        0.0061492         169.538        0.0290214        -38.5284
75.945                         0               0                0               0         0.102515         138.366         0.995022        -131.592
                               0               0                0               0         0.995003        -131.623         0.102022         138.249
                               0               0                0               0        0.0211983        -39.8952       0.00757543         155.213
                               0               0                0               0       0.00756585          155.78        0.0211946        -39.6755
75.99                          0               0                0               0         0.105453         136.239         0.994772         -133.72
                               0               0                0               0         0.994746        -133.747         0.105036         136.137
                               0               0                0               0        0.0132344        -39.9637       0.00924368         145.048
                               0               0                0               0       0.00923334         145.443        0.0132387         -39.613
76.035                         0               0                0               0         0.108511         134.069         0.994401        -135.876
                               0               0                0               0         0.994376        -135.898         0.108186          133.99
                               0               0                0               0       0.00522382        -33.4504        0.0110737         137.081
                               0               0                0               0        0.0110654         137.322       0.00524856        -32.5919
76.08                          0               0                0               0         0.111674         131.858         0.993918        -138.055
                               0               0                0               0         0.993902        -138.071          0.11145         131.807
                               0               0                0               0       0.00339824         107.683        0.0130148         130.514
                               0               0                0               0        0.0130093         130.623       0.00341885         106.297
76.125                         0               0                0               0         0.114929         129.612         0.993334        -140.253
                               0               0                0               0         0.993336        -140.261         0.114808         129.593
                               0               0                0               0        0.0114898         121.331        0.0150338         124.861
                               0               0                0               0        0.0150305         124.861        0.0114775         120.891
76.17                          0               0                0               0         0.118262         127.335         0.992663        -142.463
                               0               0                0               0         0.992692        -142.465         0.118237         127.348
                               0               0                0               0        0.0197748         121.795         0.017107         119.823
                               0               0                0               0         0.017104         119.737        0.0197511         121.534
76.215                         0               0                0               0         0.121657         125.033         0.991917        -144.681
                               0               0                0               0         0.991984        -144.677         0.121715         125.076
                               0               0                0               0        0.0280926         120.654        0.0192152         115.214
                               0               0                0               0        0.0192101         115.064        0.0280638         120.467
76.26                          0               0                0               0         0.125095         122.715          0.99111        -146.902
                               0               0                0               0         0.991223        -146.894         0.125218         122.782
                               0               0                0               0        0.0364037         119.001         0.021342         110.912
                               0               0                0               0        0.0213321         110.721        0.0363759         118.856
76.305                         0               0                0               0         0.128555         120.388         0.990252        -149.122
                               0               0                0               0         0.990413        -149.112         0.128721          120.47
                               0               0                0               0        0.0446775         117.124        0.0234721         106.836
                               0               0                0               0        0.0234553         106.625         0.044657         117.007
76.35                          0               0                0               0         0.132007          118.06         0.989348        -151.335
                               0               0                0               0         0.989554        -151.327         0.132196         118.146
                               0               0                0               0        0.0528851         115.132        0.0255908         102.933
                               0               0                0               0        0.0255662         102.721        0.0528772         115.036
76.395                         0               0                0               0         0.135418         115.737         0.988401        -153.541
                               0               0                0               0         0.988639        -153.537         0.135613         115.817
                               0               0                0               0         0.060998         113.075        0.0276842         99.1665
                               0               0                0               0        0.0276521         98.9685        0.0610058         112.998
76.44                          0               0                0               0         0.138752         113.424         0.987404        -155.737
                               0               0                0               0         0.987653        -155.737         0.138939         113.489
