! TOUCHSTONE file generated by CST MICROWAVE STUDIO
! Date and time: Sun Jun 20 22:36:56 2021
! Project name: HIPS_d_sweep.cst
! Parameters = {fmax=120; fmin=75; b=0.46; d=17.35; a=0.63; phi=0; theta=0}
! Header version: 2018
! Port assignment regex: !\s*Touchstone port\s*([0-9]+)\s*=\s*(CST MWS port|CST DS port)\s*([0-9]+|Zmin|Zmax)\s*\(\"(.*)\"\)(\s*mode\s*([0-9]+))?.*
! Touchstone port assignment:
! Touchstone port 1 = CST MWS port Zmin ("") mode 1
! Touchstone port 2 = CST MWS port Zmin ("") mode 2
! Touchstone port 3 = CST MWS port Zmax ("") mode 1
! Touchstone port 4 = CST MWS port Zmax ("") mode 2
! S-Parameters are not renormalized. Unphysical impedance of 0 will be written to the file.
# GHz S MA R 0
75                             0               0                0               0         0.344638         52.8835         0.916373        -37.7831
                               0               0                0               0         0.916434        -37.8019         0.344798         52.8995
                               0               0                0               0         0.189321         54.2038        0.0729628         128.468
                               0               0                0               0        0.0729815         128.502         0.189329         54.2132
75.045                         0               0                0               0         0.347692          52.203         0.916351        -38.3506
                               0               0                0               0         0.915661        -38.3274          0.34767         52.2398
                               0               0                0               0         0.189145         53.7584        0.0737036          127.43
                               0               0                0               0        0.0737232          127.46          0.18915         53.7658
75.09                          0               0                0               0         0.350409         51.5207         0.915953        -38.9804
                               0               0                0               0         0.914832         -38.938         0.350259         51.5662
                               0               0                0               0         0.188957         53.2488        0.0744058          126.31
                               0               0                0               0        0.0744245         126.333          0.18896         53.2545
75.135                         0               0                0               0         0.352765         50.8274         0.915275        -39.6731
                               0               0                0               0         0.913994        -39.6274         0.352544         50.8726
                               0               0                0               0         0.188777         52.6767        0.0750713           125.1
                               0               0                0               0        0.0750876         125.116          0.18878         52.6807
75.18                          0               0                0               0         0.354749         50.1138         0.914411        -40.4288
                               0               0                0               0         0.913181        -40.3895         0.354514         50.1527
                               0               0                0               0         0.188622         52.0447        0.0757035         123.794
                               0               0                0               0        0.0757165           123.8         0.188626         52.0473
75.225                         0               0                0               0         0.356361         49.3706         0.913443        -41.2463
                               0               0                0               0          0.91242        -41.2189         0.356166         49.4002
                               0               0                0               0         0.188504         51.3563        0.0763072         122.384
                               0               0                0               0        0.0763163          122.38         0.188508         51.3577
75.27                          0               0                0               0         0.357617           48.59         0.912446        -42.1238
                               0               0                0               0         0.911732        -42.1105         0.357504         48.6096
                               0               0                0               0          0.18843         50.6153        0.0768886         120.866
                               0               0                0               0        0.0768938         120.852         0.188435         50.6157
75.315                         0               0                0               0         0.358541         47.7651         0.911482        -43.0589
                               0               0                0               0          0.91113        -43.0595          0.35854         47.7759
                               0               0                0               0         0.188405         49.8257        0.0774548         119.237
                               0               0                0               0        0.0774564         119.212         0.188411         49.8253
75.36                          0               0                0               0         0.359166         46.8907         0.910602        -44.0489
                               0               0                0               0         0.910625        -44.0618         0.359291         46.8949
                               0               0                0               0         0.188427         48.9912        0.0780137         117.494
                               0               0                0               0         0.078012         117.459         0.188434         48.9902
75.405                         0               0                0               0         0.359527         45.9636         0.909845        -45.0907
                               0               0                0               0         0.910222        -45.1134         0.359779         45.9638
                               0               0                0               0         0.188494         48.1154        0.0785734         115.637
                               0               0                0               0         0.078569         115.594         0.188502          48.114
75.45                          0               0                0               0         0.359663         44.9819          0.90924        -46.1812
                               0               0                0               0         0.909924        -46.2108         0.360029         44.9807
                               0               0                0               0         0.188601         47.2014        0.0791415         113.667
                               0               0                0               0         0.079135         113.617         0.188609         47.1997
75.495                         0               0                0               0         0.359608         43.9456         0.908806         -47.317
                               0               0                0               0         0.909729        -47.3507         0.360067         43.9451
                               0               0                0               0         0.188739         46.2518        0.0797252         111.589
                               0               0                0               0        0.0797169         111.533         0.188748           46.25
75.54                          0               0                0               0         0.359396         42.8557         0.908552        -48.4951
                               0               0                0               0         0.909636        -48.5302         0.359918         42.8571
                               0               0                0               0         0.188899         45.2689        0.0803301         109.407
                               0               0                0               0        0.0803205         109.348         0.188908          45.267
75.585                         0               0                0               0         0.359055         41.7144          0.90848        -49.7125
                               0               0                0               0          0.90964        -49.7466         0.359606         41.7183
                               0               0                0               0         0.189071         44.2546        0.0809604         107.128
                               0               0                0               0        0.0809498         107.066          0.18908         44.2527
75.63                          0               0                0               0         0.358606         40.5247         0.908585        -50.9661
                               0               0                0               0         0.909734        -50.9976         0.359153         40.5309
                               0               0                0               0         0.189243         43.2103        0.0816181         104.759
                               0               0                0               0        0.0816068         104.697         0.189253         43.2086
75.675                         0               0                0               0         0.358068         39.2899         0.908857        -52.2533
                               0               0                0               0         0.909913        -52.2809         0.358577         39.2976
                               0               0                0               0         0.189404         42.1373        0.0823034          102.31
                               0               0                0               0        0.0822916         102.249         0.189413         42.1357
75.72                          0               0                0               0         0.357453         38.0138         0.909281        -53.5715
                               0               0                0               0         0.910168        -53.5945         0.357892         38.0219
                               0               0                0               0         0.189539         41.0366        0.0830142         99.7886
                               0               0                0               0        0.0830021         99.7312         0.189548         41.0352
75.765                         0               0                0               0         0.356768         36.7006         0.909838        -54.9185
                               0               0                0               0         0.910491        -54.9368         0.357111         36.7076
                               0               0                0               0         0.189637         39.9091        0.0837464         97.2055
                               0               0                0               0        0.0837345         97.1521         0.189645         39.9079
75.81                          0               0                0               0         0.356017         35.3541         0.910509        -56.2921
                               0               0                0               0         0.910875        -56.3059         0.356242         35.3586
                               0               0                0               0         0.189684         38.7555        0.0844939         94.5701
                               0               0                0               0        0.0844827         94.5216         0.189692         38.7545
75.855                         0               0                0               0           0.3552         33.9785         0.911268        -57.6903
                               0               0                0               0          0.91131        -57.7005          0.35529          33.979
                               0               0                0               0         0.189667         37.5765        0.0852494         91.8921
                               0               0                0               0        0.0852394         91.8489         0.189674         37.5758
75.9                           0               0                0               0         0.354316         32.5776         0.912092        -59.1115
                               0               0                0               0          0.91179        -59.1192          0.35426         32.5731
                               0               0                0               0         0.189572          36.373        0.0860038         89.1809
                               0               0                0               0        0.0859959          89.143         0.189578         36.3726
75.945                         0               0                0               0          0.35336         31.1554         0.912955         -60.554
                               0               0                0               0         0.912307        -60.5606         0.353153          31.145
                               0               0                0               0         0.189385         35.1459        0.0867477         86.4456
                               0               0                0               0        0.0867426         86.4127         0.189391         35.1457
75.99                          0               0                0               0         0.352325         29.7155         0.913833        -62.0164
                               0               0                0               0         0.912857        -62.0235         0.351968         29.6988
                               0               0                0               0         0.189094         33.8962        0.0874709         83.6949
                               0               0                0               0        0.0874694         83.6663           0.1891         33.8962
76.035                         0               0                0               0         0.351205         28.2615           0.9147        -63.4975
                               0               0                0               0         0.913436        -63.5069         0.350706         28.2385
                               0               0                0               0         0.188684          32.625        0.0881635         80.9373
                               0               0                0               0        0.0881661          80.912         0.188691         32.6253
76.08                          0               0                0               0         0.349989         26.7969         0.915533        -64.9962
                               0               0                0               0         0.914042        -65.0093         0.349364         26.7679
                               0               0                0               0         0.188145         31.3337        0.0888158         78.1809
                               0               0                0               0        0.0888228         78.1575         0.188151         31.3342
76.125                         0               0                0               0         0.348668         25.3251         0.916311        -66.5116
                               0               0                0               0         0.914675        -66.5296         0.347941         25.2908
                               0               0                0               0         0.187463         30.0239         0.089419         75.4334
                               0               0                0               0        0.0894301         75.4102          0.18747         30.0246
76.17                          0               0                0               0         0.347229         23.8492         0.917016        -68.0429
                               0               0                0               0          0.91534        -68.0662         0.346433         23.8107
                               0               0                0               0         0.186628         28.6971        0.0899657         72.7023
                               0               0                0               0        0.0899796         72.6777         0.186635          28.698
76.215                         0               0                0               0         0.345657         22.3723         0.917636        -69.5895
                               0               0                0               0         0.916042        -69.6174         0.344838         22.3311
                               0               0                0               0         0.185628         27.3552        0.0904499         69.9949
                               0               0                0               0        0.0904644         69.9671         0.185635         27.3562
76.26                          0               0                0               0          0.34393          20.897         0.918165        -71.1508
                               0               0                0               0         0.916787        -71.1811         0.343152         20.8553
                               0               0                0               0         0.184453         26.0001        0.0908678         67.3183
                               0               0                0               0        0.0908791         67.2858         0.184462         26.0012
76.305                         0               0                0               0         0.342018         19.4254         0.918607        -72.7265
                               0               0                0               0         0.917586        -72.7549          0.34137         19.3866
                               0               0                0               0         0.183096         24.6333         0.091218         64.6794
                               0               0                0               0        0.0912205         64.6412         0.183105         24.6344
76.35                          0               0                0               0         0.339876          17.958          0.91898        -74.3162
                               0               0                0               0         0.918443        -74.3355         0.339486         17.9281
                               0               0                0               0         0.181549         23.2561        0.0915019         62.0847
                               0               0                0               0        0.0914884         62.0412          0.18156         23.2572
76.395                         0               0                0               0         0.337428         16.4916         0.919319        -75.9188
                               0               0                0               0         0.919363        -75.9192         0.337487         16.4829
                               0               0                0               0         0.179806         21.8688        0.0917248         59.5405
                               0               0                0               0         0.091686         59.4938         0.179819         21.8696
76.44                          0               0                0               0         0.334551         15.0132         0.919681        -77.5328
                               0               0                0               0         0.920338        -77.5017         0.335358         15.0544
