! TOUCHSTONE file generated by CST MICROWAVE STUDIO
! Date and time: Sun Jun 20 22:37:36 2021
! Project name: HIPS_d_sweep.cst
! Parameters = {fmax=120; fmin=75; b=0.46; d=21.85; a=0.63; phi=0; theta=0}
! Header version: 2018
! Port assignment regex: !\s*Touchstone port\s*([0-9]+)\s*=\s*(CST MWS port|CST DS port)\s*([0-9]+|Zmin|Zmax)\s*\(\"(.*)\"\)(\s*mode\s*([0-9]+))?.*
! Touchstone port assignment:
! Touchstone port 1 = CST MWS port Zmin ("") mode 1
! Touchstone port 2 = CST MWS port Zmin ("") mode 2
! Touchstone port 3 = CST MWS port Zmax ("") mode 1
! Touchstone port 4 = CST MWS port Zmax ("") mode 2
! S-Parameters are not renormalized. Unphysical impedance of 0 will be written to the file.
# GHz S MA R 0
75                             0               0                0               0        0.0509267        -96.1686         0.983071         171.299
                               0               0                0               0          0.98312         171.286        0.0510159        -96.0461
                               0               0                0               0         0.176044         81.6182         0.016159         116.748
                               0               0                0               0        0.0161586         116.829         0.176041         81.6066
75.045                         0               0                0               0        0.0544728        -96.9587         0.982987         170.588
                               0               0                0               0         0.983054         170.574        0.0544627        -96.9996
                               0               0                0               0         0.177207          80.941         0.016569         118.499
                               0               0                0               0        0.0165852         118.441         0.177212         80.9384
75.09                          0               0                0               0        0.0577328        -97.8309         0.982717         169.802
                               0               0                0               0         0.982794         169.789        0.0576795        -97.9423
                               0               0                0               0         0.178502         80.1786        0.0170223         119.626
                               0               0                0               0        0.0170481         119.508         0.178509         80.1805
75.135                         0               0                0               0        0.0606766        -98.7668         0.982308         168.944
                               0               0                0               0         0.982391         168.931        0.0606191        -98.8883
                               0               0                0               0         0.179935         79.3347        0.0175177         120.166
                               0               0                0               0        0.0175476         120.039         0.179941         79.3377
75.18                          0               0                0               0        0.0632797        -99.7536         0.981803         168.014
                               0               0                0               0         0.981888             168        0.0632419        -99.8497
                               0               0                0               0         0.181509         78.4132        0.0180547         120.162
                               0               0                0               0        0.0180844         120.056         0.181512         78.4149
75.225                         0               0                0               0        0.0655244        -100.783         0.981239         167.012
                               0               0                0               0         0.981324         166.999         0.065518        -100.836
                               0               0                0               0         0.183222         77.4178         0.018633         119.663
                               0               0                0               0        0.0186597         119.593         0.183222          77.417
75.27                          0               0                0               0        0.0673997        -101.849         0.980644         165.941
                               0               0                0               0         0.980729         165.927        0.0674271        -101.854
                               0               0                0               0         0.185069         76.3521        0.0192523          118.72
                               0               0                0               0        0.0192744         118.687         0.185066         76.3482
75.315                         0               0                0               0        0.0689018        -102.949         0.980043         164.801
                               0               0                0               0          0.98013         164.788        0.0689593         -102.91
                               0               0                0               0         0.187039         75.2193        0.0199121         117.381
                               0               0                0               0         0.019929         117.382         0.187034         75.2124
75.36                          0               0                0               0        0.0700334         -104.08         0.979453         163.596
                               0               0                0               0         0.979543         163.583        0.0701141        -104.005
                               0               0                0               0         0.189121         74.0221         0.020611         115.697
                               0               0                0               0        0.0206231         115.721         0.189113         74.0127
75.405                         0               0                0               0        0.0708033        -105.241         0.978887         162.327
                               0               0                0               0         0.978982         162.314        0.0708992         -105.14
                               0               0                0               0         0.191298         72.7631         0.021347         113.712
                               0               0                0               0        0.0213551         113.749         0.191289         72.7519
75.45                          0               0                0               0        0.0712258         -106.43         0.978349         160.996
                               0               0                0               0         0.978452         160.983        0.0713295        -106.314
                               0               0                0               0         0.193553         71.4446        0.0221174         111.468
                               0               0                0               0        0.0221224         111.511         0.193541         71.4324
75.495                         0               0                0               0        0.0713194        -107.647         0.977843         159.607
                               0               0                0               0         0.977956         159.594         0.071425        -107.525
                               0               0                0               0         0.195863         70.0687        0.0229183         109.006
                               0               0                0               0        0.0229212         109.045         0.195851         70.0563
75.54                          0               0                0               0        0.0711059        -108.891         0.977366         158.163
                               0               0                0               0         0.977491          158.15        0.0712094        -108.768
                               0               0                0               0         0.198208         68.6374        0.0237454         106.359
                               0               0                0               0        0.0237468         106.391         0.198195         68.6253
75.585                         0               0                0               0        0.0706095         -110.16         0.976913         156.665
                               0               0                0               0         0.977052         156.652        0.0707087         -110.04
                               0               0                0               0         0.200564         67.1528        0.0245933         103.559
                               0               0                0               0        0.0245935         103.581          0.20055         67.1414
75.63                          0               0                0               0        0.0698553        -111.451         0.976476         155.117
                               0               0                0               0         0.976631         155.105        0.0699497        -111.335
                               0               0                0               0         0.202905         65.6172        0.0254566         100.634
                               0               0                0               0         0.025455         100.646          0.20289         65.6064
75.675                         0               0                0               0         0.068869        -112.763         0.976048         153.523
                               0               0                0               0         0.976219         153.511        0.0689587        -112.647
                               0               0                0               0         0.205207         64.0328         0.026329         97.6093
                               0               0                0               0        0.0263247         97.6136         0.205191         64.0225
75.72                          0               0                0               0        0.0676754        -114.091          0.97562         151.884
                               0               0                0               0         0.975807         151.874        0.0677611        -113.969
                               0               0                0               0         0.207444         62.4023        0.0272045         94.5064
                               0               0                0               0        0.0271962         94.5056         0.207427         62.3922
75.765                         0               0                0               0        0.0662983        -115.432         0.975186         150.206
                               0               0                0               0         0.975387         150.196        0.0663804        -115.297
                               0               0                0               0         0.209594         60.7287        0.0280768         91.3445
                               0               0                0               0        0.0280628         91.3423         0.209575         60.7181
75.81                          0               0                0               0        0.0647597         -116.78          0.97474          148.49
                               0               0                0               0         0.974955         148.481        0.0648376        -116.622
                               0               0                0               0         0.211632         59.0151        0.0289401         88.1404
                               0               0                0               0        0.0289188         88.1404         0.211611         59.0033
75.855                         0               0                0               0        0.0630792        -118.129         0.974282         146.741
                               0               0                0               0         0.974509         146.732        0.0631515         -117.94
                               0               0                0               0         0.213539          57.265        0.0297889         84.9086
                               0               0                0               0        0.0297586         84.9143         0.213514         57.2513
75.9                           0               0                0               0        0.0612743        -119.472         0.973814          144.96
                               0               0                0               0          0.97405         144.953        0.0613382        -119.244
                               0               0                0               0         0.215296         55.4818        0.0306181         81.6617
                               0               0                0               0        0.0305775         81.6757         0.215267         55.4657
75.945                         0               0                0               0        0.0593596        -120.803         0.973344         143.153
                               0               0                0               0         0.973587         143.147        0.0594114        -120.529
                               0               0                0               0         0.216888         53.6693        0.0314233         78.4105
                               0               0                0               0        0.0313719         78.4342         0.216854         53.6503
75.99                          0               0                0               0        0.0573473        -122.113         0.972884         141.322
                               0               0                0               0         0.973132         141.317        0.0573825        -121.789
                               0               0                0               0         0.218303         51.8311        0.0322007         75.1642
                               0               0                0               0        0.0321385         75.1977         0.218263         51.8092
76.035                         0               0                0               0        0.0552471        -123.394         0.972453         139.469
                               0               0                0               0         0.972704         139.466        0.0552612         -123.02
                               0               0                0               0         0.219531         49.9709        0.0329471         71.9305
                               0               0                0               0        0.0328749         71.9726         0.219485         49.9462
76.08                          0               0                0               0        0.0530661        -124.638         0.972074         137.599
                               0               0                0               0         0.972325         137.598        0.0530555        -124.219
                               0               0                0               0         0.220566         48.0921        0.0336596          68.716
                               0               0                0               0        0.0335794         68.7643         0.220514          48.065
76.125                         0               0                0               0        0.0508102         -125.84         0.971771         135.715
                               0               0                0               0          0.97202         135.714        0.0507735        -125.385
                               0               0                0               0         0.221404         46.1978         0.034336         65.5261
                               0               0                0               0        0.0342506         65.5771         0.221347         46.1692
76.17                          0               0                0               0        0.0484843        -126.993         0.971572         133.819
                               0               0                0               0         0.971818          133.82        0.0484233        -126.517
                               0               0                0               0         0.222041         44.2912        0.0349741         62.3655
                               0               0                0               0        0.0348871         62.4151         0.221981         44.2619
76.215                         0               0                0               0         0.046094        -128.096         0.971501         131.914
                               0               0                0               0         0.971741         131.916        0.0460149        -127.617
                               0               0                0               0         0.222477         42.3749        0.0355718         59.2381
                               0               0                0               0        0.0354875         59.2822         0.222417          42.346
76.26                          0               0                0               0        0.0436478        -129.153         0.971577         130.004
                               0               0                0               0         0.971808         130.007        0.0435609        -128.688
                               0               0                0               0         0.222708         40.4517        0.0361267         56.1474
                               0               0                0               0        0.0360498          56.182         0.222651          40.424
76.305                         0               0                0               0        0.0411592        -130.168          0.97181         128.091
                               0               0                0               0         0.972029         128.094         0.041078        -129.735
                               0               0                0               0         0.222733         38.5239        0.0366364         53.0965
                               0               0                0               0        0.0365712         53.1186          0.22268         38.4984
76.35                          0               0                0               0        0.0386492        -131.152         0.972193         126.179
                               0               0                0               0         0.972397         126.182         0.038587        -130.756
                               0               0                0               0         0.222544         36.5943        0.0370973         50.0884
                               0               0                0               0         0.037048         50.0961         0.222498         36.5712
76.395                         0               0                0               0        0.0361468        -132.107         0.972705         124.269
                               0               0                0               0         0.972889         124.272        0.0361127        -131.747
                               0               0                0               0         0.222136         34.6652        0.0375056         47.1262
                               0               0                0               0         0.037475         47.1187         0.222097         34.6447
76.44                          0               0                0               0        0.0336871        -133.026         0.973303         122.365
                               0               0                0               0         0.973463         122.368        0.0336821        -132.691
