! TOUCHSTONE file generated by CST MICROWAVE STUDIO
! Date and time: Sun Jun 20 22:37:20 2021
! Project name: HIPS_d_sweep.cst
! Parameters = {fmax=120; fmin=75; b=0.46; d=20.35; a=0.63; phi=0; theta=0}
! Header version: 2018
! Port assignment regex: !\s*Touchstone port\s*([0-9]+)\s*=\s*(CST MWS port|CST DS port)\s*([0-9]+|Zmin|Zmax)\s*\(\"(.*)\"\)(\s*mode\s*([0-9]+))?.*
! Touchstone port assignment:
! Touchstone port 1 = CST MWS port Zmin ("") mode 1
! Touchstone port 2 = CST MWS port Zmin ("") mode 2
! Touchstone port 3 = CST MWS port Zmax ("") mode 1
! Touchstone port 4 = CST MWS port Zmax ("") mode 2
! S-Parameters are not renormalized. Unphysical impedance of 0 will be written to the file.
# GHz S MA R 0
75                             0               0                0               0         0.151271         72.2097         0.969811        -18.4311
                               0               0                0               0         0.969504        -18.4391         0.151319         72.2193
                               0               0                0               0          0.18993         72.0108        0.0304755         145.307
                               0               0                0               0        0.0305847          145.39         0.189895         71.9731
75.045                         0               0                0               0         0.154715         71.5258          0.96926        -19.1058
                               0               0                0               0         0.969344        -19.1181         0.154536         71.5652
                               0               0                0               0         0.191965         71.6505        0.0315913         144.244
                               0               0                0               0        0.0310602           142.9         0.190199         71.4918
75.09                          0               0                0               0         0.157783         70.7958         0.968662        -19.8453
                               0               0                0               0         0.968967        -19.8595         0.157483         70.8467
                               0               0                0               0          0.19313         71.3659        0.0326245         143.206
                               0               0                0               0         0.031184         140.192         0.190719         70.8385
75.135                         0               0                0               0         0.160476          70.015         0.968043        -20.6497
                               0               0                0               0         0.968427        -20.6642          0.16014         70.0654
                               0               0                0               0          0.19311          70.877        0.0335424         142.131
                               0               0                0               0        0.0304399         137.947         0.191463         70.0588
75.18                          0               0                0               0         0.162795         69.1803         0.967421         -21.519
                               0               0                0               0         0.967777        -21.5328         0.162489         69.2231
                               0               0                0               0         0.192858         69.9491        0.0343259         140.939
                               0               0                0               0        0.0294324         139.859         0.192411         69.1839
75.225                         0               0                0               0         0.164749           68.29         0.966815        -22.4526
                               0               0                0               0         0.967063        -22.4652         0.164515         68.3218
                               0               0                0               0         0.193337         68.7513        0.0349792         139.543
                               0               0                0               0        0.0317671         141.992         0.193528         68.2342
75.27                          0               0                0               0         0.166347         67.3435         0.966239        -23.4499
                               0               0                0               0         0.966328        -23.4609         0.166211         67.3638
                               0               0                0               0         0.194494         67.5062        0.0355337         137.872
                               0               0                0               0         0.034128         139.609          0.19478         67.2228
75.315                         0               0                0               0         0.167603         66.3415         0.965701        -24.5099
                               0               0                0               0         0.965609        -24.5192         0.167572         66.3512
                               0               0                0               0          0.19599         66.2837        0.0360401         135.894
                               0               0                0               0        0.0355792         136.575         0.196136         66.1578
75.36                          0               0                0               0          0.16853         65.2853         0.965209        -25.6311
                               0               0                0               0         0.964935        -25.6389           0.1686         65.2865
                               0               0                0               0         0.197608         65.0794        0.0365522         133.621
                               0               0                0               0        0.0366404         133.662         0.197567          65.044
75.405                         0               0                0               0         0.169144         64.1771         0.964766         -26.812
                               0               0                0               0         0.964331        -26.8183         0.169298         64.1721
                               0               0                0               0         0.199243         63.8754        0.0371122         131.102
                               0               0                0               0        0.0375371         130.853         0.199048         63.8846
75.45                          0               0                0               0         0.169462         63.0193         0.964373        -28.0508
                               0               0                0               0         0.963813        -28.0559         0.169678         63.0107
                               0               0                0               0          0.20085         62.6559         0.037743         128.399
                               0               0                0               0        0.0383526         128.086         0.200557         62.6811
75.495                         0               0                0               0         0.169501         61.8148         0.964029        -29.3453
                               0               0                0               0         0.963392        -29.3494         0.169753         61.8048
                               0               0                0               0         0.202409         61.4102        0.0384486         125.572
                               0               0                0               0        0.0391215         125.315         0.202074         61.4347
75.54                          0               0                0               0         0.169278         60.5667         0.963731        -30.6931
                               0               0                0               0          0.96307        -30.6966         0.169538         60.5568
                               0               0                0               0          0.20391         60.1307        0.0392197         122.669
                               0               0                0               0        0.0398602         122.513         0.203581         60.1458
75.585                         0               0                0               0         0.168809         59.2781         0.963475        -32.0916
                               0               0                0               0         0.962847        -32.0951         0.169052         59.2694
                               0               0                0               0         0.205348         58.8128        0.0400395          119.72
                               0               0                0               0        0.0405782         119.661         0.205063         58.8148
75.63                          0               0                0               0         0.168112         57.9521         0.963257         -33.538
                               0               0                0               0         0.962716        -33.5421         0.168316         57.9448
                               0               0                0               0          0.20672         57.4535        0.0408888         116.741
                               0               0                0               0         0.041282          116.75         0.206504         57.4421
75.675                         0               0                0               0         0.167203         56.5915         0.963073        -35.0293
                               0               0                0               0         0.962665        -35.0347         0.167351         56.5856
                               0               0                0               0         0.208023         56.0513        0.0417487         113.738
                               0               0                0               0        0.0419763         113.774          0.20789         56.0282
75.72                          0               0                0               0           0.1661         55.1991          0.96292        -36.5624
                               0               0                0               0         0.962681        -36.5698          0.16618         55.1937
                               0               0                0               0         0.209253         54.6059        0.0426028         110.709
                               0               0                0               0        0.0426654         110.732         0.209209         54.5737
75.765                         0               0                0               0         0.164817         53.7774         0.962797        -38.1339
                               0               0                0               0         0.962749        -38.1442         0.164826         53.7715
                               0               0                0               0         0.210407         53.1178        0.0434381          107.65
                               0               0                0               0        0.0433529         107.626         0.210447         53.0795
75.81                          0               0                0               0         0.163371         52.3285         0.962702        -39.7406
                               0               0                0               0         0.962852        -39.7545          0.16331         52.3208
                               0               0                0               0         0.211481         51.5884        0.0442453         104.554
                               0               0                0               0        0.0440419         104.461         0.211595         51.5469
75.855                         0               0                0               0         0.161778         50.8542          0.96264        -41.3791
                               0               0                0               0         0.962975        -41.3971         0.161653         50.8434
                               0               0                0               0         0.212467         50.0197        0.0450195         101.415
                               0               0                0               0        0.0447343         101.246         0.212639         49.9775
75.9                           0               0                0               0         0.160053         49.3561         0.962612        -43.0462
                               0               0                0               0         0.963107        -43.0683         0.159877         49.3411
                               0               0                0               0         0.213357         48.4143        0.0457594         98.2293
                               0               0                0               0        0.0454313         97.9897          0.21357         48.3732
75.945                         0               0                0               0         0.158212         47.8353         0.962626        -44.7383
                               0               0                0               0          0.96324        -44.7645            0.158         47.8155
                               0               0                0               0         0.214143         46.7754        0.0464673         94.9969
                               0               0                0               0        0.0461326         94.7033         0.214378         46.7365
75.99                          0               0                0               0          0.15627         46.2929         0.962687        -46.4525
                               0               0                0               0         0.963369         -46.482          0.15604         46.2682
                               0               0                0               0         0.214813         45.1062        0.0471476         91.7224
                               0               0                0               0        0.0468365         91.3989         0.215051         45.0701
76.035                         0               0                0               0         0.154243         44.7298         0.962804        -48.1854
                               0               0                0               0         0.963499        -48.2171         0.154014         44.7006
                               0               0                0               0         0.215356         43.4104        0.0478058          88.415
                               0               0                0               0        0.0475398         88.0888          0.21558          43.377
76.08                          0               0                0               0         0.152147         43.1466         0.962985        -49.9342
                               0               0                0               0         0.963636        -49.9667         0.151935         43.1141
                               0               0                0               0         0.215757         41.6919        0.0484469         85.0882
                               0               0                0               0        0.0482381         84.7849         0.215954         41.6608
76.125                         0               0                0               0         0.149998         41.5444         0.963234        -51.6958
                               0               0                0               0         0.963793        -51.7275         0.149818         41.5104
                               0               0                0               0         0.216003         39.9545        0.0490739         81.7586
                               0               0                0               0        0.0489255         81.4986         0.216165          39.925
76.17                          0               0                0               0         0.147812         39.9242         0.963558        -53.4677
                               0               0                0               0         0.963986        -53.4969         0.147675         39.8909
                               0               0                0               0          0.21608         38.2019        0.0496871         78.4441
                               0               0                0               0        0.0495953         78.2402         0.216201         38.1735
76.215                         0               0                0               0         0.145605         38.2879         0.963955        -55.2472
                               0               0                0               0         0.964231        -55.2725         0.145516         38.2575
                               0               0                0               0         0.215975         36.4381         0.050284          75.162
                               0               0                0               0        0.0502402         75.0188         0.216054           36.41
76.26                          0               0                0               0         0.143391         36.6377         0.964422        -57.0317
                               0               0                0               0         0.964541        -57.0524         0.143352         36.6123
                               0               0                0               0         0.215674         34.6668        0.0508591          71.928
                               0               0                0               0        0.0508527         71.8419         0.215715         34.6386
76.305                         0               0                0               0         0.141187         34.9768          0.96495        -58.8189
                               0               0                0               0         0.964925        -58.8348         0.141191         34.9578
                               0               0                0               0         0.215165         32.8915        0.0514053         68.7543
                               0               0                0               0        0.0514253         68.7158         0.215174          32.863
76.35                          0               0                0               0         0.139004         33.3092         0.965521        -60.6065
                               0               0                0               0         0.965381        -60.6182         0.139042         33.2968
                               0               0                0               0         0.214438         31.1157        0.0519143         65.6498
                               0               0                0               0        0.0519508         65.6456         0.214424         31.0869
76.395                         0               0                0               0         0.136854           31.64         0.966113        -62.3922
                               0               0                0               0         0.965899        -62.4012         0.136912         31.6329
                               0               0                0               0         0.213486         29.3428        0.0523781           62.62
                               0               0                0               0        0.0524229         62.6349         0.213458         29.3139
76.44                          0               0                0               0         0.134746         29.9752         0.966694        -64.1741
                               0               0                0               0         0.966455        -64.1821         0.134808         29.9707
