! TOUCHSTONE file generated by CST MICROWAVE STUDIO
! Date and time: Sun Jun 20 22:37:03 2021
! Project name: HIPS_d_sweep.cst
! Parameters = {fmax=120; fmin=75; b=0.46; d=18.25; a=0.63; phi=0; theta=0}
! Header version: 2018
! Port assignment regex: !\s*Touchstone port\s*([0-9]+)\s*=\s*(CST MWS port|CST DS port)\s*([0-9]+|Zmin|Zmax)\s*\(\"(.*)\"\)(\s*mode\s*([0-9]+))?.*
! Touchstone port assignment:
! Touchstone port 1 = CST MWS port Zmin ("") mode 1
! Touchstone port 2 = CST MWS port Zmin ("") mode 2
! Touchstone port 3 = CST MWS port Zmax ("") mode 1
! Touchstone port 4 = CST MWS port Zmax ("") mode 2
! S-Parameters are not renormalized. Unphysical impedance of 0 will be written to the file.
# GHz S MA R 0
75                             0               0                0               0         0.309566         -49.478         0.947619         -139.42
                               0               0                0               0         0.947554        -139.432         0.309592        -49.4441
                               0               0                0               0        0.0245218          42.322        0.0752219        -49.7985
                               0               0                0               0        0.0752027        -49.7769        0.0245117         42.2949
75.045                         0               0                0               0         0.313068        -50.2842         0.948208        -140.004
                               0               0                0               0         0.948093        -140.024          0.31295        -50.2046
                               0               0                0               0        0.0248115         46.7186        0.0753926        -50.8389
                               0               0                0               0        0.0752982        -50.9067         0.024735         46.5391
75.09                          0               0                0               0         0.316093        -51.0633         0.947957        -140.663
                               0               0                0               0         0.947832        -140.686         0.315861        -50.9656
                               0               0                0               0        0.0252888         51.0178        0.0754393         -52.017
                               0               0                0               0        0.0753121        -52.1344        0.0251641         50.7383
75.135                         0               0                0               0         0.318577        -51.8369         0.947113        -141.401
                               0               0                0               0         0.946994        -141.425         0.318294        -51.7421
                               0               0                0               0        0.0259634          55.144        0.0753709        -53.3344
                               0               0                0               0        0.0752438        -53.4656        0.0258159         54.8205
75.18                          0               0                0               0         0.320499         -52.628         0.945903        -142.218
                               0               0                0               0         0.945792        -142.239         0.320243        -52.5489
                               0               0                0               0        0.0268448          59.025        0.0751958        -54.7915
                               0               0                0               0        0.0750933        -54.9059        0.0267072         58.7203
75.225                         0               0                0               0         0.321878        -53.4574         0.944523        -143.111
                               0               0                0               0         0.944413        -143.127         0.321724        -53.3992
                               0               0                0               0        0.0279448         62.5975        0.0749216        -56.3873
                               0               0                0               0        0.0748606        -56.4602        0.0278551         62.3865
75.27                          0               0                0               0         0.322764        -54.3424         0.943133        -144.075
                               0               0                0               0         0.943016        -144.086         0.322768        -54.3041
                               0               0                0               0        0.0292816         65.8112        0.0745552        -58.1201
                               0               0                0               0        0.0745457        -58.1332        0.0292783         65.7886
75.315                         0               0                0               0         0.323228        -55.2949         0.941854        -145.104
                               0               0                0               0         0.941721         -145.11          0.32342        -55.2716
                               0               0                0               0        0.0308858          68.636        0.0741026        -59.9875
                               0               0                0               0         0.074149        -59.9293         0.030996         68.9211
75.36                          0               0                0               0         0.323349        -56.3218         0.940772        -146.193
                               0               0                0               0         0.940618        -146.194         0.323732        -56.3071
                               0               0                0               0        0.0328069         71.0745        0.0735692        -61.9864
                               0               0                0               0        0.0736709        -61.8522        0.0330263          71.804
75.405                         0               0                0               0         0.323205        -57.4253         0.939942        -147.335
                               0               0                0               0         0.939766        -147.331         0.323757        -57.4127
                               0               0                0               0        0.0351183         73.1834        0.0729599        -64.1133
                               0               0                0               0        0.0731122        -63.9053        0.0353813         74.4784
75.45                          0               0                0               0         0.322864        -58.6039         0.939396        -148.524
                               0               0                0               0         0.939199        -148.517         0.323543        -58.5882
                               0               0                0               0        0.0379071         75.1013        0.0722792        -66.3644
                               0               0                0               0        0.0724735        -66.0913        0.0380597         76.9956
75.495                         0               0                0               0         0.322379        -59.8533         0.939142        -149.756
                               0               0                0               0         0.938931        -149.746         0.323135        -59.8313
                               0               0                0               0        0.0412285         77.0541        0.0715312        -68.7358
                               0               0                0               0        0.0717562        -68.4125        0.0410407         79.4017
75.54                          0               0                0               0         0.321793         -61.168         0.939177        -151.024
                               0               0                0               0         0.938959        -151.013         0.322567        -61.1383
                               0               0                0               0         0.045019         79.2821        0.0707199        -71.2237
                               0               0                0               0        0.0709617        -70.8705        0.0442815         81.7228
75.585                         0               0                0               0         0.321131        -62.5413         0.939483        -152.326
                               0               0                0               0         0.939268        -152.314         0.321868        -62.5044
                               0               0                0               0        0.0490388         81.8764        0.0698494        -73.8239
                               0               0                0               0        0.0700922        -73.4661        0.0477224         83.9563
75.63                          0               0                0               0         0.320411        -63.9663         0.940035        -153.658
                               0               0                0               0         0.939834        -153.646         0.321058        -63.9241
                               0               0                0               0         0.052963         84.6692        0.0689237        -76.5328
                               0               0                0               0        0.0691505        -76.1995        0.0512976         86.0738
75.675                         0               0                0               0          0.31964        -65.4364           0.9408        -155.017
                               0               0                0               0         0.940624        -155.006         0.320148        -65.3917
                               0               0                0               0        0.0565795         87.3387        0.0679471        -79.3471
                               0               0                0               0        0.0681403        -79.0702        0.0549475          88.033
75.72                          0               0                0               0         0.318818        -66.9446         0.941739          -156.4
                               0               0                0               0         0.941601        -156.391         0.319146        -66.9011
                               0               0                0               0        0.0598736          89.616        0.0669237        -82.2637
                               0               0                0               0        0.0670661        -82.0766        0.0586251         89.7909
75.765                         0               0                0               0         0.317941        -68.4846         0.942811        -157.805
                               0               0                0               0         0.942722        -157.799         0.318054        -68.4464
                               0               0                0               0         0.062949         91.3766        0.0658581        -85.2802
                               0               0                0               0        0.0659337        -85.2164        0.0622959         91.3123
75.81                          0               0                0               0         0.316999        -70.0498         0.943969        -159.232
                               0               0                0               0          0.94394        -159.228         0.316869        -70.0215
                               0               0                0               0        0.0659251          92.604        0.0647551        -88.3952
                               0               0                0               0        0.0647502        -88.4863        0.0659319         92.5721
75.855                         0               0                0               0          0.31598        -71.6339         0.945161        -160.678
                               0               0                0               0         0.945203        -160.677         0.315588        -71.6204
                               0               0                0               0        0.0688954         93.3242        0.0636194        -91.6081
                               0               0                0               0        0.0635242        -91.8821        0.0695045         93.5505
75.9                           0               0                0               0          0.31487        -73.2299         0.946332        -162.142
                               0               0                0               0         0.946454        -162.145         0.314201         -73.237
                               0               0                0               0        0.0719348         93.5666         0.062456        -94.9194
                               0               0                0               0        0.0622656        -95.3985        0.0729787         94.2239
75.945                         0               0                0               0          0.31365        -74.8306         0.947418        -163.625
                               0               0                0               0         0.947631        -163.631           0.3127         -74.865
                               0               0                0               0        0.0751267         93.3529        0.0612703        -98.3315
                               0               0                0               0         0.060986        -99.0292         0.076316         94.5502
75.99                          0               0                0               0         0.312297        -76.4277         0.948351        -165.126
                               0               0                0               0         0.948663        -165.135         0.311072        -76.4978
                               0               0                0               0        0.0785942         92.7105         0.060068        -101.848
                               0               0                0               0        0.0596985        -102.767         0.079498         94.4508
76.035                         0               0                0               0         0.310777        -78.0118         0.949054        -166.647
                               0               0                0               0         0.949472        -166.658         0.309301        -78.1282
                               0               0                0               0        0.0825134         91.7061        0.0588556        -105.475
                               0               0                0               0        0.0584176        -106.603        0.0826025         93.8003
76.08                          0               0                0               0          0.30904        -79.5721         0.949442         -168.19
                               0               0                0               0          0.94997        -168.202         0.307364        -79.7484
                               0               0                0               0        0.0870755         90.4803        0.0576408         -109.22
                               0               0                0               0        0.0571592         -110.53        0.0859549         92.4818
76.125                         0               0                0               0         0.307001        -81.0973         0.949433        -169.759
                               0               0                0               0         0.950068         -169.77         0.305225        -81.3497
                               0               0                0               0        0.0923742         89.2409        0.0564338        -113.094
                               0               0                0               0        0.0559401        -114.536        0.0902117         90.5986
76.17                          0               0                0               0         0.304519        -82.5801         0.948964        -171.363
                               0               0                0               0         0.949689        -171.371         0.302825        -82.9236
                               0               0                0               0         0.098292         88.1762        0.0552478        -117.108
                               0               0                0               0        0.0547778        -118.612        0.0959175         88.6764
76.215                         0               0                0               0         0.301377        -84.0291         0.948047        -173.016
                               0               0                0               0         0.948817        -173.017         0.300062        -84.4646
                               0               0                0               0         0.104524          87.354        0.0541007        -121.272
                               0               0                0               0        0.0536896        -122.748         0.102732         87.2878
76.26                          0               0                0               0         0.297334        -85.4947          0.94686        -174.733
                               0               0                0               0         0.947595        -174.726         0.296778        -85.9792
                               0               0                0               0         0.110741         86.7116        0.0530153        -125.592
                               0               0                0               0        0.0526922        -126.938         0.109715         86.4773
76.305                         0               0                0               0         0.292401        -87.0914         0.945862        -176.527
                               0               0                0               0         0.946454        -176.513         0.292785        -87.5087
                               0               0                0               0          0.11673         86.1319        0.0520188        -130.066
                               0               0                0               0           0.0518        -131.174         0.116256         85.9357
76.35                          0               0                0               0         0.287242        -88.9342         0.945751        -178.386
                               0               0                0               0         0.946122        -178.371         0.288099        -89.1525
                               0               0                0               0         0.122412         85.5149        0.0511388        -134.676
                               0               0                0               0        0.0510235        -135.454         0.122238         85.4007
76.395                         0               0                0               0         0.282877        -90.9801         0.947049         179.739
                               0               0                0               0         0.947221         179.748          0.28335         -91.014
                               0               0                0               0         0.127786         84.8013        0.0503967        -139.386
                               0               0                0               0        0.0503673        -139.777          0.12775         84.7513
76.44                          0               0                0               0          0.27965        -93.0399         0.949551         177.913
                               0               0                0               0         0.949621         177.911         0.279513        -93.0308
