! TOUCHSTONE file generated by CST MICROWAVE STUDIO
! Date and time: Sun Jun 20 22:36:59 2021
! Project name: HIPS_d_sweep.cst
! Parameters = {fmax=120; fmin=75; b=0.46; d=17.75; a=0.63; phi=0; theta=0}
! Header version: 2018
! Port assignment regex: !\s*Touchstone port\s*([0-9]+)\s*=\s*(CST MWS port|CST DS port)\s*([0-9]+|Zmin|Zmax)\s*\(\"(.*)\"\)(\s*mode\s*([0-9]+))?.*
! Touchstone port assignment:
! Touchstone port 1 = CST MWS port Zmin ("") mode 1
! Touchstone port 2 = CST MWS port Zmin ("") mode 2
! Touchstone port 3 = CST MWS port Zmax ("") mode 1
! Touchstone port 4 = CST MWS port Zmax ("") mode 2
! S-Parameters are not renormalized. Unphysical impedance of 0 will be written to the file.
# GHz S MA R 0
75                             0               0                0               0         0.329559         9.90092         0.924621        -82.6159
                               0               0                0               0         0.924586        -82.6168           0.3296         9.90161
                               0               0                0               0         0.166616         16.5755        0.0933956          46.601
                               0               0                0               0        0.0933849         46.6042           0.1666         16.5827
75.045                         0               0                0               0         0.332704         9.26819          0.92368        -83.2163
                               0               0                0               0         0.923681        -83.2173         0.332665         9.28575
                               0               0                0               0         0.165162         16.2204        0.0938457         45.8023
                               0               0                0               0        0.0939196         45.8087         0.165143         16.2266
75.09                          0               0                0               0         0.335546         8.58777         0.922875        -83.8775
                               0               0                0               0         0.922878        -83.8783         0.335499         8.60605
                               0               0                0               0         0.163645         15.8111        0.0942828         44.9029
                               0               0                0               0        0.0943719         44.9128         0.163626         15.8174
75.135                         0               0                0               0         0.338091         7.85574         0.922195        -84.5981
                               0               0                0               0         0.922182        -84.5986          0.33808         7.86582
                               0               0                0               0         0.162062         15.3485        0.0947017         43.8978
                               0               0                0               0        0.0947543         43.9081         0.162043         15.3556
75.18                          0               0                0               0          0.34035         7.06911         0.921629        -85.3767
                               0               0                0               0         0.921592        -85.3769         0.340393         7.06776
                               0               0                0               0         0.160408         14.8339        0.0950965         42.7844
                               0               0                0               0         0.095083         42.7891         0.160391         14.8419
75.225                         0               0                0               0         0.342335         6.22584         0.921169         -86.212
                               0               0                0               0          0.92111         -86.212         0.342434          6.2139
                               0               0                0               0         0.158678         14.2685        0.0954619          41.562
                               0               0                0               0        0.0953768          41.554         0.158663         14.2774
75.27                          0               0                0               0         0.344061         5.32486         0.920811        -87.1026
                               0               0                0               0         0.920735        -87.1026         0.344203         5.30573
                               0               0                0               0         0.156866         13.6538        0.0957934         40.2317
                               0               0                0               0        0.0956546         40.2062         0.156852         13.6633
75.315                         0               0                0               0         0.345541         4.36606         0.920549        -88.0475
                               0               0                0               0         0.920467        -88.0473         0.345705         4.34436
                               0               0                0               0         0.154968         12.9913        0.0960875          38.796
                               0               0                0               0        0.0959306         38.7549         0.154954         13.0012
75.36                          0               0                0               0         0.346789         3.35021         0.920383        -89.0452
                               0               0                0               0         0.920304        -89.0449         0.346947         3.33061
                               0               0                0               0         0.152976         12.2828         0.096342         37.2584
                               0               0                0               0        0.0962078         37.2133         0.152962         12.2928
75.405                         0               0                0               0         0.347818         2.27884         0.920311        -90.0944
                               0               0                0               0         0.920245        -90.0938         0.347938         2.26523
                               0               0                0               0         0.150884         11.5305        0.0965557          35.623
                               0               0                0               0        0.0964745         35.5937          0.15087         11.5403
75.45                          0               0                0               0         0.348637         1.15419         0.920334        -91.1936
                               0               0                0               0         0.920288        -91.1926          0.34869         1.14899
                               0               0                0               0         0.148688         10.7363        0.0967279         33.8942
                               0               0                0               0         0.096709         33.9015         0.148672         10.7458
75.495                         0               0                0               0         0.349252      -0.0210333         0.920453        -92.3413
                               0               0                0               0         0.920432        -92.3397         0.349214      -0.0172476
                               0               0                0               0         0.146382         9.90279        0.0968586         32.0766
                               0               0                0               0        0.0968903         32.1339         0.146363          9.9119
75.54                          0               0                0               0         0.349666        -1.24383         0.920669        -93.5357
                               0               0                0               0         0.920675        -93.5334         0.349521        -1.23241
                               0               0                0               0         0.143959         9.03256        0.0969478         30.1748
                               0               0                0               0        0.0970075         30.2833         0.143939         9.04135
75.585                         0               0                0               0         0.349877        -2.51117         0.920984        -94.7749
                               0               0                0               0         0.921014        -94.7717         0.349623        -2.49521
                               0               0                0               0         0.141416         8.12849        0.0969954         28.1932
                               0               0                0               0        0.0970607         28.3429         0.141394         8.13709
75.63                          0               0                0               0         0.349882        -3.82037         0.921398        -96.0568
                               0               0                0               0         0.921446        -96.0528         0.349533        -3.80408
                               0               0                0               0         0.138749         7.19369        0.0970008         26.1362
                               0               0                0               0        0.0970565         26.3104         0.138725         7.20231
75.675                         0               0                0               0         0.349672        -5.16935         0.921911        -97.3792
                               0               0                0               0         0.921967        -97.3745          0.34926        -5.15721
                               0               0                0               0         0.135953         6.23157        0.0969631         24.0081
                               0               0                0               0        0.0970019         24.1878         0.135928         6.24048
75.72                          0               0                0               0         0.349242        -6.55697          0.92252        -98.7396
                               0               0                0               0         0.922575        -98.7345         0.348817         -6.5525
                               0               0                0               0         0.133025         5.24585         0.096881         21.8132
                               0               0                0               0        0.0969019         21.9806            0.133         5.25537
75.765                         0               0                0               0         0.348592        -7.98307         0.923223        -100.135
                               0               0                0               0         0.923264         -100.13         0.348211        -7.98764
                               0               0                0               0         0.129963         4.24059        0.0967526         19.5557
                               0               0                0               0        0.0967584         19.6959          0.12994         4.25105
75.81                          0               0                0               0         0.347729         -9.4481         0.924014        -101.564
                               0               0                0               0         0.924028         -101.56         0.347454        -9.46009
                               0               0                0               0         0.126766         3.22026        0.0965757         17.2395
                               0               0                0               0        0.0965708         17.3416         0.126744         3.23202
75.855                         0               0                0               0         0.346672        -10.9524         0.924885        -103.023
                               0               0                0               0         0.924863        -103.019         0.346553        -10.9671
                               0               0                0               0         0.123433         2.18978        0.0963478         14.8689
                               0               0                0               0        0.0963364         14.9259         0.123413         2.20324
75.9                           0               0                0               0         0.345451        -12.4951         0.925828         -104.51
                               0               0                0               0          0.92576        -104.507         0.345516        -12.5059
                               0               0                0               0         0.119964         1.15468        0.0960663          12.448
                               0               0                0               0        0.0960518         12.4569         0.119947         1.17021
75.945                         0               0                0               0         0.344101        -14.0737         0.926832         -106.02
                               0               0                0               0         0.926713         -106.02         0.344351        -14.0735
                               0               0                0               0         0.116359        0.121101        0.0957286         9.98085
                               0               0                0               0        0.0957131         9.94249         0.116346         0.13908
75.99                          0               0                0               0         0.342655        -15.6835         0.927884        -107.553
                               0               0                0               0         0.927714        -107.555         0.343066        -15.6669
                               0               0                0               0         0.112622       -0.903987        0.0953325         7.47157
                               0               0                0               0         0.095317         7.39011         0.112612       -0.883245
76.035                         0               0                0               0          0.34114        -17.3186         0.928972        -109.105
                               0               0                0               0         0.928753        -109.109         0.341668        -17.2831
                               0               0                0               0         0.108755        -1.91271        0.0948761         4.92428
                               0               0                0               0        0.0948607         4.80686          0.10875        -1.88897
76.08                          0               0                0               0         0.339574        -18.9723         0.930084        -110.673
                               0               0                0               0         0.929824         -110.68         0.340165        -18.9192
                               0               0                0               0         0.104763        -2.89613        0.0943582         2.34305
                               0               0                0               0        0.0943427         2.19933         0.104763        -2.86929
76.125                         0               0                0               0         0.337965        -20.6385         0.931208        -112.254
                               0               0                0               0         0.930918        -112.263         0.338565        -20.5724
                               0               0                0               0         0.100654        -3.84405        0.0937784       -0.268069
                               0               0                0               0        0.0937627       -0.426487         0.100657        -3.81419
76.17                          0               0                0               0         0.336317         -22.312         0.932333        -113.847
                               0               0                0               0         0.932029        -113.857         0.336877        -22.2398
                               0               0                0               0        0.0964346        -4.74485        0.0931372        -2.90516
                               0               0                0               0        0.0931219        -3.06532        0.0964405        -4.71228
76.215                         0               0                0               0         0.334629         -23.989          0.93345        -115.448
                               0               0                0               0         0.933152        -115.459         0.335112         -23.919
                               0               0                0               0         0.092115        -5.58533        0.0924365        -5.56439
                               0               0                0               0        0.0924232        -5.71282        0.0921224        -5.55061
76.26                          0               0                0               0           0.3329        -25.6666         0.934557        -117.056
                               0               0                0               0         0.934282        -117.066         0.333282        -25.6074
                               0               0                0               0         0.087707        -6.35044        0.0916793        -8.24211
                               0               0                0               0        0.0916705        -8.36573        0.0877137        -6.31434
76.305                         0               0                0               0         0.331133        -27.3436          0.93565        -118.668
                               0               0                0               0          0.93542        -118.676           0.3314        -27.3026
                               0               0                0               0         0.083224        -7.02304        0.0908699        -10.9348
                               0               0                0               0        0.0908692         -11.022        0.0832272        -6.98647
76.35                          0               0                0               0         0.329329        -29.0194         0.936735        -120.281
                               0               0                0               0         0.936566        -120.286         0.329482        -29.0025
                               0               0                0               0        0.0786808        -7.58354        0.0900142         -13.639
                               0               0                0               0        0.0900251        -13.6812        0.0786774        -7.54734
76.395                         0               0                0               0         0.327494        -30.6947         0.937819        -121.894
                               0               0                0               0         0.937723        -121.894         0.327545        -30.7045
                               0               0                0               0        0.0740935        -8.00926        0.0891188        -16.3516
                               0               0                0               0        0.0891444        -16.3442        0.0740806        -7.97392
76.44                          0               0                0               0         0.325635        -32.3706         0.938912        -123.504
                               0               0                0               0         0.938891        -123.499         0.325606        -32.4061
