! TOUCHSTONE file generated by CST MICROWAVE STUDIO
! Date and time: Sun Jun 20 22:37:22 2021
! Project name: HIPS_d_sweep.cst
! Parameters = {fmax=120; fmin=75; b=0.46; d=20.5; a=0.63; phi=0; theta=0}
! Header version: 2018
! Port assignment regex: !\s*Touchstone port\s*([0-9]+)\s*=\s*(CST MWS port|CST DS port)\s*([0-9]+|Zmin|Zmax)\s*\(\"(.*)\"\)(\s*mode\s*([0-9]+))?.*
! Touchstone port assignment:
! Touchstone port 1 = CST MWS port Zmin ("") mode 1
! Touchstone port 2 = CST MWS port Zmin ("") mode 2
! Touchstone port 3 = CST MWS port Zmax ("") mode 1
! Touchstone port 4 = CST MWS port Zmax ("") mode 2
! S-Parameters are not renormalized. Unphysical impedance of 0 will be written to the file.
# GHz S MA R 0
75                             0               0                0               0          0.14016         57.1085         0.966122        -35.1812
                               0               0                0               0         0.965993         -35.187         0.140322         57.0695
                               0               0                0               0         0.213587         55.8135        0.0396299         105.924
                               0               0                0               0        0.0395852         105.919         0.213573         55.7881
75.045                         0               0                0               0         0.143634         56.4054         0.965691        -35.8481
                               0               0                0               0         0.965548        -35.8562         0.143806         56.3661
                               0               0                0               0         0.213478         55.1889        0.0404055         105.704
                               0               0                0               0        0.0403556         105.729         0.213473         55.1597
75.09                          0               0                0               0         0.146767          55.652          0.96522        -36.5842
                               0               0                0               0         0.965072        -36.5929         0.146944         55.6134
                               0               0                0               0         0.213444         54.4927        0.0411755         105.219
                               0               0                0               0         0.041124          105.25         0.213441         54.4625
75.135                         0               0                0               0         0.149557         54.8469         0.964738        -37.3884
                               0               0                0               0         0.964591        -37.3967         0.149734         54.8094
                               0               0                0               0         0.213479         53.7278        0.0419428          104.49
                               0               0                0               0        0.0418922         104.515         0.213474         53.6981
75.18                          0               0                0               0         0.152001         53.9891         0.964269        -38.2596
                               0               0                0               0         0.964126         -38.267         0.152178         53.9529
                               0               0                0               0         0.213575         52.8964         0.042709         103.536
                               0               0                0               0        0.0426607         103.549         0.213566         52.8681
75.225                         0               0                0               0         0.154103         53.0783         0.963831        -39.1965
                               0               0                0               0         0.963691        -39.2029          0.15428         53.0433
                               0               0                0               0         0.213723         52.0007        0.0434747         102.373
                               0               0                0               0        0.0434291         102.375         0.213709         51.9739
75.27                          0               0                0               0         0.155869         52.1144         0.963437        -40.1976
                               0               0                0               0           0.9633         -40.203         0.156045         52.0804
                               0               0                0               0         0.213911         51.0426        0.0442398         101.017
                               0               0                0               0        0.0441968         101.011         0.213893         51.0171
75.315                         0               0                0               0         0.157307         51.0978         0.963097        -41.2614
                               0               0                0               0         0.962962        -41.2662         0.157484         51.0648
                               0               0                0               0         0.214128         50.0237        0.0450034         99.4842
                               0               0                0               0        0.0449623         99.4726         0.214107         49.9991
75.36                          0               0                0               0         0.158428         50.0295         0.962815        -42.3861
                               0               0                0               0         0.962681        -42.3906         0.158607         49.9971
                               0               0                0               0          0.21436         48.9455         0.045764         97.7869
                               0               0                0               0         0.045724         97.7733         0.214336         48.9214
75.405                         0               0                0               0         0.159244         48.9105         0.962595        -43.5699
                               0               0                0               0          0.96246        -43.5745         0.159426         48.8786
                               0               0                0               0         0.214591         47.8096        0.0465199         95.9381
                               0               0                0               0        0.0464801         95.9253         0.214567         47.7853
75.45                          0               0                0               0          0.15977         47.7422         0.962436        -44.8108
                               0               0                0               0         0.962299        -44.8158         0.159955         47.7106
                               0               0                0               0         0.214808         46.6172        0.0472687         93.9497
                               0               0                0               0        0.0472286         93.9398         0.214784         46.5925
75.495                         0               0                0               0         0.160021         46.5262         0.962335        -46.1067
                               0               0                0               0         0.962196        -46.1123          0.16021         46.4948
                               0               0                0               0         0.214993         45.3701        0.0480079         91.8331
                               0               0                0               0        0.0479671         91.8273          0.21497         45.3448
75.54                          0               0                0               0         0.160011         45.2642          0.96229        -47.4553
                               0               0                0               0         0.962149        -47.4617         0.160204         45.2331
                               0               0                0               0         0.215131         44.0699        0.0487348         89.5993
                               0               0                0               0        0.0486935         89.5977         0.215108         44.0438
75.585                         0               0                0               0         0.159758          43.958         0.962297        -48.8543
                               0               0                0               0         0.962155        -48.8613         0.159955         43.9272
                               0               0                0               0         0.215206         42.7185        0.0494466         87.2587
                               0               0                0               0        0.0494051         87.2608         0.215183         42.6918
75.63                          0               0                0               0         0.159278         42.6095         0.962352        -50.3011
                               0               0                0               0         0.962211        -50.3085         0.159477          42.579
                               0               0                0               0           0.2152         41.3178        0.0501403         84.8217
                               0               0                0               0        0.0500995         84.8262         0.215176         41.2908
75.675                         0               0                0               0         0.158587         41.2206         0.962453        -51.7931
                               0               0                0               0         0.962314        -51.8007         0.158787         41.1907
                               0               0                0               0         0.215097         39.8702         0.050813         82.2986
                               0               0                0               0         0.050774         82.3035         0.215072         39.8434
75.72                          0               0                0               0           0.1577         39.7932         0.962598        -53.3274
                               0               0                0               0         0.962465        -53.3349         0.157902         39.7641
                               0               0                0               0         0.214883         38.3782        0.0514617         79.6992
                               0               0                0               0        0.0514259         79.7027         0.214855          38.352
75.765                         0               0                0               0         0.156634          38.329         0.962788         -54.901
                               0               0                0               0         0.962663        -54.9083         0.156836         38.3011
                               0               0                0               0         0.214542         36.8445        0.0520837         77.0334
                               0               0                0               0        0.0520521         77.0335         0.214511         36.8195
75.81                          0               0                0               0         0.155403         36.8299         0.963025         -56.511
                               0               0                0               0          0.96291         -56.518         0.155604         36.8037
                               0               0                0               0          0.21406         35.2722        0.0526761         74.3111
                               0               0                0               0        0.0526498         74.3057         0.214027         35.2487
75.855                         0               0                0               0         0.154024         35.2976         0.963313        -58.1541
                               0               0                0               0         0.963211        -58.1608         0.154223         35.2735
                               0               0                0               0         0.213427         33.6644        0.0532361         71.5415
                               0               0                0               0        0.0532158         71.5294         0.213392         33.6426
75.9                           0               0                0               0          0.15251          33.734         0.963658        -59.8273
                               0               0                0               0         0.963569        -59.8339         0.152706         33.7125
                               0               0                0               0          0.21263         32.0243        0.0537609         68.7342
                               0               0                0               0        0.0537471         68.7141         0.212593         32.0042
75.945                         0               0                0               0         0.150875         32.1406         0.964066        -61.5272
                               0               0                0               0          0.96399        -61.5342         0.151068         32.1224
                               0               0                0               0         0.211661         30.3553        0.0542479         65.8981
                               0               0                0               0        0.0542404         65.8694         0.211624         30.3364
75.99                          0               0                0               0         0.149134         30.5193         0.964544        -63.2507
                               0               0                0               0         0.964478        -63.2586         0.149322         30.5048
                               0               0                0               0         0.210513         28.6605        0.0546943         63.0418
                               0               0                0               0        0.0546926         63.0046         0.210476         28.6424
76.035                         0               0                0               0         0.147299         28.8719         0.965095        -64.9947
                               0               0                0               0         0.965036        -65.0041         0.147482         28.8616
                               0               0                0               0         0.209178         26.9433        0.0550976         60.1734
                               0               0                0               0        0.0551005         60.1282         0.209143          26.925
76.08                          0               0                0               0         0.145384         27.2005         0.965722        -66.7562
                               0               0                0               0         0.965667        -66.7676          0.14556         27.1945
                               0               0                0               0         0.207653         25.2065        0.0554551         57.3007
                               0               0                0               0         0.055461         57.2484         0.207619         25.1872
76.125                         0               0                0               0         0.143401         25.5073         0.966423        -68.5324
                               0               0                0               0         0.966367        -68.5462         0.143569         25.5053
                               0               0                0               0         0.205934         23.4532        0.0557641         54.4306
                               0               0                0               0        0.0557713         54.3725         0.205901         23.4318
76.17                          0               0                0               0         0.141364         23.7947         0.967191        -70.3205
                               0               0                0               0         0.967129        -70.3368         0.141521         23.7961
                               0               0                0               0         0.204018         21.6858        0.0560222         51.5695
                               0               0                0               0        0.0560286         51.5073         0.203986         21.6615
76.215                         0               0                0               0         0.139282         22.0656         0.968013        -72.1182
                               0               0                0               0         0.967943        -72.1365         0.139427         22.0689
                               0               0                0               0         0.201902         19.9068        0.0562269         48.7231
                               0               0                0               0        0.0562305         48.6585         0.201869         19.8791
76.26                          0               0                0               0         0.137169          20.323          0.96887        -73.9231
                               0               0                0               0         0.968791        -73.9425         0.137299         20.3261
                               0               0                0               0         0.199584         18.1185        0.0563758         45.8963
                               0               0                0               0        0.0563751          45.831          0.19955         18.0872
76.305                         0               0                0               0         0.135034         18.5704         0.969735        -75.7333
                               0               0                0               0          0.96965        -75.7521         0.135148           18.57
                               0               0                0               0         0.197064         16.3228         0.056467         43.0932
                               0               0                0               0        0.0564606         43.0288         0.197027         16.2888
76.35                          0               0                0               0         0.132888         16.8112         0.970581        -77.5468
                               0               0                0               0         0.970494        -77.5626         0.132985         16.8032
                               0               0                0               0         0.194339          14.522        0.0564989         40.3172
                               0               0                0               0         0.056486         40.2549         0.194299         14.4865
76.395                         0               0                0               0         0.130741         15.0488         0.971376         -79.362
                               0               0                0               0         0.971296        -79.3719         0.130821         15.0282
                               0               0                0               0         0.191411          12.718        0.0564705         37.5706
                               0               0                0               0        0.0564509         37.5113         0.191367         12.6833
76.44                          0               0                0               0         0.128602          13.286         0.972092         -81.177
                               0               0                0               0         0.972031        -81.1776         0.128667         13.2471
