! TOUCHSTONE file generated by CST MICROWAVE STUDIO
! Date and time: Sun Jun 20 22:38:03 2021
! Project name: HIPS_d_sweep.cst
! Parameters = {fmax=120; fmin=75; b=0.46; d=24.35; a=0.63; phi=0; theta=0}
! Header version: 2018
! Port assignment regex: !\s*Touchstone port\s*([0-9]+)\s*=\s*(CST MWS port|CST DS port)\s*([0-9]+|Zmin|Zmax)\s*\(\"(.*)\"\)(\s*mode\s*([0-9]+))?.*
! Touchstone port assignment:
! Touchstone port 1 = CST MWS port Zmin ("") mode 1
! Touchstone port 2 = CST MWS port Zmin ("") mode 2
! Touchstone port 3 = CST MWS port Zmax ("") mode 1
! Touchstone port 4 = CST MWS port Zmax ("") mode 2
! S-Parameters are not renormalized. Unphysical impedance of 0 will be written to the file.
# GHz S MA R 0
75                             0               0                0               0         0.115215         158.947         0.988865        -111.055
                               0               0                0               0         0.988999        -111.057         0.115421         158.807
                               0               0                0               0        0.0916192        -21.2609        0.0109442        -101.589
                               0               0                0               0         0.011034        -101.977        0.0916999        -21.1881
75.045                         0               0                0               0         0.113977         158.136         0.990152         -111.86
                               0               0                0               0         0.990323         -111.86         0.109769         157.121
                               0               0                0               0        0.0890397        -22.1824        0.0102769        -101.249
                               0               0                0               0        0.0103984        -102.447        0.0890753        -22.1117
75.09                          0               0                0               0         0.111704         157.092         0.991025        -112.748
                               0               0                0               0         0.991212        -112.747         0.105644         156.048
                               0               0                0               0        0.0861947        -23.1287       0.00963194        -100.678
                               0               0                0               0       0.00974363        -102.495        0.0862104        -23.0583
75.135                         0               0                0               0         0.108225         155.903         0.991573        -113.719
                               0               0                0               0          0.99176        -113.719         0.102641         155.264
                               0               0                0               0        0.0830704         -24.106        0.0090302        -99.9375
                               0               0                0               0       0.00910311        -101.977        0.0830887        -24.0328
75.18                          0               0                0               0          0.10364         154.802          0.99188        -114.775
                               0               0                0               0         0.992057        -114.776         0.100438          154.59
                               0               0                0               0        0.0796544        -25.1202        0.0084906        -99.1959
                               0               0                0               0       0.00853178        -100.831        0.0796946        -25.0409
75.225                         0               0                0               0        0.0985763         154.088         0.992021        -115.915
                               0               0                0               0         0.992183        -115.917        0.0988052          153.92
                               0               0                0               0         0.075936        -26.1771       0.00802222        -98.7666
                               0               0                0               0       0.00809945        -99.2963        0.0760132        -26.0883
75.27                          0               0                0               0        0.0940557         153.837         0.992063        -117.137
                               0               0                0               0         0.992209        -117.141        0.0975826         153.189
                               0               0                0               0        0.0719058        -27.2822       0.00761643        -99.1048
                               0               0                0               0       0.00785461        -98.1775         0.072031        -27.1807
75.315                         0               0                0               0        0.0908414         153.738         0.992063        -118.439
                               0               0                0               0         0.992193        -118.445        0.0966647         152.351
                               0               0                0               0        0.0675565          -28.44       0.00724481        -100.742
                               0               0                0               0       0.00776428        -98.7371        0.0677359        -28.3233
75.36                          0               0                0               0        0.0890386         153.354         0.992066         -119.82
                               0               0                0               0         0.992182        -119.828        0.0959869         151.374
                               0               0                0               0        0.0628823        -29.6539       0.00686866          -104.2
                               0               0                0               0       0.00769819        -102.006        0.0631176        -29.5204
75.405                         0               0                0               0        0.0883509         152.444         0.992105        -121.275
                               0               0                0               0         0.992211        -121.285        0.0955165         150.231
                               0               0                0               0        0.0578797        -30.9255       0.00645935        -109.957
                               0               0                0               0       0.00751227         -108.27        0.0581674        -30.7749
75.45                          0               0                0               0        0.0884552         151.003         0.992202        -122.803
                               0               0                0               0         0.992301        -122.814         0.095247         148.906
                               0               0                0               0        0.0525471        -32.2536       0.00602209        -118.478
                               0               0                0               0       0.00715553        -117.354        0.0528792        -32.0866
75.495                         0               0                0               0        0.0891352         149.146         0.992367        -124.399
                               0               0                0               0         0.992463        -124.411        0.0951921         147.389
                               0               0                0               0        0.0468857        -33.6324        0.0056145        -130.216
                               0               0                0               0       0.00669817        -129.148        0.0472499        -33.4509
75.54                          0               0                0               0        0.0902647         147.007         0.992602        -126.061
                               0               0                0               0         0.992699        -126.073        0.0953796         145.681
                               0               0                0               0        0.0408997        -35.0481       0.00535149        -145.307
                               0               0                0               0       0.00629291        -143.667        0.0412797        -34.8546
75.585                         0               0                0               0        0.0917646         144.703         0.992898        -127.785
                               0               0                0               0         0.992997        -127.797        0.0958437         143.797
                               0               0                0               0        0.0345968        -36.4721       0.00537915        -162.851
                               0               0                0               0       0.00612192        -160.478        0.0349735        -36.2679
75.63                          0               0                0               0        0.0935766         142.319         0.993237        -129.566
                               0               0                0               0         0.993343        -129.577        0.0966173         141.759
                               0               0                0               0        0.0279892        -37.8426       0.00580463         179.382
                               0               0                0               0       0.00633295        -178.059        0.0283417        -37.6253
75.675                         0               0                0               0        0.0956518         139.912         0.993598        -131.402
                               0               0                0               0         0.993711        -131.412        0.0977245         139.602
                               0               0                0               0        0.0210943        -39.0086       0.00663543         163.657
                               0               0                0               0       0.00697597          165.71        0.0214022        -38.7644
75.72                          0               0                0               0         0.097947         137.517          0.99395         -133.29
                               0               0                0               0         0.994071        -133.297        0.0991751          137.36
                               0               0                0               0        0.0139378        -39.4962       0.00780096         150.874
                               0               0                0               0       0.00800172         152.155        0.0141835        -39.1761
75.765                         0               0                0               0         0.100424         135.152          0.99426        -135.225
                               0               0                0               0          0.99439        -135.229         0.100963         135.071
                               0               0                0               0       0.00657081        -36.6589       0.00921421         140.773
                               0               0                0               0       0.00932066         141.383       0.00674553         -36.055
75.81                          0               0                0               0          0.10305         132.823         0.994492        -137.204
                               0               0                0               0          0.99463        -137.205         0.103067         132.765
                               0               0                0               0       0.00154563         89.2903        0.0108051         132.729
                               0               0                0               0        0.0108513         132.884        0.0015712         84.4309
75.855                         0               0                0               0         0.105797         130.531         0.994611        -139.223
                               0               0                0               0         0.994755        -139.221         0.105454         130.465
                               0               0                0               0       0.00899002          123.17        0.0125244         126.166
                               0               0                0               0        0.0125342         126.059       0.00901427         122.303
75.9                           0               0                0               0         0.108643          128.27         0.994579         -141.28
                               0               0                0               0         0.994728        -141.275         0.108085         128.184
                               0               0                0               0        0.0168856         124.084        0.0143391          120.65
                               0               0                0               0        0.0143285         120.423         0.016975         123.504
75.945                         0               0                0               0         0.111566         126.033         0.994363        -143.372
                               0               0                0               0         0.994513        -143.364         0.110917         125.928
                               0               0                0               0         0.024886         122.962        0.0162261         115.875
                               0               0                0               0         0.016206          115.62        0.0250227         122.467
75.99                          0               0                0               0         0.114552         123.814         0.993936        -145.494
                               0               0                0               0         0.994083        -145.485         0.113907         123.697
                               0               0                0               0        0.0329332         121.256        0.0181687         111.625
                               0               0                0               0        0.0181467         111.397        0.0330896         120.809
76.035                         0               0                0               0         0.117587         121.602         0.993275        -147.645
                               0               0                0               0         0.993417        -147.634         0.117017         121.484
                               0               0                0               0        0.0409815         119.302        0.0201542         107.747
                               0               0                0               0        0.0201352         107.576         0.041127         118.903
76.08                          0               0                0               0         0.120658         119.392         0.992372        -149.819
                               0               0                0               0         0.992504         -149.81         0.120212         119.284
                               0               0                0               0        0.0489919         117.227        0.0221717         104.131
                               0               0                0               0        0.0221588         104.029        0.0490994          116.89
76.125                         0               0                0               0         0.123756         117.176         0.991229        -152.016
                               0               0                0               0         0.991349        -152.009         0.123461         117.086
                               0               0                0               0        0.0569331          115.09        0.0242117         100.694
                               0               0                0               0        0.0242066         100.665        0.0569844         114.831
76.17                          0               0                0               0         0.126871         114.948         0.989866         -154.23
                               0               0                0               0         0.989974        -154.227         0.126737         114.882
                               0               0                0               0        0.0647831         112.926        0.0262646         97.3774
                               0               0                0               0        0.0262678         97.4152        0.0647729         112.757
76.215                         0               0                0               0         0.129994         112.704         0.988321        -156.457
                               0               0                0               0         0.988422         -156.46         0.130017         112.666
                               0               0                0               0        0.0725297         110.752        0.0283207         94.1338
                               0               0                0               0        0.0283318          94.231        0.0724654         110.678
76.26                          0               0                0               0         0.133119         110.439         0.986656        -158.692
                               0               0                0               0         0.986757        -158.704          0.13328         110.429
                               0               0                0               0        0.0801697         108.578        0.0303697         90.9284
                               0               0                0               0        0.0303873         91.0746        0.0800686         108.594
76.305                         0               0                0               0         0.136239         108.151          0.98495        -160.929
                               0               0                0               0          0.98506        -160.951         0.136509         108.168
                               0               0                0               0        0.0877068         106.405        0.0324002         87.7343
                               0               0                0               0        0.0324224         87.9183        0.0875896         106.496
76.35                          0               0                0               0         0.139348          105.84         0.983294         -163.16
                               0               0                0               0         0.983423        -163.191         0.139689         105.879
                               0               0                0               0        0.0951487         104.231        0.0343999           84.53
                               0               0                0               0         0.034424         84.7407        0.0950326         104.375
76.395                         0               0                0               0         0.142443         103.508         0.981786        -165.377
                               0               0                0               0         0.981933        -165.415         0.142809         103.561
                               0               0                0               0         0.102503         102.054        0.0363549          81.298
                               0               0                0               0        0.0363778         81.5248         0.102397          102.22
76.44                          0               0                0               0         0.145518          101.16         0.980507         -167.57
                               0               0                0               0         0.980659         -167.61         0.145859         101.216
