! TOUCHSTONE file generated by CST MICROWAVE STUDIO
! Date and time: Sun Jun 20 22:36:48 2021
! Project name: HIPS_d_sweep.cst
! Parameters = {fmax=120; fmin=75; b=0.46; d=16.4; a=0.63; phi=0; theta=0}
! Header version: 2018
! Port assignment regex: !\s*Touchstone port\s*([0-9]+)\s*=\s*(CST MWS port|CST DS port)\s*([0-9]+|Zmin|Zmax)\s*\(\"(.*)\"\)(\s*mode\s*([0-9]+))?.*
! Touchstone port assignment:
! Touchstone port 1 = CST MWS port Zmin ("") mode 1
! Touchstone port 2 = CST MWS port Zmin ("") mode 2
! Touchstone port 3 = CST MWS port Zmax ("") mode 1
! Touchstone port 4 = CST MWS port Zmax ("") mode 2
! S-Parameters are not renormalized. Unphysical impedance of 0 will be written to the file.
# GHz S MA R 0
75                             0               0                0               0         0.425539         162.258         0.892421         70.5431
                               0               0                0               0          0.89232         70.5679         0.425423          162.24
                               0               0                0               0         0.104794         7.77707         0.108557         5.09239
                               0               0                0               0         0.108612         5.14691         0.104712         7.73757
75.045                         0               0                0               0         0.428303         161.628          0.89137         69.9281
                               0               0                0               0         0.891414         69.9564         0.428165         161.608
                               0               0                0               0         0.103624         7.84229         0.108773         4.20564
                               0               0                0               0         0.108829         4.26228         0.103541         7.80318
75.09                          0               0                0               0         0.430815         160.961         0.890412         69.2857
                               0               0                0               0         0.890517         69.3154         0.430666          160.94
                               0               0                0               0         0.102334         7.89524         0.108896          3.2441
                               0               0                0               0         0.108951         3.30179         0.102251         7.85652
75.135                         0               0                0               0         0.433066         160.254          0.88953         68.6109
                               0               0                0               0         0.889632         68.6404         0.432915         160.233
                               0               0                0               0         0.100928         7.93699         0.108933         2.20204
                               0               0                0               0         0.108984         2.25968         0.100845         7.89869
75.18                          0               0                0               0          0.43505         159.504         0.888715          67.899
                               0               0                0               0         0.888763         67.9269         0.434906         159.484
                               0               0                0               0          0.09941         7.96932          0.10889         1.07451
                               0               0                0               0         0.108937         1.13108        0.0993271         7.93144
75.225                         0               0                0               0         0.436766         158.709         0.887963         67.1456
                               0               0                0               0         0.887923         67.1708         0.436634         158.689
                               0               0                0               0        0.0977827         7.99466         0.108775       -0.142482
                               0               0                0               0         0.108816      -0.0878861        0.0976998         7.95722
75.27                          0               0                0               0         0.438214         157.866         0.887275         66.3468
                               0               0                0               0         0.887127         66.3685         0.438099         157.847
                               0               0                0               0        0.0960489          8.0162         0.108597        -1.45196
                               0               0                0               0         0.108632        -1.40008        0.0959661         7.97922
75.315                         0               0                0               0         0.439402         156.972         0.886659         65.4994
                               0               0                0               0         0.886399         65.5171         0.439306         156.955
                               0               0                0               0        0.0942113         8.03789         0.108363        -2.85594
                               0               0                0               0         0.108393        -2.80731        0.0941286         8.00139
75.36                          0               0                0               0         0.440337         156.026         0.886128         64.6008
                               0               0                0               0         0.885764         64.6144         0.440261         156.011
                               0               0                0               0        0.0922726         8.06454          0.10808        -4.35547
                               0               0                0               0         0.108105        -4.31041          0.09219         8.02855
75.405                         0               0                0               0         0.441032         155.026         0.885701         63.6495
                               0               0                0               0          0.88525         63.6589         0.440975         155.014
                               0               0                0               0        0.0902351         8.10194         0.107757        -5.95068
                               0               0                0               0         0.107777        -5.90928        0.0901527         8.06648
75.45                          0               0                0               0           0.4415         153.972           0.8854         62.6446
                               0               0                0               0         0.884884         62.6502          0.44146         153.963
                               0               0                0               0        0.0881016         8.15694         0.107399        -7.64085
                               0               0                0               0         0.107414        -7.60298        0.0880194         8.12206
75.495                         0               0                0               0         0.441757         152.865         0.885246         61.5864
                               0               0                0               0         0.884693         61.5888         0.441731         152.858
                               0               0                0               0        0.0858749         8.23767          0.10701         -9.4245
                               0               0                0               0         0.107021        -9.38985        0.0857929          8.2034
75.54                          0               0                0               0         0.441819         151.703         0.885262         60.4762
                               0               0                0               0           0.8847         60.4761         0.441803         151.699
                               0               0                0               0        0.0835584         8.35368         0.106594        -11.2995
                               0               0                0               0         0.106602        -11.2676        0.0834765         8.32009
75.585                         0               0                0               0         0.441702          150.49         0.885466          59.316
                               0               0                0               0          0.88492         59.3143         0.441692         150.488
                               0               0                0               0        0.0811558         8.51625         0.106153        -13.2633
                               0               0                0               0         0.106158        -13.2334        0.0810742         8.48339
75.63                          0               0                0               0          0.44142         149.226          0.88587         58.1086
                               0               0                0               0         0.885363         58.1063         0.441414         149.226
                               0               0                0               0        0.0786722         8.73862         0.105688        -15.3125
                               0               0                0               0         0.105691         -15.284        0.0785908         8.70659
75.675                         0               0                0               0         0.440989         147.915         0.886481         56.8575
                               0               0                0               0         0.886031         56.8553         0.440983         147.915
                               0               0                0               0        0.0761134         9.03636           0.1052        -17.4439
                               0               0                0               0           0.1052         -17.416        0.0760322         9.00527
75.72                          0               0                0               0         0.440419         146.559         0.887298         55.5663
                               0               0                0               0         0.886918          55.565          0.44041         146.559
                               0               0                0               0         0.073487          9.4278         0.104685        -19.6536
                               0               0                0               0         0.104684        -19.6253        0.0734061         9.39777
75.765                         0               0                0               0         0.439722         145.162         0.888311         54.2393
                               0               0                0               0          0.88801         54.2396         0.439708         145.162
                               0               0                0               0        0.0708027         9.93441         0.104143        -21.9376
                               0               0                0               0          0.10414        -21.9081        0.0707221         9.90563
75.81                          0               0                0               0         0.438904         143.727         0.889504         52.8806
                               0               0                0               0         0.889285         52.8828         0.438883         143.726
                               0               0                0               0        0.0680726         10.5814         0.103571        -24.2916
                               0               0                0               0         0.103565        -24.2602        0.0679922         10.5541
75.855                         0               0                0               0         0.437971         142.259         0.890856         51.4944
                               0               0                0               0         0.890716         51.4987         0.437942         142.256
                               0               0                0               0        0.0653119         11.3979         0.102964        -26.7113
                               0               0                0               0         0.102956        -26.6771        0.0652318         11.3724
75.9                           0               0                0               0         0.436927         140.762         0.892337         50.0845
                               0               0                0               0         0.892272          50.091         0.436889         140.757
                               0               0                0               0        0.0625398          12.418         0.102319        -29.1922
                               0               0                0               0         0.102309        -29.1546        0.0624599         12.3946
75.945                         0               0                0               0         0.435773          139.24         0.893916         48.6547
                               0               0                0               0         0.893917         48.6633         0.435726         139.232
                               0               0                0               0        0.0597801           13.68         0.101631        -31.7299
                               0               0                0               0          0.10162         -31.688        0.0597005         13.6593
75.99                          0               0                0               0         0.434511         137.697         0.895557         47.2085
                               0               0                0               0         0.895615         47.2188         0.434454         137.686
                               0               0                0               0        0.0570622         15.2273         0.100898        -34.3195
                               0               0                0               0         0.100884        -34.2729         0.056983         15.2098
76.035                         0               0                0               0         0.433138         136.138         0.897224         45.7489
                               0               0                0               0         0.897328         45.7607         0.433073         136.124
                               0               0                0               0        0.0544223         17.1061         0.100114        -36.9564
                               0               0                0               0         0.100098        -36.9047        0.0543436         17.0927
76.08                          0               0                0               0         0.431654         134.567          0.89888         44.2788
                               0               0                0               0          0.89902         44.2916         0.431581          134.55
                               0               0                0               0        0.0519039         19.3642        0.0992768        -39.6358
                               0               0                0               0        0.0992592        -39.5785        0.0518258         19.3557
76.125                         0               0                0               0         0.430058         132.989          0.90049         42.8005
                               0               0                0               0         0.900653         42.8139         0.429977         132.967
                               0               0                0               0        0.0495587         22.0455        0.0983831        -42.3529
                               0               0                0               0         0.098364        -42.2899        0.0494815         22.0431
76.17                          0               0                0               0         0.428347         131.406         0.902019         41.3165
                               0               0                0               0         0.902194           41.33         0.428259         131.381
                               0               0                0               0        0.0474461         25.1838        0.0974308        -45.1029
                               0               0                0               0        0.0974104         -45.034        0.0473702         25.1885
76.215                         0               0                0               0         0.426522         129.823         0.903436         39.8285
                               0               0                0               0         0.903612         39.8418         0.426427         129.795
                               0               0                0               0        0.0456321         28.7919        0.0964184        -47.8811
                               0               0                0               0        0.0963971        -47.8063         0.045558          28.805
76.26                          0               0                0               0         0.424581         128.244          0.90471         38.3383
                               0               0                0               0         0.904878         38.3511          0.42448         128.213
                               0               0                0               0        0.0441859         32.8501        0.0953453        -50.6826
                               0               0                0               0        0.0953234         -50.602        0.0441143         32.8726
76.305                         0               0                0               0         0.422526         126.671         0.905815         36.8475
                               0               0                0               0         0.905968         36.8595          0.42242         126.638
                               0               0                0               0        0.0431743         37.2949        0.0942118        -53.5029
                               0               0                0               0        0.0941898        -53.4166         0.043106         37.3273
76.35                          0               0                0               0         0.420358         125.108         0.906729         35.3574
                               0               0                0               0         0.906859         35.3685         0.420247         125.073
                               0               0                0               0        0.0426541         42.0143        0.0930193        -56.3374
                               0               0                0               0        0.0929976        -56.2458          0.04259         42.0564
76.395                         0               0                0               0         0.418082         123.558         0.907431         33.8694
                               0               0                0               0         0.907533         33.8795         0.417966         123.521
                               0               0                0               0        0.0426641          46.854        0.0917698        -59.1816
                               0               0                0               0        0.0917487        -59.0851        0.0426049         46.9048
76.44                          0               0                0               0           0.4157         122.024         0.907905         32.3846
                               0               0                0               0         0.907975         32.3936         0.415581         121.985
