! TOUCHSTONE file generated by CST MICROWAVE STUDIO
! Date and time: Sun Jun 20 22:37:38 2021
! Project name: HIPS_d_sweep.cst
! Parameters = {fmax=120; fmin=75; b=0.46; d=22.1; a=0.63; phi=0; theta=0}
! Header version: 2018
! Port assignment regex: !\s*Touchstone port\s*([0-9]+)\s*=\s*(CST MWS port|CST DS port)\s*([0-9]+|Zmin|Zmax)\s*\(\"(.*)\"\)(\s*mode\s*([0-9]+))?.*
! Touchstone port assignment:
! Touchstone port 1 = CST MWS port Zmin ("") mode 1
! Touchstone port 2 = CST MWS port Zmin ("") mode 2
! Touchstone port 3 = CST MWS port Zmax ("") mode 1
! Touchstone port 4 = CST MWS port Zmax ("") mode 2
! S-Parameters are not renormalized. Unphysical impedance of 0 will be written to the file.
# GHz S MA R 0
75                             0               0                0               0        0.0351145        -115.387         0.974218         143.383
                               0               0                0               0         0.974344         143.389        0.0350823        -115.189
                               0               0                0               0         0.220526         53.6813        0.0316339         66.9376
                               0               0                0               0        0.0316046         66.9006         0.220467         53.6507
75.045                         0               0                0               0        0.0387288        -117.015         0.974364         142.671
                               0               0                0               0         0.974489         142.678        0.0387162        -116.997
                               0               0                0               0         0.220606         53.0308         0.031967         67.8527
                               0               0                0               0        0.0319362         67.7916         0.220499         52.9755
75.09                          0               0                0               0         0.042059        -118.541          0.97433         141.886
                               0               0                0               0          0.97445         141.894        0.0420593        -118.584
                               0               0                0               0         0.220672         52.2881        0.0323119         68.4093
                               0               0                0               0        0.0322852         68.3413         0.220551         52.2219
75.135                         0               0                0               0        0.0450805         -119.99          0.97417         141.028
                               0               0                0               0         0.974284         141.036        0.0450853        -120.029
                               0               0                0               0          0.22074         51.4585        0.0326795         68.6367
                               0               0                0               0        0.0326578         68.5734         0.220625         51.3918
75.18                          0               0                0               0        0.0477741         -121.38         0.973931         140.098
                               0               0                0               0         0.974039         140.107        0.0477754        -121.382
                               0               0                0               0         0.220818         50.5475        0.0330756         68.5632
                               0               0                0               0        0.0330574         68.5114         0.220718         50.4867
75.225                         0               0                0               0        0.0501267        -122.725         0.973655         139.098
                               0               0                0               0         0.973757         139.106        0.0501181         -122.68
                               0               0                0               0         0.220909           49.56        0.0335024         68.2151
                               0               0                0               0        0.0334847         68.1773         0.220824         49.5088
75.27                          0               0                0               0        0.0521306        -124.039         0.973374         138.029
                               0               0                0               0         0.973473         138.036        0.0521083        -123.948
                               0               0                0               0         0.221006         48.5004        0.0339587         67.6161
                               0               0                0               0        0.0339386         67.5919         0.220937         48.4597
75.315                         0               0                0               0        0.0537837        -125.332         0.973115         136.892
                               0               0                0               0         0.973212         136.898        0.0537462        -125.203
                               0               0                0               0         0.221102         47.3724        0.0344413         66.7873
                               0               0                0               0        0.0344161         66.7743         0.221044         47.3415
75.36                          0               0                0               0        0.0550889        -126.612         0.972899          135.69
                               0               0                0               0         0.972996         135.695         0.055037        -126.459
                               0               0                0               0         0.221184         46.1792        0.0349454         65.7473
                               0               0                0               0        0.0349132          65.742         0.221133         46.1561
75.405                         0               0                0               0        0.0560537        -127.889          0.97274         134.424
                               0               0                0               0         0.972836         134.428        0.0559899        -127.724
                               0               0                0               0         0.221237         44.9234        0.0354647         64.5127
                               0               0                0               0        0.0354247         64.5114         0.221191         44.9055
75.45                          0               0                0               0        0.0566894        -129.169         0.972646         133.097
                               0               0                0               0         0.972741         133.101        0.0566173        -129.003
                               0               0                0               0         0.221245         43.6073        0.0359926         63.0985
                               0               0                0               0        0.0359445         63.0972           0.2212         43.5915
75.495                         0               0                0               0        0.0570102        -130.457         0.972619         131.711
                               0               0                0               0         0.972714         131.715        0.0569339        -130.301
                               0               0                0               0          0.22119         42.2329        0.0365214         61.5181
                               0               0                0               0         0.036466         61.5137         0.221142         42.2163
75.54                          0               0                0               0        0.0570325        -131.758         0.972661         130.268
                               0               0                0               0         0.972753         130.272        0.0569564        -131.618
                               0               0                0               0         0.221052         40.8018        0.0370435         59.7843
                               0               0                0               0        0.0369823          59.774         0.221001         40.7821
75.585                         0               0                0               0        0.0567745        -133.075         0.972766         128.772
                               0               0                0               0         0.972853         128.776        0.0567021        -132.956
                               0               0                0               0         0.220813         39.3157        0.0375509         57.9089
                               0               0                0               0         0.037486         57.8907         0.220757         39.2912
75.63                          0               0                0               0         0.056255         -134.41         0.972928         127.224
                               0               0                0               0         0.973009         127.228        0.0561893        -134.313
                               0               0                0               0         0.220452         37.7764        0.0380361         55.9035
                               0               0                0               0        0.0379698         55.8761         0.220391         37.7461
75.675                         0               0                0               0        0.0554932        -135.765         0.973141         125.627
                               0               0                0               0         0.973212         125.632        0.0554361        -135.689
                               0               0                0               0         0.219952         36.1858        0.0384916          53.779
                               0               0                0               0        0.0384265         53.7419         0.219885         36.1494
75.72                          0               0                0               0        0.0545079        -137.139         0.973395         123.985
                               0               0                0               0         0.973455          123.99        0.0544603         -137.08
                               0               0                0               0         0.219293         34.5458        0.0389103         51.5464
                               0               0                0               0        0.0388489         51.4998         0.219222          34.504
75.765                         0               0                0               0        0.0533174        -138.532         0.973684         122.299
                               0               0                0               0         0.973729         122.305        0.0532791        -138.484
                               0               0                0               0         0.218459         32.8589        0.0392862         49.2165
                               0               0                0               0        0.0392307         49.1609         0.218384         32.8129
75.81                          0               0                0               0         0.051939        -139.941         0.974001         120.573
                               0               0                0               0         0.974032         120.579        0.0519091        -139.897
                               0               0                0               0         0.217434         31.1278        0.0396134         46.7996
                               0               0                0               0        0.0395658         46.7362         0.217357         31.0793
75.855                         0               0                0               0        0.0503891        -141.362         0.974344          118.81
                               0               0                0               0         0.974358         118.816         0.050366        -141.315
                               0               0                0               0         0.216204         29.3556        0.0398875         44.3062
                               0               0                0               0        0.0398488         44.2365         0.216128         29.3064
75.9                           0               0                0               0        0.0486825        -142.792         0.974712         117.014
                               0               0                0               0         0.974709         117.019        0.0486644        -142.733
                               0               0                0               0         0.214758         27.5456        0.0401044         41.7462
                               0               0                0               0        0.0400752          41.672         0.214685         27.4976
75.945                         0               0                0               0        0.0468333        -144.225         0.975107         115.186
                               0               0                0               0         0.975089         115.191        0.0468183        -144.146
                               0               0                0               0         0.213087         25.7015        0.0402611         39.1294
                               0               0                0               0        0.0402414         39.0525         0.213019         25.6564
75.99                          0               0                0               0        0.0448541        -145.652         0.975537         113.332
                               0               0                0               0         0.975504         113.336        0.0448409        -145.549
                               0               0                0               0         0.211184         23.8273        0.0403556         36.4651
                               0               0                0               0        0.0403445         36.3874         0.211124         23.7861
76.035                         0               0                0               0         0.042757        -147.067         0.976009         111.453
                               0               0                0               0         0.975965         111.456        0.0427449        -146.933
                               0               0                0               0         0.209046         21.9271        0.0403862         33.7622
                               0               0                0               0        0.0403823         33.6853         0.208995         21.8901
76.08                          0               0                0               0        0.0405533        -148.457         0.976535         109.554
                               0               0                0               0         0.976481         109.556        0.0405425        -148.291
                               0               0                0               0         0.206672          20.005         0.040352         31.0289
                               0               0                0               0        0.0403535         30.9544         0.206631         19.9717
76.125                         0               0                0               0        0.0382542        -149.812         0.977125         107.638
                               0               0                0               0         0.977065         107.639        0.0382461        -149.614
                               0               0                0               0         0.204062         18.0648        0.0402524         28.2731
                               0               0                0               0        0.0402575         28.2021         0.204029         18.0338
76.17                          0               0                0               0         0.035871        -151.116          0.97779         105.709
                               0               0                0               0         0.977726         105.709        0.0358685         -150.89
                               0               0                0               0         0.201219         16.1103        0.0400873          25.502
                               0               0                0               0        0.0400938         25.4352         0.201191         16.0797
76.215                         0               0                0               0        0.0334163        -152.353         0.978532         103.769
                               0               0                0               0         0.978467         103.768         0.033423        -152.105
                               0               0                0               0         0.198145         14.1448        0.0398563         22.7221
                               0               0                0               0        0.0398628         22.6599         0.198119         14.1122
76.26                          0               0                0               0        0.0309044          -153.5         0.979349         101.822
                               0               0                0               0         0.979284         101.821        0.0309243        -153.239
                               0               0                0               0         0.194845         12.1712        0.0395593         19.9396
                               0               0                0               0        0.0395647         19.8818         0.194815         12.1343
76.305                         0               0                0               0        0.0283523        -154.533         0.980227         99.8708
                               0               0                0               0         0.980163         99.8692        0.0283889        -154.266
                               0               0                0               0          0.19132         10.1918        0.0391959           17.16
                               0               0                0               0           0.0392         17.1062         0.191284          10.149
76.35                          0               0                0               0        0.0257808        -155.418         0.981141         97.9168
                               0               0                0               0         0.981078         97.9153        0.0258349        -155.149
                               0               0                0               0         0.187572         8.20856        0.0387655         14.3884
                               0               0                0               0        0.0387692         14.3379         0.187528         8.15928
76.395                         0               0                0               0         0.023215        -156.112         0.982048         95.9619
                               0               0                0               0         0.981986         95.9604         0.023283        -155.837
                               0               0                0               0           0.1836         6.22288        0.0382674         11.6296
                               0               0                0               0        0.0382728         11.5817          0.18355         6.16868
76.44                          0               0                0               0        0.0206853        -156.557         0.982892          94.007
                               0               0                0               0         0.982835          94.005        0.0207568        -156.251
