! TOUCHSTONE file generated by CST MICROWAVE STUDIO
! Date and time: Sun Jun 20 22:37:04 2021
! Project name: HIPS_d_sweep.cst
! Parameters = {fmax=120; fmin=75; b=0.46; d=18.4; a=0.63; phi=0; theta=0}
! Header version: 2018
! Port assignment regex: !\s*Touchstone port\s*([0-9]+)\s*=\s*(CST MWS port|CST DS port)\s*([0-9]+|Zmin|Zmax)\s*\(\"(.*)\"\)(\s*mode\s*([0-9]+))?.*
! Touchstone port assignment:
! Touchstone port 1 = CST MWS port Zmin ("") mode 1
! Touchstone port 2 = CST MWS port Zmin ("") mode 2
! Touchstone port 3 = CST MWS port Zmax ("") mode 1
! Touchstone port 4 = CST MWS port Zmax ("") mode 2
! S-Parameters are not renormalized. Unphysical impedance of 0 will be written to the file.
# GHz S MA R 0
75                             0               0                0               0         0.295654        -67.5156          0.95113         -156.74
                               0               0                0               0         0.951181        -156.729         0.295503        -67.5325
                               0               0                0               0        0.0638252          96.645        0.0618853        -84.8115
                               0               0                0               0        0.0619429        -84.8008        0.0637996          96.702
75.045                         0               0                0               0         0.298629        -68.2799         0.951204        -157.389
                               0               0                0               0          0.95123        -157.378         0.298381        -68.2873
                               0               0                0               0        0.0653753         96.4524         0.062069        -86.2392
                               0               0                0               0        0.0621273        -86.2635        0.0653591         96.5051
75.09                          0               0                0               0         0.301297        -69.0519         0.950902        -158.087
                               0               0                0               0         0.950899        -158.074          0.30099        -69.0544
                               0               0                0               0        0.0670916         96.1895        0.0621595        -87.7282
                               0               0                0               0        0.0622234        -87.7818        0.0670841         96.2393
75.135                         0               0                0               0         0.303624        -69.8394         0.950276        -158.837
                               0               0                0               0         0.950244        -158.823         0.303297        -69.8401
                               0               0                0               0        0.0689828         95.8657        0.0621514        -89.2918
                               0               0                0               0        0.0622247        -89.3685        0.0689829         95.9138
75.18                          0               0                0               0         0.305588        -70.6504         0.949392        -159.641
                               0               0                0               0         0.949331        -159.628         0.305273        -70.6513
                               0               0                0               0         0.071055         95.4903        0.0620418        -90.9446
                               0               0                0               0        0.0621266        -91.0377        0.0710617         95.5376
75.225                         0               0                0               0         0.307172        -71.4935         0.948319        -160.504
                               0               0                0               0          0.94823         -160.49           0.3069        -71.4952
                               0               0                0               0        0.0733122          95.072        0.0618302        -92.7018
                               0               0                0               0        0.0619272        -92.8045        0.0733243         95.1191
75.27                          0               0                0               0         0.308372         -72.377          0.94713        -161.426
                               0               0                0               0         0.947016        -161.412         0.308163        -72.3791
                               0               0                0               0         0.075756         94.6181        0.0615191        -94.5785
                               0               0                0               0        0.0616276        -94.6844        0.0757723         94.6654
75.315                         0               0                0               0         0.309192        -73.3082         0.945898        -162.407
                               0               0                0               0         0.945763        -162.394         0.309061        -73.3101
                               0               0                0               0        0.0783857         94.1344        0.0611141        -96.5898
                               0               0                0               0        0.0612318         -96.693        0.0784049         94.1823
75.36                          0               0                0               0         0.309647        -74.2938         0.944693        -163.448
                               0               0                0               0          0.94454        -163.436         0.309598        -74.2945
                               0               0                0               0        0.0811983         93.6252        0.0606233        -98.7496
                               0               0                0               0        0.0607467        -98.8451        0.0812193         93.6735
75.405                         0               0                0               0         0.309758        -75.3387         0.943579        -164.548
                               0               0                0               0         0.943413        -164.537         0.309789        -75.3374
                               0               0                0               0        0.0841892         93.0927        0.0600571        -101.071
                               0               0                0               0        0.0601824        -101.155        0.0842111         93.1413
75.45                          0               0                0               0         0.309551        -76.4465          0.94261        -165.705
                               0               0                0               0         0.942435        -165.695         0.309654        -76.4428
                               0               0                0               0        0.0873521         92.5376        0.0594282        -103.564
                               0               0                0               0        0.0595508        -103.634         0.087374         92.5864
75.495                         0               0                0               0         0.309057         -77.619         0.941831        -166.917
                               0               0                0               0         0.941653        -166.907         0.309218         -77.613
                               0               0                0               0        0.0906793         91.9592        0.0587502        -106.237
                               0               0                0               0         0.058866        -106.292        0.0907006          92.008
75.54                          0               0                0               0         0.308305        -78.8565         0.941276         -168.18
                               0               0                0               0         0.941099        -168.172         0.308509        -78.8488
                               0               0                0               0         0.094162         91.3556         0.058038        -109.097
                               0               0                0               0         0.058143        -109.137        0.0941822         91.4041
75.585                         0               0                0               0         0.307326        -80.1574         0.940968        -169.491
                               0               0                0               0         0.940796        -169.484         0.307555        -80.1492
                               0               0                0               0        0.0977906         90.7242        0.0573061        -112.146
                               0               0                0               0        0.0573973        -112.172        0.0978093         90.7722
75.63                          0               0                0               0         0.306147        -81.5192         0.940917        -170.848
                               0               0                0               0         0.940753        -170.842         0.306383         -81.512
                               0               0                0               0         0.101554         90.0617         0.056569        -115.385
                               0               0                0               0        0.0566441        -115.399         0.101571          90.109
75.675                         0               0                0               0         0.304792         -82.938         0.941123        -172.246
                               0               0                0               0         0.940969        -172.241         0.305021        -82.9335
                               0               0                0               0         0.105442         89.3645        0.0558402        -118.809
                               0               0                0               0         0.055898        -118.814         0.105458         89.4109
75.72                          0               0                0               0         0.303282        -84.4091         0.941576        -173.682
                               0               0                0               0         0.941434        -173.677         0.303489         -84.409
                               0               0                0               0         0.109442         88.6291        0.0551319        -122.415
                               0               0                0               0        0.0551722        -122.413         0.109456         88.6745
75.765                         0               0                0               0         0.301632         -85.927         0.942257        -175.153
                               0               0                0               0         0.942129        -175.149         0.301808         -85.933
                               0               0                0               0          0.11354          87.852        0.0544548        -126.191
                               0               0                0               0        0.0544782        -126.186         0.113552         87.8963
75.81                          0               0                0               0         0.299856         -87.486         0.943139        -176.655
                               0               0                0               0         0.943025        -176.651         0.299992        -87.4992
                               0               0                0               0         0.117723         87.0301        0.0538179        -130.128
                               0               0                0               0        0.0538259        -130.122         0.117735         87.0733
75.855                         0               0                0               0         0.297963        -89.0797          0.94419        -178.184
                               0               0                0               0         0.944091        -178.181         0.298055        -89.1012
                               0               0                0               0         0.121977         86.1606        0.0532284        -134.212
                               0               0                0               0        0.0532229        -134.208         0.121987         86.2027
75.9                           0               0                0               0         0.295963         -90.702         0.945373        -179.739
                               0               0                0               0         0.945289        -179.736         0.296006        -90.7322
                               0               0                0               0         0.126284         85.2415        0.0526914        -138.426
                               0               0                0               0        0.0526748        -138.426         0.126294         85.2824
75.945                         0               0                0               0         0.293859        -92.3464         0.946646         178.684
                               0               0                0               0         0.946577         178.686         0.293854        -92.3854
                               0               0                0               0         0.130629          84.271        0.0522106        -142.754
                               0               0                0               0        0.0521853        -142.759         0.130639         84.3107
75.99                          0               0                0               0         0.291657        -94.0068         0.947967         177.088
                               0               0                0               0         0.947911          177.09         0.291605         -94.054
                               0               0                0               0         0.134993         83.2481        0.0517877        -147.177
                               0               0                0               0        0.0517562        -147.188         0.135004         83.2867
76.035                         0               0                0               0         0.289361        -95.6769         0.949292         175.474
                               0               0                0               0         0.949249         175.477         0.289266        -95.7315
                               0               0                0               0         0.139358         82.1726         0.051423        -151.677
                               0               0                0               0        0.0513877        -151.694         0.139369         82.2101
76.08                          0               0                0               0         0.286974         -97.351         0.950576         173.847
                               0               0                0               0         0.950544         173.849          0.28684        -97.4118
                               0               0                0               0         0.143704         81.0447        0.0511153        -156.233
                               0               0                0               0        0.0510783        -156.257         0.143716         81.0811
76.125                         0               0                0               0         0.284501        -99.0233         0.951776         172.207
                               0               0                0               0         0.951754         172.209         0.284335        -99.0887
                               0               0                0               0         0.148009         79.8654        0.0508622        -160.827
                               0               0                0               0        0.0508254        -160.856         0.148023         79.9008
76.17                          0               0                0               0         0.281947        -100.688         0.952851         170.558
                               0               0                0               0         0.952836          170.56         0.281756        -100.757
                               0               0                0               0         0.152253         78.6363        0.0506606         -165.44
                               0               0                0               0        0.0506254        -165.474         0.152269         78.6707
76.215                         0               0                0               0         0.279319        -102.341          0.95376         168.901
                               0               0                0               0         0.953752         168.903         0.279111        -102.411
                               0               0                0               0         0.156415         77.3596        0.0505065        -170.054
                               0               0                0               0        0.0504739        -170.091         0.156433          77.393
76.26                          0               0                0               0         0.276623        -103.977         0.954468         167.239
                               0               0                0               0         0.954465          167.24         0.276406        -104.047
                               0               0                0               0         0.160472         76.0382        0.0503952        -174.652
                               0               0                0               0        0.0503661        -174.692         0.160492         76.0707
76.305                         0               0                0               0         0.273868        -105.592         0.954942         165.574
                               0               0                0               0         0.954943         165.575         0.273651        -105.659
                               0               0                0               0         0.164405         74.6754        0.0503221        -179.218
                               0               0                0               0        0.0502969         -179.26         0.164427          74.707
76.35                          0               0                0               0         0.271063        -107.182         0.955154         163.907
                               0               0                0               0         0.955158         163.908         0.270855        -107.246
                               0               0                0               0         0.168191          73.275        0.0502823         176.262
                               0               0                0               0         0.050261         176.219         0.168217         73.3057
76.395                         0               0                0               0         0.268219        -108.743         0.955081         162.242
                               0               0                0               0         0.955086         162.243         0.268029        -108.802
                               0               0                0               0         0.171813         71.8413        0.0502708         171.799
                               0               0                0               0        0.0502535         171.757         0.171842         71.8711
76.44                          0               0                0               0         0.265348        -110.272         0.954703          160.58
                               0               0                0               0         0.954708         160.581         0.265184        -110.325
