! TOUCHSTONE file generated by CST MICROWAVE STUDIO
! Date and time: Sun Jun 20 22:37:51 2021
! Project name: HIPS_d_sweep.cst
! Parameters = {fmax=120; fmin=75; b=0.46; d=23.25; a=0.63; phi=0; theta=0}
! Header version: 2018
! Port assignment regex: !\s*Touchstone port\s*([0-9]+)\s*=\s*(CST MWS port|CST DS port)\s*([0-9]+|Zmin|Zmax)\s*\(\"(.*)\"\)(\s*mode\s*([0-9]+))?.*
! Touchstone port assignment:
! Touchstone port 1 = CST MWS port Zmin ("") mode 1
! Touchstone port 2 = CST MWS port Zmin ("") mode 2
! Touchstone port 3 = CST MWS port Zmax ("") mode 1
! Touchstone port 4 = CST MWS port Zmax ("") mode 2
! S-Parameters are not renormalized. Unphysical impedance of 0 will be written to the file.
# GHz S MA R 0
75                             0               0                0               0        0.0445687        -79.8893         0.991845          12.515
                               0               0                0               0          0.99198         12.5222        0.0448015        -80.0432
                               0               0                0               0         0.117608         102.033        0.0174688         84.7644
                               0               0                0               0         0.017393         84.5175         0.117632         102.001
75.045                         0               0                0               0        0.0445757        -81.3118         0.990938         11.1292
                               0               0                0               0         0.991021         11.1293        0.0448174        -81.4443
                               0               0                0               0         0.121492         100.796        0.0180244          83.291
                               0               0                0               0        0.0179469          83.094         0.121518         100.757
75.09                          0               0                0               0        0.0446057        -82.7646          0.99009         9.72747
                               0               0                0               0         0.990121         9.72131        0.0448552        -82.8759
                               0               0                0               0         0.125411         99.5338        0.0185899         81.8248
                               0               0                0               0         0.018511         81.6734         0.125439         99.4891
75.135                         0               0                0               0          0.04466        -84.2477         0.989299         8.30982
                               0               0                0               0         0.989277         8.29817         0.044916        -84.3379
                               0               0                0               0         0.129362          98.247        0.0191653         80.3627
                               0               0                0               0        0.0190854          80.253          0.12939         98.1972
75.18                          0               0                0               0        0.0447397        -85.7608         0.988561         6.87612
                               0               0                0               0         0.988489         6.85972        0.0450013        -85.8301
                               0               0                0               0          0.13334         96.9346        0.0197505          78.902
                               0               0                0               0          0.01967         78.8301         0.133369         96.8805
75.225                         0               0                0               0        0.0448463        -87.3033         0.987875         5.42625
                               0               0                0               0         0.987752         5.40584        0.0451121        -87.3522
                               0               0                0               0         0.137342          95.596        0.0203456         77.4397
                               0               0                0               0        0.0202648         77.4022          0.13737         95.5383
75.27                          0               0                0               0        0.0449809        -88.8749         0.987237         3.96013
                               0               0                0               0         0.987066         3.93641          0.04525        -88.9039
                               0               0                0               0         0.141361         94.2307        0.0209504         75.9731
                               0               0                0               0        0.0208698         75.9666         0.141388         94.1701
75.315                         0               0                0               0         0.045145        -90.4749         0.986644         2.47767
                               0               0                0               0         0.986427         2.45134        0.0454163        -90.4845
                               0               0                0               0         0.145393         92.8381        0.0215648         74.4995
                               0               0                0               0        0.0214849         74.5208         0.145418         92.7752
75.36                          0               0                0               0        0.0453401        -92.1028         0.986093        0.978813
                               0               0                0               0         0.985832        0.950527        0.0456125        -92.0936
                               0               0                0               0         0.149431         91.4179        0.0221887         73.0161
                               0               0                0               0          0.02211         73.0622         0.149453         91.3534
75.405                         0               0                0               0        0.0455674        -93.7576          0.98558         -0.5365
                               0               0                0               0         0.985278       -0.566108        0.0458399        -93.7305
                               0               0                0               0         0.153468         89.9696         0.022822         71.5204
                               0               0                0               0        0.0227449         71.5883         0.153487          89.904
75.45                          0               0                0               0        0.0458286        -95.4387         0.985102        -2.06831
                               0               0                0               0          0.98476        -2.09863        0.0461001        -95.3944
                               0               0                0               0         0.157496         88.4929        0.0234642         70.0095
                               0               0                0               0        0.0233894         70.0965         0.157511         88.4268
75.495                         0               0                0               0         0.046125         -97.145         0.984653        -3.61663
                               0               0                0               0         0.984275         -3.6471        0.0463946        -97.0846
                               0               0                0               0         0.161508         86.9875        0.0241151         68.4809
                               0               0                0               0         0.024043         68.5843         0.161519         86.9215
75.54                          0               0                0               0        0.0464581        -98.8757          0.98423        -5.18146
                               0               0                0               0         0.983819        -5.21155        0.0467249           -98.8
                               0               0                0               0         0.165494         85.4533        0.0247742         66.9319
                               0               0                0               0        0.0247053          67.049         0.165501         85.3879
75.585                         0               0                0               0        0.0468296         -100.63         0.983827         -6.7628
                               0               0                0               0         0.983387          -6.792        0.0470927         -100.54
                               0               0                0               0         0.169444         83.8903         0.025441         65.3597
                               0               0                0               0        0.0253759         65.4881         0.169448         83.8258
75.63                          0               0                0               0         0.047241        -102.406          0.98344         -8.3606
                               0               0                0               0         0.982973        -8.38846        0.0474994        -102.303
                               0               0                0               0         0.173349         82.2984        0.0261148         63.7616
                               0               0                0               0        0.0260539         63.8989         0.173348         82.2354
75.675                         0               0                0               0        0.0476937        -104.203         0.983063         -9.9748
                               0               0                0               0         0.982574        -10.0009        0.0479468        -104.088
                               0               0                0               0         0.177197         80.6779        0.0267948         62.1349
                               0               0                0               0        0.0267387         62.2787         0.177193         80.6167
75.72                          0               0                0               0        0.0481894         -106.02         0.982689        -11.6053
                               0               0                0               0         0.982183        -11.6293        0.0484365        -105.894
                               0               0                0               0         0.180977         79.0289          0.02748         60.4768
                               0               0                0               0         0.027429         60.6249         0.180969         78.9699
75.765                         0               0                0               0        0.0487296        -107.856         0.982314         -13.252
                               0               0                0               0         0.981794        -13.2735          0.04897        -107.721
                               0               0                0               0         0.184677          77.352        0.0281693         58.7845
                               0               0                0               0        0.0281238         58.9347         0.184666         77.2954
75.81                          0               0                0               0        0.0493159        -109.709         0.981931        -14.9148
                               0               0                0               0         0.981401        -14.9336         0.049549        -109.566
                               0               0                0               0         0.188284         75.6476         0.028861         57.0552
                               0               0                0               0        0.0288215         57.2054          0.18827         75.5937
75.855                         0               0                0               0        0.0499499        -111.579         0.981533        -16.5936
                               0               0                0               0         0.980998        -16.6093        0.0501752        -111.429
                               0               0                0               0         0.191785         73.9165        0.0295537         55.2862
                               0               0                0               0        0.0295203         55.4344         0.191768         73.8655
75.9                           0               0                0               0        0.0506331        -113.464         0.981114         -18.288
                               0               0                0               0         0.980577        -18.3005        0.0508502        -113.308
                               0               0                0               0         0.195166         72.1594        0.0302453         53.4745
                               0               0                0               0        0.0302183         53.6188         0.195148         72.1116
75.945                         0               0                0               0        0.0513672        -115.364         0.980666        -19.9979
                               0               0                0               0         0.980132        -20.0071        0.0515756        -115.204
                               0               0                0               0         0.198414         70.3775        0.0309335         51.6176
                               0               0                0               0         0.030913         51.7562         0.198395         70.3329
75.99                          0               0                0               0        0.0521535        -117.277         0.980183         -21.723
                               0               0                0               0         0.979656        -21.7287         0.052353        -117.113
                               0               0                0               0         0.201515         68.5718        0.0316157         49.7127
                               0               0                0               0        0.0316017         49.8439         0.201496         68.5305
76.035                         0               0                0               0        0.0529937        -119.203         0.979657         -23.463
                               0               0                0               0          0.97914        -23.4653         0.053184        -119.037
                               0               0                0               0         0.204455         66.7436        0.0322887         47.7573
                               0               0                0               0        0.0322811         47.8795         0.204437         66.7057
76.08                          0               0                0               0        0.0538893         -121.14          0.97908        -25.2176
                               0               0                0               0         0.978578        -25.2164        0.0540702        -120.973
                               0               0                0               0         0.207221         64.8945        0.0329492         45.7489
                               0               0                0               0        0.0329478         45.8608         0.207205         64.8601
76.125                         0               0                0               0        0.0548417        -123.089         0.978445        -26.9864
                               0               0                0               0         0.977961        -26.9818        0.0550132        -122.921
                               0               0                0               0         0.209799         63.0261        0.0335931         43.6853
                               0               0                0               0        0.0335975         43.7857         0.209785          62.995
76.17                          0               0                0               0        0.0558523        -125.048         0.977744         -28.769
                               0               0                0               0         0.977281        -28.7611        0.0560144        -124.881
                               0               0                0               0         0.212176         61.1402        0.0342159         41.5647
                               0               0                0               0        0.0342256         41.6526         0.212166         61.1124
76.215                         0               0                0               0        0.0569226        -127.017         0.976969         -30.565
                               0               0                0               0          0.97653        -30.5539        0.0570754        -126.851
                               0               0                0               0         0.214341         59.2388        0.0348128         39.3853
                               0               0                0               0        0.0348272         39.4599         0.214335         59.2141
76.26                          0               0                0               0        0.0580538        -128.996         0.976114        -32.3738
                               0               0                0               0           0.9757        -32.3597        0.0581975        -128.832
                               0               0                0               0         0.216282         57.3239        0.0353782          37.146
                               0               0                0               0        0.0353965         37.2068         0.216281         57.3022
76.305                         0               0                0               0        0.0592472        -130.984         0.975169        -34.1949
                               0               0                0               0         0.974783        -34.1781         0.059382        -130.824
                               0               0                0               0         0.217988         55.3977        0.0359063         34.8461
                               0               0                0               0        0.0359276          34.893         0.217993         55.3789
76.35                          0               0                0               0        0.0605041        -132.983         0.974129        -36.0277
                               0               0                0               0         0.973771        -36.0085        0.0606303        -132.825
                               0               0                0               0         0.219451         53.4625        0.0363906         32.4856
                               0               0                0               0        0.0364139         32.5187         0.219462         53.4464
76.395                         0               0                0               0        0.0618255        -134.991         0.972985        -37.8717
                               0               0                0               0         0.972656        -37.8503        0.0619435        -134.837
                               0               0                0               0         0.220662         51.5208        0.0368245          30.065
                               0               0                0               0        0.0368487         30.0849          0.22068         51.5071
76.44                          0               0                0               0        0.0632123        -137.009         0.971731        -39.7261
                               0               0                0               0          0.97143        -39.7029        0.0633227        -136.859
