! TOUCHSTONE file generated by CST MICROWAVE STUDIO
! Date and time: Sun Jun 20 22:37:49 2021
! Project name: HIPS_d_sweep.cst
! Parameters = {fmax=120; fmin=75; b=0.46; d=23.05; a=0.63; phi=0; theta=0}
! Header version: 2018
! Port assignment regex: !\s*Touchstone port\s*([0-9]+)\s*=\s*(CST MWS port|CST DS port)\s*([0-9]+|Zmin|Zmax)\s*\(\"(.*)\"\)(\s*mode\s*([0-9]+))?.*
! Touchstone port assignment:
! Touchstone port 1 = CST MWS port Zmin ("") mode 1
! Touchstone port 2 = CST MWS port Zmin ("") mode 2
! Touchstone port 3 = CST MWS port Zmax ("") mode 1
! Touchstone port 4 = CST MWS port Zmax ("") mode 2
! S-Parameters are not renormalized. Unphysical impedance of 0 will be written to the file.
# GHz S MA R 0
75                             0               0                0               0        0.0276071        -54.7344         0.998945         35.6891
                               0               0                0               0         0.999095         35.6714        0.0277291         -54.635
                               0               0                0               0        0.0321475         125.634       0.00130513         7.67259
                               0               0                0               0       0.00144164         9.68579        0.0320145         125.386
75.045                         0               0                0               0        0.0236167        -54.7475         0.998908         34.9507
                               0               0                0               0          0.99941         34.8886        0.0239056        -56.3315
                               0               0                0               0        0.0345828          124.77       0.00150911        -15.0154
                               0               0                0               0       0.00174682        -11.4879        0.0344705         124.564
75.09                          0               0                0               0        0.0200074        -55.0368         0.998828         34.1168
                               0               0                0               0         0.999542         34.0321         0.020388        -57.9242
                               0               0                0               0        0.0373493         123.878       0.00174166         -26.627
                               0               0                0               0       0.00201264        -21.8342        0.0372475           123.7
75.135                         0               0                0               0        0.0168025        -55.6025         0.998721         33.1924
                               0               0                0               0         0.999528          33.101        0.0172141        -59.3961
                               0               0                0               0        0.0404384         122.941       0.00187882        -32.5128
                               0               0                0               0       0.00214572        -27.2528        0.0403396          122.78
75.18                          0               0                0               0        0.0140157        -56.4452         0.998596         32.1818
                               0               0                0               0         0.999402          32.095        0.0144144        -60.7299
                               0               0                0               0        0.0438406         121.947       0.00188636        -35.3242
                               0               0                0               0         0.002132        -29.9795        0.0437394         121.798
75.225                         0               0                0               0        0.0116529        -57.5658         0.998455         31.0893
                               0               0                0               0         0.999192         31.0141        0.0120113        -61.9124
                               0               0                0               0        0.0475452         120.886       0.00175945        -35.9029
                               0               0                0               0       0.00197822        -30.5963        0.0474382         120.747
75.27                          0               0                0               0        0.0097141        -58.9644         0.998297         29.9187
                               0               0                0               0         0.998921         29.8588        0.0100193        -62.9442
                               0               0                0               0        0.0515402         119.754       0.00150568        -33.8544
                               0               0                0               0       0.00169969        -28.5946        0.0514257         119.623
75.315                         0               0                0               0       0.00819418        -60.6336         0.998116         28.6737
                               0               0                0               0         0.998607         28.6302       0.00844525         -63.858
                               0               0                0               0        0.0558125         118.547       0.00114757        -26.6823
                               0               0                0               0       0.00132566        -21.6483          0.05569         118.423
75.36                          0               0                0               0       0.00708427        -62.5469         0.997905         27.3576
                               0               0                0               0         0.998263         27.3296       0.00728826        -64.7414
                               0               0                0               0        0.0603474         117.264      0.000765643        -4.74689
                               0               0                0               0      0.000939644        -2.19922        0.0602172         117.147
75.405                         0               0                0               0       0.00637229        -64.6436         0.997657         25.9736
                               0               0                0               0         0.997896         25.9588       0.00654091        -65.7467
                               0               0                0               0        0.0651288         115.906       0.00070338         47.1595
                               0               0                0               0      0.000831993          40.793        0.0649923         115.797
75.45                          0               0                0               0       0.00604345        -66.8295         0.997363         24.5248
                               0               0                0               0         0.997509           24.52       0.00619014        -67.0507
                               0               0                0               0        0.0701394         114.475       0.00123508         81.2582
                               0               0                0               0       0.00128879         75.5132        0.0699982         114.373
75.495                         0               0                0               0       0.00608079        -69.0061         0.997017         23.0141
                               0               0                0               0         0.997101         23.0157       0.00621886        -68.7616
                               0               0                0               0        0.0753603         112.973       0.00205158         92.5347
                               0               0                0               0       0.00207426         89.0517        0.0752163         112.879
75.54                          0               0                0               0       0.00646554        -71.1151         0.996611         21.4444
                               0               0                0               0         0.996669         21.4488        0.0066073        -70.8492
                               0               0                0               0        0.0807714         111.404       0.00301796         96.4323
                               0               0                0               0       0.00302588         94.0982        0.0806265         111.317
75.585                         0               0                0               0       0.00717763        -73.1557         0.996143         19.8187
                               0               0                0               0         0.996206         19.8226       0.00733372        -73.1754
                               0               0                0               0        0.0863514         109.772       0.00409874          97.498
                               0               0                0               0       0.00409545         95.7619        0.0862073         109.692
75.63                          0               0                0               0       0.00819591        -75.1612          0.99561         18.1399
                               0               0                0               0         0.995705         18.1406       0.00837456        -75.5863
                               0               0                0               0        0.0920778          108.08       0.00527784         97.1984
                               0               0                0               0       0.00526322         95.8061        0.0919359         108.007
75.675                         0               0                0               0       0.00949836        -77.1685         0.995011         16.4109
                               0               0                0               0         0.995159         16.4065       0.00970479        -77.9764
                               0               0                0               0        0.0979269         106.334       0.00654382         96.1265
                               0               0                0               0       0.00651701         94.9531        0.0977884         106.267
75.72                          0               0                0               0        0.0110623        -79.2017         0.994349         14.6347
                               0               0                0               0         0.994561         14.6241        0.0112984        -80.2969
                               0               0                0               0         0.103874         104.537        0.0078864         94.5667
                               0               0                0               0       0.00784682          93.547          0.10374         104.476
75.765                         0               0                0               0        0.0128647        -81.2705         0.993628         12.8147
                               0               0                0               0         0.993907         12.7977        0.0131292        -82.5377
                               0               0                0               0         0.109895         102.694       0.00929543         92.6734
                               0               0                0               0       0.00924317         91.7722         0.109765         102.638
75.81                          0               0                0               0         0.014882        -83.3744         0.992853         10.9542
                               0               0                0               0         0.993193         10.9312         0.015171        -84.7079
                               0               0                0               0         0.115963         100.809        0.0107605         90.5396
                               0               0                0               0        0.0106965         89.7371         0.115837         100.758
75.855                         0               0                0               0         0.017091        -85.5077         0.992032         9.05666
                               0               0                0               0         0.992419         9.02896        0.0173984        -86.8237
                               0               0                0               0         0.122053          98.886         0.012271         88.2262
                               0               0                0               0        0.0121967         87.5104          0.12193         98.8393
75.9                           0               0                0               0        0.0194684        -87.6627         0.991171         7.12575
                               0               0                0               0         0.991587         7.09498        0.0197869        -88.9013
                               0               0                0               0         0.128138         96.9299         0.013816         85.7757
                               0               0                0               0        0.0137334         85.1387         0.128018         96.8872
75.945                         0               0                0               0        0.0219911        -89.8313         0.990278         5.16532
                               0               0                0               0         0.990701         5.13335        0.0223129        -90.9553
                               0               0                0               0         0.134192         94.9445        0.0153845         83.2195
                               0               0                0               0        0.0152959         82.6554         0.134074         94.9054
75.99                          0               0                0               0        0.0246366        -92.0062         0.989361         3.17932
                               0               0                0               0         0.989767         3.14804        0.0249538        -92.9974
                               0               0                0               0         0.140188         92.9339        0.0169656         80.5819
                               0               0                0               0        0.0168731         80.0858         0.140073         92.8981
76.035                         0               0                0               0        0.0273828        -94.1813         0.988425         1.17179
                               0               0                0               0         0.988794         1.14286        0.0276883        -95.0364
                               0               0                0               0         0.146102         90.9019        0.0185484         77.8823
                               0               0                0               0        0.0184538         77.4494         0.145988         90.8692
76.08                          0               0                0               0        0.0302078        -96.3516         0.987474       -0.853175
                               0               0                0               0         0.987791       -0.878496        0.0304961        -97.0786
                               0               0                0               0         0.151909         88.8524        0.0201225         75.1364
                               0               0                0               0        0.0200269         74.7624         0.151796         88.8225
76.125                         0               0                0               0        0.0330907        -98.5138         0.986512        -2.89149
                               0               0                0               0         0.986766        -2.91248        0.0333576        -99.1283
                               0               0                0               0         0.157584          86.789        0.0216778         72.3571
                               0               0                0               0        0.0215816         72.0379         0.157472         86.7617
76.17                          0               0                0               0        0.0360111        -100.665         0.985538        -4.93916
                               0               0                0               0         0.985726        -4.95569        0.0362544        -101.188
                               0               0                0               0         0.163105         84.7153        0.0232047          69.555
                               0               0                0               0        0.0231074         69.2871         0.162995         84.6903
76.215                         0               0                0               0        0.0389493        -102.805         0.984554        -6.99231
                               0               0                0               0          0.98468        -7.00481        0.0391688        -103.257
                               0               0                0               0          0.16845         82.6347        0.0246942         66.7391
                               0               0                0               0        0.0245948         66.5197         0.168342         82.6117
76.26                          0               0                0               0        0.0418865        -104.931         0.983557        -9.04729
                               0               0                0               0         0.983632        -9.05664        0.0420838        -105.335
                               0               0                0               0         0.173599         80.5506        0.0261382         63.9168
                               0               0                0               0        0.0260348         63.7438         0.173495         80.5294
76.305                         0               0                0               0         0.044805        -107.045         0.982548        -11.1007
                               0               0                0               0         0.982586        -11.1081        0.0449829         -107.42
                               0               0                0               0         0.178535         78.4664        0.0275287         61.0944
                               0               0                0               0        0.0274195         60.9668         0.178436         78.4466
76.35                          0               0                0               0        0.0476884        -109.144         0.981527        -13.1494
                               0               0                0               0         0.981545         -13.156        0.0478501        -109.506
                               0               0                0               0         0.183243         76.3853         0.028859         58.2776
                               0               0                0               0        0.0287424         58.1953         0.183149         76.3665
76.395                         0               0                0               0        0.0505215        -111.229         0.980498        -15.1907
                               0               0                0               0         0.980512        -15.1976        0.0506699        -111.587
                               0               0                0               0         0.187709         74.3105        0.0301228         55.4717
                               0               0                0               0        0.0299979         55.4351         0.187622         74.2924
76.44                          0               0                0               0         0.053291        -113.296         0.979473        -17.2221
                               0               0                0               0          0.97949        -17.2298        0.0534273        -113.656
