! TOUCHSTONE file generated by CST MICROWAVE STUDIO
! Date and time: Sun Jun 20 22:37:29 2021
! Project name: HIPS_d_sweep.cst
! Parameters = {fmax=120; fmin=75; b=0.46; d=21.2; a=0.63; phi=0; theta=0}
! Header version: 2018
! Port assignment regex: !\s*Touchstone port\s*([0-9]+)\s*=\s*(CST MWS port|CST DS port)\s*([0-9]+|Zmin|Zmax)\s*\(\"(.*)\"\)(\s*mode\s*([0-9]+))?.*
! Touchstone port assignment:
! Touchstone port 1 = CST MWS port Zmin ("") mode 1
! Touchstone port 2 = CST MWS port Zmin ("") mode 2
! Touchstone port 3 = CST MWS port Zmax ("") mode 1
! Touchstone port 4 = CST MWS port Zmax ("") mode 2
! S-Parameters are not renormalized. Unphysical impedance of 0 will be written to the file.
# GHz S MA R 0
75                             0               0                0               0         0.106823         -21.535         0.989243        -113.678
                               0               0                0               0         0.989313        -113.689         0.106851        -21.5047
                               0               0                0               0        0.0885185        -20.4633        0.0470394        -11.9585
                               0               0                0               0        0.0470362         -11.873        0.0886369        -20.4361
75.045                         0               0                0               0         0.110316        -22.3969         0.989281        -114.393
                               0               0                0               0         0.989329        -114.401         0.110362        -22.4095
                               0               0                0               0        0.0862367        -20.9723        0.0475535        -12.7478
                               0               0                0               0        0.0475199        -12.6726        0.0863612        -20.9431
75.09                          0               0                0               0         0.113568        -23.3094         0.989236        -115.179
                               0               0                0               0          0.98927        -115.186         0.113629         -23.345
                               0               0                0               0        0.0836931        -21.5322        0.0479397        -13.6474
                               0               0                0               0        0.0478899        -13.5798         0.083821        -21.5017
75.135                         0               0                0               0         0.116541        -24.2772         0.989144        -116.036
                               0               0                0               0         0.989173        -116.043         0.116613        -24.3203
                               0               0                0               0        0.0808893        -22.1441        0.0482015        -14.6664
                               0               0                0               0        0.0481466        -14.6032        0.0810185        -22.1129
75.18                          0               0                0               0         0.119205        -25.3049         0.989039        -116.965
                               0               0                0               0         0.989069        -116.972          0.11928        -25.3442
                               0               0                0               0        0.0778267        -22.8077        0.0483427        -15.8114
                               0               0                0               0        0.0482905        -15.7492        0.0779558        -22.7763
75.225                         0               0                0               0         0.121533        -26.3964         0.988947        -117.964
                               0               0                0               0         0.988982        -117.972         0.121605        -26.4247
                               0               0                0               0        0.0745067        -23.5215         0.048367        -17.0864
                               0               0                0               0        0.0483226        -17.0225        0.0746345        -23.4902
75.27                          0               0                0               0         0.123506        -27.5549         0.988889        -119.033
                               0               0                0               0         0.988935        -119.041         0.123567        -27.5684
                               0               0                0               0        0.0709305        -24.2824        0.0482775        -18.4936
                               0               0                0               0        0.0482436        -18.4262        0.0710564        -24.2515
75.315                         0               0                0               0         0.125109        -28.7827         0.988884        -120.169
                               0               0                0               0          0.98894        -120.179         0.125154        -28.7805
                               0               0                0               0        0.0670994        -25.0853        0.0480767        -20.0335
                               0               0                0               0        0.0480539        -19.9616        0.0672232        -25.0548
75.36                          0               0                0               0         0.126335        -30.0809         0.988941        -121.373
                               0               0                0               0         0.989009        -121.383         0.126362        -30.0647
                               0               0                0               0         0.063015        -25.9225        0.0477666        -21.7053
                               0               0                0               0         0.047754        -21.6291        0.0631369        -25.8924
75.405                         0               0                0               0         0.127183        -31.4497         0.989067        -122.641
                               0               0                0               0         0.989145        -122.652         0.127192        -31.4227
                               0               0                0               0        0.0586796        -26.7826        0.0473486        -23.5074
                               0               0                0               0         0.047344        -23.4276        0.0587999        -26.7527
75.45                          0               0                0               0         0.127658        -32.8883         0.989263        -123.972
                               0               0                0               0         0.989348        -123.983         0.127652        -32.8544
                               0               0                0               0         0.054096         -27.649        0.0468238        -25.4371
                               0               0                0               0        0.0468242        -25.3555        0.0542154         -27.619
75.495                         0               0                0               0         0.127768        -34.3947         0.989526        -125.363
                               0               0                0               0         0.989614        -125.374         0.127754        -34.3583
                               0               0                0               0        0.0492683         -28.497        0.0461928        -27.4915
                               0               0                0               0        0.0461947        -27.4101        0.0493875        -28.4665
75.54                          0               0                0               0         0.127528        -35.9659         0.989849        -126.812
                               0               0                0               0         0.989935        -126.823         0.127515        -35.9313
                               0               0                0               0        0.0442022        -29.2885        0.0454564        -29.6671
                               0               0                0               0        0.0454561        -29.5883        0.0443222        -29.2571
75.585                         0               0                0               0         0.126956        -37.5983          0.99022        -128.317
                               0               0                0               0         0.990299        -128.328         0.126953        -37.5691
                               0               0                0               0        0.0389057         -29.962        0.0446153          -31.96
                               0               0                0               0        0.0446093        -31.8864        0.0390273        -29.9296
75.63                          0               0                0               0          0.12607        -39.2877         0.990626        -129.875
                               0               0                0               0         0.990694        -129.885         0.126087        -39.2662
                               0               0                0               0        0.0333897         -30.412        0.0436708        -34.3666
                               0               0                0               0        0.0436558        -34.3006        0.0335139        -30.3787
75.675                         0               0                0               0         0.124892         -41.029         0.991052        -131.482
                               0               0                0               0         0.991103        -131.491         0.124939        -41.0167
                               0               0                0               0        0.0276707          -30.44        0.0426246        -36.8831
                               0               0                0               0         0.042598        -36.8269        0.0277984        -30.4074
75.72                          0               0                0               0         0.123444        -42.8172         0.991481        -133.136
                               0               0                0               0         0.991512        -133.145         0.123529         -42.814
                               0               0                0               0        0.0217756        -29.6226        0.0414789        -39.5062
                               0               0                0               0         0.041439        -39.4618        0.0219075        -29.5969
75.765                         0               0                0               0         0.121748        -44.6469         0.991895        -134.833
                               0               0                0               0         0.991903        -134.842         0.121878        -44.6514
                               0               0                0               0        0.0157587        -26.8716        0.0402369        -42.2331
                               0               0                0               0         0.040183        -42.2021         0.015895        -26.8767
75.81                          0               0                0               0         0.119827        -46.5126          0.99228        -136.571
                               0               0                0               0         0.992263         -136.58         0.120004        -46.5221
                               0               0                0               0       0.00978525        -18.4091        0.0389026        -45.0621
                               0               0                0               0        0.0388349        -45.0456         0.009923        -18.5673
75.855                         0               0                0               0           0.1177        -48.4091         0.992621        -138.346
                               0               0                0               0         0.992579        -138.355         0.117926        -48.4197
                               0               0                0               0       0.00484573          16.007        0.0374809        -47.9927
                               0               0                0               0        0.0374007        -47.9914       0.00494355          14.763
75.9                           0               0                0               0         0.115388        -50.3312         0.992908        -140.154
                               0               0                0               0         0.992841        -140.163         0.115658        -50.3384
                               0               0                0               0       0.00615588         87.9178        0.0359775         -51.026
                               0               0                0               0        0.0358874        -51.0403       0.00607801         86.7388
75.945                         0               0                0               0         0.112908        -52.2743         0.993132        -141.991
                               0               0                0               0         0.993042        -142.002         0.113216        -52.2729
                               0               0                0               0         0.012021         109.297        0.0343991        -54.1655
                               0               0                0               0        0.0343023        -54.1955         0.011896         108.893
75.99                          0               0                0               0         0.110278        -54.2341          0.99329        -143.855
                               0               0                0               0         0.993182        -143.867         0.110612        -54.2193
                               0               0                0               0        0.0186506         115.017        0.0327534        -57.4177
                               0               0                0               0        0.0326539        -57.4631        0.0185129         114.813
76.035                         0               0                0               0         0.107513        -56.2072         0.993386        -145.742
                               0               0                0               0         0.993264        -145.755          0.10786        -56.1748
                               0               0                0               0        0.0255218         116.731        0.0310489        -60.7927
                               0               0                0               0        0.0309509         -60.853         0.025379         116.605
76.08                          0               0                0               0         0.104628        -58.1907         0.993425        -147.648
                               0               0                0               0         0.993296        -147.662         0.104972        -58.1384
                               0               0                0               0        0.0325174         116.903        0.0292947        -64.3056
                               0               0                0               0        0.0292026        -64.3802        0.0323729         116.817
76.125                         0               0                0               0         0.101636        -60.1826         0.993421        -149.569
                               0               0                0               0         0.993291        -149.584         0.101961        -60.1105
                               0               0                0               0        0.0395864         116.329        0.0275013        -67.9773
                               0               0                0               0        0.0274187        -68.0655        0.0394423         116.266
76.17                          0               0                0               0        0.0985513        -62.1821          0.99339        -151.502
                               0               0                0               0         0.993266        -151.517        0.0988421        -62.0934
                               0               0                0               0        0.0466957         115.339        0.0256798        -71.8364
                               0               0                0               0        0.0256097        -71.9376        0.0465539          115.29
76.215                         0               0                0               0        0.0953897         -64.189          0.99335        -153.444
                               0               0                0               0         0.993237        -153.459        0.0956362        -64.0907
                               0               0                0               0        0.0538195         114.096        0.0238425        -75.9208
                               0               0                0               0        0.0237865        -76.0354        0.0536813         114.057
76.26                          0               0                0               0        0.0921687        -66.2038         0.993318        -155.391
                               0               0                0               0         0.993223        -155.405        0.0923672        -66.1059
                               0               0                0               0        0.0609352          112.69        0.0220033        -80.2804
                               0               0                0               0        0.0219615          -80.41        0.0608014         112.659
76.305                         0               0                0               0        0.0889087        -68.2268         0.993311        -157.339
                               0               0                0               0         0.993235        -157.352        0.0890648         -68.141
                               0               0                0               0        0.0680215         111.175        0.0201775        -84.9796
                               0               0                0               0        0.0201483        -85.1291        0.0678925         111.148
76.35                          0               0                0               0        0.0856342         -70.257         0.993333        -159.285
                               0               0                0               0         0.993277        -159.297        0.0857624         -70.194
                               0               0                0               0         0.075058         109.584        0.0183823        -90.1012
                               0               0                0               0        0.0183632        -90.2806        0.0749337         109.561
76.395                         0               0                0               0         0.082373        -72.2901          0.99338        -161.227
                               0               0                0               0          0.99334        -161.237        0.0824946        -72.2561
                               0               0                0               0        0.0820239         107.938        0.0166372        -95.7497
                               0               0                0               0        0.0166253        -95.9771        0.0819034         107.918
76.44                          0               0                0               0         0.079155        -74.3161         0.993427        -163.161
                               0               0                0               0         0.993396         -163.17        0.0792924        -74.3101
