! TOUCHSTONE file generated by CST MICROWAVE STUDIO
! Date and time: Sun Jun 20 22:37:16 2021
! Project name: HIPS_d_sweep.cst
! Parameters = {fmax=120; fmin=75; b=0.46; d=19.8; a=0.63; phi=0; theta=0}
! Header version: 2018
! Port assignment regex: !\s*Touchstone port\s*([0-9]+)\s*=\s*(CST MWS port|CST DS port)\s*([0-9]+|Zmin|Zmax)\s*\(\"(.*)\"\)(\s*mode\s*([0-9]+))?.*
! Touchstone port assignment:
! Touchstone port 1 = CST MWS port Zmin ("") mode 1
! Touchstone port 2 = CST MWS port Zmin ("") mode 2
! Touchstone port 3 = CST MWS port Zmax ("") mode 1
! Touchstone port 4 = CST MWS port Zmax ("") mode 2
! S-Parameters are not renormalized. Unphysical impedance of 0 will be written to the file.
# GHz S MA R 0
75                             0               0                0               0         0.204024         134.899         0.977139         44.7309
                               0               0                0               0         0.977208         44.7352          0.20396           134.9
                               0               0                0               0        0.0160909         3.07203        0.0570517        -43.1452
                               0               0                0               0        0.0570544        -43.0904        0.0160018         3.04733
75.045                         0               0                0               0         0.203821         133.534         0.977457         43.4198
                               0               0                0               0           0.9775          43.427         0.203753          133.53
                               0               0                0               0        0.0136041         13.2089        0.0566571        -45.1334
                               0               0                0               0         0.056637        -45.0724         0.013513         13.2584
75.09                          0               0                0               0         0.203586         132.163         0.977743         42.1022
                               0               0                0               0         0.977762         42.1122         0.203513         132.156
                               0               0                0               0        0.0118213           27.83        0.0562294         -47.181
                               0               0                0               0        0.0561882        -47.1137         0.011735         28.0139
75.135                         0               0                0               0          0.20332         130.787         0.977998         40.7781
                               0               0                0               0         0.977996         40.7906          0.20324         130.776
                               0               0                0               0        0.0111784         46.4143         0.055767        -49.2903
                               0               0                0               0        0.0557065        -49.2163        0.0111093         46.7586
75.18                          0               0                0               0         0.203021         129.405         0.978221         39.4476
                               0               0                0               0         0.978201         39.4625         0.202936         129.392
                               0               0                0               0        0.0119496         65.1946        0.0552685         -51.463
                               0               0                0               0        0.0551904        -51.3822        0.0119077          65.621
75.225                         0               0                0               0         0.202689         128.019         0.978412         38.1109
                               0               0                0               0         0.978376         38.1279         0.202599         128.003
                               0               0                0               0        0.0139772         80.1764        0.0547324        -53.7012
                               0               0                0               0        0.0546388        -53.6135        0.0139627         80.5816
75.27                          0               0                0               0         0.202326         126.627         0.978571         36.7678
                               0               0                0               0         0.978523         36.7867         0.202229         126.609
                               0               0                0               0        0.0168759         90.5664        0.0541575        -56.0069
                               0               0                0               0        0.0540503        -55.9125        0.0168828         90.9097
75.315                         0               0                0               0          0.20193          125.23         0.978698         35.4186
                               0               0                0               0          0.97864         35.4392         0.201828         125.211
                               0               0                0               0        0.0203278         97.4295        0.0535426        -58.3822
                               0               0                0               0        0.0534238        -58.2811        0.0203505         97.7116
75.36                          0               0                0               0         0.201502         123.829         0.978794         34.0632
                               0               0                0               0         0.978728         34.0854         0.201394         123.809
                               0               0                0               0        0.0241402         101.922        0.0528868         -60.829
                               0               0                0               0        0.0527583        -60.7216        0.0241745         102.154
75.405                         0               0                0               0         0.201041         122.422         0.978859         32.7018
                               0               0                0               0         0.978787         32.7252         0.200928         122.402
                               0               0                0               0        0.0282038         104.848        0.0521891        -63.3494
                               0               0                0               0        0.0520533        -63.2363        0.0282469         105.041
75.45                          0               0                0               0         0.200548         121.011         0.978892         31.3344
                               0               0                0               0         0.978816         31.3588          0.20043         120.991
                               0               0                0               0         0.032455         106.716        0.0514493        -65.9456
                               0               0                0               0        0.0513081        -65.8272        0.0325049          106.88
75.495                         0               0                0               0         0.200022         119.596         0.978894          29.961
                               0               0                0               0         0.978817         29.9863           0.1999         119.575
                               0               0                0               0        0.0368547         107.847         0.050667        -68.6196
                               0               0                0               0        0.0505226        -68.4968        0.0369101         107.986
75.54                          0               0                0               0         0.199464         118.175         0.978866         28.5817
                               0               0                0               0         0.978789         28.6077         0.199337         118.156
                               0               0                0               0        0.0413769         108.444        0.0498424        -71.3735
                               0               0                0               0        0.0496968        -71.2472        0.0414368         108.565
75.585                         0               0                0               0         0.198873          116.75         0.978807         27.1966
                               0               0                0               0         0.978733          27.223         0.198742         116.732
                               0               0                0               0         0.046003         108.643        0.0489762        -74.2095
                               0               0                0               0        0.0488313        -74.0808        0.0460665         108.748
75.63                          0               0                0               0         0.198249          115.32         0.978718         25.8057
                               0               0                0               0         0.978648         25.8323         0.198115         115.304
                               0               0                0               0        0.0507182         108.537        0.0480691          -77.13
                               0               0                0               0         0.047927        -77.0002        0.0507846          108.63
75.675                         0               0                0               0         0.197592         113.886           0.9786          24.409
                               0               0                0               0         0.978536         24.4357         0.197456         113.871
                               0               0                0               0        0.0555103          108.19        0.0471228         -80.137
                               0               0                0               0        0.0469852        -80.0076        0.0555791         108.273
75.72                          0               0                0               0         0.196901         112.447         0.978453         23.0067
                               0               0                0               0         0.978395         23.0332         0.196764         112.435
                               0               0                0               0        0.0603682          107.65        0.0461392        -83.2332
                               0               0                0               0        0.0460079        -83.1058         0.060439         107.724
75.765                         0               0                0               0         0.196177         111.003         0.978277         21.5987
                               0               0                0               0         0.978228         21.6248         0.196039         110.994
                               0               0                0               0        0.0652815         106.951        0.0451207         -86.421
                               0               0                0               0        0.0449973        -86.2974        0.0653537         107.017
75.81                          0               0                0               0         0.195419         109.555         0.978074         20.1851
                               0               0                0               0         0.978034         20.2106         0.195281         109.549
                               0               0                0               0        0.0702399         106.119        0.0440705        -89.7031
                               0               0                0               0        0.0439565        -89.5852        0.0703132         106.178
75.855                         0               0                0               0         0.194626         108.102         0.977843         18.7659
                               0               0                0               0         0.977813         18.7906          0.19449         108.099
                               0               0                0               0        0.0752331         105.175        0.0429923        -93.0823
                               0               0                0               0        0.0428889        -92.9722        0.0753071         105.228
75.9                           0               0                0               0         0.193798         106.644         0.977586         17.3411
                               0               0                0               0         0.977566         17.3648         0.193664         106.645
                               0               0                0               0        0.0802507         104.133        0.0418903        -96.5615
                               0               0                0               0        0.0417987        -96.4613        0.0803251         104.182
75.945                         0               0                0               0         0.192934         105.181         0.977303         15.9107
                               0               0                0               0         0.977294         15.9332         0.192803         105.186
                               0               0                0               0         0.085282         103.008        0.0407692        -100.144
                               0               0                0               0        0.0406904        -100.056        0.0853564         103.052
75.99                          0               0                0               0         0.192034         103.714         0.976994         14.4748
                               0               0                0               0         0.976997         14.4959         0.191906         103.722
                               0               0                0               0        0.0903158          101.81        0.0396346        -103.833
                               0               0                0               0        0.0395694        -103.759          0.09039          101.85
76.035                         0               0                0               0         0.191095         102.241         0.976661         13.0332
                               0               0                0               0         0.976675         13.0528         0.190973         102.253
                               0               0                0               0        0.0953408         100.548        0.0384923        -107.632
                               0               0                0               0        0.0384415        -107.575        0.0954145         100.585
76.08                          0               0                0               0         0.190117         100.763         0.976303         11.5861
                               0               0                0               0         0.976329         11.6039         0.190002          100.78
                               0               0                0               0         0.100345         99.2283        0.0373489        -111.544
                               0               0                0               0        0.0373128        -111.506         0.100418         99.2627
76.125                         0               0                0               0         0.189099         99.2797         0.975922         10.1332
                               0               0                0               0         0.975959         10.1491          0.18899         99.3008
                               0               0                0               0         0.105318          97.859        0.0362111        -115.574
                               0               0                0               0        0.0361903        -115.556          0.10539         97.8909
76.17                          0               0                0               0         0.188037         97.7912         0.975518         8.67467
                               0               0                0               0         0.975565         8.68843         0.187938         97.8168
                               0               0                0               0         0.110246         96.4453        0.0350862        -119.723
                               0               0                0               0         0.035081        -119.727         0.110317         96.4752
76.215                         0               0                0               0         0.186932         96.2973         0.975091         7.21027
                               0               0                0               0         0.975147         7.22174         0.186842         96.3274
                               0               0                0               0         0.115118         94.9926        0.0339819        -123.995
                               0               0                0               0        0.0339923        -124.023         0.115187         95.0207
76.26                          0               0                0               0         0.185779         94.7981         0.974642         5.73993
                               0               0                0               0         0.974706         5.74895           0.1857         94.8327
                               0               0                0               0         0.119921         93.5055        0.0329058        -128.392
                               0               0                0               0        0.0329321        -128.445          0.11999         93.5321
76.305                         0               0                0               0         0.184576         93.2936         0.974171         4.26352
                               0               0                0               0         0.974242         4.26992          0.18451         93.3326
                               0               0                0               0         0.124644         91.9886         0.031866        -132.916
                               0               0                0               0         0.031908        -132.994         0.124711         92.0139
76.35                          0               0                0               0          0.18332          91.784         0.973677         2.78085
                               0               0                0               0         0.973752         2.78449         0.183267         91.8272
                               0               0                0               0         0.129275         90.4458        0.0308701        -137.565
                               0               0                0               0        0.0309279        -137.669         0.129341         90.4701
76.395                         0               0                0               0         0.182007         90.2694         0.973159         1.29174
                               0               0                0               0         0.973238         1.29248         0.181969         90.3167
                               0               0                0               0         0.133803          88.881        0.0299259        -142.337
                               0               0                0               0        0.0299994        -142.466         0.133868         88.9045
76.44                          0               0                0               0         0.180633         88.7502         0.972618       -0.204075
                               0               0                0               0         0.972697       -0.206362         0.180611         88.8013
