! TOUCHSTONE file generated by CST MICROWAVE STUDIO
! Date and time: Sun Jun 20 22:38:13 2021
! Project name: HIPS_d_sweep.cst
! Parameters = {fmax=120; fmin=75; b=0.46; d=25.2; a=0.63; phi=0; theta=0}
! Header version: 2018
! Port assignment regex: !\s*Touchstone port\s*([0-9]+)\s*=\s*(CST MWS port|CST DS port)\s*([0-9]+|Zmin|Zmax)\s*\(\"(.*)\"\)(\s*mode\s*([0-9]+))?.*
! Touchstone port assignment:
! Touchstone port 1 = CST MWS port Zmin ("") mode 1
! Touchstone port 2 = CST MWS port Zmin ("") mode 2
! Touchstone port 3 = CST MWS port Zmax ("") mode 1
! Touchstone port 4 = CST MWS port Zmax ("") mode 2
! S-Parameters are not renormalized. Unphysical impedance of 0 will be written to the file.
# GHz S MA R 0
75                             0               0                0               0          0.17173           58.62         0.960602         151.651
                               0               0                0               0           0.9606         151.652          0.17171         58.6495
                               0               0                0               0         0.211036          59.565        0.0547404         18.3473
                               0               0                0               0         0.054786         18.3927         0.211105         59.5533
75.045                         0               0                0               0         0.167234         57.7588         0.961183         150.846
                               0               0                0               0         0.961168         150.851         0.167233         57.7947
                               0               0                0               0         0.211619          58.783        0.0537003         17.7971
                               0               0                0               0        0.0537414         17.8376         0.211669          58.772
75.09                          0               0                0               0         0.163263         56.8278         0.961718         149.958
                               0               0                0               0           0.9617         149.964         0.163267         56.8661
                               0               0                0               0          0.21229         57.9582        0.0527911         17.1421
                               0               0                0               0        0.0528319          17.182         0.212334         57.9489
75.135                         0               0                0               0         0.159779         55.8259         0.962197         148.988
                               0               0                0               0         0.962181         148.994          0.15978         55.8637
                               0               0                0               0         0.213062         57.0758        0.0519942         16.3678
                               0               0                0               0        0.0520374         16.4093          0.21311         57.0674
75.18                          0               0                0               0         0.156748         54.7522         0.962612         147.937
                               0               0                0               0           0.9626         147.941         0.156744         54.7879
                               0               0                0               0         0.213922           56.12        0.0512924         15.4627
                               0               0                0               0        0.0513395         15.5069          0.21398         56.1108
75.225                         0               0                0               0         0.154142         53.6065         0.962957         146.807
                               0               0                0               0         0.962949         146.808         0.154132         53.6392
                               0               0                0               0         0.214838          55.078        0.0506703         14.4184
                               0               0                0               0        0.0507218         14.4655         0.214904         55.0665
75.27                          0               0                0               0          0.15194         52.3892         0.963227         145.598
                               0               0                0               0         0.963222         145.597         0.151925         52.4187
                               0               0                0               0         0.215758         53.9424         0.050114         13.2289
                               0               0                0               0        0.0501694         13.2783         0.215828         53.9282
75.315                         0               0                0               0         0.150122         51.1013         0.963421         144.312
                               0               0                0               0         0.963417         144.309         0.150104         51.1281
                               0               0                0               0         0.216631         52.7122         0.049611         11.8901
                               0               0                0               0        0.0496697         11.9411           0.2167          52.696
75.36                          0               0                0               0         0.148671         49.7441         0.963539         142.951
                               0               0                0               0         0.963533         142.948         0.148654         49.7693
                               0               0                0               0         0.217412         51.3916        0.0491507         10.3995
                               0               0                0               0        0.0492114         10.4511         0.217477         51.3746
75.405                         0               0                0               0         0.147574           48.32         0.963586         141.518
                               0               0                0               0         0.963574         141.515         0.147561         48.3447
                               0               0                0               0         0.218071         49.9874        0.0487235         8.75565
                               0               0                0               0        0.0487848         8.80713         0.218131          49.971
75.45                          0               0                0               0         0.146821         46.8318         0.963567         140.016
                               0               0                0               0         0.963547         140.014         0.146812         46.8573
                               0               0                0               0         0.218587          48.507         0.048321         6.95831
                               0               0                0               0        0.0483818         7.00882         0.218645         48.4921
75.495                         0               0                0               0         0.146401          45.283         0.963492         138.446
                               0               0                0               0         0.963461         138.445         0.146398         45.3104
                               0               0                0               0         0.218951         46.9569        0.0479361         5.00768
                               0               0                0               0        0.0479949         5.05654         0.219009          46.944
75.54                          0               0                0               0         0.146306         43.6773         0.963372         136.811
                               0               0                0               0         0.963327         136.813          0.14631         43.7077
                               0               0                0               0         0.219157         45.3427        0.0475621         2.90444
                               0               0                0               0         0.047618         2.95113         0.219216          45.332
75.585                         0               0                0               0         0.146527         42.0194         0.963219         135.115
                               0               0                0               0         0.963159          135.12         0.146537         42.0533
                               0               0                0               0           0.2192         43.6686        0.0471935        0.649523
                               0               0                0               0        0.0472454         0.69369         0.219263         43.6598
75.63                          0               0                0               0         0.147057         40.3138          0.96305         133.361
                               0               0                0               0         0.962973         133.368         0.147073         40.3516
                               0               0                0               0         0.219076          41.938        0.0468248        -1.75603
                               0               0                0               0         0.046872        -1.71454         0.219142         41.9307
75.675                         0               0                0               0         0.147887         38.5656         0.962879         131.551
                               0               0                0               0         0.962786         131.561         0.147908         38.6071
                               0               0                0               0         0.218777         40.1537        0.0464512        -4.31115
                               0               0                0               0        0.0464933        -4.27233         0.218846         40.1474
75.72                          0               0                0               0         0.149009         36.7797         0.962724         129.689
                               0               0                0               0         0.962615           129.7         0.149032         36.8243
                               0               0                0               0         0.218293          38.318        0.0460684         -7.0149
                               0               0                0               0         0.046105        -6.97855         0.218365         38.3124
75.765                         0               0                0               0         0.150413         34.9609           0.9626         127.778
                               0               0                0               0         0.962478          127.79         0.150437         35.0077
                               0               0                0               0         0.217613         36.4334        0.0456719        -9.86646
                               0               0                0               0        0.0457029        -9.83223         0.217686         36.4281
75.81                          0               0                0               0         0.152087         33.1138         0.962523         125.822
                               0               0                0               0         0.962392         125.833         0.152111         33.1614
                               0               0                0               0         0.216723         34.5023        0.0452578        -12.8653
                               0               0                0               0        0.0452831        -12.8327         0.216796         34.4969
75.855                         0               0                0               0         0.154018         31.2424         0.962507         123.823
                               0               0                0               0         0.962371         123.833         0.154042         31.2895
                               0               0                0               0         0.215607         32.5273        0.0448221        -16.0111
                               0               0                0               0        0.0448419        -15.9795         0.215678         32.5216
75.9                           0               0                0               0         0.156193         29.3502         0.962563         121.785
                               0               0                0               0          0.96243         121.793         0.156216         29.3955
                               0               0                0               0         0.214249         30.5114         0.044361        -19.3039
                               0               0                0               0        0.0443756        -19.2727         0.214316         30.5053
75.945                         0               0                0               0         0.158595         27.4401           0.9627         119.712
                               0               0                0               0         0.962576         119.717         0.158617         27.4822
                               0               0                0               0         0.212631         28.4578        0.0438708        -22.7443
                               0               0                0               0        0.0438805        -22.7126         0.212694         28.4514
75.99                          0               0                0               0         0.161206         25.5141         0.962922         117.607
                               0               0                0               0         0.962816         117.608         0.161228          25.552
                               0               0                0               0         0.210738         26.3705        0.0433482        -26.3331
                               0               0                0               0        0.0433534        -26.3001         0.210794         26.3637
76.035                         0               0                0               0         0.164006         23.5736          0.96323         115.474
                               0               0                0               0         0.963148          115.47          0.16403         23.6065
                               0               0                0               0         0.208552         24.2536        0.0427901        -30.0716
                               0               0                0               0        0.0427911        -30.0368         0.208602         24.2466
76.08                          0               0                0               0         0.166974         21.6189         0.963617         113.316
                               0               0                0               0         0.963568         113.307         0.167001         21.6466
                               0               0                0               0         0.206061         22.1119        0.0421935        -33.9617
                               0               0                0               0        0.0421907        -33.9244         0.206104         22.1049
76.125                         0               0                0               0         0.170087         19.6499         0.964074         111.136
                               0               0                0               0          0.96406         111.123         0.170119         19.6726
                               0               0                0               0         0.203252         19.9508        0.0415562        -38.0059
                               0               0                0               0          0.04155        -37.9657         0.203289         19.9439
76.17                          0               0                0               0          0.17332         17.6657         0.964581          108.94
                               0               0                0               0         0.964606         108.922         0.173359          17.684
                               0               0                0               0         0.200116         17.7761        0.0408764        -42.2071
                               0               0                0               0        0.0408671        -42.1639         0.200147         17.7696
76.215                         0               0                0               0         0.176649          15.665         0.965116         106.729
                               0               0                0               0         0.965179         106.708         0.176695         15.6798
                               0               0                0               0         0.196648         15.5941         0.040153        -46.5692
                               0               0                0               0         0.040141        -46.5229         0.196674         15.5883
76.26                          0               0                0               0         0.180048         13.6459         0.965649         104.508
                               0               0                0               0         0.965743         104.485           0.1801         13.6586
                               0               0                0               0         0.192847         13.4119         0.039386        -51.0965
                               0               0                0               0        0.0393714        -51.0475         0.192868         13.4068
76.305                         0               0                0               0         0.183489         11.6066         0.966142          102.28
                               0               0                0               0         0.966259         102.256         0.183548         11.6187
                               0               0                0               0         0.188713         11.2367        0.0385763         -55.794
                               0               0                0               0        0.0385592        -55.7431         0.188732         11.2326
76.35                          0               0                0               0         0.186947         9.54476         0.966554         100.049
                               0               0                0               0         0.966682         100.025          0.18701         9.55795
                               0               0                0               0         0.184255         9.07639        0.0377258        -60.6676
                               0               0                0               0        0.0377064        -60.6159         0.184272         9.07338
76.395                         0               0                0               0         0.190394         7.45847         0.966839         97.8171
                               0               0                0               0         0.966962         97.7953         0.190459         7.47438
                               0               0                0               0         0.179483         6.93933         0.036838        -65.7238
                               0               0                0               0        0.0368164        -65.6728           0.1795         6.93738
76.44                          0               0                0               0         0.193804         5.34586         0.966949         95.5884
                               0               0                0               0         0.967048         95.5696         0.193868         5.36603
