! TOUCHSTONE file generated by CST MICROWAVE STUDIO
! Date and time: Sun Jun 20 22:38:18 2021
! Project name: HIPS_d_sweep.cst
! Parameters = {fmax=120; fmin=75; b=0.46; d=25.7; a=0.63; phi=0; theta=0}
! Header version: 2018
! Port assignment regex: !\s*Touchstone port\s*([0-9]+)\s*=\s*(CST MWS port|CST DS port)\s*([0-9]+|Zmin|Zmax)\s*\(\"(.*)\"\)(\s*mode\s*([0-9]+))?.*
! Touchstone port assignment:
! Touchstone port 1 = CST MWS port Zmin ("") mode 1
! Touchstone port 2 = CST MWS port Zmin ("") mode 2
! Touchstone port 3 = CST MWS port Zmax ("") mode 1
! Touchstone port 4 = CST MWS port Zmax ("") mode 2
! S-Parameters are not renormalized. Unphysical impedance of 0 will be written to the file.
# GHz S MA R 0
75                             0               0                0               0          0.20257         5.71142         0.964425         95.9554
                               0               0                0               0         0.964107         95.9594         0.202688         5.73016
                               0               0                0               0         0.167581         5.61205        0.0353908        -75.3112
                               0               0                0               0        0.0353597        -75.1664         0.167638         5.59409
75.045                         0               0                0               0         0.196942          5.3992         0.967303         95.0581
                               0               0                0               0         0.967053         95.0652         0.197003         5.44791
                               0               0                0               0         0.165767         4.61741          0.03467        -76.2419
                               0               0                0               0        0.0345962         -76.055         0.165795         4.60243
75.09                          0               0                0               0          0.19228         4.76969         0.969635         94.1001
                               0               0                0               0         0.969425         94.1097         0.192306          4.8343
                               0               0                0               0         0.163725         3.59004        0.0338613        -77.3457
                               0               0                0               0        0.0337532        -77.1331         0.163732         3.57677
75.135                         0               0                0               0         0.188509         3.89137         0.971455         93.0766
                               0               0                0               0         0.971263          93.088         0.188518         3.96258
                               0               0                0               0         0.161443         2.52671        0.0329721        -78.6536
                               0               0                0               0        0.0328392         -78.429         0.161435         2.51411
75.18                          0               0                0               0         0.185539         2.81772         0.972812         91.9834
                               0               0                0               0         0.972619         91.9959         0.185544         2.88944
                               0               0                0               0         0.158906         1.42416         0.032012        -80.1988
                               0               0                0               0        0.0318642        -79.9733         0.158891         1.41141
75.225                         0               0                0               0         0.183282         1.58989         0.973758          90.817
                               0               0                0               0         0.973552         90.8297         0.183294         1.65818
                               0               0                0               0         0.156101        0.279104        0.0309926         -82.017
                               0               0                0               0        0.0308394        -81.7986         0.156086          0.2656
75.27                          0               0                0               0         0.181658        0.239258         0.974357         89.5745
                               0               0                0               0         0.974131         89.5868         0.181682        0.301523
                               0               0                0               0         0.153017       -0.911596         0.029927        -84.1467
                               0               0                0               0        0.0297775        -83.9402         0.153007       -0.926274
75.315                         0               0                0               0         0.180593        -1.21053         0.974674         88.2539
                               0               0                0               0         0.974424         88.2652         0.180633        -1.15595
                               0               0                0               0         0.149643        -2.15088        0.0288305        -86.6293
                               0               0                0               0        0.0286924        -86.4367         0.149642        -2.16698
75.36                          0               0                0               0         0.180026         -2.7418         0.974778         86.8541
                               0               0                0               0         0.974504          86.864         0.180082        -2.69599
                               0               0                0               0         0.145969        -3.44132        0.0277199        -89.5093
                               0               0                0               0        0.0275997        -89.3294         0.145981        -3.45896
75.405                         0               0                0               0           0.1799        -4.34151         0.974734         85.3749
                               0               0                0               0         0.974439         85.3831         0.179974        -4.30512
                               0               0                0               0         0.141985        -4.78501        0.0266143        -92.8338
                               0               0                0               0        0.0265167        -92.6631         0.142012        -4.80421
75.45                          0               0                0               0         0.180169        -6.00021         0.974604         83.8169
                               0               0                0               0         0.974294         83.8235         0.180262        -5.97361
                               0               0                0               0         0.137684        -6.18341        0.0255349        -96.6518
                               0               0                0               0        0.0254629        -96.4841         0.137729        -6.20412
75.495                         0               0                0               0         0.180795        -7.71119         0.974445         82.1818
                               0               0                0               0         0.974124         82.1867         0.180904        -7.69452
                               0               0                0               0          0.13306        -7.63714        0.0245059        -101.012
                               0               0                0               0        0.0244606        -100.839         0.133122        -7.65928
75.54                          0               0                0               0         0.181741        -9.46986         0.974304         80.4716
                               0               0                0               0         0.973978         80.4752         0.181867        -9.46308
                               0               0                0               0         0.128107        -9.14578        0.0235543        -105.957
                               0               0                0               0         0.023535         -105.77         0.128185        -9.16928
75.585                         0               0                0               0          0.18298        -11.2733         0.974218         78.6895
                               0               0                0               0         0.973894          78.692          0.18312        -11.2762
                               0               0                0               0         0.122822        -10.7076        0.0227105         -111.52
                               0               0                0               0        0.0227146        -111.309         0.122916        -10.7325
75.63                          0               0                0               0         0.184486        -13.1197         0.974215         76.8389
                               0               0                0               0         0.973896         76.8408         0.184639        -13.1319
                               0               0                0               0         0.117204        -12.3194        0.0220077        -117.713
                               0               0                0               0        0.0220312        -117.471          0.11731        -12.3455
75.675                         0               0                0               0         0.186236        -15.0085         0.974312         74.9238
                               0               0                0               0         0.974001         74.9255         0.186402        -15.0294
                               0               0                0               0         0.111255        -13.9758        0.0214806        -124.517
                               0               0                0               0        0.0215183        -124.238          0.11137        -14.0032
75.72                          0               0                0               0         0.188213        -16.9394         0.974512         72.9484
                               0               0                0               0         0.974211         72.9504         0.188389        -16.9684
                               0               0                0               0         0.104977        -15.6689        0.0211639        -131.872
                               0               0                0               0        0.0212098        -131.555         0.105098        -15.6977
75.765                         0               0                0               0         0.190398        -18.9129          0.97481         70.9172
                               0               0                0               0         0.974522         70.9201         0.190584        -18.9491
                               0               0                0               0        0.0983779        -17.3876        0.0210888        -139.671
                               0               0                0               0        0.0211367        -139.325         0.098501        -17.4177
75.81                          0               0                0               0         0.192777        -20.9299         0.975192         68.8351
                               0               0                0               0         0.974915         68.8391         0.192971        -20.9722
                               0               0                0               0        0.0914676        -19.1161        0.0212793        -147.771
                               0               0                0               0        0.0213237        -147.408        0.0915891        -19.1476
75.855                         0               0                0               0         0.195336        -22.9911         0.975633         66.7067
                               0               0                0               0         0.975368         66.7121         0.195539        -23.0384
                               0               0                0               0        0.0842607        -20.8324        0.0217496        -156.004
                               0               0                0               0        0.0217861        -155.642        0.0843773        -20.8652
75.9                           0               0                0               0         0.198065        -25.0975         0.976103         64.5368
                               0               0                0               0         0.975848         64.5437         0.198274        -25.1484
                               0               0                0               0        0.0767765        -22.5054        0.0225019        -164.206
                               0               0                0               0        0.0225274        -163.866        0.0768852        -22.5393
75.945                         0               0                0               0         0.200952        -27.2498         0.976566         62.3301
                               0               0                0               0          0.97632         62.3387         0.201167        -27.3029
                               0               0                0               0        0.0690393        -24.0895        0.0235267         -172.24
                               0               0                0               0        0.0235394        -171.941        0.0691379        -24.1243
75.99                          0               0                0               0         0.203989        -29.4484         0.976981         60.0914
                               0               0                0               0         0.976743         60.1015         0.204207         -29.502
                               0               0                0               0        0.0610796         -25.516        0.0248042          179.99
                               0               0                0               0        0.0248034        -179.765        0.0611667        -25.5513
76.035                         0               0                0               0         0.207168        -31.6932         0.977305          57.825
                               0               0                0               0         0.977073         57.8366         0.207387        -31.7457
                               0               0                0               0        0.0529351        -26.6751        0.0263071         172.539
                               0               0                0               0        0.0262922          172.72        0.0530103        -26.7103
76.08                          0               0                0               0          0.21048        -33.9831         0.977493         55.5355
                               0               0                0               0         0.977267         55.5482         0.210698         -34.033
                               0               0                0               0        0.0446535        -27.3783        0.0280024         165.423
                               0               0                0               0         0.027973         165.538        0.0447174        -27.4132
76.125                         0               0                0               0         0.213919        -36.3164         0.977502         53.2272
                               0               0                0               0         0.977281         53.2406         0.214132        -36.3621
                               0               0                0               0        0.0362988        -27.2701        0.0298536         158.633
                               0               0                0               0        0.0298086         158.686         0.036353        -27.3049
76.17                          0               0                0               0         0.217476        -38.6897         0.977288         50.9041
                               0               0                0               0         0.977074         50.9178         0.217681        -38.7299
                               0               0                0               0        0.0279702         -25.588        0.0318211         152.146
                               0               0                0               0        0.0317596         152.147        0.0280168        -25.6253
76.215                         0               0                0               0         0.221143        -41.0983         0.976813         48.5703
                               0               0                0               0         0.976607         48.5836         0.221335        -41.1323
                               0               0                0               0        0.0198666        -20.3842        0.0338637         145.936
                               0               0                0               0        0.0337855         145.899        0.0199079        -20.4362
76.26                          0               0                0               0         0.224906         -43.536         0.976041         46.2295
                               0               0                0               0         0.975845         46.2419         0.225079        -43.5634
                               0               0                0               0        0.0125839        -5.48684         0.035939         139.982
                               0               0                0               0        0.0358466         139.925        0.0126186         -5.6068
76.305                         0               0                0               0         0.228743        -45.9951         0.974939         43.8855
                               0               0                0               0         0.974757         43.8963         0.228895        -46.0162
                               0               0                0               0       0.00860725         35.5546        0.0380061         134.268
                               0               0                0               0        0.0379062          134.21       0.00861456         35.2568
76.35                          0               0                0               0         0.232625        -48.4669         0.973484         41.5417
                               0               0                0               0          0.97332           41.55         0.232755        -48.4824
                               0               0                0               0        0.0118198         79.7515        0.0400282         128.792
                               0               0                0               0        0.0399337         128.748        0.0117864         79.5716
76.395                         0               0                0               0         0.236511        -50.9426         0.971656         39.2013
                               0               0                0               0         0.971515         39.2065         0.236619        -50.9537
                               0               0                0               0        0.0187184           96.55        0.0419779          123.56
                               0               0                0               0        0.0419079         123.536        0.0186647         96.4887
76.44                          0               0                0               0         0.240346        -53.4143         0.969441         36.8674
                               0               0                0               0         0.969331         36.8687         0.240437         -53.422
