! TOUCHSTONE file generated by CST MICROWAVE STUDIO
! Date and time: Sun Jun 20 22:38:08 2021
! Project name: HIPS_d_sweep.cst
! Parameters = {fmax=120; fmin=75; b=0.46; d=24.75; a=0.63; phi=0; theta=0}
! Header version: 2018
! Port assignment regex: !\s*Touchstone port\s*([0-9]+)\s*=\s*(CST MWS port|CST DS port)\s*([0-9]+|Zmin|Zmax)\s*\(\"(.*)\"\)(\s*mode\s*([0-9]+))?.*
! Touchstone port assignment:
! Touchstone port 1 = CST MWS port Zmin ("") mode 1
! Touchstone port 2 = CST MWS port Zmin ("") mode 2
! Touchstone port 3 = CST MWS port Zmax ("") mode 1
! Touchstone port 4 = CST MWS port Zmax ("") mode 2
! S-Parameters are not renormalized. Unphysical impedance of 0 will be written to the file.
# GHz S MA R 0
75                             0               0                0               0         0.149002         111.386         0.984429        -157.527
                               0               0                0               0         0.984652        -157.527         0.149324         111.383
                               0               0                0               0        0.0851134         109.091        0.0349448         91.3532
                               0               0                0               0        0.0348863         91.1763        0.0851061         109.044
75.045                         0               0                0               0         0.143355          110.89         0.985912        -158.351
                               0               0                0               0         0.986142        -158.353         0.143768         110.911
                               0               0                0               0         0.087634         108.531        0.0349208         90.8446
                               0               0                0               0        0.0345651         90.4401        0.0876275         108.488
75.09                          0               0                0               0         0.138804         110.095         0.986834        -159.255
                               0               0                0               0         0.987071        -159.257         0.139246          110.13
                               0               0                0               0        0.0904071         107.858        0.0347933         90.1377
                               0               0                0               0        0.0342615         89.4555        0.0903999         107.817
75.135                         0               0                0               0         0.135159         109.076         0.987278        -160.238
                               0               0                0               0         0.987521        -160.241         0.135595         109.116
                               0               0                0               0        0.0934333         107.072        0.0345834         89.1627
                               0               0                0               0         0.034001         88.2237        0.0934239         107.033
75.18                          0               0                0               0         0.132267         107.886         0.987321        -161.303
                               0               0                0               0         0.987571        -161.306         0.132679         107.924
                               0               0                0               0        0.0967105         106.176        0.0343314         87.8583
                               0               0                0               0        0.0338072          86.757         0.096698         106.138
75.225                         0               0                0               0         0.130004         106.564         0.987042        -162.448
                               0               0                0               0         0.987297        -162.451         0.130385         106.594
                               0               0                0               0         0.100234         105.172        0.0340938         86.1882
                               0               0                0               0           0.0337          85.077         0.100218         105.134
75.27                          0               0                0               0         0.128273         105.136         0.986512        -163.674
                               0               0                0               0          0.98677        -163.676          0.12862         105.157
                               0               0                0               0         0.103996         104.064        0.0339342         84.1573
                               0               0                0               0        0.0336952         83.2131         0.103975         104.027
75.315                         0               0                0               0         0.126995         103.624         0.985796        -164.978
                               0               0                0               0         0.986056        -164.979          0.12731         103.633
                               0               0                0               0         0.107987         102.856        0.0339107         81.8177
                               0               0                0               0        0.0338033         81.1986         0.107961          102.82
75.36                          0               0                0               0         0.126108         102.041         0.984954        -166.358
                               0               0                0               0         0.985213        -166.359         0.126393         102.038
                               0               0                0               0         0.112193         101.554        0.0340633         79.2587
                               0               0                0               0        0.0340302         79.0676         0.112161         101.519
75.405                         0               0                0               0          0.12556         100.398         0.984037        -167.813
                               0               0                0               0         0.984292        -167.812         0.125818         100.384
                               0               0                0               0         0.116597         100.162        0.0344076         76.5853
                               0               0                0               0        0.0343772          76.852         0.116561         100.128
75.45                          0               0                0               0         0.125311         98.7025         0.983085        -169.339
                               0               0                0               0         0.983335        -169.336         0.125547         98.6782
                               0               0                0               0         0.121182         98.6869        0.0349359         73.8937
                               0               0                0               0        0.0348426         74.5792         0.121141         98.6536
75.495                         0               0                0               0         0.125328         96.9594         0.982135        -170.933
                               0               0                0               0         0.982376        -170.928         0.125545         96.9267
                               0               0                0               0         0.125926         97.1329        0.0356242         71.2547
                               0               0                0               0        0.0354218         72.2705         0.125881         97.1011
75.54                          0               0                0               0         0.125586         95.1722         0.981211        -172.591
                               0               0                0               0         0.981442        -172.585         0.125786         95.1333
                               0               0                0               0         0.130806         95.5059          0.03644         68.7085
                               0               0                0               0        0.0361089         69.9406         0.130757         95.4757
75.585                         0               0                0               0         0.126062         93.3436         0.980333         -174.31
                               0               0                0               0          0.98055        -174.303         0.126248         93.3006
                               0               0                0               0         0.135796         93.8114        0.0373496         66.2688
                               0               0                0               0        0.0368969         67.5978         0.135746          93.783
75.63                          0               0                0               0          0.12674         91.4749         0.979512        -176.086
                               0               0                0               0         0.979713        -176.077         0.126914         91.4304
                               0               0                0               0         0.140872         92.0546        0.0383213         63.9303
                               0               0                0               0        0.0377782         65.2447         0.140819          92.028
75.675                         0               0                0               0         0.127608         89.5674         0.978752        -177.915
                               0               0                0               0         0.978934        -177.905          0.12777         89.5236
                               0               0                0               0         0.146003         90.2405        0.0393281          61.676
                               0               0                0               0        0.0387453         62.8785         0.145949         90.2159
75.72                          0               0                0               0         0.128654          87.622         0.978052        -179.793
                               0               0                0               0         0.978214        -179.781         0.128804          87.581
                               0               0                0               0         0.151161         88.3742        0.0403466         59.4833
                               0               0                0               0        0.0397903         60.4924         0.151108         88.3514
75.765                         0               0                0               0         0.129872         85.6394         0.977406         178.284
                               0               0                0               0         0.977545         178.297          0.13001         85.6031
                               0               0                0               0         0.156317         86.4602        0.0413569         57.3273
                               0               0                0               0        0.0409049         58.0762         0.156264         86.4391
75.81                          0               0                0               0         0.131256         83.6207         0.976803          176.32
                               0               0                0               0         0.976919         176.334         0.131381         83.5905
                               0               0                0               0         0.161441         84.5029        0.0423413          55.182
                               0               0                0               0        0.0420803         55.6171         0.161388         84.4835
75.855                         0               0                0               0         0.132804         81.5674          0.97623         174.319
                               0               0                0               0         0.976321         174.334         0.132914         81.5442
                               0               0                0               0         0.166501         82.5067        0.0432837         53.0209
                               0               0                0               0        0.0433058         53.1005          0.16645         82.4887
75.9                           0               0                0               0         0.134514         79.4817         0.975669         172.286
                               0               0                0               0         0.975734         172.301         0.134605         79.4657
                               0               0                0               0         0.171468         80.4754         0.044169         50.8158
                               0               0                0               0        0.0445686         50.5108         0.171418         80.4589
75.945                         0               0                0               0         0.136383         77.3663         0.975101         170.223
                               0               0                0               0          0.97514         170.238         0.136455         77.3572
                               0               0                0               0         0.176312         78.4131         0.044984         48.5353
                               0               0                0               0        0.0458523         47.8325         0.176263         78.3977
75.99                          0               0                0               0         0.138412         75.2252         0.974506         168.135
                               0               0                0               0         0.974519         168.149         0.138462         75.2217
                               0               0                0               0         0.181004         76.3235        0.0457193         46.1435
                               0               0                0               0        0.0471361         45.0515         0.180957         76.3091
76.035                         0               0                0               0         0.140597          73.063         0.973862         166.025
                               0               0                0               0         0.973851         166.039         0.140625         73.0635
                               0               0                0               0         0.185516         74.2102        0.0463736         43.5996
                               0               0                0               0        0.0483933         42.1572         0.185469         74.1968
76.08                          0               0                0               0         0.142934         70.8853         0.973148         163.898
                               0               0                0               0         0.973113         163.911         0.142941         70.8876
                               0               0                0               0         0.189819         72.0768        0.0469594         40.8612
                               0               0                0               0        0.0495914         39.1452         0.189773         72.0642
76.125                         0               0                0               0         0.145415         68.6985         0.972343         161.756
                               0               0                0               0         0.972286         161.768         0.145403         68.7001
                               0               0                0               0         0.193889         69.9269        0.0475084         37.8937
                               0               0                0               0        0.0506931         36.0202         0.193843          69.915
76.17                          0               0                0               0         0.148028         66.5091         0.971427         159.604
                               0               0                0               0         0.971349         159.614         0.148003         66.5075
                               0               0                0               0           0.1977         67.7641        0.0480723         34.6869
                               0               0                0               0        0.0516593         32.7991         0.197655         67.7528
76.215                         0               0                0               0         0.150754         64.3233         0.970381         157.444
                               0               0                0               0         0.970284         157.452         0.150725         64.3169
                               0               0                0               0         0.201231         65.5918        0.0487102         31.2722
                               0               0                0               0        0.0524554          29.512         0.201186         65.5811
76.26                          0               0                0               0          0.15357         62.1467         0.969186         155.279
                               0               0                0               0         0.969072         155.286         0.153546         62.1343
                               0               0                0               0         0.204461         63.4138        0.0494639         27.7261
                               0               0                0               0        0.0530587         26.2001         0.204415         63.4037
76.305                         0               0                0               0         0.156444         59.9832         0.967828         153.114
                               0               0                0               0           0.9677         153.119         0.156437          59.965
                               0               0                0               0         0.207372         61.2338        0.0503334         24.1466
                               0               0                0               0        0.0534657         22.9097         0.207325         61.2242
76.35                          0               0                0               0         0.159344         57.8347         0.966292         150.951
                               0               0                0               0         0.966153         150.953         0.159365         57.8121
                               0               0                0               0         0.209948         59.0554        0.0512722         20.6161
                               0               0                0               0        0.0536945         19.6817           0.2099         59.0463
76.395                         0               0                0               0         0.162232         55.7013         0.964567         148.792
                               0               0                0               0         0.964419         148.791         0.162291         55.6767
                               0               0                0               0         0.212177         56.8825        0.0522065         17.1753
                               0               0                0               0        0.0537804         16.5413         0.212128         56.8739
76.44                          0               0                0               0         0.165071         53.5805         0.962644          146.64
                               0               0                0               0          0.96249         146.637         0.165173         53.5571
