! TOUCHSTONE file generated by CST MICROWAVE STUDIO
! Date and time: Sun Jun 20 22:37:19 2021
! Project name: HIPS_d_sweep.cst
! Parameters = {fmax=120; fmin=75; b=0.46; d=20.2; a=0.63; phi=0; theta=0}
! Header version: 2018
! Port assignment regex: !\s*Touchstone port\s*([0-9]+)\s*=\s*(CST MWS port|CST DS port)\s*([0-9]+|Zmin|Zmax)\s*\(\"(.*)\"\)(\s*mode\s*([0-9]+))?.*
! Touchstone port assignment:
! Touchstone port 1 = CST MWS port Zmin ("") mode 1
! Touchstone port 2 = CST MWS port Zmin ("") mode 2
! Touchstone port 3 = CST MWS port Zmax ("") mode 1
! Touchstone port 4 = CST MWS port Zmax ("") mode 2
! S-Parameters are not renormalized. Unphysical impedance of 0 will be written to the file.
# GHz S MA R 0
75                             0               0                0               0         0.164963         88.0233         0.974654        -1.44416
                               0               0                0               0         0.974692        -1.43907         0.164979         87.9836
                               0               0                0               0         0.149534         87.8466        0.0273465        -159.018
                               0               0                0               0        0.0273355        -159.084         0.149553         87.8353
75.045                         0               0                0               0         0.167228         87.7091         0.977757        -2.10008
                               0               0                0               0          0.97771        -2.06185         0.166842         87.6043
                               0               0                0               0         0.151023         87.1887        0.0278184        -160.939
                               0               0                0               0         0.027797        -160.926         0.150961         87.1971
75.09                          0               0                0               0         0.169383          87.274         0.979819        -2.80249
                               0               0                0               0         0.979623        -2.73986         0.168674         87.1246
                               0               0                0               0           0.1526         86.4661        0.0282706        -162.979
                               0               0                0               0        0.0282362        -162.903          0.15247         86.4873
75.135                         0               0                0               0         0.171411         86.7171         0.980907        -3.56109
                               0               0                0               0         0.980534         -3.4827         0.170455         86.5412
                               0               0                0               0         0.154273         85.6798        0.0287049         -165.15
                               0               0                0               0        0.0286561        -165.029         0.154091         85.7082
75.18                          0               0                0               0         0.173292         86.0386         0.981126        -4.38428
                               0               0                0               0         0.980579        -4.29809         0.172164         85.8515
                               0               0                0               0          0.15605         84.8317        0.0291239        -167.463
                               0               0                0               0        0.0290607        -167.314         0.155832         84.8629
75.225                         0               0                0               0         0.175005         85.2399         0.980611        -5.27872
                               0               0                0               0          0.97992        -5.19155         0.173779         85.0542
                               0               0                0               0         0.157937         83.9239        0.0295313        -169.929
                               0               0                0               0        0.0294547        -169.767         0.157697         83.9544
75.27                          0               0                0               0         0.176531         84.3239         0.979515        -6.24891
                               0               0                0               0         0.978728        -6.16612         0.175275         84.1489
                               0               0                0               0         0.159939         82.9589        0.0299315        -172.555
                               0               0                0               0        0.0298439        -172.394         0.159692         82.9865
75.315                         0               0                0               0         0.177847         83.2944         0.977999        -7.29711
                               0               0                0               0         0.977173        -7.22251         0.176624         83.1368
                               0               0                0               0         0.162057         81.9391          0.03033        -175.349
                               0               0                0               0        0.0302345          -175.2         0.161817         81.9624
75.36                          0               0                0               0         0.178936         82.1567         0.976221        -8.42333
                               0               0                0               0         0.975416        -8.35922         0.177801         82.0202
                               0               0                0               0         0.164291         80.8674        0.0307327        -178.314
                               0               0                0               0        0.0306331        -178.185         0.164069         80.8857
75.405                         0               0                0               0         0.179777         80.9173         0.974328         -9.6256
                               0               0                0               0         0.973595        -9.57295         0.178777         80.8031
                               0               0                0               0         0.166638         79.7463        0.0311459         178.549
                               0               0                0               0        0.0310465          178.65         0.166444         79.7594
75.45                          0               0                0               0         0.180356          79.584         0.972444        -10.9003
                               0               0                0               0         0.971827         -10.859         0.179529         79.4909
                               0               0                0               0         0.169094         78.5782        0.0315762         175.242
                               0               0                0               0        0.0314815         175.312         0.168936         78.5864
75.495                         0               0                0               0         0.180661         78.1654         0.970671        -12.2425
                               0               0                0               0         0.970201        -12.2118         0.180032         78.0905
                               0               0                0               0         0.171652         77.3652          0.03203         171.771
                               0               0                0               0        0.0319441         171.807         0.171534         77.3689
75.54                          0               0                0               0         0.180681         76.6713         0.969087        -13.6467
                               0               0                0               0         0.968782        -13.6252         0.180267         76.6103
                               0               0                0               0           0.1743         76.1093        0.0325131         168.144
                               0               0                0               0          0.03244         168.147         0.174227         76.1091
75.585                         0               0                0               0         0.180414         75.1121         0.967742        -15.1065
                               0               0                0               0          0.96761        -15.0928         0.180219         75.0597
                               0               0                0               0         0.177029         74.8121        0.0330305         164.373
                               0               0                0               0        0.0329735         164.346         0.177002         74.8086
75.63                          0               0                0               0         0.179861         73.4985         0.966668        -16.6159
                               0               0                0               0         0.966703        -16.6083          0.17988         73.4493
                               0               0                0               0         0.179824         73.4751        0.0335861         160.472
                               0               0                0               0        0.0335477         160.418         0.179843         73.4688
75.675                         0               0                0               0         0.179026         71.8416         0.965872        -18.1688
                               0               0                0               0         0.966065        -18.1657         0.179245         71.7902
                               0               0                0               0         0.182669         72.0994        0.0341824         156.458
                               0               0                0               0        0.0341642         156.381         0.182733         72.0907
75.72                          0               0                0               0         0.177922         70.1525          0.96535        -19.7593
                               0               0                0               0         0.965682        -19.7595         0.178319         70.0941
                               0               0                0               0         0.185547          70.686        0.0348203          152.35
                               0               0                0               0        0.0348227         152.254         0.185652         70.6752
75.765                         0               0                0               0         0.176564         68.4419         0.965083        -21.3822
                               0               0                0               0         0.965532        -21.3845         0.177111         68.3727
                               0               0                0               0         0.188439         69.2358        0.0354986         148.166
                               0               0                0               0        0.0355215         148.058         0.188582         69.2233
75.81                          0               0                0               0         0.174971         66.7201         0.965041        -23.0327
                               0               0                0               0         0.965584        -23.0362         0.175637         66.6372
                               0               0                0               0         0.191324         67.7498        0.0362146         143.926
                               0               0                0               0        0.0362566          143.81           0.1915         67.7356
75.855                         0               0                0               0         0.173166         64.9967         0.965191        -24.7063
                               0               0                0               0         0.965804        -24.7104         0.173918         64.8986
                               0               0                0               0         0.194182         66.2289        0.0369638         139.651
                               0               0                0               0        0.0370227         139.531         0.194384         66.2131
75.9                           0               0                0               0         0.171174         63.2804         0.965492        -26.3994
                               0               0                0               0         0.966152        -26.4034          0.17198         63.1669
                               0               0                0               0         0.196989         64.6742        0.0377399         135.359
                               0               0                0               0        0.0378131         135.238         0.197212         64.6568
75.945                         0               0                0               0         0.169022          61.579         0.965904        -28.1084
                               0               0                0               0         0.966588        -28.1121         0.169851         61.4509
                               0               0                0               0         0.199723         63.0868        0.0385353         131.068
                               0               0                0               0        0.0386196          130.95          0.19996         63.0679
75.99                          0               0                0               0         0.166737         59.8993         0.966385        -29.8303
                               0               0                0               0         0.967072        -29.8335         0.167561         59.7586
                               0               0                0               0         0.202359         61.4683        0.0393415         126.796
                               0               0                0               0        0.0394334         126.683         0.202604         61.4481
76.035                         0               0                0               0         0.164346         58.2471         0.966893        -31.5626
                               0               0                0               0         0.967565         -31.565         0.165142         58.0964
                               0               0                0               0         0.204874         59.8204        0.0401491         122.558
                               0               0                0               0         0.040245         122.451          0.20512          59.799
76.08                          0               0                0               0         0.161877         56.6269         0.967389        -33.3029
                               0               0                0               0          0.96803        -33.3045         0.162624         56.4698
                               0               0                0               0         0.207245         58.1453        0.0409487         118.367
                               0               0                0               0         0.041045         118.268         0.207486         58.1229
76.125                         0               0                0               0         0.159353         55.0426         0.967834         -35.049
                               0               0                0               0         0.968432        -35.0497         0.160036         54.8828
                               0               0                0               0         0.209449         56.4454        0.0417307         114.238
                               0               0                0               0        0.0418242         114.146         0.209679         56.4222
76.17                          0               0                0               0         0.156798          53.497         0.968194         -36.799
                               0               0                0               0         0.968738        -36.7988         0.157407         53.3384
                               0               0                0               0         0.211463         54.7234        0.0424863         110.179
                               0               0                0               0        0.0425739         110.096         0.211679         54.6999
76.215                         0               0                0               0         0.154234         51.9921         0.968437        -38.5511
                               0               0                0               0         0.968919        -38.5502         0.154761         51.8385
                               0               0                0               0         0.213269         52.9825        0.0432073         106.202
                               0               0                0               0        0.0432863         106.127         0.213465         52.9591
76.26                          0               0                0               0         0.151678         50.5292         0.968535        -40.3039
                               0               0                0               0         0.968949         -40.302         0.152121         50.3843
                               0               0                0               0         0.214848         51.2261        0.0438866         102.314
                               0               0                0               0         0.043955         102.246         0.215021         51.2033
76.305                         0               0                0               0         0.149149         49.1087         0.968463        -42.0557
                               0               0                0               0         0.968806        -42.0529         0.149507         48.9759
                               0               0                0               0         0.216184          49.458        0.0445184         98.5223
                               0               0                0               0        0.0445746          98.462         0.216331         49.4363
76.35                          0               0                0               0         0.146659         47.7309           0.9682        -43.8051
                               0               0                0               0         0.968469        -43.8014         0.146936         47.6131
                               0               0                0               0         0.217264         47.6821        0.0450981         94.8318
                               0               0                0               0         0.045141         94.7787         0.217384         47.6622
76.395                         0               0                0               0         0.144221         46.3952         0.967727        -45.5507
                               0               0                0               0         0.967923        -45.5462         0.144421         46.2947
                               0               0                0               0         0.218078         45.9026        0.0456226         91.2469
                               0               0                0               0        0.0456517         91.2006          0.21817         45.8849
76.44                          0               0                0               0         0.141846         45.1009         0.967031        -47.2913
                               0               0                0               0         0.967156        -47.2859         0.141975         45.0196
