! TOUCHSTONE file generated by CST MICROWAVE STUDIO
! Date and time: Sun Jun 20 22:37:51 2021
! Project name: HIPS_d_sweep.cst
! Parameters = {fmax=120; fmin=75; b=0.46; d=23.3; a=0.63; phi=0; theta=0}
! Header version: 2018
! Port assignment regex: !\s*Touchstone port\s*([0-9]+)\s*=\s*(CST MWS port|CST DS port)\s*([0-9]+|Zmin|Zmax)\s*\(\"(.*)\"\)(\s*mode\s*([0-9]+))?.*
! Touchstone port assignment:
! Touchstone port 1 = CST MWS port Zmin ("") mode 1
! Touchstone port 2 = CST MWS port Zmin ("") mode 2
! Touchstone port 3 = CST MWS port Zmax ("") mode 1
! Touchstone port 4 = CST MWS port Zmax ("") mode 2
! S-Parameters are not renormalized. Unphysical impedance of 0 will be written to the file.
# GHz S MA R 0
75                             0               0                0               0        0.0481658        -86.3812         0.989446         6.79552
                               0               0                0               0         0.989313         6.79362          0.04804        -86.4145
                               0               0                0               0         0.136334         96.3602        0.0209494         78.0476
                               0               0                0               0        0.0209884         78.1509          0.13633         96.3934
75.045                         0               0                0               0        0.0442218        -87.4909         0.989642         6.02856
                               0               0                0               0         0.989457         6.03363        0.0443885        -87.5174
                               0               0                0               0         0.137984         95.6602        0.0201185         78.1857
                               0               0                0               0        0.0201727          78.716          0.13814         95.6882
75.09                          0               0                0               0        0.0406179        -88.6952          0.98964         5.18414
                               0               0                0               0         0.989423          5.1926        0.0409239        -88.7235
                               0               0                0               0         0.139976          94.865        0.0195897         78.2779
                               0               0                0               0        0.0196538         78.9584         0.140201         94.8899
75.135                         0               0                0               0        0.0373789        -89.9969         0.989476         4.26247
                               0               0                0               0         0.989245         4.27163        0.0377102        -90.0338
                               0               0                0               0         0.142268         93.9786        0.0192988         78.2773
                               0               0                0               0        0.0193673         78.9468         0.142501         94.0022
75.18                          0               0                0               0        0.0345236        -91.3979          0.98918         3.26417
                               0               0                0               0         0.988952         3.27214        0.0348035        -91.4479
                               0               0                0               0         0.144825         93.0049        0.0192002         78.1492
                               0               0                0               0         0.019268         78.7229         0.145029         93.0285
75.225                         0               0                0               0        0.0320645        -92.8983         0.988783         2.19024
                               0               0                0               0         0.988567         2.19582        0.0322491        -92.9643
                               0               0                0               0         0.147613         91.9475        0.0192609         77.8691
                               0               0                0               0        0.0193237          78.312         0.147769         91.9723
75.27                          0               0                0               0        0.0300079         -94.496         0.988307         1.04207
                               0               0                0               0         0.988111         1.04462        0.0300801        -94.5791
                               0               0                0               0         0.150605         90.8099        0.0194561          77.421
                               0               0                0               0        0.0195107         77.7295         0.150706         90.8366
75.315                         0               0                0               0        0.0283543        -96.1852         0.987772       -0.178643
                               0               0                0               0           0.9876       -0.179292        0.0283173         -96.286
                               0               0                0               0         0.153772         89.5953        0.0197668         76.7954
                               0               0                0               0        0.0198114         76.9844          0.15382         89.6243
75.36                          0               0                0               0        0.0270986        -97.9563         0.987195        -1.46986
                               0               0                0               0         0.987046        -1.47354        0.0269693         -98.075
                               0               0                0               0          0.15709         88.3071        0.0201783         75.9881
                               0               0                0               0        0.0202119          76.082         0.157093         88.3383
75.405                         0               0                0               0        0.0262311        -99.7956         0.986587        -2.82927
                               0               0                0               0         0.986459        -2.83556        0.0260333        -99.9322
                               0               0                0               0         0.160535         86.9483        0.0206783         74.9988
                               0               0                0               0        0.0207013         75.0254         0.160504         86.9814
75.45                          0               0                0               0        0.0257373        -101.686         0.985956        -4.25432
                               0               0                0               0         0.985844        -4.26263        0.0254978        -101.841
                               0               0                0               0         0.164083          85.522        0.0212568         73.8305
                               0               0                0               0        0.0212702         73.8169          0.16403         85.5565
75.495                         0               0                0               0        0.0255998         -103.61         0.985308        -5.74222
                               0               0                0               0         0.985206         -5.7519        0.0253433        -103.781
                               0               0                0               0         0.167713         84.0312        0.0219052         72.4881
                               0               0                0               0        0.0219107         72.4581          0.16765         84.0665
75.54                          0               0                0               0        0.0257979         -105.55         0.984645        -7.28998
                               0               0                0               0         0.984547        -7.30038        0.0255453        -105.736
                               0               0                0               0         0.171401          82.479        0.0226154         70.9783
                               0               0                0               0        0.0226153         70.9509          0.17134         82.5144
75.585                         0               0                0               0        0.0263092        -107.489         0.983969        -8.89445
                               0               0                0               0         0.983868        -8.90497        0.0260759        -107.688
                               0               0                0               0         0.175125         80.8685        0.0233803          69.309
                               0               0                0               0        0.0233768         69.2978         0.175074         80.9032
75.63                          0               0                0               0        0.0271101        -109.418         0.983277        -10.5523
                               0               0                0               0          0.98317        -10.5625        0.0269054        -109.626
                               0               0                0               0         0.178863         79.2029        0.0241926         67.4889
                               0               0                0               0        0.0241878         67.5021         0.178828         79.2362
75.675                         0               0                0               0        0.0281762        -111.329          0.98257        -12.2601
                               0               0                0               0         0.982452        -12.2696        0.0280036        -111.543
                               0               0                0               0         0.182592         77.4852         0.025045         65.5273
                               0               0                0               0        0.0250409          65.568         0.182576         77.5169
75.72                          0               0                0               0        0.0294831        -113.219         0.981844        -14.0144
                               0               0                0               0         0.981715         -14.023        0.0293415        -113.434
                               0               0                0               0         0.186291         75.7189        0.0259301         63.4342
                               0               0                0               0        0.0259279         63.5012         0.186295         75.7486
75.765                         0               0                0               0        0.0310069        -115.087         0.981099        -15.8116
                               0               0                0               0          0.98096        -15.8193        0.0308913          -115.3
                               0               0                0               0         0.189936         73.9073        0.0268401         61.2199
                               0               0                0               0        0.0268405         61.3086         0.189958         73.9352
75.81                          0               0                0               0        0.0327245        -116.934         0.980335         -17.648
                               0               0                0               0         0.980189         -17.655        0.0326274        -117.144
                               0               0                0               0         0.193506          72.054        0.0277669         58.8951
                               0               0                0               0        0.0277695         58.9983         0.193541         72.0803
75.855                         0               0                0               0        0.0346137        -118.764         0.979554          -19.52
                               0               0                0               0         0.979406        -19.5266        0.0345263        -118.967
                               0               0                0               0         0.196977         70.1625        0.0287017         56.4706
                               0               0                0               0        0.0287057         56.5799         0.197021         70.1877
75.9                           0               0                0               0        0.0366536         -120.58         0.978758         -21.424
                               0               0                0               0         0.978616        -21.4306         0.036567        -120.775
                               0               0                0               0         0.200329         68.2366        0.0296358         53.9577
                               0               0                0               0        0.0296393         54.0642         0.200376         68.2614
75.945                         0               0                0               0        0.0388244        -122.385         0.977955        -23.3563
                               0               0                0               0         0.977827        -23.3633        0.0387309        -122.572
                               0               0                0               0         0.203539         66.2802        0.0305597         51.3674
                               0               0                0               0        0.0305606          51.463         0.203583         66.3053
75.99                          0               0                0               0        0.0411079        -124.183          0.97715        -25.3133
                               0               0                0               0         0.977046        -25.3213        0.0410011        -124.361
                               0               0                0               0         0.206586         64.2971        0.0314643          48.711
                               0               0                0               0          0.03146         48.7886         0.206622         64.3232
76.035                         0               0                0               0        0.0434869        -125.976         0.976356        -27.2915
                               0               0                0               0         0.976284        -27.3008         0.043363        -126.147
                               0               0                0               0         0.209451         62.2912        0.0323402         45.9994
                               0               0                0               0        0.0323281         46.0541         0.209476         62.3191
76.08                          0               0                0               0        0.0459454        -127.767         0.975583        -29.2874
                               0               0                0               0         0.975551        -29.2982        0.0458033        -127.933
                               0               0                0               0         0.212113         60.2666        0.0331782          43.243
                               0               0                0               0        0.0331564          43.272         0.212125         60.2967
76.125                         0               0                0               0        0.0484685         -129.56         0.974844        -31.2975
                               0               0                0               0         0.974858        -31.3099        0.0483101        -129.722
                               0               0                0               0         0.214556         58.2273        0.0339699          40.452
                               0               0                0               0        0.0339371         40.4546         0.214555         58.2597
76.17                          0               0                0               0        0.0510422        -131.355         0.974151        -33.3185
                               0               0                0               0         0.974212        -33.3323        0.0508723        -131.516
                               0               0                0               0         0.216763         56.1772         0.034707         37.6356
                               0               0                0               0        0.0346631         37.6133         0.216751         56.2118
76.215                         0               0                0               0        0.0536529        -133.155         0.973518         -35.347
                               0               0                0               0         0.973622        -35.3618        0.0534795        -133.317
                               0               0                0               0         0.218718         54.1202        0.0353823         34.8022
                               0               0                0               0        0.0353284         34.7581         0.218701         54.1565
76.26                          0               0                0               0        0.0562879        -134.963         0.972951        -37.3799
                               0               0                0               0          0.97309        -37.3949        0.0561213        -135.126
                               0               0                0               0         0.220408           52.06        0.0359891         31.9591
                               0               0                0               0        0.0359278         31.8973         0.220392          52.097
76.305                         0               0                0               0        0.0589344        -136.779         0.972455        -39.4141
                               0               0                0               0         0.972615        -39.4283        0.0587872        -136.944
                               0               0                0               0         0.221823         50.0003        0.0365217         29.1126
                               0               0                0               0        0.0364569         29.0376         0.221815         50.0367
76.35                          0               0                0               0          0.06158        -138.605         0.972026        -41.4464
                               0               0                0               0         0.972189        -41.4586        0.0614659        -138.772
                               0               0                0               0         0.222952         47.9445        0.0369753         26.2676
                               0               0                0               0        0.0369119         26.1838          0.22296         47.9785
76.395                         0               0                0               0         0.064212        -140.445         0.971653         -43.474
                               0               0                0               0         0.971795        -43.4831        0.0641453        -140.612
                               0               0                0               0         0.223789         45.8958        0.0373458         23.4281
                               0               0                0               0        0.0372893         23.3389         0.223821         45.9255
76.44                          0               0                0               0        0.0668175        -142.298         0.971314        -45.4943
                               0               0                0               0          0.97141         -45.499        0.0668117        -142.462
