! TOUCHSTONE file generated by CST MICROWAVE STUDIO
! Date and time: Sun Jun 20 22:37:26 2021
! Project name: HIPS_d_sweep.cst
! Parameters = {fmax=120; fmin=75; b=0.46; d=20.9; a=0.63; phi=0; theta=0}
! Header version: 2018
! Port assignment regex: !\s*Touchstone port\s*([0-9]+)\s*=\s*(CST MWS port|CST DS port)\s*([0-9]+|Zmin|Zmax)\s*\(\"(.*)\"\)(\s*mode\s*([0-9]+))?.*
! Touchstone port assignment:
! Touchstone port 1 = CST MWS port Zmin ("") mode 1
! Touchstone port 2 = CST MWS port Zmin ("") mode 2
! Touchstone port 3 = CST MWS port Zmax ("") mode 1
! Touchstone port 4 = CST MWS port Zmax ("") mode 2
! S-Parameters are not renormalized. Unphysical impedance of 0 will be written to the file.
# GHz S MA R 0
75                             0               0                0               0         0.121999         14.8548         0.973253        -79.6272
                               0               0                0               0         0.973311        -79.6195         0.122007         14.8588
                               0               0                0               0         0.186498         12.3768        0.0550072         35.7098
                               0               0                0               0        0.0550216         35.7039         0.186547         12.3563
75.045                         0               0                0               0         0.125726         14.0107         0.973089        -80.3177
                               0               0                0               0         0.973144        -80.3097         0.125728         14.0118
                               0               0                0               0         0.184876         11.7864         0.055656          35.296
                               0               0                0               0        0.0556718         35.2862         0.184925         11.7659
75.09                          0               0                0               0         0.129094         13.1332         0.972959        -81.0781
                               0               0                0               0         0.973011        -81.0698         0.129088         13.1312
                               0               0                0               0         0.183116         11.1216        0.0562464         34.7225
                               0               0                0               0        0.0562615         34.7077         0.183165         11.1012
75.135                         0               0                0               0         0.132104         12.2106         0.972875        -81.9079
                               0               0                0               0         0.972924        -81.8993          0.13209         12.2053
                               0               0                0               0         0.181218         10.3837        0.0567802         33.9924
                               0               0                0               0        0.0567931         33.9722         0.181267         10.3633
75.18                          0               0                0               0         0.134761         11.2345         0.972847        -82.8063
                               0               0                0               0         0.972893        -82.7975         0.134739         11.2263
                               0               0                0               0         0.179178         9.57416        0.0572581         33.1098
                               0               0                0               0        0.0572682         33.0841         0.179227         9.55385
75.225                         0               0                0               0         0.137073         10.1992         0.972883        -83.7724
                               0               0                0               0         0.972926        -83.7633         0.137043         10.1885
                               0               0                0               0          0.17699         8.69438        0.0576802         32.0792
                               0               0                0               0        0.0576872         32.0483          0.17704         8.67412
75.27                          0               0                0               0         0.139046          9.1013         0.972989         -84.805
                               0               0                0               0         0.973028        -84.7957         0.139009         9.08885
                               0               0                0               0         0.174651         7.74584        0.0580456         30.9056
                               0               0                0               0        0.0580498           30.87         0.174701         7.72559
75.315                         0               0                0               0         0.140691         7.93907         0.973169        -85.9027
                               0               0                0               0         0.973204        -85.8934         0.140647         7.92551
                               0               0                0               0         0.172152         6.73006        0.0583529         29.5942
                               0               0                0               0        0.0583545         29.5548         0.172202         6.70979
75.36                          0               0                0               0         0.142015         6.71208         0.973426        -87.0642
                               0               0                0               0         0.973455        -87.0547         0.141966         6.69808
                               0               0                0               0         0.169487         5.64865        0.0585999         28.1508
                               0               0                0               0        0.0585995         28.1081         0.169538         5.62829
75.405                         0               0                0               0         0.143027         5.42091          0.97376        -88.2875
                               0               0                0               0         0.973784         -88.278         0.142974         5.40707
                               0               0                0               0         0.166649         4.50329        0.0587839         26.5811
                               0               0                0               0         0.058782          26.536         0.166699         4.48278
75.45                          0               0                0               0         0.143737         4.06687         0.974172         -89.571
                               0               0                0               0         0.974189        -89.5614         0.143681          4.0537
                               0               0                0               0         0.163628          3.2958        0.0589019         24.8912
                               0               0                0               0        0.0588992         24.8443         0.163679         3.27509
75.495                         0               0                0               0         0.144155          2.6518         0.974657        -90.9125
                               0               0                0               0         0.974667        -90.9029         0.144097         2.63968
                               0               0                0               0         0.160418         2.02815        0.0589507         23.0872
                               0               0                0               0        0.0589478         23.0391         0.160469         2.00717
75.54                          0               0                0               0         0.144289         1.17794         0.975214        -92.3098
                               0               0                0               0         0.975217        -92.3003          0.14423         1.16711
                               0               0                0               0         0.157012        0.702487         0.058927         21.1754
                               0               0                0               0        0.0589244         21.1266         0.157063        0.681155
75.585                         0               0                0               0          0.14415       -0.352257         0.975838        -93.7606
                               0               0                0               0         0.975833        -93.7513          0.14409       -0.361689
                               0               0                0               0         0.153402        -0.67885        0.0588276         19.1621
                               0               0                0               0        0.0588257          19.113         0.153453       -0.700604
75.63                          0               0                0               0         0.143747        -1.93617         0.976523        -95.2625
                               0               0                0               0          0.97651        -95.2533         0.143688        -1.94424
                               0               0                0               0         0.149583         -2.1133        0.0586495         17.0538
                               0               0                0               0        0.0586487         17.0046         0.149634        -2.13555
75.675                         0               0                0               0         0.143092        -3.57115         0.977263        -96.8128
                               0               0                0               0         0.977242        -96.8037         0.143033        -3.57801
                               0               0                0               0         0.145549        -3.59805        0.0583901         14.8568
                               0               0                0               0        0.0583905         14.8078           0.1456        -3.62088
75.72                          0               0                0               0         0.142195        -5.25452         0.978052        -98.4087
                               0               0                0               0         0.978024        -98.3998         0.142138        -5.26044
                               0               0                0               0         0.141298        -5.13005        0.0580471         12.5775
                               0               0                0               0         0.058049         12.5288         0.141348        -5.15355
75.765                         0               0                0               0         0.141069        -6.98371         0.978884        -100.048
                               0               0                0               0         0.978848        -100.039         0.141014        -6.98901
                               0               0                0               0         0.136827          -6.706        0.0576191         10.2224
                               0               0                0               0        0.0576225          10.174         0.136877        -6.73024
75.81                          0               0                0               0         0.139725        -8.75619         0.979752        -101.726
                               0               0                0               0         0.979709        -101.718         0.139673        -8.76125
                               0               0                0               0         0.132136        -8.32231         0.057105          7.7976
                               0               0                0               0        0.0571098         7.74948         0.132185         -8.3474
75.855                         0               0                0               0         0.138178        -10.5696         0.980649        -103.442
                               0               0                0               0         0.980599        -103.433         0.138128        -10.5748
                               0               0                0               0         0.127226        -9.97515        0.0565046         5.30915
                               0               0                0               0        0.0565108         5.26139         0.127275        -10.0012
75.9                           0               0                0               0          0.13644        -12.4215          0.98157        -105.191
                               0               0                0               0         0.981514        -105.183         0.136393        -12.4273
                               0               0                0               0           0.1221        -11.6604        0.0558183         2.76291
                               0               0                0               0        0.0558258         2.71556         0.122149        -11.6875
75.945                         0               0                0               0         0.134527        -14.3098         0.982509        -106.971
                               0               0                0               0         0.982446        -106.963         0.134483        -14.3165
                               0               0                0               0         0.116764        -13.3738        0.0550471        0.164497
                               0               0                0               0        0.0550559         0.11764         0.116812        -13.4021
75.99                          0               0                0               0         0.132453        -16.2323         0.983461        -108.779
                               0               0                0               0         0.983392        -108.771         0.132411        -16.2402
                               0               0                0               0         0.111225        -15.1107         0.054193        -2.48078
                               0               0                0               0        0.0542031          -2.527         0.111272        -15.1403
76.035                         0               0                0               0         0.130234        -18.1868          0.98442        -110.611
                               0               0                0               0         0.984346        -110.603         0.130193        -18.1961
                               0               0                0               0         0.105491        -16.8661        0.0532582        -5.16789
                               0               0                0               0        0.0532697        -5.21327         0.105537        -16.8973
76.08                          0               0                0               0         0.127886        -20.1711         0.985384        -112.464
                               0               0                0               0         0.985305        -112.456         0.127846        -20.1818
                               0               0                0               0        0.0995723         -18.635        0.0522459        -7.89214
                               0               0                0               0        0.0522589        -7.93644        0.0996173        -18.6679
76.125                         0               0                0               0         0.125425        -22.1827         0.986347        -114.335
                               0               0                0               0         0.986264        -114.328         0.125384        -22.1949
                               0               0                0               0        0.0934816        -20.4115        0.0511595        -10.6491
                               0               0                0               0        0.0511743        -10.6921        0.0935254        -20.4464
76.17                          0               0                0               0         0.122868        -24.2189         0.987306        -116.221
                               0               0                0               0         0.987218        -116.214         0.122824        -24.2326
                               0               0                0               0        0.0872316        -22.1895        0.0500029        -13.4348
                               0               0                0               0        0.0500199         -13.476        0.0872743        -22.2267
76.215                         0               0                0               0         0.120231        -26.2766         0.988255        -118.118
                               0               0                0               0         0.988164        -118.111         0.120182        -26.2916
                               0               0                0               0        0.0808365        -23.9618        0.0487804        -16.2451
                               0               0                0               0        0.0487999        -16.2843        0.0808779        -24.0017
76.26                          0               0                0               0         0.117529         -28.352         0.989189        -120.024
                               0               0                0               0         0.989095        -120.017         0.117474        -28.3682
                               0               0                0               0        0.0743113        -25.7197        0.0474964        -19.0765
                               0               0                0               0        0.0475191        -19.1133        0.0743514        -25.7629
76.305                         0               0                0               0          0.11478        -30.4409         0.990101        -121.935
                               0               0                0               0         0.990005        -121.928         0.114716        -30.4581
                               0               0                0               0        0.0676718        -27.4521        0.0461557        -21.9253
                               0               0                0               0         0.046182        -21.9593        0.0677103        -27.4992
76.35                          0               0                0               0         0.111997        -32.5377         0.990981        -123.848
                               0               0                0               0         0.990882        -123.841         0.111922        -32.5558
                               0               0                0               0        0.0609341        -29.1442        0.0447631        -24.7876
                               0               0                0               0        0.0447936        -24.8188        0.0609711        -29.1961
76.395                         0               0                0               0         0.109194        -34.6362         0.991814         -125.76
                               0               0                0               0         0.991714        -125.754         0.109107        -34.6552
                               0               0                0               0        0.0541151        -30.7739        0.0433237        -27.6596
                               0               0                0               0        0.0433587        -27.6877        0.0541503        -30.8318
76.44                          0               0                0               0         0.106385        -36.7288         0.992583        -127.669
                               0               0                0               0         0.992482        -127.663         0.106283        -36.7487
