! TOUCHSTONE file generated by CST MICROWAVE STUDIO
! Date and time: Sun Jun 20 22:38:09 2021
! Project name: HIPS_d_sweep.cst
! Parameters = {fmax=120; fmin=75; b=0.46; d=24.85; a=0.63; phi=0; theta=0}
! Header version: 2018
! Port assignment regex: !\s*Touchstone port\s*([0-9]+)\s*=\s*(CST MWS port|CST DS port)\s*([0-9]+|Zmin|Zmax)\s*\(\"(.*)\"\)(\s*mode\s*([0-9]+))?.*
! Touchstone port assignment:
! Touchstone port 1 = CST MWS port Zmin ("") mode 1
! Touchstone port 2 = CST MWS port Zmin ("") mode 2
! Touchstone port 3 = CST MWS port Zmax ("") mode 1
! Touchstone port 4 = CST MWS port Zmax ("") mode 2
! S-Parameters are not renormalized. Unphysical impedance of 0 will be written to the file.
# GHz S MA R 0
75                             0               0                0               0         0.155652         99.1424         0.978626        -169.009
                               0               0                0               0         0.978823        -168.989         0.155884         99.2133
                               0               0                0               0         0.124131         98.1986        0.0427303         73.4339
                               0               0                0               0        0.0428407         73.4004         0.124124         98.1887
75.045                         0               0                0               0         0.150965         98.3371         0.979284        -169.825
                               0               0                0               0         0.979479        -169.804         0.151187         98.4035
                               0               0                0               0         0.126344         97.5721        0.0420507          72.572
                               0               0                0               0          0.04217         72.5775          0.12633         97.5628
75.09                          0               0                0               0         0.146903         97.3994         0.979662        -170.723
                               0               0                0               0         0.979855        -170.702          0.14712         97.4661
                               0               0                0               0         0.128756          96.834        0.0414942         71.5434
                               0               0                0               0        0.0416154         71.5607          0.12874         96.8252
75.135                         0               0                0               0           0.1434         96.3454         0.979816        -171.703
                               0               0                0               0         0.980006        -171.682         0.143613         96.4156
                               0               0                0               0         0.131378         95.9887         0.041065         70.3688
                               0               0                0               0        0.0411842         70.3793         0.131364         95.9802
75.18                          0               0                0               0           0.1404         95.1885         0.979794        -172.764
                               0               0                0               0         0.979981        -172.743         0.140611         95.2639
                               0               0                0               0         0.134215          95.041        0.0407636         69.0663
                               0               0                0               0        0.0408793         69.0594         0.134203         95.0329
75.225                         0               0                0               0         0.137857         93.9399         0.979637        -173.906
                               0               0                0               0          0.97982        -173.886         0.138066         94.0211
                               0               0                0               0         0.137265         93.9957        0.0405887          67.651
                               0               0                0               0        0.0406998         67.6229         0.137256         93.9881
75.27                          0               0                0               0         0.135731         92.6088         0.979378        -175.128
                               0               0                0               0         0.979556        -175.108         0.135938         92.6954
                               0               0                0               0         0.140523         92.8576        0.0405368          66.134
                               0               0                0               0         0.040643         66.0866         0.140518         92.8505
75.315                         0               0                0               0         0.133989         91.2029         0.979043        -176.427
                               0               0                0               0         0.979214        -176.407         0.134193          91.294
                               0               0                0               0         0.143978          91.631        0.0406031         64.5228
                               0               0                0               0        0.0407045         64.4618         0.143976         91.6243
75.36                          0               0                0               0         0.132604         89.7287         0.978649        -177.802
                               0               0                0               0         0.978812        -177.782         0.132805         89.8227
                               0               0                0               0         0.147614         90.3198        0.0407815         62.8214
                               0               0                0               0        0.0408787         62.7548         0.147614         90.3136
75.405                         0               0                0               0         0.131553         88.1916         0.978206         -179.25
                               0               0                0               0          0.97836         -179.23         0.131752         88.2866
                               0               0                0               0          0.15141         88.9277        0.0410644         61.0303
                               0               0                0               0         0.041159         60.9671          0.15141         88.9217
75.45                          0               0                0               0         0.130822          86.596         0.977718         179.232
                               0               0                0               0         0.977861         179.253         0.131017         86.6899
                               0               0                0               0         0.155342         87.4579         0.041443         59.1483
                               0               0                0               0        0.0415377         59.0965          0.15534         87.4521
75.495                         0               0                0               0         0.130397         84.9457         0.977183         177.647
                               0               0                0               0         0.977314         177.668         0.130588         85.0363
                               0               0                0               0          0.15938         85.9137        0.0419072         57.1725
                               0               0                0               0        0.0420053         57.1381         0.159376          85.908
75.54                          0               0                0               0         0.130272         83.2436         0.976594         175.998
                               0               0                0               0         0.976712          176.02         0.130457          83.329
                               0               0                0               0         0.163493         84.2986        0.0424454         55.0996
                               0               0                0               0        0.0425508         55.0858         0.163486         84.2929
75.585                         0               0                0               0         0.130445         81.4916         0.975942         174.289
                               0               0                0               0         0.976047         174.312         0.130621         81.5702
                               0               0                0               0         0.167647          82.616        0.0430446         52.9271
                               0               0                0               0        0.0431612         52.9336         0.167636         82.6103
75.63                          0               0                0               0         0.130919         79.6902         0.975214         172.524
                               0               0                0               0         0.975308         172.547         0.131082         79.7616
                               0               0                0               0         0.171808         80.8699        0.0436914         50.6537
                               0               0                0               0         0.043822         50.6773         0.171793         80.8642
75.675                         0               0                0               0         0.131701         77.8376         0.974402         170.705
                               0               0                0               0         0.974486          170.73         0.131846          77.903
                               0               0                0               0          0.17594         79.0645        0.0443716         48.2803
                               0               0                0               0        0.0445177         48.3155         0.175922         79.0588
75.72                          0               0                0               0         0.132801         75.9281         0.973497         168.839
                               0               0                0               0         0.973573         168.864         0.132923         75.9914
                               0               0                0               0         0.180009         77.2044        0.0450717         45.8095
                               0               0                0               0        0.0452328         45.8497         0.179989         77.1987
75.765                         0               0                0               0         0.134221           73.95         0.972497         166.927
                               0               0                0               0         0.972566         166.954         0.134322         74.0188
                               0               0                0               0         0.183983         75.2945        0.0457792          43.246
                               0               0                0               0        0.0459526         43.2848         0.183964         75.2889
75.81                          0               0                0               0         0.135941         71.8863         0.971404         164.975
                               0               0                0               0         0.971471         165.002         0.136035         71.9702
                               0               0                0               0         0.187835         73.3399        0.0464831         40.5955
                               0               0                0               0        0.0466648         40.6283         0.187816         73.3343
75.855                         0               0                0               0         0.137888         69.7236         0.970231         162.986
                               0               0                0               0         0.970297         163.014         0.138016         69.8265
                               0               0                0               0         0.191539         71.3456        0.0471748         37.8648
                               0               0                0               0        0.0473598         37.8888         0.191523           71.34
75.9                           0               0                0               0         0.139936         67.4746            0.969         160.965
                               0               0                0               0         0.969068         160.992         0.140145         67.5826
                               0               0                0               0         0.195076         69.3164        0.0478478         35.0606
                               0               0                0               0        0.0480309         35.0756         0.195063         69.3108
75.945                         0               0                0               0         0.141975         65.1962         0.967744         158.915
                               0               0                0               0         0.967816          158.94         0.142263         65.2795
                               0               0                0               0          0.19843          67.257        0.0484978         32.1894
                               0               0                0               0        0.0486746          32.197         0.198422         67.2513
75.99                          0               0                0               0         0.144008         62.9632         0.966507         156.838
                               0               0                0               0         0.966582         156.862         0.144303         63.0056
                               0               0                0               0         0.201591         65.1715        0.0491224          29.257
                               0               0                0               0        0.0492895         29.2604         0.201587         65.1656
76.035                         0               0                0               0         0.146136         60.8184         0.965341         154.739
                               0               0                0               0         0.965418         154.761         0.146369         60.8329
                               0               0                0               0         0.204553         63.0638        0.0497206         26.2686
                               0               0                0               0        0.0498757         26.2718         0.204553         63.0578
76.08                          0               0                0               0         0.148456         58.7605         0.964305          152.62
                               0               0                0               0         0.964383         152.638         0.148607         58.7698
                               0               0                0               0         0.207312         60.9373        0.0502921         23.2291
                               0               0                0               0        0.0504337         23.2361         0.207314         60.9311
76.125                         0               0                0               0            0.151         56.7687          0.96346         150.484
                               0               0                0               0         0.963536         150.499         0.151087         56.7872
                               0               0                0               0         0.209866         58.7954        0.0508363         20.1431
                               0               0                0               0        0.0509638         20.1574         0.209869         58.7889
76.17                          0               0                0               0         0.153747         54.8227         0.962861         148.333
                               0               0                0               0         0.962933         148.344         0.153795         54.8542
                               0               0                0               0         0.212212         56.6413        0.0513517         17.0157
                               0               0                0               0        0.0514646         17.0395         0.212214         56.6345
76.215                         0               0                0               0         0.156649         52.9073          0.96255         146.172
                               0               0                0               0         0.962616         146.179         0.156677         52.9499
                               0               0                0               0         0.214346         54.4786        0.0518348          13.852
                               0               0                0               0        0.0519325         13.8863         0.214345         54.4714
76.26                          0               0                0               0         0.159651         51.0112         0.962549         144.002
                               0               0                0               0         0.962606         144.005         0.159672         51.0611
                               0               0                0               0         0.216258         52.3109        0.0522791         10.6576
                               0               0                0               0        0.0523612         10.7015         0.216253         52.3032
76.305                         0               0                0               0         0.162699         49.1246         0.962848         141.828
                               0               0                0               0         0.962895         141.828         0.162719         49.1778
                               0               0                0               0         0.217932         50.1421        0.0526752         7.43759
                               0               0                0               0        0.0527411         7.48866         0.217922         50.1338
76.35                          0               0                0               0         0.165743         47.2378         0.963399         139.654
                               0               0                0               0         0.963436         139.652         0.165765         47.2912
                               0               0                0               0         0.219347         47.9762          0.05301         4.19632
                               0               0                0               0        0.0530595         4.25083         0.219333         47.9673
76.395                         0               0                0               0         0.168739         45.3414         0.964116         137.485
                               0               0                0               0         0.964143         137.482         0.168767         45.3927
                               0               0                0               0         0.220473         45.8169        0.0532677        0.936419
                               0               0                0               0         0.053301         0.98985         0.220456         45.8076
76.44                          0               0                0               0         0.171653         43.4263          0.96488         135.325
                               0               0                0               0         0.964897         135.322         0.171686         43.4741
