! TOUCHSTONE file generated by CST MICROWAVE STUDIO
! Date and time: Sun Jun 20 22:37:59 2021
! Project name: HIPS_d_sweep.cst
! Parameters = {fmax=120; fmin=75; b=0.46; d=23.95; a=0.63; phi=0; theta=0}
! Header version: 2018
! Port assignment regex: !\s*Touchstone port\s*([0-9]+)\s*=\s*(CST MWS port|CST DS port)\s*([0-9]+|Zmin|Zmax)\s*\(\"(.*)\"\)(\s*mode\s*([0-9]+))?.*
! Touchstone port assignment:
! Touchstone port 1 = CST MWS port Zmin ("") mode 1
! Touchstone port 2 = CST MWS port Zmin ("") mode 2
! Touchstone port 3 = CST MWS port Zmax ("") mode 1
! Touchstone port 4 = CST MWS port Zmax ("") mode 2
! S-Parameters are not renormalized. Unphysical impedance of 0 will be written to the file.
# GHz S MA R 0
75                             0               0                0               0        0.0846132        -160.075         0.973308        -65.6961
                               0               0                0               0         0.973322        -65.6965        0.0845978        -159.996
                               0               0                0               0         0.210513         23.5371        0.0349427        -7.01838
                               0               0                0               0        0.0348674        -6.80528         0.210495         23.5092
75.045                         0               0                0               0        0.0805071        -160.984          0.97396         -66.469
                               0               0                0               0         0.973966        -66.4677        0.0805304        -160.939
                               0               0                0               0         0.209451         22.7966        0.0344805        -6.33464
                               0               0                0               0        0.0344199        -6.15296         0.209439         22.7689
75.09                          0               0                0               0         0.076818        -162.004          0.97455        -67.3205
                               0               0                0               0         0.974548        -67.3185        0.0768545        -161.967
                               0               0                0               0          0.20824         21.9741        0.0340403        -5.86096
                               0               0                0               0        0.0339878        -5.69639          0.20823         21.9463
75.135                         0               0                0               0        0.0735469        -163.113         0.975102        -68.2506
                               0               0                0               0          0.97509        -68.2483        0.0735792        -163.068
                               0               0                0               0         0.206878         21.0698        0.0336191        -5.59919
                               0               0                0               0        0.0335707        -5.44138         0.206869         21.0417
75.18                          0               0                0               0        0.0706899        -164.291         0.975633        -69.2586
                               0               0                0               0         0.975611        -69.2564        0.0707084        -164.229
                               0               0                0               0         0.205359         20.0844        0.0332123        -5.55098
                               0               0                0               0        0.0331664        -5.39362         0.205351         20.0559
75.225                         0               0                0               0        0.0682402         -165.52         0.976157        -70.3437
                               0               0                0               0         0.976125        -70.3418        0.0682415        -165.439
                               0               0                0               0         0.203676         19.0188        0.0328139        -5.71768
                               0               0                0               0        0.0327701        -5.55839         0.203669         18.9898
75.27                          0               0                0               0        0.0661886        -166.784         0.976686        -71.5049
                               0               0                0               0         0.976643        -71.5031        0.0661744        -166.687
                               0               0                0               0          0.20182         17.8741        0.0324167        -6.10023
                               0               0                0               0        0.0323756        -5.94021         0.201813         17.8445
75.315                         0               0                0               0         0.064525        -168.073         0.977227        -72.7406
                               0               0                0               0         0.977173         -72.739        0.0645002        -167.966
                               0               0                0               0          0.19978         16.6518        0.0320129        -6.69909
                               0               0                0               0        0.0319751        -6.54246         0.199774         16.6217
75.36                          0               0                0               0        0.0632387         -169.38         0.977785        -74.0493
                               0               0                0               0         0.977719        -74.0476        0.0632101         -169.27
                               0               0                0               0         0.197542         15.3534         0.031594         -7.5141
                               0               0                0               0        0.0315596        -7.36712         0.197539         15.3228
75.405                         0               0                0               0        0.0623188        -170.701         0.978361        -75.4291
                               0               0                0               0         0.978282        -75.4271        0.0622934        -170.596
                               0               0                0               0         0.195095          13.981        0.0311512        -8.54457
                               0               0                0               0        0.0311198        -8.41451         0.195095         13.9499
75.45                          0               0                0               0        0.0617545        -172.036         0.978955        -76.8779
                               0               0                0               0         0.978864        -76.8754        0.0617386        -171.941
                               0               0                0               0         0.192424         12.5368        0.0306756        -9.78924
                               0               0                0               0         0.030646        -9.68333         0.192428         12.5051
75.495                         0               0                0               0        0.0615351        -173.389         0.979566        -78.3934
                               0               0                0               0         0.979462        -78.3902        0.0615337        -173.306
                               0               0                0               0         0.189517         11.0231        0.0301589        -11.2465
                               0               0                0               0        0.0301289        -11.1707         0.189526         10.9909
75.54                          0               0                0               0        0.0616501        -174.762          0.98019        -79.9731
                               0               0                0               0         0.980073        -79.9692        0.0616658        -174.692
                               0               0                0               0         0.186361         9.44294        0.0295927        -12.9145
                               0               0                0               0        0.0295599        -12.8728         0.186375            9.41
75.585                         0               0                0               0        0.0620894        -176.162         0.980825        -81.6143
                               0               0                0               0         0.980695        -81.6098        0.0621221        -176.104
                               0               0                0               0         0.182945         7.79919        0.0289698        -14.7917
                               0               0                0               0        0.0289319         -14.785         0.182965         7.76542
75.63                          0               0                0               0        0.0628426        -177.593         0.981468        -83.3144
                               0               0                0               0         0.981325        -83.3093        0.0628899        -177.543
                               0               0                0               0          0.17926         6.09515        0.0282838         -16.877
                               0               0                0               0        0.0282387        -16.9029         0.179285         6.06039
75.675                         0               0                0               0        0.0638996        -179.061         0.982117        -85.0704
                               0               0                0               0         0.981961         -85.065        0.0639563        -179.014
                               0               0                0               0         0.175298         4.33427        0.0275292        -19.1706
                               0               0                0               0        0.0274762        -19.2231         0.175328         4.29834
75.72                          0               0                0               0        0.0652497         179.432          0.98277        -86.8792
                               0               0                0               0         0.982604        -86.8738        0.0653085         179.481
                               0               0                0               0         0.171055         2.52011        0.0267021        -21.6742
                               0               0                0               0        0.0266414        -21.7443         0.171087         2.48283
75.765                         0               0                0               0        0.0668821         177.883         0.983429        -88.7378
                               0               0                0               0         0.983253        -88.7328        0.0669338          177.94
                               0               0                0               0         0.166526        0.656305        0.0257996        -24.3926
                               0               0                0               0        0.0257332         -24.468          0.16656        0.617515
75.81                          0               0                0               0        0.0687852         176.293         0.984097        -90.6429
                               0               0                0               0         0.983913        -90.6389        0.0688191         176.362
                               0               0                0               0         0.161712        -1.25356        0.0248204        -27.3337
                               0               0                0               0        0.0247518        -27.4001         0.161746        -1.29398
75.855                         0               0                0               0        0.0709462         174.661         0.984776        -92.5914
                               0               0                0               0         0.984587        -92.5887        0.0709515         174.745
                               0               0                0               0         0.156614        -3.20596        0.0237646        -30.5108
                               0               0                0               0        0.0236985         -30.552         0.156648        -3.24809
75.9                           0               0                0               0        0.0733509         172.991         0.985473        -94.5797
                               0               0                0               0         0.985281         -94.579         0.073317         173.089
                               0               0                0               0         0.151237        -5.19754        0.0226338        -33.9435
                               0               0                0               0        0.0225761        -33.9422         0.151268        -5.24138
75.945                         0               0                0               0        0.0759834         171.286         0.986194        -96.6046
                               0               0                0               0         0.986003        -96.6062        0.0759011         171.397
                               0               0                0               0         0.145588        -7.22508        0.0214313        -37.6605
                               0               0                0               0        0.0213879        -37.5984         0.145615        -7.27059
75.99                          0               0                0               0        0.0788252         169.548         0.986945        -98.6624
                               0               0                0               0         0.986758        -98.6668        0.0786879         169.668
                               0               0                0               0         0.139673        -9.28557         0.020162        -41.7025
                               0               0                0               0        0.0201388        -41.5605         0.139695        -9.33264
76.035                         0               0                0               0        0.0818557         167.779         0.987731        -100.749
                               0               0                0               0         0.987551        -100.757          0.08166         167.904
                               0               0                0               0         0.133503        -11.3761        0.0188328        -46.1266
                               0               0                0               0        0.0188348        -45.8842          0.13352        -11.4246
76.08                          0               0                0               0        0.0850514         165.983         0.988555        -102.862
                               0               0                0               0         0.988386        -102.873        0.0847983         166.106
                               0               0                0               0         0.127088        -13.4937        0.0174536        -51.0127
                               0               0                0               0        0.0174836        -50.6477           0.1271        -13.5434
76.125                         0               0                0               0        0.0883866         164.159         0.989414        -104.997
                               0               0                0               0         0.989259         -105.01        0.0880813         164.275
                               0               0                0               0          0.12044        -15.6353        0.0160371        -56.4731
                               0               0                0               0         0.016096        -55.9597         0.120447        -15.6861
76.17                          0               0                0               0        0.0918331         162.307         0.990301        -107.149
                               0               0                0               0         0.990163        -107.165        0.0914852         162.411
                               0               0                0               0         0.113571        -17.7972        0.0146015        -62.6655
                               0               0                0               0        0.0146866         -61.973         0.113574        -17.8492
76.215                         0               0                0               0        0.0953612         160.425         0.991201        -109.316
                               0               0                0               0         0.991079        -109.333        0.0949843         160.514
                               0               0                0               0         0.106496        -19.9752        0.0131718        -69.8115
                               0               0                0               0        0.0132768        -68.9022         0.106496        -20.0281
76.26                          0               0                0               0        0.0989402         158.511         0.992087        -111.492
                               0               0                0               0         0.991983        -111.511        0.0985504         158.582
                               0               0                0               0        0.0992279        -22.1632        0.0117842        -78.2167
                               0               0                0               0        0.0118984        -77.0468        0.0992265        -22.2173
76.305                         0               0                0               0         0.102539          156.56         0.992927        -113.674
                               0               0                0               0         0.992837        -113.693         0.102154         156.614
                               0               0                0               0        0.0917839        -24.3533        0.0104916        -88.2809
                               0               0                0               0        0.0105994         -86.808        0.0917831        -24.4089
76.35                          0               0                0               0         0.106128         154.568         0.993675        -115.858
                               0               0                0               0         0.993597        -115.877         0.105764         154.606
                               0               0                0               0        0.0841817        -26.5342       0.00937042        -100.454
                               0               0                0               0       0.00945198        -98.6629        0.0841832        -26.5918
76.395                         0               0                0               0         0.109678         152.531         0.994276         -118.04
                               0               0                0               0         0.994205        -118.058         0.109351         152.557
                               0               0                0               0        0.0764409        -28.6897       0.00852433         -115.04
                               0               0                0               0       0.00855888            -113        0.0764463        -28.7502
76.44                          0               0                0               0         0.113161         150.444          0.99467        -120.218
                               0               0                0               0           0.9946        -120.234         0.112883         150.461
