! TOUCHSTONE file generated by CST MICROWAVE STUDIO
! Date and time: Sun Jun 20 22:36:45 2021
! Project name: HIPS_d_sweep.cst
! Parameters = {fmax=120; fmin=75; b=0.46; d=16.05; a=0.63; phi=0; theta=0}
! Header version: 2018
! Port assignment regex: !\s*Touchstone port\s*([0-9]+)\s*=\s*(CST MWS port|CST DS port)\s*([0-9]+|Zmin|Zmax)\s*\(\"(.*)\"\)(\s*mode\s*([0-9]+))?.*
! Touchstone port assignment:
! Touchstone port 1 = CST MWS port Zmin ("") mode 1
! Touchstone port 2 = CST MWS port Zmin ("") mode 2
! Touchstone port 3 = CST MWS port Zmax ("") mode 1
! Touchstone port 4 = CST MWS port Zmax ("") mode 2
! S-Parameters are not renormalized. Unphysical impedance of 0 will be written to the file.
# GHz S MA R 0
75                             0               0                0               0         0.430156        -158.103         0.880302          109.89
                               0               0                0               0         0.880173         109.867         0.430376        -158.076
                               0               0                0               0         0.170682         30.9339         0.104355         71.9443
                               0               0                0               0          0.10441         71.9279         0.170608         30.9089
75.045                         0               0                0               0         0.433043        -158.715         0.880238         109.328
                               0               0                0               0         0.880122         109.304         0.433272        -158.682
                               0               0                0               0         0.169889         30.6967         0.104967         71.1399
                               0               0                0               0         0.105047         71.0957         0.169811         30.6717
75.09                          0               0                0               0         0.435632        -159.352         0.879835          108.72
                               0               0                0               0         0.879728         108.696         0.435864        -159.316
                               0               0                0               0         0.168965         30.3917         0.105489         70.2441
                               0               0                0               0         0.105588         70.1846         0.168884         30.3666
75.135                         0               0                0               0         0.437919        -160.018         0.879159         108.064
                               0               0                0               0         0.879056         108.039          0.43815        -159.981
                               0               0                0               0         0.167946         30.0216         0.105934         69.2526
                               0               0                0               0         0.106045          69.188         0.167864         29.9966
75.18                          0               0                0               0         0.439907        -160.718         0.878281         107.357
                               0               0                0               0         0.878178         107.333         0.440135        -160.681
                               0               0                0               0         0.166861         29.5913         0.106316         68.1631
                               0               0                0               0         0.106431         68.1009          0.16678         29.5665
75.225                         0               0                0               0         0.441602        -161.455         0.877268         106.599
                               0               0                0               0         0.877164         106.574         0.441828        -161.419
                               0               0                0               0         0.165729         29.1061         0.106649         66.9745
                               0               0                0               0         0.106758         66.9198         0.165649         29.0816
75.27                          0               0                0               0         0.443017        -162.233         0.876191         105.789
                               0               0                0               0         0.876082         105.765          0.44324        -162.199
                               0               0                0               0         0.164564         28.5715         0.106946         65.6875
                               0               0                0               0         0.107042         65.6432         0.164486         28.5474
75.315                         0               0                0               0         0.444168        -163.054         0.875113         104.927
                               0               0                0               0         0.874997         104.903          0.44439        -163.023
                               0               0                0               0         0.163373         27.9926         0.107218          64.304
                               0               0                0               0         0.107297         64.2712         0.163297          27.969
75.36                          0               0                0               0         0.445074        -163.921          0.87409         104.016
                               0               0                0               0         0.873968         103.992         0.445296        -163.893
                               0               0                0               0          0.16216         27.3741         0.107476         62.8267
                               0               0                0               0         0.107533         62.8053         0.162085         27.3511
75.405                         0               0                0               0         0.445756        -164.835         0.873173         103.055
                               0               0                0               0         0.873044         103.031          0.44598         -164.81
                               0               0                0               0         0.160925         26.7201         0.107729         61.2596
                               0               0                0               0         0.107763         61.2482         0.160851         26.6977
75.45                          0               0                0               0         0.446238        -165.797         0.872403         102.048
                               0               0                0               0         0.872269         102.024         0.446465        -165.774
                               0               0                0               0         0.159666         26.0342         0.107982          59.607
                               0               0                0               0         0.107995         59.6038         0.159594         26.0124
75.495                         0               0                0               0         0.446541        -166.807         0.871812         100.996
                               0               0                0               0         0.871673         100.972         0.446771        -166.786
                               0               0                0               0         0.158382         25.3194         0.108242         57.8737
                               0               0                0               0         0.108234         57.8765         0.158311         25.2983
75.54                          0               0                0               0         0.446688        -167.864         0.871423         99.9022
                               0               0                0               0         0.871282         99.8785         0.446921        -167.845
                               0               0                0               0         0.157068         24.5783         0.108511         56.0647
                               0               0                0               0         0.108487         56.0712         0.156998         24.5578
75.585                         0               0                0               0         0.446698        -168.968         0.871251         98.7692
                               0               0                0               0          0.87111         98.7455         0.446934         -168.95
                               0               0                0               0         0.155719         23.8132         0.108789         54.1853
                               0               0                0               0         0.108753         54.1933          0.15565         23.7933
75.63                          0               0                0               0          0.44659        -170.117         0.871302         97.5997
                               0               0                0               0         0.871163         97.5759         0.446827        -170.099
                               0               0                0               0         0.154331         23.0259         0.109076         52.2404
                               0               0                0               0         0.109035          52.248         0.154262         23.0067
75.675                         0               0                0               0         0.446379        -171.308         0.871574         96.3962
                               0               0                0               0         0.871439         96.3724         0.446615         -171.29
                               0               0                0               0         0.152897         22.2181         0.109371         50.2352
                               0               0                0               0         0.109329         50.2405         0.152829         22.1996
75.72                          0               0                0               0         0.446077         -172.54         0.872061         95.1615
                               0               0                0               0         0.871932         95.1376         0.446311         -172.52
                               0               0                0               0         0.151412         21.3915         0.109669         48.1745
                               0               0                0               0         0.109633          48.176         0.151345         21.3736
75.765                         0               0                0               0         0.445694        -173.809         0.872747          93.898
                               0               0                0               0         0.872626         93.8741         0.445924        -173.788
                               0               0                0               0         0.149871         20.5474         0.109968         46.0628
                               0               0                0               0         0.109942         46.0593         0.149803         20.5301
75.81                          0               0                0               0         0.445237        -175.113         0.873614         92.6082
                               0               0                0               0         0.873503         92.5842         0.445461         -175.09
                               0               0                0               0         0.148266         19.6872         0.110262         43.9047
                               0               0                0               0         0.110249         43.8951         0.148199         19.6706
75.855                         0               0                0               0         0.444711        -176.449         0.874639         91.2942
                               0               0                0               0         0.874539         91.2702         0.444928        -176.422
                               0               0                0               0         0.146593         18.8125         0.110545         41.7044
                               0               0                0               0          0.11055         41.6879         0.146525         18.7966
75.9                           0               0                0               0         0.444118        -177.813         0.875796         89.9582
                               0               0                0               0         0.875709         89.9342         0.444326        -177.783
                               0               0                0               0         0.144844         17.9247         0.110811         39.4658
                               0               0                0               0         0.110835         39.4418         0.144775         17.9097
75.945                         0               0                0               0         0.443458        -179.203         0.877055         88.6023
                               0               0                0               0         0.876982         88.5783         0.443656         -179.17
                               0               0                0               0         0.143014         17.0256         0.111053         37.1928
                               0               0                0               0         0.111099         37.1609         0.142945         17.0115
75.99                          0               0                0               0         0.442729         179.386         0.878388         87.2285
                               0               0                0               0         0.878328         87.2044         0.442918         179.422
                               0               0                0               0         0.141096         16.1173         0.111266         34.8891
                               0               0                0               0         0.111332         34.8491         0.141026         16.1042
76.035                         0               0                0               0          0.44193         177.956          0.87976         85.8386
                               0               0                0               0         0.879714         85.8145         0.442109         177.995
                               0               0                0               0         0.139085         15.2021         0.111442         32.5582
                               0               0                0               0         0.111528         32.5101         0.139014         15.1901
76.08                          0               0                0               0         0.441058          176.51         0.881141         84.4343
                               0               0                0               0         0.881108         84.4103         0.441227         176.553
                               0               0                0               0         0.136974         14.2829         0.111576         30.2037
                               0               0                0               0         0.111678         30.1477         0.136903         14.2722
76.125                         0               0                0               0         0.440107         175.051         0.882498         83.0177
                               0               0                0               0         0.882478         82.9936         0.440269         175.097
                               0               0                0               0          0.13476         13.3629         0.111659         27.8289
                               0               0                0               0         0.111776         27.7656         0.134688         13.3536
76.17                          0               0                0               0         0.439076         173.583           0.8838         81.5903
                               0               0                0               0         0.883791         81.5663          0.43923         173.631
                               0               0                0               0         0.132436         12.4463         0.111687         25.4372
                               0               0                0               0         0.111815         25.3674         0.132365         12.4386
76.215                         0               0                0               0         0.437959         172.108         0.885015          80.154
                               0               0                0               0         0.885018           80.13         0.438108         172.159
                               0               0                0               0         0.130001         11.5379         0.111655          23.032
                               0               0                0               0         0.111788         22.9568          0.12993         11.5319
76.26                          0               0                0               0         0.436755          170.63         0.886117         78.7107
                               0               0                0               0         0.886128         78.6867         0.436899         170.682
                               0               0                0               0         0.127451         10.6432         0.111556         20.6166
                               0               0                0               0          0.11169         20.5374         0.127382         10.6391
76.305                         0               0                0               0         0.435461         169.151         0.887078          77.262
                               0               0                0               0         0.887097         77.2381         0.435601         169.204
                               0               0                0               0         0.124787         9.76899         0.111387         18.1944
                               0               0                0               0         0.111517         18.1131         0.124719         9.76683
76.35                          0               0                0               0         0.434075         167.673         0.887875         75.8098
                               0               0                0               0         0.887901          75.786         0.434212         167.727
                               0               0                0               0          0.12201         8.92281         0.111144         15.7688
                               0               0                0               0         0.111265         15.6875         0.121944         8.92261
76.395                         0               0                0               0         0.432597           166.2         0.888489          74.356
                               0               0                0               0         0.888518         74.3324         0.432732         166.254
                               0               0                0               0         0.119123         8.11331         0.110824         13.3432
                               0               0                0               0         0.110932         13.2643          0.11906         8.11503
76.44                          0               0                0               0         0.431028         164.733         0.888901         72.9024
                               0               0                0               0         0.888933          72.879         0.431162         164.786
