! TOUCHSTONE file generated by CST MICROWAVE STUDIO
! Date and time: Sun Jun 20 22:37:36 2021
! Project name: HIPS_d_sweep.cst
! Parameters = {fmax=120; fmin=75; b=0.46; d=21.9; a=0.63; phi=0; theta=0}
! Header version: 2018
! Port assignment regex: !\s*Touchstone port\s*([0-9]+)\s*=\s*(CST MWS port|CST DS port)\s*([0-9]+|Zmin|Zmax)\s*\(\"(.*)\"\)(\s*mode\s*([0-9]+))?.*
! Touchstone port assignment:
! Touchstone port 1 = CST MWS port Zmin ("") mode 1
! Touchstone port 2 = CST MWS port Zmin ("") mode 2
! Touchstone port 3 = CST MWS port Zmax ("") mode 1
! Touchstone port 4 = CST MWS port Zmax ("") mode 2
! S-Parameters are not renormalized. Unphysical impedance of 0 will be written to the file.
# GHz S MA R 0
75                             0               0                0               0        0.0473494        -100.416         0.980634         165.634
                               0               0                0               0         0.980658         165.636         0.047307        -100.531
                               0               0                0               0         0.188837          75.928        0.0192266         103.793
                               0               0                0               0        0.0191997         103.514         0.188851         75.9275
75.045                         0               0                0               0        0.0514037        -100.669          0.98028         164.946
                               0               0                0               0         0.979998         164.945         0.051564        -101.485
                               0               0                0               0         0.190072         75.1755         0.019434         104.702
                               0               0                0               0        0.0194587         104.365         0.190063         75.1805
75.09                          0               0                0               0         0.054922        -101.419         0.979879         164.172
                               0               0                0               0         0.979456          164.17        0.0551402        -102.424
                               0               0                0               0         0.191316         74.3694        0.0197484          105.45
                               0               0                0               0        0.0197978         105.059         0.191291         74.3784
75.135                         0               0                0               0        0.0579308        -102.445         0.979454         163.316
                               0               0                0               0         0.979006         163.313        0.0581366        -103.386
                               0               0                0               0         0.192578         73.5083        0.0201679          105.96
                               0               0                0               0        0.0202197         105.536         0.192542           73.52
75.18                          0               0                0               0        0.0604696        -103.619          0.97902         162.383
                               0               0                0               0         0.978623          162.38        0.0606318        -104.388
                               0               0                0               0         0.193866         72.5914        0.0206843         106.167
                               0               0                0               0        0.0207232         105.743         0.193829         72.6042
75.225                         0               0                0               0        0.0625793         -104.87         0.978585         161.374
                               0               0                0               0         0.978284         161.373        0.0626872        -105.433
                               0               0                0               0         0.195193         71.6184        0.0212847         106.027
                               0               0                0               0        0.0213025         105.634          0.19516         71.6308
75.27                          0               0                0               0        0.0642965        -106.152         0.978158         160.295
                               0               0                0               0         0.977971         160.294        0.0643505         -106.52
                               0               0                0               0         0.196569         70.5894        0.0219532         105.517
                               0               0                0               0        0.0219482         105.178         0.196547         70.5993
75.315                         0               0                0               0         0.065653        -107.443         0.977739         159.148
                               0               0                0               0         0.977666         159.149        0.0656591        -107.644
                               0               0                0               0         0.198008         69.5044        0.0226729         104.637
                               0               0                0               0        0.0226481         104.363         0.198002         69.5099
75.36                          0               0                0               0        0.0666753        -108.728          0.97733         157.936
                               0               0                0               0         0.977357         157.938        0.0666423        -108.801
                               0               0                0               0         0.199526         68.3634        0.0234277         103.402
                               0               0                0               0         0.023389         103.192         0.199537         68.3621
75.405                         0               0                0               0         0.067385            -110          0.97693         156.663
                               0               0                0               0         0.977032         156.666        0.0673235        -109.985
                               0               0                0               0         0.201138         67.1649         0.024204          101.84
                               0               0                0               0        0.0241577         101.682         0.201161         67.1547
75.45                          0               0                0               0        0.0678001        -111.258         0.976535         155.331
                               0               0                0               0         0.976686         155.335        0.0677211        -111.193
                               0               0                0               0          0.20286         65.9047        0.0249909         99.9862
                               0               0                0               0        0.0249427         99.8645         0.202885         65.8848
75.495                         0               0                0               0        0.0679356          -112.5         0.976145         153.943
                               0               0                0               0         0.976315         153.948        0.0678501        -112.419
                               0               0                0               0         0.204699         64.5746        0.0257807         97.8791
                               0               0                0               0        0.0257347         97.7749         0.204708         64.5469
75.54                          0               0                0               0        0.0678047        -113.731         0.975756         152.502
                               0               0                0               0         0.975918         152.507        0.0677228        -113.661
                               0               0                0               0         0.206635         63.1627        0.0265685         95.5568
                               0               0                0               0        0.0265268         95.4535         0.206616         63.1331
75.585                         0               0                0               0        0.0674192        -114.954         0.975369         151.011
                               0               0                0               0         0.975501         151.015        0.0673498        -114.913
                               0               0                0               0         0.208605         61.6587        0.0273515         93.0557
                               0               0                0               0         0.027315         92.9409         0.208564         61.6359
75.63                          0               0                0               0        0.0667905        -116.173         0.974985         149.471
                               0               0                0               0         0.975068         149.475        0.0667409        -116.175
                               0               0                0               0         0.210508          60.065        0.0281288         90.4091
                               0               0                0               0        0.0280968         90.2752         0.210474         60.0543
75.675                         0               0                0               0        0.0659301        -117.395         0.974605         147.886
                               0               0                0               0         0.974631         147.888        0.0659051        -117.444
                               0               0                0               0         0.212251         58.4024           0.0289         87.6466
                               0               0                0               0        0.0288716          87.491          0.21226         58.4002
75.72                          0               0                0               0        0.0648505        -118.624         0.974236         146.257
                               0               0                0               0         0.974201         146.257        0.0648521         -118.72
                               0               0                0               0         0.213807         56.7003        0.0296653         84.7939
                               0               0                0               0         0.029639         84.6184         0.213867         56.6973
75.765                         0               0                0               0        0.0635646        -119.867         0.973886         144.587
                               0               0                0               0         0.973795         144.586        0.0635922        -120.003
                               0               0                0               0         0.215208         54.9792        0.0304245          81.873
                               0               0                0               0        0.0303992         81.6824         0.215298         54.9688
75.81                          0               0                0               0        0.0620871        -121.127         0.973564         142.879
                               0               0                0               0         0.973429         142.876         0.062137        -121.294
                               0               0                0               0         0.216495         53.2462        0.0311769         78.9023
                               0               0                0               0        0.0311516         78.7035         0.216589         53.2278
75.855                         0               0                0               0        0.0604337        -122.409         0.973283         141.134
                               0               0                0               0         0.973119          141.13        0.0604995        -122.593
                               0               0                0               0         0.217696         51.4995        0.0319209         75.8969
                               0               0                0               0        0.0318953         75.6977         0.217775         51.4765
75.9                           0               0                0               0        0.0586212        -123.717         0.973058         139.357
                               0               0                0               0         0.972884         139.352        0.0586948        -123.901
                               0               0                0               0         0.218812         49.7347        0.0326541          72.869
                               0               0                0               0        0.0326282          72.677         0.218869         49.7111
75.945                         0               0                0               0        0.0566677        -125.051         0.972904         137.549
                               0               0                0               0         0.972739         137.543        0.0567397        -125.221
                               0               0                0               0         0.219829         47.9483        0.0333729         69.8284
                               0               0                0               0         0.033347         69.6502         0.219866         47.9273
75.99                          0               0                0               0        0.0545918        -126.411         0.972835         135.713
                               0               0                0               0         0.972697         135.709        0.0546527        -126.552
                               0               0                0               0         0.220725         46.1383        0.0340729         66.7826
                               0               0                0               0        0.0340477         66.6237         0.220748         46.1215
76.035                         0               0                0               0        0.0524127        -127.795         0.972862         133.854
                               0               0                0               0         0.972766         133.851        0.0524539        -127.893
                               0               0                0               0         0.221475         44.3042        0.0347486         63.7376
                               0               0                0               0        0.0347247         63.6016         0.221489         44.2923
76.08                          0               0                0               0        0.0501495        -129.196         0.972995         131.975
                               0               0                0               0         0.972951         131.974        0.0501645        -129.241
                               0               0                0               0         0.222052         42.4466        0.0353938         60.6981
                               0               0                0               0        0.0353721         60.5869         0.222062         42.4396
76.125                         0               0                0               0        0.0478211        -130.606         0.973236          130.08
                               0               0                0               0         0.973247         130.081        0.0478059        -130.592
                               0               0                0               0         0.222431         40.5674        0.0360018         57.6679
                               0               0                0               0        0.0359827         57.5818         0.222441         40.5645
76.17                          0               0                0               0        0.0454457        -132.012          0.97358         128.172
                               0               0                0               0         0.973643         128.177        0.0453999        -131.936
                               0               0                0               0         0.222589         38.6687        0.0365651         54.6503
                               0               0                0               0         0.036549         54.5879         0.222601         38.6692
76.215                         0               0                0               0        0.0430409        -133.397         0.974012         126.256
                               0               0                0               0         0.974121         126.264        0.0429672        -133.259
                               0               0                0               0         0.222503         36.7535        0.0370762         51.6485
                               0               0                0               0         0.037063         51.6075         0.222519         36.7565
76.26                          0               0                0               0        0.0406231        -134.739         0.974511         124.336
                               0               0                0               0         0.974654         124.347        0.0405275        -134.544
                               0               0                0               0         0.222156         34.8253        0.0375276         48.6656
                               0               0                0               0        0.0375166         48.6428         0.222176         34.8299
76.305                         0               0                0               0        0.0382082        -136.011         0.975045         122.415
                               0               0                0               0         0.975207         122.429        0.0380991        -135.766
                               0               0                0               0         0.221532          32.888        0.0379119         45.7055
                               0               0                0               0        0.0379021         45.6973         0.221555         32.8932
76.35                          0               0                0               0        0.0358109        -137.178         0.975573         120.497
                               0               0                0               0         0.975739         120.512        0.0356986        -136.894
                               0               0                0               0         0.220618         30.9456        0.0382222         42.7722
                               0               0                0               0        0.0382121          42.775         0.220644         30.9508
76.395                         0               0                0               0        0.0334457        -138.198         0.976049         118.584
                               0               0                0               0         0.976207         118.599        0.0333413        -137.888
                               0               0                0               0         0.219406         29.0028        0.0384525         39.8708
                               0               0                0               0        0.0384402         39.8814         0.219433         29.0072
76.44                          0               0                0               0        0.0311273        -139.021         0.976424          116.68
                               0               0                0               0         0.976561         116.693        0.0310413          -138.7
