! TOUCHSTONE file generated by CST MICROWAVE STUDIO
! Date and time: Sun Jun 20 22:37:09 2021
! Project name: HIPS_d_sweep.cst
! Parameters = {fmax=120; fmin=75; b=0.46; d=19; a=0.63; phi=0; theta=0}
! Header version: 2018
! Port assignment regex: !\s*Touchstone port\s*([0-9]+)\s*=\s*(CST MWS port|CST DS port)\s*([0-9]+|Zmin|Zmax)\s*\(\"(.*)\"\)(\s*mode\s*([0-9]+))?.*
! Touchstone port assignment:
! Touchstone port 1 = CST MWS port Zmin ("") mode 1
! Touchstone port 2 = CST MWS port Zmin ("") mode 2
! Touchstone port 3 = CST MWS port Zmax ("") mode 1
! Touchstone port 4 = CST MWS port Zmax ("") mode 2
! S-Parameters are not renormalized. Unphysical impedance of 0 will be written to the file.
# GHz S MA R 0
75                             0               0                0               0         0.238601        -133.193         0.946426          135.11
                               0               0                0               0         0.946436         135.098           0.2387        -133.169
                               0               0                0               0         0.208264         47.2847        0.0608068         105.128
                               0               0                0               0        0.0608171          105.22         0.208248         47.2794
75.045                         0               0                0               0          0.24183        -133.822         0.945715         134.483
                               0               0                0               0          0.94572         134.471         0.241931        -133.799
                               0               0                0               0          0.20771         46.7301        0.0615648         104.412
                               0               0                0               0        0.0615785         104.501         0.207694         46.7242
75.09                          0               0                0               0         0.244736        -134.503         0.945029         133.792
                               0               0                0               0         0.945035         133.779         0.244837        -134.481
                               0               0                0               0         0.207208         46.1148        0.0623125         103.534
                               0               0                0               0        0.0623268         103.621         0.207192          46.109
75.135                         0               0                0               0         0.247322        -135.239         0.944391         133.037
                               0               0                0               0           0.9444         133.025         0.247423        -135.216
                               0               0                0               0         0.206752         45.4406        0.0630513         102.499
                               0               0                0               0        0.0630649         102.584         0.206737          45.435
75.18                          0               0                0               0         0.249592         -136.03         0.943817         132.221
                               0               0                0               0          0.94383         132.209         0.249692        -136.007
                               0               0                0               0         0.206339         44.7088        0.0637821          101.31
                               0               0                0               0        0.0637949         101.394         0.206324         44.7035
75.225                         0               0                0               0         0.251552        -136.876         0.943319         131.343
                               0               0                0               0         0.943335         131.332         0.251652        -136.853
                               0               0                0               0          0.20596         43.9207        0.0645055         99.9747
                               0               0                0               0        0.0645181         100.057         0.205945         43.9157
75.27                          0               0                0               0         0.253213        -137.778         0.942904         130.407
                               0               0                0               0          0.94292         130.396         0.253313        -137.755
                               0               0                0               0         0.205606         43.0775        0.0652217         98.4988
                               0               0                0               0        0.0652351         98.5792         0.205591         43.0724
75.315                         0               0                0               0         0.254582        -138.733         0.942575         129.412
                               0               0                0               0         0.942588         129.401         0.254683        -138.711
                               0               0                0               0         0.205266         42.1801        0.0659302         96.8894
                               0               0                0               0        0.0659457         96.9676         0.205252         42.1748
75.36                          0               0                0               0         0.255671        -139.742         0.942331         128.361
                               0               0                0               0         0.942338         128.349         0.255775        -139.721
                               0               0                0               0          0.20493         41.2295        0.0666304         95.1539
                               0               0                0               0        0.0666488         95.2296         0.204917         41.2239
75.405                         0               0                0               0         0.256492        -140.802         0.942169         127.254
                               0               0                0               0         0.942169         127.242         0.256598        -140.782
                               0               0                0               0         0.204585         40.2268        0.0673212         93.2999
                               0               0                0               0        0.0673431         93.3731         0.204572         40.2208
75.45                          0               0                0               0         0.257057        -141.911         0.942083         126.095
                               0               0                0               0         0.942074         126.081         0.257166        -141.893
                               0               0                0               0         0.204217         39.1732        0.0680012         91.3353
                               0               0                0               0        0.0680267         91.4059         0.204205         39.1667
75.495                         0               0                0               0         0.257379        -143.068         0.942067         124.884
                               0               0                0               0         0.942049          124.87          0.25749        -143.051
                               0               0                0               0         0.203812         38.0699        0.0686687         89.2681
                               0               0                0               0        0.0686972         89.3361         0.203801          38.063
75.54                          0               0                0               0         0.257469         -144.27         0.942113         123.622
                               0               0                0               0         0.942089         123.608         0.257581        -144.254
                               0               0                0               0         0.203358         36.9184        0.0693217          87.106
                               0               0                0               0        0.0693525         87.1717         0.203346         36.9114
75.585                         0               0                0               0         0.257342        -145.516         0.942215         122.314
                               0               0                0               0         0.942188           122.3         0.257454          -145.5
                               0               0                0               0         0.202839         35.7205        0.0699582         84.8571
                               0               0                0               0          0.06999         84.9205         0.202828         35.7136
75.63                          0               0                0               0          0.25701        -146.803         0.942366          120.96
                               0               0                0               0         0.942343         120.947          0.25712        -146.788
                               0               0                0               0         0.202243         34.4783        0.0705761         82.5291
                               0               0                0               0        0.0706075         82.5902         0.202233         34.4718
75.675                         0               0                0               0         0.256488         -148.13         0.942565         119.564
                               0               0                0               0         0.942553         119.552         0.256593        -148.114
                               0               0                0               0         0.201556         33.1941        0.0711732         80.1294
                               0               0                0               0         0.071203         80.1882         0.201548         33.1881
75.72                          0               0                0               0         0.255787        -149.495         0.942814         118.128
                               0               0                0               0         0.942819         118.117         0.255887        -149.479
                               0               0                0               0         0.200769         31.8702        0.0717473         77.6653
                               0               0                0               0        0.0717744         77.7218         0.200762          31.865
75.765                         0               0                0               0         0.254923        -150.897         0.943117         116.655
                               0               0                0               0         0.943143         116.646         0.255016        -150.879
                               0               0                0               0          0.19987         30.5095        0.0722964          75.144
                               0               0                0               0        0.0723204         75.1978         0.199866         30.5051
75.81                          0               0                0               0          0.25391        -152.333         0.943484         115.149
                               0               0                0               0         0.943533         115.141         0.253995        -152.314
                               0               0                0               0         0.198851         29.1147        0.0728185         72.5721
                               0               0                0               0        0.0728396         72.6228         0.198849         29.1111
75.855                         0               0                0               0         0.252761        -153.803         0.943929         113.612
                               0               0                0               0         0.943995         113.605          0.25284        -153.784
                               0               0                0               0         0.197704         27.6886        0.0733118         69.9561
                               0               0                0               0         0.073331         70.0033         0.197705         27.6855
75.9                           0               0                0               0         0.251491        -155.304         0.944466         112.048
                               0               0                0               0         0.944539         112.042         0.251566        -155.286
                               0               0                0               0         0.196424          26.234        0.0737746         67.3022
                               0               0                0               0        0.0737939         67.3454         0.196427         26.2311
75.945                         0               0                0               0         0.250116        -156.837          0.94511          110.46
                               0               0                0               0         0.945173         110.453          0.25019        -156.819
                               0               0                0               0         0.195006         24.7536        0.0742055         64.6161
                               0               0                0               0        0.0742273         64.6552         0.195009         24.7504
75.99                          0               0                0               0          0.24865        -158.399         0.945875         108.851
                               0               0                0               0         0.945907         108.842         0.248728        -158.384
                               0               0                0               0         0.193445           23.25        0.0746029         61.9037
                               0               0                0               0        0.0746306         61.9383         0.193448         23.2461
76.035                         0               0                0               0         0.247108        -159.989         0.946766         107.224
                               0               0                0               0         0.946743         107.213         0.247196        -159.977
                               0               0                0               0         0.191738         21.7256        0.0749654         59.1702
                               0               0                0               0        0.0750025         59.2006         0.191739         21.7205
76.08                          0               0                0               0         0.245506        -161.605         0.947784          105.58
                               0               0                0               0         0.947685         105.567         0.245609        -161.597
                               0               0                0               0         0.189883         20.1828        0.0752917         56.4211
                               0               0                0               0        0.0753416         56.4476         0.189879         20.1763
76.125                         0               0                0               0         0.243855        -163.244          0.94892         103.923
                               0               0                0               0         0.948728         103.907          0.24398        -163.241
                               0               0                0               0         0.187874          18.624        0.0755803         53.6614
                               0               0                0               0        0.0756458         53.6851         0.187864         18.6159
76.17                          0               0                0               0         0.242171        -164.904         0.950153         102.255
                               0               0                0               0          0.94986         102.236         0.242321        -164.907
                               0               0                0               0          0.18571         17.0514        0.0758295         50.8964
                               0               0                0               0        0.0759124         50.9183         0.185693         17.0417
76.215                         0               0                0               0         0.240463        -166.582         0.951456         100.578
                               0               0                0               0         0.951064         100.557         0.240639        -166.589
                               0               0                0               0         0.183386         15.4677        0.0760374         48.1312
                               0               0                0               0        0.0761381         48.1526          0.18336         15.4566
76.26                          0               0                0               0          0.23874        -168.273         0.952791         98.8947
                               0               0                0               0         0.952313         98.8723         0.238941        -168.285
                               0               0                0               0         0.180897         13.8756        0.0762017         45.3708
                               0               0                0               0        0.0763185         45.3933         0.180864         13.8634
76.305                         0               0                0               0         0.237009        -169.974         0.954114         97.2067
                               0               0                0               0         0.953574         97.1838          0.23723        -169.989
                               0               0                0               0         0.178241         12.2782        0.0763196         42.6203
                               0               0                0               0        0.0764489         42.6452         0.178201         12.2654
76.35                          0               0                0               0         0.235274        -171.679         0.955378         95.5164
                               0               0                0               0         0.954808         95.4938         0.235505        -171.696
                               0               0                0               0         0.175412         10.6791         0.076388         39.8849
                               0               0                0               0        0.0765242         39.9132         0.175368          10.666
76.395                         0               0                0               0         0.233535        -173.383         0.956532         93.8258
                               0               0                0               0         0.955971         93.8044         0.233765        -173.401
                               0               0                0               0         0.172409         9.08216        0.0764031         37.1694
                               0               0                0               0        0.0765387         37.2016         0.172364         9.06944
76.44                          0               0                0               0         0.231792        -175.082         0.957526         92.1369
                               0               0                0               0         0.957014         92.1174         0.232007        -175.097
