! TOUCHSTONE file generated by CST MICROWAVE STUDIO
! Date and time: Sun Jun 20 22:37:25 2021
! Project name: HIPS_d_sweep.cst
! Parameters = {fmax=120; fmin=75; b=0.46; d=20.85; a=0.63; phi=0; theta=0}
! Header version: 2018
! Port assignment regex: !\s*Touchstone port\s*([0-9]+)\s*=\s*(CST MWS port|CST DS port)\s*([0-9]+|Zmin|Zmax)\s*\(\"(.*)\"\)(\s*mode\s*([0-9]+))?.*
! Touchstone port assignment:
! Touchstone port 1 = CST MWS port Zmin ("") mode 1
! Touchstone port 2 = CST MWS port Zmin ("") mode 2
! Touchstone port 3 = CST MWS port Zmax ("") mode 1
! Touchstone port 4 = CST MWS port Zmax ("") mode 2
! S-Parameters are not renormalized. Unphysical impedance of 0 will be written to the file.
# GHz S MA R 0
75                             0               0                0               0         0.124164         20.5539         0.970907        -74.0359
                               0               0                0               0         0.971028        -74.0383         0.124118         20.5577
                               0               0                0               0         0.196696         17.8238        0.0549035         43.2619
                               0               0                0               0        0.0549026         43.3007         0.196847         17.8199
75.045                         0               0                0               0         0.127764         19.7338         0.970785        -74.7237
                               0               0                0               0         0.970981        -74.7379         0.127718         19.7303
                               0               0                0               0         0.195242         17.2235        0.0555672         42.8999
                               0               0                0               0        0.0557473         42.7978         0.195393         17.2196
75.09                          0               0                0               0         0.131095         18.8696         0.970635        -75.4801
                               0               0                0               0         0.970841        -75.4965          0.13105         18.8659
                               0               0                0               0         0.193671         16.5525        0.0561803          42.358
                               0               0                0               0        0.0564144         42.2822         0.193822         16.5486
75.135                         0               0                0               0         0.134131         17.9565         0.970487         -76.305
                               0               0                0               0         0.970661        -76.3168         0.134086          17.957
                               0               0                0               0         0.191982         15.8113        0.0567461         41.6464
                               0               0                0               0        0.0569001         41.6425         0.192134         15.8074
75.18                          0               0                0               0         0.136848         16.9904          0.97037        -77.1978
                               0               0                0               0          0.97049        -77.2009         0.136804         16.9972
                               0               0                0               0         0.190174         15.0005        0.0572665         40.7745
                               0               0                0               0        0.0572684         40.8074         0.190327         14.9964
75.225                         0               0                0               0         0.139233         15.9678         0.970307        -78.1577
                               0               0                0               0          0.97037        -78.1506         0.139188         15.9813
                               0               0                0               0         0.188242         14.1207         0.057742         39.7507
                               0               0                0               0        0.0575934         39.7711         0.188396         14.1164
75.27                          0               0                0               0         0.141277         14.8858         0.970317        -79.1838
                               0               0                0               0         0.970332        -79.1669         0.141231         14.9052
                               0               0                0               0         0.186182         13.1728        0.0581721         38.5832
                               0               0                0               0        0.0579172          38.564         0.186337         13.1683
75.315                         0               0                0               0         0.142976         13.7426         0.970413        -80.2746
                               0               0                0               0           0.9704        -80.2502          0.14293         13.7662
                               0               0                0               0         0.183987          12.158         0.058555         37.2792
                               0               0                0               0        0.0582495         37.2195         0.184143         12.1533
75.36                          0               0                0               0         0.144333         12.5372         0.970605        -81.4288
                               0               0                0               0         0.970586           -81.4         0.144288         12.5628
                               0               0                0               0         0.181649         11.0775        0.0588885         35.8457
                               0               0                0               0        0.0585815         35.7606         0.181807         11.0725
75.405                         0               0                0               0         0.145357         11.2694         0.970898        -82.6445
                               0               0                0               0         0.970893        -82.6153         0.145313          11.295
                               0               0                0               0          0.17916         9.93271        0.0591696         34.2892
                               0               0                0               0        0.0588975         34.1993         0.179318          9.9274
75.45                          0               0                0               0         0.146059         9.93998         0.971292        -83.9198
                               0               0                0               0         0.971315        -83.8944         0.146017         9.96337
                               0               0                0               0         0.176509         8.72525        0.0593949          32.616
                               0               0                0               0        0.0591809         32.5403         0.176669         8.71971
75.495                         0               0                0               0         0.146455         8.55015         0.971782        -85.2528
                               0               0                0               0         0.971842        -85.2348         0.146415         8.56986
                               0               0                0               0         0.173688         7.45705        0.0595606         30.8322
                               0               0                0               0        0.0594162         30.7842         0.173848         7.45132
75.54                          0               0                0               0         0.146561         7.10189         0.972364        -86.6411
                               0               0                0               0         0.972456        -86.6333         0.146524         7.11695
                               0               0                0               0         0.170686         6.13024        0.0596628         28.9436
                               0               0                0               0        0.0595898         28.9301         0.170848          6.1244
75.585                         0               0                0               0         0.146395         5.59761         0.973025        -88.0826
                               0               0                0               0          0.97314        -88.0863         0.146362         5.60768
                               0               0                0               0         0.167495         4.74726        0.0596976         26.9563
                               0               0                0               0        0.0596902         26.9767         0.167657         4.74141
75.63                          0               0                0               0         0.145977         4.04005         0.973756        -89.5747
                               0               0                0               0         0.973877          -89.59         0.145946         4.04549
                               0               0                0               0         0.164106         3.31084        0.0596614         24.8759
                               0               0                0               0        0.0597081         24.9239         0.164268          3.3051
75.675                         0               0                0               0         0.145325         2.43215         0.974541        -91.1149
                               0               0                0               0         0.974651        -91.1401         0.145296         2.43397
                               0               0                0               0         0.160511           1.824        0.0595507         22.7085
                               0               0                0               0        0.0596363         22.7728         0.160674          1.8185
75.72                          0               0                0               0         0.144456        0.776971         0.975369        -92.7005
                               0               0                0               0         0.975452        -92.7326         0.144427        0.776761
                               0               0                0               0         0.156705        0.290004        0.0593625         20.4598
                               0               0                0               0          0.05947         20.5265         0.156868        0.284909
75.765                         0               0                0               0         0.143385       -0.922442         0.976224        -94.3288
                               0               0                0               0         0.976272        -94.3636         0.143357        -0.92267
                               0               0                0               0         0.152684        -1.28761        0.0590945         18.1357
                               0               0                0               0        0.0592065         18.1902         0.152846        -1.29214
75.81                          0               0                0               0         0.142128        -2.66315         0.977096        -95.9969
                               0               0                0               0         0.977109        -96.0295         0.142098        -2.66112
                               0               0                0               0         0.148443        -2.90515        0.0587451         15.7421
                               0               0                0               0        0.0588457         15.7711         0.148605        -2.90896
75.855                         0               0                0               0         0.140696         -4.4424         0.977976        -97.7019
                               0               0                0               0         0.977963        -97.7273         0.140664         -4.4358
                               0               0                0               0         0.143985        -4.55885        0.0583132         13.2849
                               0               0                0               0        0.0583895          13.278         0.144146        -4.56179
75.9                           0               0                0               0         0.139099        -6.25777         0.978859        -99.4408
                               0               0                0               0         0.978836        -99.4546         0.139062        -6.24451
                               0               0                0               0         0.139309        -6.24492        0.0577988         10.7698
                               0               0                0               0         0.057842         10.7213          0.13947        -6.24689
75.945                         0               0                0               0         0.137345        -8.10722         0.979746         -101.21
                               0               0                0               0          0.97973        -101.209         0.137302        -8.08579
                               0               0                0               0          0.13442        -7.95975        0.0572025          8.2025
                               0               0                0               0        0.0572091         8.11208          0.13458         -7.9607
75.99                          0               0                0               0         0.135438        -9.98931         0.980641        -103.007
                               0               0                0               0         0.980649        -102.991         0.135388        -9.95915
                               0               0                0               0         0.129324        -9.69997        0.0565258         5.58865
                               0               0                0               0        0.0564981         5.46158         0.129483        -9.69993
76.035                         0               0                0               0         0.133383        -11.9033         0.981559        -104.828
                               0               0                0               0         0.981596        -104.798         0.133325        -11.8653
                               0               0                0               0         0.124028        -11.4626        0.0557709         2.93363
                               0               0                0               0        0.0557172         2.78041         0.124186        -11.4618
76.08                          0               0                0               0         0.131181        -13.8495         0.982515         -106.67
                               0               0                0               0         0.982577        -106.631         0.131115        -13.8063
                               0               0                0               0          0.11854        -13.2453        0.0549408        0.242688
                               0               0                0               0        0.0548748       0.0778744         0.118698        -13.2439
76.125                         0               0                0               0         0.128834        -15.8295         0.983536        -108.529
                               0               0                0               0         0.983599        -108.489         0.128764        -15.7862
                               0               0                0               0         0.112871        -15.0462        0.0540387        -2.47907
                               0               0                0               0        0.0539792        -2.63861         0.113028        -15.0447
76.17                          0               0                0               0         0.126347        -17.8465         0.984646        -110.401
                               0               0                0               0         0.984677        -110.372         0.126278        -17.8107
                               0               0                0               0         0.107031        -16.8639        0.0530684         -5.2267
                               0               0                0               0        0.0530374        -5.36392         0.107187        -16.8632
76.215                         0               0                0               0         0.123725        -19.9051         0.985872        -112.282
                               0               0                0               0         0.985834        -112.281         0.123672        -19.8869
                               0               0                0               0         0.101031        -18.6979        0.0520339        -7.99534
                               0               0                0               0        0.0520551         -8.0954         0.101187        -18.6988
76.26                          0               0                0               0         0.120984        -22.0119         0.987233        -114.169
                               0               0                0               0         0.987104        -114.213         0.120967        -22.0223
                               0               0                0               0         0.094882        -20.5475        0.0509392        -10.7801
                               0               0                0               0        0.0510357        -10.8327         0.095038        -20.5514
76.305                         0               0                0               0         0.118146        -24.1733         0.988738        -116.057
                               0               0                0               0         0.988534        -116.165         0.118199         -24.222
                               0               0                0               0        0.0885965         -22.412        0.0497882        -13.5761
                               0               0                0               0        0.0499799        -13.5774        0.0887533        -22.4204
76.35                          0               0                0               0         0.115251        -26.3934         0.990375        -117.944
                               0               0                0               0          0.99017        -118.133         0.115411        -26.4846
                               0               0                0               0        0.0821871        -24.2894        0.0485844        -16.3782
                               0               0                0               0        0.0488859         -16.332        0.0823457        -24.3041
76.395                         0               0                0               0         0.112348        -28.6693         0.992105        -119.828
                               0               0                0               0         0.992044        -120.106         0.112653         -28.798
                               0               0                0               0        0.0756676        -26.1751        0.0473311        -19.1807
                               0               0                0               0        0.0477489        -19.0991        0.0758293        -26.1983
76.44                          0               0                0               0         0.109492        -30.9857         0.993862        -121.705
                               0               0                0               0         0.994138        -122.074         0.109967        -31.1355
