! TOUCHSTONE file generated by CST MICROWAVE STUDIO
! Date and time: Sun Jun 20 22:37:01 2021
! Project name: HIPS_d_sweep.cst
! Parameters = {fmax=120; fmin=75; b=0.46; d=18; a=0.63; phi=0; theta=0}
! Header version: 2018
! Port assignment regex: !\s*Touchstone port\s*([0-9]+)\s*=\s*(CST MWS port|CST DS port)\s*([0-9]+|Zmin|Zmax)\s*\(\"(.*)\"\)(\s*mode\s*([0-9]+))?.*
! Touchstone port assignment:
! Touchstone port 1 = CST MWS port Zmin ("") mode 1
! Touchstone port 2 = CST MWS port Zmin ("") mode 2
! Touchstone port 3 = CST MWS port Zmax ("") mode 1
! Touchstone port 4 = CST MWS port Zmax ("") mode 2
! S-Parameters are not renormalized. Unphysical impedance of 0 will be written to the file.
# GHz S MA R 0
75                             0               0                0               0         0.323722        -19.0926          0.93629        -110.811
                               0               0                0               0         0.936231          -110.8         0.323731         -19.095
                               0               0                0               0        0.0997431        -3.33451        0.0916043         0.49196
                               0               0                0               0        0.0914996        0.407458        0.0996525        -3.30302
75.045                         0               0                0               0         0.326762        -19.8676          0.93738        -111.426
                               0               0                0               0         0.937392        -111.425         0.326742        -19.8608
                               0               0                0               0        0.0980871        -3.52145        0.0919101       -0.540618
                               0               0                0               0        0.0918084        -0.62213        0.0980118        -3.48913
75.09                          0               0                0               0          0.32957        -20.6655         0.937918        -112.092
                               0               0                0               0         0.937993        -112.097         0.329526        -20.6522
                               0               0                0               0        0.0962822        -3.70024        0.0921407        -1.63548
                               0               0                0               0        0.0920416        -1.71554        0.0962179         -3.6662
75.135                         0               0                0               0         0.332125        -21.4907         0.937984        -112.814
                               0               0                0               0         0.938107        -112.822         0.332063        -21.4733
                               0               0                0               0        0.0943263        -3.87051         0.092294        -2.79837
                               0               0                0               0        0.0921974        -2.87835        0.0942691        -3.83415
75.18                          0               0                0               0         0.334406        -22.3477          0.93767        -113.595
                               0               0                0               0          0.93782        -113.603         0.334335        -22.3284
                               0               0                0               0        0.0922179        -4.03118        0.0923685        -4.03489
                               0               0                0               0        0.0922746        -4.11598        0.0921642        -3.99207
75.225                         0               0                0               0         0.336401        -23.2411         0.937069        -114.437
                               0               0                0               0         0.937226        -114.444         0.336328        -23.2216
                               0               0                0               0        0.0899562        -4.18018        0.0923638        -5.35044
                               0               0                0               0        0.0922732        -5.43356        0.0899032        -4.13807
75.27                          0               0                0               0           0.3381        -24.1756          0.93628        -115.342
                               0               0                0               0          0.93642        -115.347          0.33803        -24.1572
                               0               0                0               0        0.0875415        -4.31426        0.0922802        -6.75005
                               0               0                0               0        0.0921934        -6.83585        0.0874867        -4.26901
75.315                         0               0                0               0         0.339497        -25.1553         0.935391        -116.309
                               0               0                0               0         0.935499        -116.311         0.339438        -25.1389
                               0               0                0               0        0.0849746        -4.42873        0.0921185        -8.23827
                               0               0                0               0        0.0920364         -8.3271        0.0849162        -4.38027
75.36                          0               0                0               0         0.340594         -26.184         0.934485        -117.336
                               0               0                0               0         0.934547        -117.335         0.340549        -26.1703
                               0               0                0               0        0.0822572        -4.51709        0.0918803        -9.81909
                               0               0                0               0        0.0918039        -9.91097        0.0821939        -4.46537
75.405                         0               0                0               0         0.341396         -27.265         0.933635        -118.422
                               0               0                0               0         0.933644        -118.419         0.341368        -27.2541
                               0               0                0               0        0.0793916        -4.57064        0.0915675        -11.4958
                               0               0                0               0        0.0914977        -11.5904        0.0793227        -4.51557
75.45                          0               0                0               0          0.34191        -28.4008           0.9329        -119.564
                               0               0                0               0         0.932853        -119.559           0.3419        -28.3928
                               0               0                0               0        0.0763813         -4.5779        0.0911823         -13.271
                               0               0                0               0        0.0911199        -13.3678        0.0763065        -4.51937
75.495                         0               0                0               0         0.342151         -29.593         0.932326        -120.759
                               0               0                0               0         0.932226        -120.752         0.342157        -29.5877
                               0               0                0               0        0.0732308        -4.52396        0.0907271        -15.1463
                               0               0                0               0        0.0906728        -15.2444        0.0731502        -4.46173
75.54                          0               0                0               0         0.342131        -30.8424         0.931945        -122.003
                               0               0                0               0           0.9318        -121.995          0.34215        -30.8393
                               0               0                0               0        0.0699458        -4.38947        0.0902041        -17.1228
                               0               0                0               0        0.0901585         -17.221        0.0698601         -4.3232
75.585                         0               0                0               0         0.341868        -32.1487         0.931778        -123.293
                               0               0                0               0         0.931599        -123.285         0.341895        -32.1475
                               0               0                0               0        0.0665339        -4.14944        0.0896154        -19.2004
                               0               0                0               0         0.089579        -19.2975        0.0664439        -4.07862
75.63                          0               0                0               0         0.341378        -33.5108         0.931833        -124.625
                               0               0                0               0         0.931633        -124.616         0.341407        -33.5112
                               0               0                0               0        0.0630048         -3.7715         0.088963        -21.3784
                               0               0                0               0         0.088936        -21.4728        0.0629119        -3.69546
75.675                         0               0                0               0         0.340676        -34.9269          0.93211        -125.996
                               0               0                0               0         0.931903        -125.987         0.340701        -34.9284
                               0               0                0               0        0.0593714        -3.21356        0.0882484        -23.6551
                               0               0                0               0        0.0882309        -23.7453        0.0592769         -3.1314
75.72                          0               0                0               0          0.33978        -36.3941         0.932599        -127.401
                               0               0                0               0         0.932399        -127.393         0.339792        -36.3965
                               0               0                0               0        0.0556507        -2.42061        0.0874729        -26.0282
                               0               0                0               0        0.0874651        -26.1124        0.0555563        -2.33121
75.765                         0               0                0               0         0.338702        -37.9092         0.933282        -128.839
                               0               0                0               0         0.933105        -128.832         0.338695        -37.9121
                               0               0                0               0        0.0518654        -1.32035        0.0866375        -28.4944
                               0               0                0               0        0.0866393        -28.5709        0.0517729        -1.22234
75.81                          0               0                0               0         0.337456        -39.4681         0.934138        -130.305
                               0               0                0               0         0.933995        -130.299         0.337422        -39.4713
                               0               0                0               0        0.0480463        0.182649        0.0857432          -31.05
                               0               0                0               0        0.0857545        -31.1171        0.0479577        0.290911
75.855                         0               0                0               0         0.336052        -41.0666         0.935139        -131.799
                               0               0                0               0         0.935042        -131.793         0.335986        -41.0699
                               0               0                0               0        0.0442359         2.21441        0.0847907        -33.6905
                               0               0                0               0        0.0848114        -33.7467        0.0441531         2.33483
75.9                           0               0                0               0           0.3345        -42.6999         0.936255        -133.316
                               0               0                0               0         0.936214        -133.311         0.334398        -42.7032
                               0               0                0               0        0.0404927         4.93992        0.0837808        -36.4109
                               0               0                0               0        0.0838108        -36.4547        0.0404179         5.07457
75.945                         0               0                0               0         0.332809        -44.3631         0.937456        -134.855
                               0               0                0               0         0.937476         -134.85         0.332667        -44.3664
                               0               0                0               0        0.0368989         8.56953        0.0827145         -39.206
                               0               0                0               0        0.0827538        -39.2361        0.0368343         8.72042
75.99                          0               0                0               0         0.330985        -46.0513         0.938708        -136.413
                               0               0                0               0         0.938794        -136.409         0.330801        -46.0545
                               0               0                0               0        0.0335692         13.3546        0.0815932        -42.0699
                               0               0                0               0        0.0816417        -42.0853        0.0335169          13.523
76.035                         0               0                0               0         0.329035        -47.7594         0.939979         -137.99
                               0               0                0               0         0.940131        -137.987          0.32881        -47.7626
                               0               0                0               0        0.0306598         19.5521        0.0804187        -44.9969
                               0               0                0               0        0.0804764        -44.9966        0.0306221         19.7376
76.08                          0               0                0               0         0.326965        -49.4827         0.941237        -139.583
                               0               0                0               0         0.941453         -139.58         0.326702        -49.4859
                               0               0                0               0        0.0283722         27.3254        0.0791935        -47.9809
                               0               0                0               0        0.0792603        -47.9645        0.0283507         27.5238
76.125                         0               0                0               0         0.324782        -51.2164         0.942454        -141.191
                               0               0                0               0         0.942727        -141.188         0.324484        -51.2196
                               0               0                0               0        0.0269338         36.5636        0.0779208        -51.0159
                               0               0                0               0        0.0779966        -50.9832        0.0269294         36.7658
76.17                          0               0                0               0         0.322493        -52.9561         0.943603        -142.812
                               0               0                0               0         0.943925        -142.809         0.322165        -52.9596
                               0               0                0               0        0.0265441         46.7076        0.0766047        -54.0964
                               0               0                0               0        0.0766892        -54.0476         0.026556          46.901
76.215                         0               0                0               0         0.320104        -54.6978         0.944662        -144.446
                               0               0                0               0         0.945021        -144.442         0.319754        -54.7016
                               0               0                0               0        0.0272964         56.8129        0.0752503         -57.217
                               0               0                0               0        0.0753428        -57.1525        0.0273222         56.9867
76.26                          0               0                0               0         0.317625        -56.4379         0.945618        -146.089
                               0               0                0               0         0.945997        -146.086         0.317262        -56.4423
                               0               0                0               0        0.0291361         65.9379        0.0738637         -60.373
                               0               0                0               0        0.0739631        -60.2939        0.0291727         66.0878
76.305                         0               0                0               0         0.315067        -58.1732         0.946461        -147.742
                               0               0                0               0         0.946843        -147.739           0.3147        -58.1786
                               0               0                0               0        0.0318942         73.5303        0.0724519        -63.5605
                               0               0                0               0        0.0725562        -63.4681        0.0319394         73.6585
76.35                          0               0                0               0         0.312442        -59.9012         0.947194        -149.403
                               0               0                0               0         0.947558          -149.4         0.312082        -59.9081
                               0               0                0               0        0.0353616         79.4869        0.0710228        -66.7768
                               0               0                0               0        0.0711295        -66.6729        0.0354143         79.5982
76.395                         0               0                0               0         0.309766        -61.6201         0.947832        -151.069
                               0               0                0               0         0.948157        -151.067         0.309423         -61.629
                               0               0                0               0        0.0393447         83.9791        0.0695856        -70.0208
                               0               0                0               0        0.0696905        -69.9072        0.0394052         84.0776
76.44                          0               0                0               0         0.307058        -63.3289         0.948401        -152.737
                               0               0                0               0         0.948669        -152.736         0.306744        -63.3404
