! TOUCHSTONE file generated by CST MICROWAVE STUDIO
! Date and time: Sun Jun 20 22:37:42 2021
! Project name: HIPS_d_sweep.cst
! Parameters = {fmax=120; fmin=75; b=0.46; d=22.4; a=0.63; phi=0; theta=0}
! Header version: 2018
! Port assignment regex: !\s*Touchstone port\s*([0-9]+)\s*=\s*(CST MWS port|CST DS port)\s*([0-9]+|Zmin|Zmax)\s*\(\"(.*)\"\)(\s*mode\s*([0-9]+))?.*
! Touchstone port assignment:
! Touchstone port 1 = CST MWS port Zmin ("") mode 1
! Touchstone port 2 = CST MWS port Zmin ("") mode 2
! Touchstone port 3 = CST MWS port Zmax ("") mode 1
! Touchstone port 4 = CST MWS port Zmax ("") mode 2
! S-Parameters are not renormalized. Unphysical impedance of 0 will be written to the file.
# GHz S MA R 0
75                             0               0                0               0        0.0210433         -137.43         0.977502         110.159
                               0               0                0               0          0.97748         110.179         0.020873        -137.024
                               0               0                0               0         0.206173         20.4144        0.0387057         26.5551
                               0               0                0               0        0.0386582         26.5058         0.206152         20.4314
75.045                         0               0                0               0        0.0247354        -141.678         0.977694          109.43
                               0               0                0               0         0.977673          109.45        0.0245384        -141.334
                               0               0                0               0         0.204867         19.7379        0.0390862         26.9404
                               0               0                0               0        0.0390373         26.9157         0.204845         19.7553
75.09                          0               0                0               0        0.0281106        -144.831          0.97789         108.627
                               0               0                0               0          0.97787         108.646        0.0279095         -144.56
                               0               0                0               0         0.203433         18.9809        0.0394409         27.0917
                               0               0                0               0        0.0393921         27.0842          0.20341         18.9989
75.135                         0               0                0               0        0.0311408        -147.367         0.978099          107.75
                               0               0                0               0         0.978079         107.769        0.0309505        -147.164
                               0               0                0               0         0.201867         18.1449        0.0397678         27.0194
                               0               0                0               0        0.0397206         27.0242         0.201845         18.1635
75.18                          0               0                0               0        0.0338164        -149.537         0.978333         106.801
                               0               0                0               0         0.978311         106.818        0.0336448        -149.395
                               0               0                0               0         0.200163         17.2313        0.0400641         26.7339
                               0               0                0               0        0.0400201         26.7474         0.200142         17.2506
75.225                         0               0                0               0        0.0361358        -151.486           0.9786         105.779
                               0               0                0               0         0.978574         105.796        0.0359854        -151.395
                               0               0                0               0         0.198314         16.2418        0.0403266          26.245
                               0               0                0               0        0.0402872          26.265         0.198294         16.2616
75.27                          0               0                0               0         0.038102          -153.3         0.978906         104.686
                               0               0                0               0         0.978875         104.702        0.0379714        -153.253
                               0               0                0               0         0.196312         15.1777        0.0405514         25.5626
                               0               0                0               0        0.0405181         25.5876         0.196294         15.1981
75.315                         0               0                0               0          0.03972        -155.035         0.979256         103.523
                               0               0                0               0         0.979217         103.538        0.0396056        -155.023
                               0               0                0               0         0.194148         14.0408        0.0407343         24.6963
                               0               0                0               0        0.0407083         24.7253         0.194132         14.0617
75.36                          0               0                0               0        0.0409964        -156.727         0.979656         102.292
                               0               0                0               0         0.979607         102.307        0.0408934        -156.744
                               0               0                0               0         0.191812         12.8327        0.0408706         23.6555
                               0               0                0               0        0.0408529         23.6877         0.191797          12.854
75.405                         0               0                0               0         0.041939        -158.399         0.980106         100.995
                               0               0                0               0         0.980045         101.008        0.0418424        -158.439
                               0               0                0               0         0.189293         11.5551        0.0409557         22.4494
                               0               0                0               0         0.040947         22.4842          0.18928         11.5767
75.45                          0               0                0               0        0.0425559        -160.066         0.980608         99.6336
                               0               0                0               0         0.980534         99.6457        0.0424615        -160.126
                               0               0                0               0         0.186581         10.2098        0.0409844         21.0871
                               0               0                0               0        0.0409852         21.1238         0.186569         10.2317
75.495                         0               0                0               0        0.0428562         -161.74         0.981162         98.2099
                               0               0                0               0         0.981073         98.2209         0.042761        -161.814
                               0               0                0               0         0.183666         8.79882        0.0409519         19.5777
                               0               0                0               0        0.0409621         19.6155         0.183654         8.82096
75.54                          0               0                0               0        0.0428496        -163.428         0.981766         96.7262
                               0               0                0               0         0.981661         96.7362        0.0427521        -163.513
                               0               0                0               0         0.180536         7.32426        0.0408533         17.9301
                               0               0                0               0        0.0408725         17.9684         0.180525         7.34659
75.585                         0               0                0               0        0.0425464        -165.133         0.982417         95.1853
                               0               0                0               0         0.982297         95.1942         0.042447        -165.227
                               0               0                0               0         0.177182         5.78842         0.040684         16.1532
                               0               0                0               0        0.0407114         16.1912         0.177171         5.81093
75.63                          0               0                0               0        0.0419576        -166.858         0.983112         93.5896
                               0               0                0               0         0.982977         93.5974        0.0418583        -166.958
                               0               0                0               0         0.173596         4.19377        0.0404396         14.2558
                               0               0                0               0         0.040474         14.2929         0.173585         4.21648
75.675                         0               0                0               0        0.0410951        -168.603         0.983848          91.942
                               0               0                0               0         0.983697         91.9488        0.0409994        -168.707
                               0               0                0               0         0.169769         2.54297        0.0401163         12.2468
                               0               0                0               0        0.0401562         12.2826         0.169759         2.56593
75.72                          0               0                0               0        0.0399713        -170.368         0.984619         90.2454
                               0               0                0               0         0.984455         90.2511        0.0398839        -170.474
                               0               0                0               0         0.165697        0.838887        0.0397109          10.135
                               0               0                0               0        0.0397544         10.1693         0.165687        0.862175
75.765                         0               0                0               0        0.0385997        -172.149         0.985421         88.5027
                               0               0                0               0         0.985244         88.5074        0.0385259        -172.256
                               0               0                0               0         0.161373       -0.915443        0.0392205           7.929
                               0               0                0               0        0.0392657         7.96189         0.161363        -0.89171
75.81                          0               0                0               0        0.0369944        -173.945         0.986248         86.7171
                               0               0                0               0          0.98606         86.7207        0.0369396        -174.052
                               0               0                0               0         0.156797         -2.7168        0.0386433          5.6375
                               0               0                0               0        0.0386883          5.6695         0.156787        -2.69248
75.855                         0               0                0               0        0.0351702        -175.751         0.987094         84.8916
                               0               0                0               0         0.986899         84.8942        0.0351397        -175.856
                               0               0                0               0         0.151966         -4.5618        0.0379777         3.26901
                               0               0                0               0        0.0380208         3.30103         0.151956        -4.53673
75.9                           0               0                0               0        0.0331427         -177.56         0.987956         83.0296
                               0               0                0               0         0.987755         83.0312        0.0331406        -177.662
                               0               0                0               0         0.146884        -6.44695        0.0372234        0.831974
                               0               0                0               0         0.037263        0.865261         0.146874        -6.42096
75.945                         0               0                0               0         0.030928        -179.365         0.988828         81.1342
                               0               0                0               0         0.988622         81.1348        0.0309571        -179.462
                               0               0                0               0         0.141552        -8.36867        0.0363802        -1.66525
                               0               0                0               0        0.0364155        -1.62918         0.141542        -8.34156
75.99                          0               0                0               0        0.0285428         178.846         0.989704         79.2089
                               0               0                0               0         0.989496         79.2085         0.028604         178.754
                               0               0                0               0         0.135978        -10.3233        0.0354492        -4.21437
                               0               0                0               0        0.0354796        -4.17389         0.135968        -10.2949
76.035                         0               0                0               0        0.0260045         177.087          0.99058         77.2569
                               0               0                0               0         0.990373         77.2556        0.0260961         177.005
                               0               0                0               0         0.130168        -12.3072        0.0344317        -6.80709
                               0               0                0               0        0.0344576        -6.76069         0.130159        -12.2773
76.08                          0               0                0               0        0.0233307         175.382         0.991451         75.2816
                               0               0                0               0         0.991245         75.2795        0.0234486         175.314
                               0               0                0               0         0.124134        -14.3168        0.0333298        -9.43499
                               0               0                0               0        0.0333521         -9.3816         0.124124        -14.2851
76.125                         0               0                0               0        0.0205393         173.768         0.992313         73.2866
                               0               0                0               0         0.992109         73.2836        0.0206767          173.72
                               0               0                0               0         0.117886        -16.3485        0.0321464        -12.0894
                               0               0                0               0        0.0321666        -12.0288         0.117876        -16.3148
76.17                          0               0                0               0        0.0176491         172.307         0.993158         71.2751
                               0               0                0               0         0.992957         71.2713        0.0177964         172.287
                               0               0                0               0         0.111437        -18.3988        0.0308845        -14.7612
                               0               0                0               0        0.0309049        -14.6944         0.111427        -18.3628
76.215                         0               0                0               0        0.0146791         171.111         0.993982         69.2506
                               0               0                0               0         0.993783         69.2461        0.0148246         171.133
                               0               0                0               0         0.104804        -20.4643        0.0295481        -17.4406
                               0               0                0               0        0.0295712        -17.3705         0.104792        -20.4257
76.26                          0               0                0               0        0.0116501         170.417         0.994776         67.2165
                               0               0                0               0         0.994579         67.2114        0.0117802         170.504
                               0               0                0               0        0.0979997        -22.5416        0.0281414        -20.1165
                               0               0                0               0        0.0281702        -20.0484        0.0979859        -22.5001
76.305                         0               0                0               0       0.00858725         170.797         0.995532         65.1763
                               0               0                0               0         0.995335         65.1707        0.0086876         170.995
                               0               0                0               0        0.0910426        -24.6273        0.0266692        -22.7764
                               0               0                0               0        0.0267066        -22.7188        0.0910254        -24.5823
76.35                          0               0                0               0       0.00553215         174.094         0.996236         63.1332
                               0               0                0               0         0.996038         63.1271       0.00559036         174.529
                               0               0                0               0        0.0839495        -26.7176        0.0251371        -25.4054
                               0               0                0               0        0.0251857        -25.3708        0.0839276        -26.6686
76.395                         0               0                0               0       0.00264029        -169.742         0.996874         61.0906
                               0               0                0               0         0.996672         61.0841       0.00265907        -168.413
                               0               0                0               0        0.0767387        -28.8082         0.023551        -27.9854
                               0               0                0               0        0.0236128        -27.9911        0.0767106        -28.7544
76.44                          0               0                0               0       0.00175153          -83.27         0.997427         59.0516
                               0               0                0               0         0.997219         59.0448       0.00185407        -81.7638
