! TOUCHSTONE file generated by CST MICROWAVE STUDIO
! Date and time: Sun Jun 20 22:36:50 2021
! Project name: HIPS_d_sweep.cst
! Parameters = {fmax=120; fmin=75; b=0.46; d=16.6; a=0.63; phi=0; theta=0}
! Header version: 2018
! Port assignment regex: !\s*Touchstone port\s*([0-9]+)\s*=\s*(CST MWS port|CST DS port)\s*([0-9]+|Zmin|Zmax)\s*\(\"(.*)\"\)(\s*mode\s*([0-9]+))?.*
! Touchstone port assignment:
! Touchstone port 1 = CST MWS port Zmin ("") mode 1
! Touchstone port 2 = CST MWS port Zmin ("") mode 2
! Touchstone port 3 = CST MWS port Zmax ("") mode 1
! Touchstone port 4 = CST MWS port Zmax ("") mode 2
! S-Parameters are not renormalized. Unphysical impedance of 0 will be written to the file.
# GHz S MA R 0
75                             0               0                0               0         0.417172         138.355         0.901838         47.8769
                               0               0                0               0         0.901953         47.8709         0.417103         138.363
                               0               0                0               0         0.052233         17.1402        0.0977663        -34.9465
                               0               0                0               0         0.097771        -34.9052        0.0521959         17.2053
75.045                         0               0                0               0           0.4201          137.73         0.901103         47.3391
                               0               0                0               0         0.901228          47.333          0.41996         137.738
                               0               0                0               0        0.0517455         18.1985        0.0979133         -36.025
                               0               0                0               0        0.0978403        -35.8787        0.0517101         18.2658
75.09                          0               0                0               0         0.422623         137.062         0.900228         46.7296
                               0               0                0               0         0.900356         46.7236          0.42245         137.069
                               0               0                0               0        0.0511885         19.3876        0.0979397        -37.1457
                               0               0                0               0        0.0978019        -36.9456        0.0511552         19.4572
75.135                         0               0                0               0          0.42476         136.346           0.8993         46.0518
                               0               0                0               0         0.899427         46.0459         0.424584         136.351
                               0               0                0               0        0.0505714         20.7164        0.0978413        -38.3223
                               0               0                0               0        0.0976642        -38.1107        0.0505406         20.7883
75.18                          0               0                0               0         0.426534         135.578         0.898389         45.3092
                               0               0                0               0          0.89851         45.3034         0.426379         135.583
                               0               0                0               0        0.0499055         22.1954        0.0976194        -39.5692
                               0               0                0               0        0.0974356        -39.3782        0.0498779         22.2695
75.225                         0               0                0               0         0.427971         134.757         0.897548         44.5054
                               0               0                0               0         0.897661         44.4997         0.427852         134.761
                               0               0                0               0         0.049205         23.8364        0.0972807        -40.9005
                               0               0                0               0        0.0971247        -40.7509        0.0491809         23.9127
75.27                          0               0                0               0           0.4291          133.88         0.896819         43.6444
                               0               0                0               0         0.896923         43.6387         0.429026         133.885
                               0               0                0               0        0.0484866         25.6519        0.0968373         -42.329
                               0               0                0               0        0.0967398        -42.2308        0.0484664         25.7303
75.315                         0               0                0               0         0.429947         132.947          0.89623         42.7298
                               0               0                0               0         0.896326         42.7241          0.42992         132.953
                               0               0                0               0        0.0477699         27.6545        0.0963053        -43.8654
                               0               0                0               0        0.0962885        -43.8192         0.047754         27.7348
75.36                          0               0                0               0          0.43054         131.959         0.895799          41.765
                               0               0                0               0         0.895888         41.7592         0.430557         131.966
                               0               0                0               0        0.0470774         29.8558        0.0957035        -45.5177
                               0               0                0               0        0.0957775        -45.5165        0.0470663         29.9377
75.405                         0               0                0               0         0.430901         130.915         0.895537         40.7534
                               0               0                0               0         0.895621         40.7475         0.430956         130.925
                               0               0                0               0        0.0464352         32.2649         0.095052        -47.2908
                               0               0                0               0         0.095213        -47.3225        0.0464292         32.3481
75.45                          0               0                0               0         0.431051         129.819         0.895446         39.6981
                               0               0                0               0         0.895526         39.6921         0.431134          129.83
                               0               0                0               0        0.0458721         34.8865        0.0943701        -49.1866
                               0               0                0               0        0.0946001        -49.2362        0.0458715         34.9704
75.495                         0               0                0               0         0.431008         128.671         0.895521         38.6019
                               0               0                0               0         0.895601         38.5957         0.431108         128.684
                               0               0                0               0        0.0454199         37.7188        0.0936749        -51.2041
                               0               0                0               0         0.093943        -51.2563         0.045425         37.8028
75.54                          0               0                0               0         0.430787         127.476         0.895755         37.4672
                               0               0                0               0         0.895837          37.461         0.430891         127.489
                               0               0                0               0        0.0451126         40.7513        0.0929811          -53.34
                               0               0                0               0        0.0932449         -53.381        0.0451237         40.8345
75.585                         0               0                0               0         0.430397         126.234         0.896135         36.2964
                               0               0                0               0         0.896221         36.2901         0.430493         126.248
                               0               0                0               0        0.0449854          43.962        0.0922996        -55.5891
                               0               0                0               0        0.0925084        -55.6082        0.0450027         44.0436
75.63                          0               0                0               0         0.429847          124.95         0.896645         35.0915
                               0               0                0               0         0.896738         35.0852         0.429922         124.963
                               0               0                0               0        0.0450733          47.317        0.0916382        -57.9452
                               0               0                0               0        0.0917354        -57.9352        0.0450969         47.3957
75.675                         0               0                0               0         0.429141         123.627         0.897267         33.8542
                               0               0                0               0         0.897369         33.8481         0.429186         123.638
                               0               0                0               0        0.0454092         50.7694        0.0910015         -60.401
                               0               0                0               0         0.090927        -60.3593         0.045439         50.8442
75.72                          0               0                0               0         0.428283         122.268         0.897981         32.5861
                               0               0                0               0         0.898093         32.5802         0.428287         122.276
                               0               0                0               0         0.046022         54.2617        0.0903914        -62.9487
                               0               0                0               0         0.090084        -62.8773         0.046058         54.3316
75.765                         0               0                0               0         0.427271         120.876         0.898767         31.2884
                               0               0                0               0          0.89889         31.2829         0.427229          120.88
                               0               0                0               0        0.0469349         57.7291         0.089808        -65.5805
                               0               0                0               0        0.0892068        -65.4859        0.0469769         57.7932
75.81                          0               0                0               0         0.426105         119.454         0.899602         29.9623
                               0               0                0               0         0.899737         29.9573         0.426011         119.454
                               0               0                0               0        0.0481636         61.1044        0.0892501        -68.2877
                               0               0                0               0        0.0882955        -68.1816        0.0482114          61.162
75.855                         0               0                0               0         0.424782         118.007         0.900467         28.6087
                               0               0                0               0         0.900613         28.6043         0.424635         118.001
                               0               0                0               0        0.0497157         64.3236        0.0887164        -71.0611
                               0               0                0               0        0.0873503        -70.9604        0.0497689         64.3742
75.9                           0               0                0               0         0.423298         116.536         0.901342         27.2282
                               0               0                0               0         0.901497         27.2245         0.423099         116.525
                               0               0                0               0        0.0515905         67.3309        0.0882058        -73.8894
                               0               0                0               0        0.0863711        -73.8185        0.0516489         67.3742
75.945                         0               0                0               0         0.421648         115.046         0.902209         25.8213
                               0               0                0               0         0.902371         25.8185         0.421401         115.029
                               0               0                0               0        0.0537796         70.0819         0.087719        -76.7582
                               0               0                0               0        0.0853582        -76.7516        0.0538428          70.118
75.99                          0               0                0               0         0.419828         113.539         0.903054         24.3885
                               0               0                0               0          0.90322         24.3866         0.419541         113.516
                               0               0                0               0        0.0562679         72.5454        0.0872586        -79.6461
                               0               0                0               0        0.0843119        -79.7554        0.0563355         72.5744
76.035                         0               0                0               0         0.417833         112.017          0.90387         22.9299
                               0               0                0               0         0.904036          22.929         0.417515         111.989
                               0               0                0               0        0.0590349         74.7034        0.0868287        -82.5172
                               0               0                0               0        0.0832329        -82.8255        0.0591068         74.7256
76.08                          0               0                0               0         0.415658         110.484         0.904655         21.4458
                               0               0                0               0         0.904815         21.4459         0.415324         110.451
                               0               0                0               0        0.0620563         76.5493        0.0864262        -85.3039
                               0               0                0               0        0.0821223        -85.9574        0.0621322         76.5651
76.125                         0               0                0               0           0.4133          108.94         0.905418         19.9366
                               0               0                0               0         0.905566         19.9376         0.412967         108.905
                               0               0                0               0        0.0653049         78.0862        0.0859931        -87.8664
                               0               0                0               0        0.0809813        -89.1463        0.0653845         78.0959
76.17                          0               0                0               0         0.410755         107.389         0.906179         18.4031
                               0               0                0               0         0.906307         18.4047         0.410444         107.353
                               0               0                0               0        0.0687516         79.3239        0.0851738        -89.9291
                               0               0                0               0        0.0798117        -92.3878        0.0688348         79.3278
76.215                         0               0                0               0         0.408024         105.829          0.90697         16.8466
                               0               0                0               0         0.907073         16.8484         0.407756         105.796
                               0               0                0               0        0.0723664         80.2773        0.0824515        -91.4476
                               0               0                0               0        0.0786156        -95.6771         0.072453         80.2756
76.26                          0               0                0               0         0.405111         104.262         0.907835         15.2699
                               0               0                0               0         0.907908         15.2714         0.404908         104.236
                               0               0                0               0         0.076119          80.964        0.0771006        -95.0331
                               0               0                0               0        0.0773953        -99.0099        0.0762089         80.9567
76.305                         0               0                0               0         0.402028         102.685         0.908822         13.6774
                               0               0                0               0         0.908863         13.6779         0.401907         102.674
                               0               0                0               0        0.0799792         81.4026        0.0749447        -100.981
                               0               0                0               0        0.0761535        -102.382        0.0800722         81.3899
76.35                          0               0                0               0         0.398801         101.096         0.909971         12.0756
                               0               0                0               0         0.909984         12.0744         0.398766         101.108
                               0               0                0               0         0.083917          81.612        0.0749086        -105.802
                               0               0                0               0        0.0748929        -105.789        0.0840131         81.5936
76.395                         0               0                0               0         0.395475          99.491           0.9113         10.4731
                               0               0                0               0         0.911292         10.4696         0.395506         99.5365
                               0               0                0               0        0.0879034         81.6094        0.0748226        -109.781
                               0               0                0               0        0.0736161        -109.228        0.0880025          81.585
76.44                          0               0                0               0         0.392127         97.8676         0.912779            8.88
                               0               0                0               0         0.912763         8.87405         0.392166         97.9578
