! TOUCHSTONE file generated by CST MICROWAVE STUDIO
! Date and time: Sun Jun 20 22:37:40 2021
! Project name: HIPS_d_sweep.cst
! Parameters = {fmax=120; fmin=75; b=0.46; d=22.25; a=0.63; phi=0; theta=0}
! Header version: 2018
! Port assignment regex: !\s*Touchstone port\s*([0-9]+)\s*=\s*(CST MWS port|CST DS port)\s*([0-9]+|Zmin|Zmax)\s*\(\"(.*)\"\)(\s*mode\s*([0-9]+))?.*
! Touchstone port assignment:
! Touchstone port 1 = CST MWS port Zmin ("") mode 1
! Touchstone port 2 = CST MWS port Zmin ("") mode 2
! Touchstone port 3 = CST MWS port Zmax ("") mode 1
! Touchstone port 4 = CST MWS port Zmax ("") mode 2
! S-Parameters are not renormalized. Unphysical impedance of 0 will be written to the file.
# GHz S MA R 0
75                             0               0                0               0        0.0278659        -125.848         0.973527         126.771
                               0               0                0               0         0.973639         126.777        0.0279188        -125.779
                               0               0                0               0         0.222737         37.0293        0.0371912         46.6076
                               0               0                0               0        0.0371824         46.5839         0.222905         37.0258
75.045                         0               0                0               0        0.0316065        -128.547         0.972891         125.934
                               0               0                0               0         0.973624         126.051        0.0316543        -128.487
                               0               0                0               0         0.222032           36.36        0.0375118          47.153
                               0               0                0               0        0.0374768         47.1133         0.222254         36.3501
75.09                          0               0                0               0        0.0349921        -130.802         0.972148         125.111
                               0               0                0               0         0.973638         125.256        0.0350497        -130.746
                               0               0                0               0         0.221303          35.609        0.0378648         47.4383
                               0               0                0               0        0.0378108         47.4085         0.221539         35.5971
75.135                         0               0                0               0        0.0380193        -132.777         0.971909         124.278
                               0               0                0               0         0.973682         124.392        0.0380925        -132.718
                               0               0                0               0         0.220539          34.779         0.038235          47.478
                               0               0                0               0        0.0381729         47.4703         0.220765          34.768
75.18                          0               0                0               0        0.0406896        -134.567         0.972331         123.394
                               0               0                0               0         0.973755         123.457        0.0407772        -134.502
                               0               0                0               0         0.219729         33.8725        0.0386106         47.2866
                               0               0                0               0         0.038552         47.3029         0.219931         33.8638
75.225                         0               0                0               0        0.0430073        -136.232         0.973111         122.428
                               0               0                0               0         0.973858         122.453        0.0431036        -136.158
                               0               0                0               0         0.218858         32.8919        0.0389821         46.8779
                               0               0                0               0        0.0389377         46.9129         0.219034         32.8858
75.27                          0               0                0               0        0.0449784        -137.812          0.97388         121.374
                               0               0                0               0         0.973988         121.378         0.045075         -137.73
                               0               0                0               0         0.217913         31.8391         0.039342         46.2647
                               0               0                0               0        0.0393205         46.3089         0.218067         31.8355
75.315                         0               0                0               0        0.0466103        -139.335         0.974442         120.238
                               0               0                0               0         0.974143         120.234        0.0466978        -139.247
                               0               0                0               0          0.21688         30.7163        0.0396843          45.459
                               0               0                0               0        0.0396917         45.5009         0.217022         30.7143
75.36                          0               0                0               0        0.0479113         -140.82         0.974755         119.028
                               0               0                0               0         0.974323         119.023        0.0479806        -140.728
                               0               0                0               0         0.215743         29.5254         0.040004         44.4715
                               0               0                0               0        0.0400436            44.5         0.215886         29.5237
75.405                         0               0                0               0        0.0488905        -142.283         0.974859         117.749
                               0               0                0               0         0.974527         117.746         0.048934        -142.191
                               0               0                0               0          0.21449         28.2683        0.0402972         43.3121
                               0               0                0               0        0.0403693         43.3176         0.214648         28.2654
75.45                          0               0                0               0        0.0495575        -143.734         0.974823         116.407
                               0               0                0               0         0.974756         116.405        0.0495698        -143.647
                               0               0                0               0         0.213106          26.947          0.04056         41.9898
                               0               0                0               0        0.0406627         41.9654          0.21329          26.941
75.495                         0               0                0               0        0.0499225        -145.184         0.974723         115.003
                               0               0                0               0         0.975014         115.002        0.0499009        -145.105
                               0               0                0               0         0.211576         25.5633        0.0407894         40.5132
                               0               0                0               0        0.0409185          40.455         0.211799         25.5525
75.54                          0               0                0               0        0.0499961        -146.639         0.974628         113.541
                               0               0                0               0         0.975304         113.541        0.0499411        -146.573
                               0               0                0               0         0.209888         24.1193         0.040982         38.8903
                               0               0                0               0        0.0411321         38.7979         0.210155          24.102
75.585                         0               0                0               0        0.0497895        -148.106         0.974599         112.024
                               0               0                0               0         0.975633         112.023        0.0497043        -148.056
                               0               0                0               0         0.208028          22.617        0.0411349         37.1289
                               0               0                0               0        0.0412993          37.005         0.208341          22.592
75.63                          0               0                0               0        0.0493143        -149.591         0.974683         110.454
                               0               0                0               0         0.976007         110.453        0.0492049         -149.56
                               0               0                0               0         0.205985         21.0584        0.0412448         35.2365
                               0               0                0               0        0.0414165         35.0871         0.206341          21.025
75.675                         0               0                0               0        0.0485825        -151.098         0.974919         108.834
                               0               0                0               0         0.976434         108.833        0.0484574        -151.088
                               0               0                0               0         0.203748         19.4458        0.0413083         33.2206
                               0               0                0               0        0.0414806         33.0542         0.204139         19.4041
75.72                          0               0                0               0        0.0476064         -152.63         0.975331         107.167
                               0               0                0               0         0.976923         107.167         0.047476        -152.643
                               0               0                0               0         0.201306         17.7814        0.0413221          31.089
                               0               0                0               0        0.0414885         30.9158         0.201718         17.7327
75.765                         0               0                0               0        0.0463992        -154.193         0.975936         105.456
                               0               0                0               0         0.977483         105.456        0.0462749        -154.228
                               0               0                0               0         0.198651         16.0677        0.0412823         28.8493
                               0               0                0               0        0.0414378          28.681         0.199067         16.0142
75.81                          0               0                0               0        0.0449741        -155.788         0.976737         103.705
                               0               0                0               0         0.978121         103.706         0.044868        -155.843
                               0               0                0               0         0.195775         14.3071        0.0411852         26.5096
                               0               0                0               0        0.0413258         26.3583         0.196174         14.2526
75.855                         0               0                0               0        0.0433452        -157.418         0.977731         101.916
                               0               0                0               0         0.978846         101.918         0.043269         -157.49
                               0               0                0               0         0.192672         12.5023        0.0410269         24.0782
                               0               0                0               0        0.0411502         23.9558         0.193033         12.4518
75.9                           0               0                0               0        0.0415269        -159.084         0.978903         100.094
                               0               0                0               0         0.979661         100.096        0.0414914        -159.168
                               0               0                0               0         0.189338         10.6559        0.0408034         21.5638
                               0               0                0               0        0.0409088         21.4812         0.189638         10.6159
75.945                         0               0                0               0         0.039534        -160.786         0.980233         98.2404
                               0               0                0               0         0.980569         98.2426        0.0395484        -160.877
                               0               0                0               0         0.185768         8.77099        0.0405111         18.9755
                               0               0                0               0        0.0405993         18.9417         0.185989         8.74854
75.99                          0               0                0               0        0.0373821        -162.525         0.981694         96.3595
                               0               0                0               0          0.98157         96.3613         0.037453        -162.614
                               0               0                0               0          0.18196         6.85051        0.0401463         16.3227
                               0               0                0               0        0.0402195         16.3447         0.182089         6.85344
76.035                         0               0                0               0         0.035087        -164.295         0.983254         94.4542
                               0               0                0               0         0.982659         94.4549        0.0352182        -164.374
                               0               0                0               0         0.177915         4.89773        0.0397058         13.6153
                               0               0                0               0        0.0397674         13.6972         0.177942         4.93371
76.08                          0               0                0               0        0.0326648        -166.093         0.984874         92.5273
                               0               0                0               0         0.983827         92.5264        0.0328572         -166.15
                               0               0                0               0         0.173632         2.91609        0.0391869         10.8636
                               0               0                0               0         0.039241         11.0064         0.173556         2.99192
76.125                         0               0                0               0        0.0301323        -167.906         0.986516         90.5819
                               0               0                0               0          0.98506         90.5785         0.030383        -167.933
                               0               0                0               0         0.169113        0.909301        0.0385877         8.07819
                               0               0                0               0        0.0386386         8.27964          0.16894         1.03002
76.17                          0               0                0               0        0.0275061        -169.719         0.988137         88.6206
                               0               0                0               0         0.986339         88.6144        0.0278091        -169.704
                               0               0                0               0         0.164362        -1.11863        0.0379066         5.27027
                               0               0                0               0        0.0379586          5.5246         0.164105       -0.950641
76.215                         0               0                0               0        0.0248032        -171.505         0.989694         86.6462
                               0               0                0               0          0.98764         86.6368        0.0251495        -171.439
                               0               0                0               0         0.159384        -3.16333        0.0371433          2.4513
                               0               0                0               0        0.0371998         2.74959         0.159062        -2.94916
76.26                          0               0                0               0        0.0220409         -173.22         0.991143         84.6613
                               0               0                0               0         0.988933         84.6488        0.0224187        -173.096
                               0               0                0               0         0.154183           -5.22        0.0362982       -0.366848
                               0               0                0               0        0.0363614      -0.0363758         0.153821        -4.96484
76.305                         0               0                0               0        0.0192367        -174.794         0.992441         82.6686
                               0               0                0               0         0.990183         82.6532         0.019632        -174.609
                               0               0                0               0         0.148767        -7.28329        0.0353725        -3.17185
                               0               0                0               0        0.0354434        -2.82328         0.148392        -6.99675
76.35                          0               0                0               0        0.0164085        -176.104         0.993547         80.6706
                               0               0                0               0         0.991349          80.653        0.0168065        -175.865
                               0               0                0               0         0.143144         -9.3472        0.0343686         -5.9509
                               0               0                0               0        0.0344462        -5.59992         0.142785        -9.04323
76.395                         0               0                0               0        0.0135764        -176.929         0.994421         78.6698
                               0               0                0               0         0.992386          78.651        0.0139615        -176.654
                               0               0                0               0         0.137323        -11.4049        0.0332896        -8.69058
                               0               0                0               0        0.0333714        -8.35356         0.137007        -11.1012
76.44                          0               0                0               0        0.0107646        -176.815         0.995027         76.6687
                               0               0                0               0         0.993247           76.65        0.0111217        -176.555
