! TOUCHSTONE file generated by CST MICROWAVE STUDIO
! Date and time: Sun Jun 20 22:36:53 2021
! Project name: HIPS_d_sweep.cst
! Parameters = {fmax=120; fmin=75; b=0.46; d=16.95; a=0.63; phi=0; theta=0}
! Header version: 2018
! Port assignment regex: !\s*Touchstone port\s*([0-9]+)\s*=\s*(CST MWS port|CST DS port)\s*([0-9]+|Zmin|Zmax)\s*\(\"(.*)\"\)(\s*mode\s*([0-9]+))?.*
! Touchstone port assignment:
! Touchstone port 1 = CST MWS port Zmin ("") mode 1
! Touchstone port 2 = CST MWS port Zmin ("") mode 2
! Touchstone port 3 = CST MWS port Zmax ("") mode 1
! Touchstone port 4 = CST MWS port Zmax ("") mode 2
! S-Parameters are not renormalized. Unphysical impedance of 0 will be written to the file.
# GHz S MA R 0
75                             0               0                0               0         0.385183         96.7099         0.914461         7.77005
                               0               0                0               0         0.914794         7.77468         0.385001         96.7125
                               0               0                0               0         0.102635            84.4        0.0698852        -119.484
                               0               0                0               0        0.0699475        -119.489         0.102681         84.3783
75.045                         0               0                0               0         0.383975         95.5838         0.913136         6.49769
                               0               0                0               0         0.913675          6.5696         0.383151         95.5657
                               0               0                0               0         0.104763         84.0069        0.0655973        -121.551
                               0               0                0               0        0.0679479        -122.079         0.104796         83.9799
75.09                          0               0                0               0          0.38282         94.4552         0.911848         5.23488
                               0               0                0               0          0.91265         5.36671         0.381414         94.4251
                               0               0                0               0         0.106939         83.5938        0.0622506        -123.554
                               0               0                0               0        0.0661884        -124.647         0.106959         83.5622
75.135                         0               0                0               0         0.381714         93.3236         0.910608         3.98111
                               0               0                0               0         0.911718         4.16558         0.379787         93.2893
                               0               0                0               0         0.109161         83.1595          0.05963        -125.547
                               0               0                0               0         0.064649        -127.203         0.109169         83.1241
75.18                          0               0                0               0         0.380656         92.1885         0.909426         2.73583
                               0               0                0               0         0.910881         2.96576         0.378268         92.1572
                               0               0                0               0          0.11143         82.7032        0.0575834        -127.565
                               0               0                0               0        0.0633122        -129.757         0.111427         82.6646
75.225                         0               0                0               0          0.37964         91.0497         0.908311         1.49845
                               0               0                0               0         0.910138         1.76678         0.376852         91.0274
                               0               0                0               0         0.113744          82.224        0.0560005        -129.634
                               0               0                0               0        0.0621627        -132.316         0.113731         82.1828
75.27                          0               0                0               0         0.378666         89.9067         0.907273        0.268341
                               0               0                0               0         0.909489        0.568212         0.375536         89.8987
                               0               0                0               0         0.116103         81.7209        0.0547994         -131.77
                               0               0                0               0         0.061187        -134.888         0.116079         81.6778
75.315                         0               0                0               0         0.377728         88.7591         0.906319       -0.955171
                               0               0                0               0         0.908933       -0.630419         0.374314         88.7697
                               0               0                0               0         0.118504         81.1931        0.0539185        -133.985
                               0               0                0               0        0.0603736        -137.478         0.118472         81.1486
75.36                          0               0                0               0         0.376825         87.6067         0.905457        -2.17279
                               0               0                0               0         0.908471        -1.82957         0.373183         87.6395
                               0               0                0               0         0.120946         80.6396        0.0533103        -136.288
                               0               0                0               0        0.0597121        -140.093         0.120906         80.5943
75.405                         0               0                0               0         0.375952          86.449         0.904695        -3.38528
                               0               0                0               0           0.9081        -3.02971         0.372137         86.5067
                               0               0                0               0         0.123428         80.0597        0.0529379        -138.683
                               0               0                0               0        0.0591932        -142.736          0.12338          80.014
75.45                          0               0                0               0         0.375106         85.2858         0.904038        -4.59341
                               0               0                0               0         0.907819        -4.23132         0.371172         85.3702
                               0               0                0               0         0.125946         79.4526        0.0527714        -141.172
                               0               0                0               0        0.0588086        -145.412         0.125892         79.4068
75.495                         0               0                0               0         0.374283         84.1168         0.903491        -5.79801
                               0               0                0               0         0.907626        -5.43485          0.37028         84.2291
                               0               0                0               0         0.128497         78.8174        0.0527868        -143.758
                               0               0                0               0        0.0585509        -148.124         0.128438         78.7721
75.54                          0               0                0               0          0.37348         82.9417         0.903061        -6.99994
                               0               0                0               0          0.90752        -6.64081         0.369456         83.0823
                               0               0                0               0         0.131078         78.1535        0.0529641        -146.441
                               0               0                0               0        0.0584131        -150.875         0.131015         78.1089
75.585                         0               0                0               0         0.372692         81.7602         0.902749         -8.2001
                               0               0                0               0         0.907498        -7.84966         0.368694         81.9287
                               0               0                0               0         0.133686         77.4603        0.0532859         -149.22
                               0               0                0               0        0.0583887        -153.667         0.133619         77.4167
75.63                          0               0                0               0         0.371915         80.5722         0.902559        -9.39942
                               0               0                0               0         0.907557        -9.06191         0.367986         80.7675
                               0               0                0               0         0.136316         76.7373        0.0537373        -152.092
                               0               0                0               0        0.0584712        -156.503         0.136247         76.6949
75.675                         0               0                0               0         0.371145         79.3775         0.902493        -10.5989
                               0               0                0               0         0.907693         -10.278         0.367325         79.5979
                               0               0                0               0         0.138964         75.9838        0.0543043        -155.056
                               0               0                0               0        0.0586544        -159.383         0.138894         75.9429
75.72                          0               0                0               0         0.370378         78.1759         0.902551        -11.7995
                               0               0                0               0         0.907903        -11.4985         0.366703          78.419
                               0               0                0               0         0.141624         75.1997        0.0549742        -158.108
                               0               0                0               0         0.058932        -162.309         0.141553         75.1602
75.765                         0               0                0               0         0.369608         76.9674         0.902733        -13.0022
                               0               0                0               0         0.908183        -12.7239         0.366112         77.2302
                               0               0                0               0          0.14429         74.3845        0.0557344        -161.245
                               0               0                0               0        0.0592975        -165.281          0.14422         74.3467
75.81                          0               0                0               0         0.368831         75.7518         0.903036        -14.2081
                               0               0                0               0         0.908526        -13.9546         0.365542         76.0308
                               0               0                0               0         0.146956         73.5382        0.0565728        -164.462
                               0               0                0               0        0.0597441          -168.3         0.146888         73.5022
75.855                         0               0                0               0         0.368043         74.5293         0.903457        -15.4183
                               0               0                0               0         0.908928        -15.1912         0.364985         74.8206
                               0               0                0               0         0.149615         72.6608        0.0574771        -167.755
                               0               0                0               0        0.0602647        -171.366         0.149551         72.6265
75.9                           0               0                0               0         0.367238         73.2997         0.903991        -16.6339
                               0               0                0               0         0.909381        -16.4342          0.36443          73.599
                               0               0                0               0          0.15226         71.7524        0.0584347        -171.117
                               0               0                0               0        0.0608516        -174.478           0.1522         71.7197
75.945                         0               0                0               0          0.36641         72.0633         0.904631        -17.8559
                               0               0                0               0          0.90988        -17.6839         0.363867          72.366
                               0               0                0               0         0.154883         70.8133        0.0594331        -174.543
                               0               0                0               0        0.0614966        -177.635         0.154828         70.7822
75.99                          0               0                0               0         0.365555         70.8203         0.905368        -19.0854
                               0               0                0               0         0.910415         -18.941         0.363285         71.1214
                               0               0                0               0         0.157476         69.8439        0.0604593        -178.025
                               0               0                0               0        0.0621911         179.166         0.157426         69.8143
76.035                         0               0                0               0         0.364668         69.5708         0.906191        -20.3235
                               0               0                0               0         0.910978        -20.2058         0.362675         69.8655
                               0               0                0               0         0.160029         68.8449        0.0615003         178.444
                               0               0                0               0        0.0629257         175.927         0.159987         68.8166
76.08                          0               0                0               0         0.363743         68.3153         0.907088        -21.5712
                               0               0                0               0         0.911559        -21.4787         0.362025         68.5985
                               0               0                0               0         0.162535         67.8171        0.0625432         174.873
                               0               0                0               0        0.0636907          172.65           0.1625         67.7899
76.125                         0               0                0               0         0.362774         67.0542         0.908042        -22.8294
                               0               0                0               0         0.912147        -22.7603         0.361325         67.3211
                               0               0                0               0         0.164984         66.7614        0.0635754          171.27
                               0               0                0               0        0.0644761         169.341         0.164957         66.7352
76.17                          0               0                0               0         0.361757         65.7879         0.909036         -24.099
                               0               0                0               0          0.91273        -24.0508         0.360563         66.0339
                               0               0                0               0         0.167366          65.679        0.0645848         167.645
                               0               0                0               0        0.0652715         166.003         0.167347         65.6536
76.215                         0               0                0               0         0.360687         64.5173          0.91005        -25.3809
                               0               0                0               0         0.913295        -25.3505          0.35973         64.7381
                               0               0                0               0         0.169672         64.5712        0.0655602         164.008
                               0               0                0               0        0.0660665         162.643         0.169662         64.5464
76.26                          0               0                0               0         0.359558         63.2429         0.911061        -26.6758
                               0               0                0               0         0.913827        -26.6598         0.358816         63.4348
                               0               0                0               0         0.171892         63.4397        0.0664914         160.369
                               0               0                0               0        0.0668509         159.266         0.171891         63.4152
76.305                         0               0                0               0         0.358366         61.9658         0.912044        -27.9841
                               0               0                0               0         0.914311        -27.9787         0.357813         62.1254
                               0               0                0               0         0.174018         62.2861        0.0673697         156.738
                               0               0                0               0        0.0676147         155.878         0.174026         62.2617
76.35                          0               0                0               0         0.357108         60.6867         0.912973        -29.3062
                               0               0                0               0         0.914731        -29.3075         0.356713         60.8118
                               0               0                0               0          0.17604         61.1123        0.0681878         153.126
                               0               0                0               0        0.0683487         152.488         0.176058         61.0878
76.395                         0               0                0               0         0.355778          59.407         0.913817        -30.6422
                               0               0                0               0          0.91507        -30.6462          0.35551         59.4958
                               0               0                0               0          0.17795         59.9204        0.0689402         149.541
                               0               0                0               0        0.0690448         149.103         0.177977         59.8955
76.44                          0               0                0               0         0.354376         58.1277         0.914547        -31.9921
                               0               0                0               0         0.915308        -31.9946         0.354199         58.1796
