! TOUCHSTONE file generated by CST MICROWAVE STUDIO
! Date and time: Sun Jun 20 22:38:13 2021
! Project name: HIPS_d_sweep.cst
! Parameters = {fmax=120; fmin=75; b=0.46; d=25.25; a=0.63; phi=0; theta=0}
! Header version: 2018
! Port assignment regex: !\s*Touchstone port\s*([0-9]+)\s*=\s*(CST MWS port|CST DS port)\s*([0-9]+|Zmin|Zmax)\s*\(\"(.*)\"\)(\s*mode\s*([0-9]+))?.*
! Touchstone port assignment:
! Touchstone port 1 = CST MWS port Zmin ("") mode 1
! Touchstone port 2 = CST MWS port Zmin ("") mode 2
! Touchstone port 3 = CST MWS port Zmax ("") mode 1
! Touchstone port 4 = CST MWS port Zmax ("") mode 2
! S-Parameters are not renormalized. Unphysical impedance of 0 will be written to the file.
# GHz S MA R 0
75                             0               0                0               0         0.174001         53.0923         0.959159         146.109
                               0               0                0               0         0.959092         146.094         0.174065         53.0984
                               0               0                0               0         0.215966         54.1043        0.0550901         10.5574
                               0               0                0               0        0.0549905         10.4637         0.216072         54.1266
75.045                         0               0                0               0         0.169483         52.2979         0.960529         145.277
                               0               0                0               0         0.960474         145.264         0.170085          52.251
                               0               0                0               0         0.216802         53.3541        0.0541188         10.3677
                               0               0                0               0         0.053926         10.4122         0.216908         53.3745
75.09                          0               0                0               0         0.165471         51.4086         0.961575         144.373
                               0               0                0               0         0.961524         144.362         0.166374         51.3336
                               0               0                0               0         0.217507          52.527        0.0532032         9.90577
                               0               0                0               0        0.0529616         10.0148         0.217615         52.5461
75.135                         0               0                0               0          0.16194         50.4288         0.962338         143.395
                               0               0                0               0         0.962288         143.385         0.162968         50.3436
                               0               0                0               0         0.218097         51.6194        0.0523502         9.20332
                               0               0                0               0        0.0520921         9.33365         0.218207         51.6376
75.18                          0               0                0               0         0.158871         49.3631         0.962863         142.342
                               0               0                0               0         0.962813         142.333         0.159897         49.2794
                               0               0                0               0         0.218582         50.6291         0.051561         8.28645
                               0               0                0               0        0.0513079         8.41392         0.218695         50.6469
75.225                         0               0                0               0         0.156244         48.2161         0.963195         141.213
                               0               0                0               0         0.963143         141.204         0.157184         48.1413
                               0               0                0               0         0.218974         49.5552        0.0508327         7.17615
                               0               0                0               0        0.0505978         7.28846          0.21909         49.5729
75.27                          0               0                0               0         0.154042         46.9927         0.963374         140.009
                               0               0                0               0         0.963323         139.999         0.154847         46.9303
                               0               0                0               0         0.219279         48.3982        0.0501604          5.8889
                               0               0                0               0        0.0499504         5.98093         0.219397          48.416
75.315                         0               0                0               0         0.152248         45.6977         0.963442         138.729
                               0               0                0               0         0.963393         138.719         0.152896         45.6488
                               0               0                0               0         0.219501         47.1593        0.0495377         4.43728
                               0               0                0               0        0.0493551         4.50813         0.219621         47.1774
75.36                          0               0                0               0         0.150847         44.3358         0.963435         137.374
                               0               0                0               0          0.96339         137.363         0.151335         44.2998
                               0               0                0               0         0.219636         45.8405        0.0489577         2.83053
                               0               0                0               0        0.0488019         2.88173         0.219759          45.859
75.405                         0               0                0               0         0.149823         42.9116         0.963383         135.946
                               0               0                0               0         0.963343         135.934         0.150164         42.8871
                               0               0                0               0         0.219679         44.4444        0.0484131         1.07503
                               0               0                0               0        0.0482818         1.10937         0.219803         44.4634
75.45                          0               0                0               0         0.149163         41.4297         0.963315         134.446
                               0               0                0               0         0.963281         134.434         0.149379         41.4144
                               0               0                0               0         0.219619         42.9739        0.0478964       -0.825218
                               0               0                0               0        0.0477862       -0.804386         0.219745         42.9932
75.495                         0               0                0               0         0.148853          39.894          0.96325         132.877
                               0               0                0               0         0.963224         132.865          0.14897         39.8859
                               0               0                0               0          0.21944         41.4318        0.0474003        -2.86829
                               0               0                0               0        0.0473073         -2.8575         0.219568         41.4515
75.54                          0               0                0               0         0.148881         38.3084         0.963204         131.242
                               0               0                0               0         0.963186         131.229         0.148925         38.3053
                               0               0                0               0         0.219125         39.8217        0.0469171        -5.05399
                               0               0                0               0        0.0468376        -5.04995         0.219256         39.8416
75.585                         0               0                0               0         0.149232          36.676         0.963186         129.543
                               0               0                0               0         0.963176          129.53         0.149229         36.6763
                               0               0                0               0         0.218654         38.1467        0.0464396        -7.38362
                               0               0                0               0        0.0463701        -7.38341         0.218786         38.1669
75.63                          0               0                0               0         0.149896         34.9999         0.963201         127.783
                               0               0                0               0         0.963199         127.771         0.149866         35.0019
                               0               0                0               0         0.218002         36.4105        0.0459603        -9.85975
                               0               0                0               0        0.0458978        -9.86096         0.218136          36.431
75.675                         0               0                0               0         0.150857         33.2824         0.963247         125.967
                               0               0                0               0         0.963254         125.954         0.150816         33.2851
                               0               0                0               0         0.217147         34.6169        0.0454717         -12.486
                               0               0                0               0         0.045414        -12.4869         0.217284         34.6376
75.72                          0               0                0               0         0.152105         31.5254          0.96332         124.097
                               0               0                0               0         0.963334         124.084         0.152061         31.5281
                               0               0                0               0         0.216065         32.7699        0.0449664         -15.267
                               0               0                0               0         0.044912        -15.2664         0.216204         32.7908
75.765                         0               0                0               0         0.153625         29.7305         0.963409         122.177
                               0               0                0               0         0.963432         122.165         0.153581         29.7328
                               0               0                0               0         0.214732         30.8739        0.0444373        -18.2079
                               0               0                0               0        0.0443853        -18.2056         0.214875         30.8949
75.81                          0               0                0               0         0.155402         27.8986         0.963504         120.212
                               0               0                0               0         0.963535         120.199         0.155354         27.9008
                               0               0                0               0         0.213127         28.9335         0.043877        -21.3143
                               0               0                0               0        0.0438275        -21.3111         0.213273         28.9548
75.855                         0               0                0               0         0.157424         26.0308         0.963591         118.204
                               0               0                0               0          0.96363         118.192         0.157361         26.0335
                               0               0                0               0         0.211231         26.9537        0.0432788        -24.5924
                               0               0                0               0        0.0432324        -24.5899          0.21138         26.9753
75.9                           0               0                0               0         0.159674         24.1275         0.963657         116.159
                               0               0                0               0         0.963703         116.146         0.159581          24.132
                               0               0                0               0         0.209027         24.9399        0.0426364         -28.048
                               0               0                0               0        0.0425942        -28.0491         0.209179         24.9618
75.945                         0               0                0               0         0.162136         22.1895         0.963686         114.079
                               0               0                0               0         0.963741         114.065         0.161993         22.1975
                               0               0                0               0         0.206503         22.8977        0.0419443        -31.6872
                               0               0                0               0        0.0419078        -31.6957         0.206659         22.9199
75.99                          0               0                0               0         0.164792         20.2173         0.963669         111.968
                               0               0                0               0         0.963732         111.954          0.16458         20.2312
                               0               0                0               0         0.203651         20.8327        0.0411984        -35.5151
                               0               0                0               0         0.041169         -35.536         0.203811         20.8554
76.035                         0               0                0               0         0.167624         18.2119         0.963597          109.83
                               0               0                0               0         0.963668         109.815         0.167322         18.2344
                               0               0                0               0         0.200469         18.7507        0.0403964        -39.5365
                               0               0                0               0        0.0403751        -39.5753         0.200632          18.774
76.08                          0               0                0               0         0.170613         16.1748         0.963466         107.669
                               0               0                0               0         0.963546         107.653         0.170203         16.2087
                               0               0                0               0         0.196959         16.6572        0.0395384        -43.7552
                               0               0                0               0        0.0395258        -43.8176         0.197125          16.681
76.125                         0               0                0               0         0.173738         14.1081         0.963279         105.487
                               0               0                0               0         0.963368          105.47         0.173206         14.1562
                               0               0                0               0         0.193126         14.5572        0.0386276        -48.1737
                               0               0                0               0        0.0386234        -48.2653         0.193296         14.5817
76.17                          0               0                0               0         0.176976         12.0147         0.963048         103.288
                               0               0                0               0         0.963144          103.27         0.176318         12.0794
                               0               0                0               0         0.188984         12.4552        0.0376712        -52.7937
                               0               0                0               0        0.0376741        -52.9183         0.189158         12.4803
76.215                         0               0                0               0         0.180308         9.89891         0.962791         101.074
                               0               0                0               0         0.962895         101.055         0.179529         9.98165
                               0               0                0               0         0.184548         10.3545        0.0366805        -57.6163
                               0               0                0               0        0.0366884         -57.775         0.184726         10.3802
76.26                          0               0                0               0          0.18371         7.76615         0.962539         98.8483
                               0               0                0               0          0.96265         98.8288         0.182828         7.86676
                               0               0                0               0         0.179837         8.25721         0.035672        -62.6417
                               0               0                0               0        0.0356823        -62.8321         0.180018         8.28329
76.305                         0               0                0               0         0.187165         5.62342         0.962333         96.6126
                               0               0                0               0         0.962449         96.5925         0.186209         5.73962
                               0               0                0               0         0.174871         6.16403        0.0346664         -67.871
                               0               0                0               0        0.0346765        -68.0855         0.175056          6.1904
76.35                          0               0                0               0         0.190653         3.47908         0.962225         94.3692
                               0               0                0               0         0.962344         94.3488          0.18967         3.60597
                               0               0                0               0         0.169672         4.07431        0.0336887        -73.3059
                               0               0                0               0        0.0336967        -73.5322          0.16986         4.10074
76.395                         0               0                0               0         0.194164         1.34249         0.962276         92.1203
                               0               0                0               0         0.962396         92.1001         0.193208         1.47248
                               0               0                0               0         0.164261         1.98621        0.0327658        -78.9494
                               0               0                0               0        0.0327711        -79.1715         0.164452         2.01246
76.44                          0               0                0               0          0.19769       -0.776808         0.962548         89.8683
                               0               0                0               0         0.962664         89.8488          0.19682        -0.65354
