! TOUCHSTONE file generated by CST MICROWAVE STUDIO
! Date and time: Sun Jun 20 22:37:47 2021
! Project name: HIPS_d_sweep.cst
! Parameters = {fmax=120; fmin=75; b=0.46; d=22.95; a=0.63; phi=0; theta=0}
! Header version: 2018
! Port assignment regex: !\s*Touchstone port\s*([0-9]+)\s*=\s*(CST MWS port|CST DS port)\s*([0-9]+|Zmin|Zmax)\s*\(\"(.*)\"\)(\s*mode\s*([0-9]+))?.*
! Touchstone port assignment:
! Touchstone port 1 = CST MWS port Zmin ("") mode 1
! Touchstone port 2 = CST MWS port Zmin ("") mode 2
! Touchstone port 3 = CST MWS port Zmax ("") mode 1
! Touchstone port 4 = CST MWS port Zmax ("") mode 2
! S-Parameters are not renormalized. Unphysical impedance of 0 will be written to the file.
# GHz S MA R 0
75                             0               0                0               0        0.0193819         -43.648         0.999704           47.32
                               0               0                0               0          0.99962         47.3156        0.0192578        -42.4717
                               0               0                0               0        0.0136823        -43.6993       0.00965665        -44.0628
                               0               0                0               0       0.00959577        -43.4059        0.0136787        -43.8956
75.045                         0               0                0               0        0.0152847        -44.7138           0.9998         46.5504
                               0               0                0               0         0.999721         46.5458        0.0151706        -43.1407
                               0               0                0               0        0.0111259        -44.5205        0.0101364        -44.2182
                               0               0                0               0        0.0100812        -43.5345        0.0111208        -44.7694
75.09                          0               0                0               0         0.011704        -46.1737         0.999862         45.7008
                               0               0                0               0         0.999781         45.6958        0.0117456        -43.7081
                               0               0                0               0       0.00824672        -45.4715        0.0104624        -44.5847
                               0               0                0               0        0.0104149         -43.887       0.00823967        -45.8093
75.135                         0               0                0               0       0.00859777         -48.171         0.999897         44.7721
                               0               0                0               0         0.999811         44.7667       0.00885642        -44.2114
                               0               0                0               0       0.00504934        -46.6912        0.0106402        -45.1393
                               0               0                0               0        0.0106022        -44.4382       0.00504029        -47.2361
75.18                          0               0                0               0       0.00593487        -51.0382         0.999911         43.7655
                               0               0                0               0         0.999817         43.7595       0.00641501        -44.6699
                               0               0                0               0       0.00153999        -49.6318        0.0106748        -45.8643
                               0               0                0               0        0.0106477         -45.169       0.00153056        -51.3876
75.225                         0               0                0               0       0.00369504        -55.6987         0.999906         42.6821
                               0               0                0               0         0.999806         42.6754       0.00436047        -45.0708
                               0               0                0               0       0.00228106         134.133        0.0105706        -46.7445
                               0               0                0               0        0.0105552        -46.0632       0.00229783         135.225
75.27                          0               0                0               0       0.00187794        -65.8054         0.999884         41.5235
                               0               0                0               0         0.999778         41.5161       0.00265217        -45.3122
                               0               0                0               0       0.00639838         131.792        0.0103315        -47.7661
                               0               0                0               0         0.010328        -47.1059       0.00641613         132.164
75.315                         0               0                0               0      0.000637601        -110.409         0.999844         40.2914
                               0               0                0               0         0.999736         40.2831       0.00126508        -44.8523
                               0               0                0               0        0.0108088         130.338       0.00996094        -48.9148
                               0               0                0               0        0.0099688         -48.282        0.0108283         130.545
75.36                          0               0                0               0      0.000955432         162.554         0.999786         38.9876
                               0               0                0               0         0.999679         38.9785      0.000190884        -32.4711
                               0               0                0               0        0.0155028         128.969       0.00946218        -50.1743
                               0               0                0               0       0.00948036        -49.5744        0.0155238         129.102
75.405                         0               0                0               0       0.00161162         144.881         0.999706         37.6141
                               0               0                0               0         0.999603         37.6042      0.000595149         126.143
                               0               0                0               0        0.0204699         127.581       0.00883835        -51.5243
                               0               0                0               0       0.00886524        -50.9617        0.0204922         127.673
75.45                          0               0                0               0       0.00196622         138.241         0.999601         36.1733
                               0               0                0               0         0.999505         36.1627       0.00106525         127.357
                               0               0                0               0        0.0256983         126.146       0.00809271        -52.9363
                               0               0                0               0       0.00812626        -52.4144        0.0257215         126.213
75.495                         0               0                0               0       0.00198187         134.346         0.999466         34.6677
                               0               0                0               0          0.99938         34.6566       0.00122358         126.837
                               0               0                0               0        0.0311743         124.655       0.00722884        -54.3666
                               0               0                0               0       0.00726671        -53.8873        0.0311982         124.705
75.54                          0               0                0               0       0.00165847         131.875         0.999297            33.1
                               0               0                0               0         0.999222         33.0885       0.00106109          126.13
                               0               0                0               0        0.0368828         123.104       0.00625085        -55.7404
                               0               0                0               0       0.00629061         -55.304         0.036907         123.142
75.585                         0               0                0               0       0.00100464         131.786         0.999087         31.4733
                               0               0                0               0         0.999026         31.4615      0.000570635           126.9
                               0               0                0               0        0.0428066         121.493       0.00516381        -56.9118
                               0               0                0               0       0.00520303        -56.5163         0.042831         121.522
75.63                          0               0                0               0      0.000124093        -156.685         0.998831         29.7906
                               0               0                0               0         0.998784         29.7788      0.000260323        -70.5458
                               0               0                0               0         0.048927         119.823       0.00397432        -57.5424
                               0               0                0               0       0.00401081        -57.1825        0.0489512         119.844
75.675                         0               0                0               0       0.00127205        -66.1136         0.998524         28.0553
                               0               0                0               0         0.998491         28.0437       0.00141192        -63.7562
                               0               0                0               0        0.0552231         118.095       0.00269272        -56.6012
                               0               0                0               0       0.00272474        -56.2691        0.0552471         118.112
75.72                          0               0                0               0       0.00284237        -65.6489         0.998161         26.2711
                               0               0                0               0         0.998141         26.2597        0.0028884        -64.9198
                               0               0                0               0        0.0616726         116.313       0.00134854        -48.7331
                               0               0                0               0       0.00137512        -48.4773        0.0616963         116.326
75.765                         0               0                0               0       0.00468223        -67.2411         0.997737         24.4415
                               0               0                0               0         0.997729         24.4306       0.00466884        -66.8484
                               0               0                0               0        0.0682514         114.481      0.000509454         42.2934
                               0               0                0               0      0.000513448         40.1796        0.0682748          114.49
75.81                          0               0                0               0       0.00676595        -69.3159          0.99725         22.5704
                               0               0                0               0         0.997252         22.5601       0.00672717        -69.0458
                               0               0                0               0        0.0749343         112.601       0.00181118         91.0783
                               0               0                0               0       0.00180532         90.7308        0.0749574         112.608
75.855                         0               0                0               0       0.00906707        -71.5611         0.996696         20.6619
                               0               0                0               0         0.996706         20.6522       0.00903102        -71.3667
                               0               0                0               0         0.081695         110.678       0.00339199         95.4714
                               0               0                0               0       0.00339196         95.3172        0.0817178         110.683
75.9                           0               0                0               0         0.011558        -73.8712         0.996075         18.7198
                               0               0                0               0         0.996092         18.7108        0.0115438        -73.7407
                               0               0                0               0        0.0885062         108.718       0.00504498         95.3863
                               0               0                0               0       0.00505123         95.2729        0.0885289         108.721
75.945                         0               0                0               0        0.0142107        -76.1993         0.995388         16.7484
                               0               0                0               0         0.995411         16.7401        0.0142275        -76.1245
                               0               0                0               0        0.0953406         106.723       0.00674586         93.9949
                               0               0                0               0       0.00675761         93.8902        0.0953635         106.725
75.99                          0               0                0               0        0.0169972        -78.5207         0.994638         14.7517
                               0               0                0               0         0.994665          14.744        0.0170449          -78.49
                               0               0                0               0         0.102171           104.7       0.00848015         92.0377
                               0               0                0               0       0.00849618         91.9335         0.102194           104.7
76.035                         0               0                0               0        0.0198906        -80.8216          0.99383         12.7338
                               0               0                0               0          0.99386         12.7266        0.0199615        -80.8195
                               0               0                0               0          0.10897         102.652        0.0102354         89.7825
                               0               0                0               0        0.0102543         89.6776         0.108994         102.652
76.08                          0               0                0               0        0.0228653        -83.0942          0.99297         10.6986
                               0               0                0               0         0.993003         10.6919        0.0229471        -83.1039
                               0               0                0               0         0.115712         100.585        0.0119998         87.3521
                               0               0                0               0        0.0120201         87.2481         0.115737         100.585
76.125                         0               0                0               0        0.0258975        -85.3348         0.992066         8.65017
                               0               0                0               0         0.992103         8.64376        0.0259759        -85.3404
                               0               0                0               0         0.122372         98.5043        0.0137625         84.8132
                               0               0                0               0         0.013783         84.7124         0.122398         98.5032
76.17                          0               0                0               0        0.0289654        -87.5427         0.991128         6.59225
                               0               0                0               0          0.99117         6.58601        0.0290265        -87.5315
                               0               0                0               0         0.128926         96.4134        0.0155133         82.2059
                               0               0                0               0        0.0155328         82.1105         0.128954         96.4119
76.215                         0               0                0               0         0.032049        -89.7197         0.990167         4.52848
                               0               0                0               0         0.990216         4.52228        0.0320816        -89.6833
                               0               0                0               0         0.135353         94.3168        0.0172427         79.5563
                               0               0                0               0        0.0172604         79.4683         0.135382         94.3151
76.26                          0               0                0               0        0.0351303        -91.8692         0.989194         2.46236
                               0               0                0               0         0.989251          2.4561         0.035127        -91.8041
                               0               0                0               0         0.141631         92.2187        0.0189421         76.8822
                               0               0                0               0        0.0189574         76.8027         0.141663         92.2168
76.305                         0               0                0               0         0.038193        -93.9964          0.98822        0.397199
                               0               0                0               0         0.988287        0.390808        0.0381509        -93.9038
                               0               0                0               0         0.147743         90.1225        0.0206038         74.1959
                               0               0                0               0        0.0206163         74.1255         0.147777         90.1206
76.35                          0               0                0               0        0.0412219        -96.1075         0.987253        -1.66389
                               0               0                0               0          0.98733        -1.67044        0.0411432        -95.9924
                               0               0                0               0         0.153671         88.0316        0.0222203         71.5058
                               0               0                0               0        0.0222299         71.4443         0.153708         88.0296
76.395                         0               0                0               0        0.0442032        -98.2096         0.986298        -3.71798
                               0               0                0               0         0.986384        -3.72465        0.0440944        -98.0801
                               0               0                0               0         0.159398         85.9485        0.0237848         68.8176
                               0               0                0               0        0.0237916         68.7643         0.159437         85.9464
76.44                          0               0                0               0        0.0471235         -100.31         0.985351         -5.7623
                               0               0                0               0         0.985445        -5.76902        0.0469951        -100.176
