! TOUCHSTONE file generated by CST MICROWAVE STUDIO
! Date and time: Sun Jun 20 22:37:07 2021
! Project name: HIPS_d_sweep.cst
! Parameters = {fmax=120; fmin=75; b=0.46; d=18.75; a=0.63; phi=0; theta=0}
! Header version: 2018
! Port assignment regex: !\s*Touchstone port\s*([0-9]+)\s*=\s*(CST MWS port|CST DS port)\s*([0-9]+|Zmin|Zmax)\s*\(\"(.*)\"\)(\s*mode\s*([0-9]+))?.*
! Touchstone port assignment:
! Touchstone port 1 = CST MWS port Zmin ("") mode 1
! Touchstone port 2 = CST MWS port Zmin ("") mode 2
! Touchstone port 3 = CST MWS port Zmax ("") mode 1
! Touchstone port 4 = CST MWS port Zmax ("") mode 2
! S-Parameters are not renormalized. Unphysical impedance of 0 will be written to the file.
# GHz S MA R 0
75                             0               0                0               0          0.25797        -107.094         0.949036         163.191
                               0               0                0               0         0.948921         163.184          0.25794        -107.063
                               0               0                0               0         0.175097         72.6149        0.0478302         169.742
                               0               0                0               0        0.0478889         169.859         0.175076         72.6097
75.045                         0               0                0               0         0.260807        -107.817         0.950001         162.535
                               0               0                0               0         0.949389         162.463         0.260773         -107.76
                               0               0                0               0         0.175609         72.0463        0.0485756          168.54
                               0               0                0               0        0.0486083         168.689         0.175589         72.0412
75.09                          0               0                0               0         0.263412         -108.55         0.950291         161.837
                               0               0                0               0         0.949403         161.716         0.263368        -108.478
                               0               0                0               0         0.176215         71.4158        0.0492625         167.186
                               0               0                0               0        0.0492805         167.351         0.176196         71.4109
75.135                         0               0                0               0         0.265753        -109.299         0.949984         161.089
                               0               0                0               0         0.948997          160.94         0.265701        -109.221
                               0               0                0               0         0.176923         70.7259        0.0498982         165.676
                               0               0                0               0        0.0499116         165.842         0.176905         70.7211
75.18                          0               0                0               0         0.267809        -110.073         0.949176         160.287
                               0               0                0               0         0.948223         160.129         0.267751        -109.995
                               0               0                0               0          0.17774         69.9792         0.050491         164.003
                               0               0                0               0        0.0505084         164.162         0.177721         69.9744
75.225                         0               0                0               0          0.26956        -110.877         0.947982         159.426
                               0               0                0               0         0.947153         159.281         0.269505        -110.806
                               0               0                0               0         0.178666         69.1784          0.05105         162.166
                               0               0                0               0        0.0510782         162.314         0.178647         69.1738
75.27                          0               0                0               0         0.270996        -111.718          0.94652         158.504
                               0               0                0               0         0.945877          158.39          0.27095        -111.659
                               0               0                0               0         0.179702         68.3263        0.0515846         160.166
                               0               0                0               0        0.0516282           160.3         0.179682         68.3217
75.315                         0               0                0               0         0.272114        -112.604         0.944914          157.52
                               0               0                0               0           0.9445         157.453         0.272084        -112.558
                               0               0                0               0         0.180845         67.4253         0.052104         158.005
                               0               0                0               0        0.0521654         158.126         0.180824         67.4209
75.36                          0               0                0               0         0.272914        -113.541         0.943281         156.475
                               0               0                0               0         0.943142         156.468         0.272908        -113.509
                               0               0                0               0          0.18209         66.4777        0.0526171          155.69
                               0               0                0               0        0.0526966         155.798         0.182067         66.4734
75.405                         0               0                0               0         0.273408        -114.531         0.941728         155.371
                               0               0                0               0         0.941925          155.43         0.273426        -114.513
                               0               0                0               0         0.183428         65.4855        0.0531317         153.226
                               0               0                0               0        0.0532279         153.324         0.183404         65.4814
75.45                          0               0                0               0         0.273606        -115.579         0.940349          154.21
                               0               0                0               0         0.940967         154.335          0.27365        -115.573
                               0               0                0               0          0.18485         64.4503        0.0536548         150.623
                               0               0                0               0        0.0537648         150.713         0.184824         64.4464
75.495                         0               0                0               0         0.273527        -116.687         0.939225         152.997
                               0               0                0               0         0.940357         153.179         0.273592        -116.689
                               0               0                0               0         0.186344         63.3734        0.0541919         147.891
                               0               0                0               0        0.0543117         147.977         0.186318         63.3699
75.54                          0               0                0               0         0.273188        -117.854         0.938424         151.735
                               0               0                0               0         0.940133         151.956         0.273268        -117.861
                               0               0                0               0         0.187897         62.2561        0.0547472         145.042
                               0               0                0               0        0.0548724         145.125         0.187871         62.2529
75.585                         0               0                0               0         0.272609        -119.079         0.938007         150.428
                               0               0                0               0         0.940255          150.66         0.272697        -119.088
                               0               0                0               0         0.189495         61.0994        0.0553236         142.089
                               0               0                0               0        0.0554492          142.17         0.189468         61.0966
75.63                          0               0                0               0          0.27181        -120.359         0.938031         149.082
                               0               0                0               0           0.9406          149.29         0.271896        -120.366
                               0               0                0               0          0.19112          59.904        0.0559224         139.043
                               0               0                0               0        0.0560437         139.125         0.191094         59.9016
75.675                         0               0                0               0         0.270807        -121.691         0.938561         147.698
                               0               0                0               0         0.940994          147.85         0.270884        -121.692
                               0               0                0               0         0.192757         58.6709        0.0565434         135.918
                               0               0                0               0        0.0566565         136.002         0.192731         58.6689
75.72                          0               0                0               0          0.26962         -123.07          0.93969         146.277
                               0               0                0               0         0.941277         146.352          0.26968        -123.062
                               0               0                0               0         0.194386         57.4009        0.0571856         132.727
                               0               0                0               0        0.0572872         132.813         0.194362         57.3994
75.765                         0               0                0               0         0.268264        -124.489         0.941556         144.815
                               0               0                0               0         0.941369         144.811         0.268303        -124.469
                               0               0                0               0          0.19599         56.0951        0.0578466         129.483
                               0               0                0               0        0.0579345         129.572         0.195966         56.0941
75.81                          0               0                0               0         0.266754        -125.943         0.944344         143.294
                               0               0                0               0         0.941282         143.242         0.266772        -125.909
                               0               0                0               0         0.197548         54.7549        0.0585232         126.198
                               0               0                0               0        0.0585965          126.29         0.197526         54.7543
75.855                         0               0                0               0         0.265107        -127.423         0.948073         141.661
                               0               0                0               0         0.941097         141.657         0.265105        -127.374
                               0               0                0               0         0.199042         53.3816        0.0592116         122.884
                               0               0                0               0        0.0592706         122.979         0.199022         53.3813
75.9                           0               0                0               0         0.263338        -128.923         0.951373         139.823
                               0               0                0               0         0.940913         140.064         0.263323        -128.859
                               0               0                0               0         0.200452         51.9772        0.0599077         119.551
                               0               0                0               0        0.0599538         119.649         0.200434         51.9772
75.945                         0               0                0               0         0.261464        -130.435         0.949857         137.841
                               0               0                0               0         0.940816         138.467         0.261444        -130.358
                               0               0                0               0          0.20176         50.5438         0.060607         116.211
                               0               0                0               0         0.060643         116.311         0.201744          50.544
75.99                          0               0                0               0         0.259505        -131.953         0.943899          136.13
                               0               0                0               0         0.940857         136.866         0.259491        -131.864
                               0               0                0               0          0.20295          49.084        0.0613054         112.871
                               0               0                0               0        0.0613346         112.974         0.202936         49.0842
76.035                         0               0                0               0         0.257481         -133.47         0.940198         134.691
                               0               0                0               0         0.941059         135.262         0.257485        -133.372
                               0               0                0               0         0.204005         47.6006        0.0619987          109.54
                               0               0                0               0        0.0620255         109.646         0.203993         47.6008
76.08                          0               0                0               0         0.255416         -134.98          0.93945         133.275
                               0               0                0               0         0.941422         133.655         0.255449        -134.878
                               0               0                0               0         0.204913         46.0968        0.0626834         106.227
                               0               0                0               0        0.0627125         106.334         0.204902         46.0969
76.125                         0               0                0               0         0.253336         -136.48         0.940093         131.808
                               0               0                0               0         0.941925         132.044         0.253406        -136.381
                               0               0                0               0         0.205664         44.5759        0.0633566         102.937
                               0               0                0               0        0.0633926         103.045         0.205652         44.5759
76.17                          0               0                0               0         0.251268        -137.968         0.941252         130.292
                               0               0                0               0         0.942542         130.428         0.251377        -137.877
                               0               0                0               0          0.20625         43.0414        0.0640161         99.6757
                               0               0                0               0        0.0640634         99.7855         0.206237         43.0413
76.215                         0               0                0               0         0.249233        -139.445         0.942553          128.74
                               0               0                0               0         0.943236         128.807         0.249379        -139.369
                               0               0                0               0         0.206666         41.4966        0.0646608         96.4485
                               0               0                0               0        0.0647228         96.5592         0.206652         41.4965
76.26                          0               0                0               0         0.247251        -140.915         0.943831         127.161
                               0               0                0               0         0.943973         127.181         0.247426        -140.858
                               0               0                0               0         0.206912         39.9449        0.0652902         93.2593
                               0               0                0               0        0.0653692         93.3704         0.206897         39.9448
76.305                         0               0                0               0         0.245326        -142.385         0.945002         125.561
                               0               0                0               0         0.944716          125.55          0.24552         -142.35
                               0               0                0               0         0.206992         38.3892         0.065905         90.1113
                               0               0                0               0        0.0660017         90.2223         0.206974         38.3892
76.35                          0               0                0               0         0.243452        -143.862         0.946016         123.945
                               0               0                0               0         0.945431         123.914         0.243653         -143.85
                               0               0                0               0          0.20691         36.8319        0.0665067         87.0076
                               0               0                0               0        0.0666196         87.1178          0.20689         36.8322
76.395                         0               0                0               0         0.241606        -145.355         0.946843         122.315
                               0               0                0               0          0.94609         122.274         0.241807        -145.364
                               0               0                0               0         0.206676          35.275        0.0670974         83.9503
                               0               0                0               0        0.0672226          84.059         0.206654         35.2758
76.44                          0               0                0               0         0.239753        -146.875         0.947466         120.673
                               0               0                0               0          0.94667         120.628         0.239954        -146.897
