! TOUCHSTONE file generated by CST MICROWAVE STUDIO
! Date and time: Sun Jun 20 22:36:48 2021
! Project name: HIPS_d_sweep.cst
! Parameters = {fmax=120; fmin=75; b=0.46; d=16.35; a=0.63; phi=0; theta=0}
! Header version: 2018
! Port assignment regex: !\s*Touchstone port\s*([0-9]+)\s*=\s*(CST MWS port|CST DS port)\s*([0-9]+|Zmin|Zmax)\s*\(\"(.*)\"\)(\s*mode\s*([0-9]+))?.*
! Touchstone port assignment:
! Touchstone port 1 = CST MWS port Zmin ("") mode 1
! Touchstone port 2 = CST MWS port Zmin ("") mode 2
! Touchstone port 3 = CST MWS port Zmax ("") mode 1
! Touchstone port 4 = CST MWS port Zmax ("") mode 2
! S-Parameters are not renormalized. Unphysical impedance of 0 will be written to the file.
# GHz S MA R 0
75                             0               0                0               0         0.426413         168.105         0.890187         76.1549
                               0               0                0               0         0.889987         76.1588         0.426404           168.1
                               0               0                0               0         0.117576         9.88468         0.109959          14.632
                               0               0                0               0         0.109908         14.6109          0.11758         9.92213
75.045                         0               0                0               0         0.429193         167.483         0.889491         75.5927
                               0               0                0               0         0.888056          75.563         0.429231         167.474
                               0               0                0               0         0.116391         9.85577         0.110234         13.7691
                               0               0                0               0         0.110182         13.7496         0.116392         9.89019
75.09                          0               0                0               0         0.431721          166.82         0.888716         74.9772
                               0               0                0               0         0.886651         74.9263         0.431793         166.808
                               0               0                0               0          0.11509         9.80072         0.110424         12.8255
                               0               0                0               0         0.110373         12.8065         0.115087         9.83268
75.135                         0               0                0               0         0.433994         166.112         0.887905          74.308
                               0               0                0               0         0.885647         74.2463         0.434091         166.099
                               0               0                0               0         0.113676         9.72004         0.110537         11.7967
                               0               0                0               0         0.110489         11.7773         0.113671         9.75006
75.18                          0               0                0               0         0.436013         165.358         0.887097         73.5852
                               0               0                0               0         0.884945         73.5214         0.436123         165.345
                               0               0                0               0         0.112155          9.6149          0.11058          10.679
                               0               0                0               0         0.110536         10.6588         0.112148         9.64343
75.225                         0               0                0               0         0.437779         164.555         0.886329         72.8094
                               0               0                0               0         0.884468         72.7501         0.437895         164.543
                               0               0                0               0         0.110531         9.48709         0.110562         9.47024
                               0               0                0               0         0.110524         9.44888         0.110522         9.51455
75.27                          0               0                0               0         0.439297         163.702         0.885632         71.9813
                               0               0                0               0         0.884156         71.9314         0.439412         163.692
                               0               0                0               0         0.108805         9.33902         0.110492         8.16882
                               0               0                0               0         0.110458         8.14622         0.108795         9.36576
75.315                         0               0                0               0         0.440574         162.799         0.885034         71.1021
                               0               0                0               0         0.883967         71.0643         0.440683          162.79
                               0               0                0               0         0.106981          9.1737         0.110374         6.77434
                               0               0                0               0         0.110346         6.75054          0.10697         9.20005
75.36                          0               0                0               0         0.441616         161.844         0.884555          70.173
                               0               0                0               0         0.883873         70.1486         0.441716         161.837
                               0               0                0               0         0.105059         8.99477         0.110214         5.28716
                               0               0                0               0         0.110192          5.2623         0.105047           9.021
75.405                         0               0                0               0         0.442432         160.839         0.884212         69.1956
                               0               0                0               0         0.883858         69.1843         0.442522         160.832
                               0               0                0               0         0.103041         8.80657         0.110017          3.7084
                               0               0                0               0         0.110001         3.68268         0.103028         8.83292
75.45                          0               0                0               0         0.443031         159.782         0.884014         68.1716
                               0               0                0               0         0.883916         68.1717         0.443111         159.777
                               0               0                0               0         0.100926         8.61419         0.109786          2.0398
                               0               0                0               0         0.109773         2.01346         0.100914         8.64086
75.495                         0               0                0               0         0.443421         158.676         0.883969          67.103
                               0               0                0               0         0.884045          67.112         0.443492         158.671
                               0               0                0               0        0.0987163         8.42355          0.10952        0.283659
                               0               0                0               0         0.109511        0.256936        0.0987039         8.45071
75.54                          0               0                0               0         0.443613         157.522         0.884076         65.9915
                               0               0                0               0         0.884251         66.0065         0.443677         157.517
                               0               0                0               0        0.0964114         8.24157         0.109221         -1.5573
                               0               0                0               0         0.109215        -1.58417        0.0963992         8.26937
75.585                         0               0                0               0         0.443614         156.321         0.884331         64.8393
                               0               0                0               0         0.884541         64.8571         0.443673         156.316
                               0               0                0               0        0.0940123          8.0763         0.108887        -3.47996
                               0               0                0               0         0.108883        -3.50674        0.0940005         8.10486
75.63                          0               0                0               0         0.443433         155.076         0.884727         63.6485
                               0               0                0               0         0.884919         63.6663         0.443489         155.071
                               0               0                0               0        0.0915203         7.93709         0.108517        -5.48087
                               0               0                0               0         0.108514        -5.50737        0.0915091         7.96652
75.675                         0               0                0               0         0.443077          153.79         0.885252         62.4211
                               0               0                0               0         0.885392         62.4368         0.443133         153.784
                               0               0                0               0        0.0889375         7.83482         0.108106        -7.55633
                               0               0                0               0         0.108105        -7.58235        0.0889269         7.86519
75.72                          0               0                0               0         0.442553         152.465         0.885893         61.1594
                               0               0                0               0          0.88596         61.1713          0.44261         152.458
                               0               0                0               0        0.0862672         7.78212         0.107653        -9.70239
                               0               0                0               0         0.107651        -9.72778        0.0862574         7.81351
75.765                         0               0                0               0         0.441868         151.104         0.886633         59.8656
                               0               0                0               0         0.886622         59.8729         0.441928         151.096
                               0               0                0               0        0.0835141         7.79363         0.107153        -11.9149
                               0               0                0               0         0.107152        -11.9396         0.083505         7.82612
75.81                          0               0                0               0         0.441029          149.71         0.887454         58.5418
                               0               0                0               0         0.887373         58.5448         0.441092         149.701
                               0               0                0               0        0.0806848          7.8863         0.106603        -14.1897
                               0               0                0               0         0.106602        -14.2135        0.0806765         7.91997
75.855                         0               0                0               0         0.440042         148.287          0.88834         57.1903
                               0               0                0               0         0.888206           57.19         0.440107         148.277
                               0               0                0               0        0.0777881         8.07966            0.106        -16.5223
                               0               0                0               0            0.106        -16.5452        0.0777807          8.1146
75.9                           0               0                0               0         0.438913         146.838         0.889272         55.8134
                               0               0                0               0         0.889108         55.8114         0.438979         146.827
                               0               0                0               0        0.0748355         8.39607         0.105343        -18.9085
                               0               0                0               0         0.105342        -18.9304        0.0748289          8.4324
75.945                         0               0                0               0         0.437649         145.365         0.890235         54.4136
                               0               0                0               0         0.890067         54.4117         0.437716         145.353
                               0               0                0               0        0.0718417         8.86094         0.104629         -21.344
                               0               0                0               0         0.104629        -21.3648        0.0718359         8.89881
75.99                          0               0                0               0         0.436259         143.872         0.891215         52.9932
                               0               0                0               0         0.891071         52.9937         0.436325          143.86
                               0               0                0               0        0.0688247         9.50284         0.103859        -23.8246
                               0               0                0               0          0.10386        -23.8444        0.0688197         9.54243
76.035                         0               0                0               0         0.434751         142.361         0.892204         51.5546
                               0               0                0               0         0.892105         51.5594         0.434814         142.349
                               0               0                0               0        0.0658063         10.3534         0.103034        -26.3465
                               0               0                0               0         0.103036        -26.3653        0.0658022          10.395
76.08                          0               0                0               0         0.433135         140.835         0.893198         50.1003
                               0               0                0               0          0.89316         50.1111         0.433194         140.822
                               0               0                0               0        0.0628124         11.4471         0.102157        -28.9064
                               0               0                0               0          0.10216        -28.9241        0.0628093         11.4908
76.125                         0               0                0               0         0.431423         139.297         0.894197         48.6331
                               0               0                0               0         0.894226         48.6505         0.431478         139.283
                               0               0                0               0         0.059873         12.8203         0.101233        -31.5013
                               0               0                0               0         0.101238        -31.5179        0.0598711         12.8664
76.17                          0               0                0               0         0.429629         137.747         0.895209         47.1554
                               0               0                0               0           0.8953         47.1794          0.42968         137.733
                               0               0                0               0        0.0570219         14.5102         0.100268         -34.129
                               0               0                0               0         0.100274        -34.1444        0.0570215          14.559
76.215                         0               0                0               0         0.427768         136.188         0.896249         45.6699
                               0               0                0               0         0.896383         45.6991         0.427816         136.173
                               0               0                0               0         0.054297         16.5531        0.0992705        -36.7875
                               0               0                0               0        0.0992762        -36.8016        0.0542984         16.6046
76.26                          0               0                0               0         0.425858         134.621         0.897335         44.1792
                               0               0                0               0         0.897481         44.2111         0.425906         134.605
                               0               0                0               0        0.0517393         18.9813        0.0982479        -39.4757
                               0               0                0               0        0.0982534        -39.4881        0.0517428         19.0354
76.305                         0               0                0               0         0.423919         133.046          0.89849         42.6859
                               0               0                0               0         0.898608         42.7172         0.423971          133.03
                               0               0                0               0        0.0493927         21.8198        0.0972097        -42.1921
                               0               0                0               0        0.0972143        -42.2028        0.0493987         21.8763
76.35                          0               0                0               0          0.42197         131.466         0.899731         41.1926
                               0               0                0               0         0.899781          41.219          0.42203         131.448
                               0               0                0               0        0.0473036         25.0813        0.0961644        -44.9356
                               0               0                0               0        0.0961672        -44.9443        0.0473125         25.1398
76.395                         0               0                0               0          0.42003         129.882         0.901071         39.7014
                               0               0                0               0         0.901017         39.7191         0.420104         129.863
                               0               0                0               0        0.0455202         28.7609         0.095119        -47.7036
                               0               0                0               0        0.0951193        -47.7102        0.0455321         28.8206
76.44                          0               0                0               0         0.418117         128.297         0.902503         38.2147
                               0               0                0               0         0.902328         38.2206         0.418208         128.276
