! TOUCHSTONE file generated by CST MICROWAVE STUDIO
! Date and time: Sun Jun 20 22:37:19 2021
! Project name: HIPS_d_sweep.cst
! Parameters = {fmax=120; fmin=75; b=0.46; d=20.25; a=0.63; phi=0; theta=0}
! Header version: 2018
! Port assignment regex: !\s*Touchstone port\s*([0-9]+)\s*=\s*(CST MWS port|CST DS port)\s*([0-9]+|Zmin|Zmax)\s*\(\"(.*)\"\)(\s*mode\s*([0-9]+))?.*
! Touchstone port assignment:
! Touchstone port 1 = CST MWS port Zmin ("") mode 1
! Touchstone port 2 = CST MWS port Zmin ("") mode 2
! Touchstone port 3 = CST MWS port Zmax ("") mode 1
! Touchstone port 4 = CST MWS port Zmax ("") mode 2
! S-Parameters are not renormalized. Unphysical impedance of 0 will be written to the file.
# GHz S MA R 0
75                             0               0                0               0         0.160277         82.6324         0.972872        -7.13307
                               0               0                0               0         0.972778        -7.12166         0.160042         82.6361
                               0               0                0               0         0.164678         82.6316        0.0272723        -179.331
                               0               0                0               0        0.0273465        -179.062         0.164592         82.6081
75.045                         0               0                0               0         0.163584         82.0236         0.972031        -7.80198
                               0               0                0               0         0.971928         -7.7925         0.163433         81.9935
                               0               0                0               0         0.165574         81.9701        0.0284633          179.97
                               0               0                0               0        0.0281106         179.839          0.16547         81.9412
75.09                          0               0                0               0         0.166568         81.3192         0.971279        -8.53859
                               0               0                0               0         0.971167        -8.52977         0.166444         81.2774
                               0               0                0               0         0.166664         81.2455        0.0291789         178.922
                               0               0                0               0        0.0288121         178.467         0.166555          81.215
75.135                         0               0                0               0         0.169208         80.5321         0.970595        -9.34259
                               0               0                0               0         0.970477        -9.33373         0.169075         80.4929
                               0               0                0               0         0.167941           80.46        0.0296873         177.278
                               0               0                0               0        0.0294606         176.824         0.167833         80.4301
75.18                          0               0                0               0          0.17149         79.6728         0.969963        -10.2134
                               0               0                0               0         0.969842        -10.2042         0.171328         79.6444
                               0               0                0               0         0.169394         79.6153        0.0301507         175.161
                               0               0                0               0        0.0300665         174.916         0.169292         79.5874
75.225                         0               0                0               0         0.173409         78.7501         0.969369        -11.1501
                               0               0                0               0          0.96925        -11.1406          0.17321         78.7354
                               0               0                0               0         0.171012         78.7129        0.0306264         172.721
                               0               0                0               0        0.0306396         172.752         0.170919         78.6875
75.27                          0               0                0               0         0.174964         77.7705         0.968806        -12.1515
                               0               0                0               0          0.96869        -12.1419         0.174727         77.7692
                               0               0                0               0         0.172783          77.754        0.0311268         170.056
                               0               0                0               0        0.0311896         170.343         0.172698          77.731
75.315                         0               0                0               0         0.176163         76.7392         0.968266        -13.2163
                               0               0                0               0         0.968156        -13.2067         0.175893         76.7485
                               0               0                0               0         0.174692         76.7397        0.0316495          167.22
                               0               0                0               0        0.0317256         167.703         0.174616         76.7187
75.36                          0               0                0               0         0.177014         75.6598         0.967748        -14.3427
                               0               0                0               0         0.967643        -14.3335          0.17672         75.6758
                               0               0                0               0         0.176725          75.671         0.032189         164.243
                               0               0                0               0        0.0322556         164.849         0.176656         75.6515
75.405                         0               0                0               0         0.177531         74.5352          0.96725        -15.5288
                               0               0                0               0         0.967147        -15.5202         0.177223         74.5535
                               0               0                0               0         0.178867         74.5491        0.0327407         161.141
                               0               0                0               0        0.0327867         161.798         0.178801         74.5304
75.45                          0               0                0               0         0.177729         73.3672         0.966775        -16.7726
                               0               0                0               0          0.96667        -16.7647         0.177418         73.3837
                               0               0                0               0         0.181101         73.3749        0.0333015         157.922
                               0               0                0               0         0.033325         158.569         0.181036         73.3566
75.495                         0               0                0               0         0.177627         72.1573         0.966324        -18.0717
                               0               0                0               0         0.966212        -18.0644         0.177324         72.1686
                               0               0                0               0         0.183409         72.1498        0.0338701         154.591
                               0               0                0               0        0.0338752         155.183         0.183343         72.1313
75.54                          0               0                0               0         0.177244         70.9067         0.965903        -19.4235
                               0               0                0               0         0.965777        -19.4169         0.176957         70.9103
                               0               0                0               0         0.185774         70.8751        0.0344469         151.152
                               0               0                0               0        0.0344412         151.659         0.185704         70.8561
75.585                         0               0                0               0         0.176598         69.6165         0.965514        -20.8254
                               0               0                0               0         0.965369        -20.8193         0.176337          69.611
                               0               0                0               0         0.188177         69.5524        0.0350334         147.612
                               0               0                0               0        0.0350255         148.019         0.188102         69.5327
75.63                          0               0                0               0          0.17571         68.2879         0.965162        -22.2746
                               0               0                0               0         0.964991        -22.2687         0.175482         68.2729
                               0               0                0               0         0.190599         68.1834        0.0356322         143.978
                               0               0                0               0        0.0356298         144.285         0.190518         68.1632
75.675                         0               0                0               0           0.1746         66.9221         0.964852        -23.7681
                               0               0                0               0         0.964648        -23.7622         0.174409         66.8984
                               0               0                0               0         0.193022         66.7701        0.0362464         140.259
                               0               0                0               0        0.0362546         140.475         0.192933         66.7495
75.72                          0               0                0               0         0.173289         65.5208         0.964585        -25.3027
                               0               0                0               0         0.964345        -25.2966         0.173139         65.4898
                               0               0                0               0         0.195426         65.3147         0.036879         136.468
                               0               0                0               0        0.0368999         136.611         0.195331          65.294
75.765                         0               0                0               0         0.171795         64.0859         0.964365        -26.8754
                               0               0                0               0         0.964086        -26.8689         0.171687         64.0496
                               0               0                0               0         0.197793         63.8196        0.0375325         132.618
                               0               0                0               0        0.0375647         132.709         0.197691          63.799
75.81                          0               0                0               0         0.170139         62.6198         0.964191        -28.4829
                               0               0                0               0         0.963872        -28.4759         0.170072         62.5805
                               0               0                0               0         0.200104         62.2873        0.0382089         128.725
                               0               0                0               0        0.0382476         128.788         0.199998         62.2672
75.855                         0               0                0               0         0.168339         61.1253         0.964065         -30.122
                               0               0                0               0         0.963705        -30.1143          0.16831         61.0852
                               0               0                0               0         0.202342         60.7205        0.0389086         124.807
                               0               0                0               0        0.0389469         124.862         0.202232         60.7012
75.9                           0               0                0               0         0.166413         59.6053         0.963983        -31.7895
                               0               0                0               0         0.963585        -31.7811         0.166418         59.5665
                               0               0                0               0         0.204488         59.1222        0.0396309         120.881
                               0               0                0               0        0.0396602         120.947         0.204377         59.1039
75.945                         0               0                0               0         0.164378         58.0632         0.963943        -33.4819
                               0               0                0               0         0.963512         -33.473         0.164413         58.0273
                               0               0                0               0         0.206527         57.4952        0.0403735         116.964
                               0               0                0               0        0.0403854         117.053         0.206416          57.478
75.99                          0               0                0               0          0.16225         56.5028          0.96394        -35.1963
                               0               0                0               0         0.963483        -35.1869         0.162308         56.4707
                               0               0                0               0         0.208442         55.8427        0.0411328         113.072
                               0               0                0               0        0.0411199         113.192         0.208334         55.8265
76.035                         0               0                0               0         0.160047         54.9277         0.963968        -36.9293
                               0               0                0               0         0.963493        -36.9198          0.16012         54.8996
                               0               0                0               0          0.21022         54.1675        0.0419038         109.219
                               0               0                0               0        0.0418609         109.373         0.210115         54.1524
76.08                          0               0                0               0         0.157783         53.3419         0.964022        -38.6779
                               0               0                0               0         0.963537        -38.6686         0.157864         53.3172
                               0               0                0               0         0.211846         52.4728        0.0426807         105.419
                               0               0                0               0        0.0426058         105.603         0.211746         52.4585
76.125                         0               0                0               0         0.155474         51.7492         0.964094        -40.4391
                               0               0                0               0          0.96361        -40.4302         0.155554         51.7264
                               0               0                0               0         0.213308         50.7616        0.0434572          101.68
                               0               0                0               0        0.0433516         101.887         0.213213         50.7479
76.17                          0               0                0               0         0.153133         50.1532         0.964177          -42.21
                               0               0                0               0         0.963704        -42.2019         0.153205         50.1303
                               0               0                0               0         0.214595         49.0369        0.0442265         98.0115
                               0               0                0               0        0.0440951         98.2321         0.214505         49.0235
76.215                         0               0                0               0         0.150776         48.5572         0.964265        -43.9877
                               0               0                0               0         0.963813        -43.9808         0.150831         48.5315
                               0               0                0               0         0.215697         47.3017        0.0449822         94.4185
                               0               0                0               0        0.0448328         94.6403         0.215611         47.2883
76.26                          0               0                0               0         0.148414          46.964         0.964355        -45.7696
                               0               0                0               0         0.963932        -45.7641         0.148448         46.9327
                               0               0                0               0         0.216605         45.5587        0.0457181         90.9048
                               0               0                0               0        0.0455606         91.1149         0.216522         45.5451
76.305                         0               0                0               0         0.146063         45.3756         0.964443        -47.5531
                               0               0                0               0         0.964055        -47.5492          0.14607          45.336
                               0               0                0               0         0.217314         43.8109         0.046429         87.4722
                               0               0                0               0        0.0462743         87.6584         0.217232         43.7967
76.35                          0               0                0               0         0.143735         43.7931         0.964532        -49.3357
                               0               0                0               0         0.964183        -49.3335         0.143714          43.743
                               0               0                0               0         0.217817         42.0609        0.0471106         84.1208
                               0               0                0               0        0.0469688         84.2727         0.217736         42.0461
76.395                         0               0                0               0         0.141444         42.2161         0.964628        -51.1151
                               0               0                0               0         0.964317        -51.1145         0.141395         42.1546
                               0               0                0               0         0.218113         40.3114        0.0477599         80.8496
                               0               0                0               0        0.0476392         80.9601         0.218031         40.2959
76.44                          0               0                0               0         0.139202         40.6431         0.964744        -52.8889
                               0               0                0               0         0.964467        -52.8899          0.13913         40.5705
