! TOUCHSTONE file generated by CST MICROWAVE STUDIO
! Date and time: Sun Jun 20 22:36:54 2021
! Project name: HIPS_d_sweep.cst
! Parameters = {fmax=120; fmin=75; b=0.46; d=17.15; a=0.63; phi=0; theta=0}
! Header version: 2018
! Port assignment regex: !\s*Touchstone port\s*([0-9]+)\s*=\s*(CST MWS port|CST DS port)\s*([0-9]+|Zmin|Zmax)\s*\(\"(.*)\"\)(\s*mode\s*([0-9]+))?.*
! Touchstone port assignment:
! Touchstone port 1 = CST MWS port Zmin ("") mode 1
! Touchstone port 2 = CST MWS port Zmin ("") mode 2
! Touchstone port 3 = CST MWS port Zmax ("") mode 1
! Touchstone port 4 = CST MWS port Zmax ("") mode 2
! S-Parameters are not renormalized. Unphysical impedance of 0 will be written to the file.
# GHz S MA R 0
75                             0               0                0               0         0.362606         74.2397         0.916242        -15.1408
                               0               0                0               0         0.916311        -15.1443         0.362564         74.2526
                               0               0                0               0         0.157221          71.879        0.0649811        -178.029
                               0               0                0               0        0.0650145        -177.977         0.157186         71.8726
75.045                         0               0                0               0         0.363177         73.3118         0.916208        -16.1035
                               0               0                0               0         0.916267        -16.1048         0.363132         73.3247
                               0               0                0               0         0.158761         71.0932        0.0653856         179.674
                               0               0                0               0        0.0654262         179.706         0.158725         71.0854
75.09                          0               0                0               0         0.363722          72.378         0.916135        -17.0733
                               0               0                0               0         0.916186        -17.0728         0.363676         72.3908
                               0               0                0               0         0.160264         70.3041        0.0657953         177.377
                               0               0                0               0        0.0658421         177.393         0.160227         70.2953
75.135                         0               0                0               0         0.364242         71.4382         0.916023        -18.0505
                               0               0                0               0         0.916066        -18.0483         0.364195          71.451
                               0               0                0               0         0.161729          69.512          0.06621         175.081
                               0               0                0               0         0.066262         175.083         0.161692         69.5021
75.18                          0               0                0               0         0.364736         70.4926          0.91587        -19.0348
                               0               0                0               0         0.915908        -19.0312         0.364687         70.5053
                               0               0                0               0         0.163157         68.7166        0.0666292         172.787
                               0               0                0               0        0.0666855         172.776         0.163119          68.706
75.225                         0               0                0               0         0.365203         69.5411         0.915676        -20.0263
                               0               0                0               0          0.91571        -20.0216         0.365154         69.5538
                               0               0                0               0         0.164546         67.9181        0.0670525         170.495
                               0               0                0               0        0.0671121         170.474         0.164507         67.9069
75.27                          0               0                0               0         0.365644         68.5838         0.915442        -21.0251
                               0               0                0               0         0.915473        -21.0195         0.365594         68.5965
                               0               0                0               0         0.165895         67.1164        0.0674795         168.206
                               0               0                0               0        0.0675416         168.177         0.165856         67.1047
75.315                         0               0                0               0         0.366056         67.6208         0.915166         -22.031
                               0               0                0               0         0.915195        -22.0248         0.366007         67.6334
                               0               0                0               0         0.167205         66.3115        0.0679096         165.919
                               0               0                0               0        0.0679733         165.886         0.167166         66.2995
75.36                          0               0                0               0          0.36644         66.6521         0.914848        -23.0441
                               0               0                0               0         0.914876        -23.0375         0.366392         66.6646
                               0               0                0               0         0.168474         65.5034        0.0683426         163.636
                               0               0                0               0         0.068407         163.599         0.168435         65.4913
75.405                         0               0                0               0         0.366796         65.6777         0.914488        -24.0644
                               0               0                0               0         0.914516        -24.0576         0.366749         65.6901
                               0               0                0               0         0.169701         64.6921        0.0687778         161.357
                               0               0                0               0        0.0688422         161.319         0.169662           64.68
75.45                          0               0                0               0         0.367123         64.6977         0.914085        -25.0918
                               0               0                0               0         0.914114        -25.0851         0.367078         64.7101
                               0               0                0               0         0.170887         63.8776        0.0692147         159.082
                               0               0                0               0        0.0692784         159.044         0.170848         63.8656
75.495                         0               0                0               0          0.36742         63.7122         0.913639        -26.1263
                               0               0                0               0          0.91367        -26.1199         0.367377         63.7244
                               0               0                0               0         0.172031         63.0599         0.069653         156.812
                               0               0                0               0        0.0697152         156.776         0.171992         63.0481
75.54                          0               0                0               0         0.367687         62.7211          0.91315        -27.1679
                               0               0                0               0         0.913184         -27.162         0.367647         62.7333
                               0               0                0               0         0.173131          62.239        0.0700921         154.546
                               0               0                0               0        0.0701522         154.515         0.173093         62.2275
75.585                         0               0                0               0         0.367925         61.7247         0.912617        -28.2165
                               0               0                0               0         0.912654        -28.2114         0.367887         61.7367
                               0               0                0               0         0.174187          61.415        0.0705314         152.286
                               0               0                0               0        0.0705889         152.261         0.174149         61.4038
75.63                          0               0                0               0         0.368131         60.7228         0.912041        -29.2722
                               0               0                0               0         0.912082        -29.2681         0.368097         60.7348
                               0               0                0               0         0.175199         60.5877        0.0709705         150.031
                               0               0                0               0        0.0710249         150.013         0.175162          60.577
75.675                         0               0                0               0         0.368306         59.7156         0.911421        -30.3348
                               0               0                0               0         0.911466        -30.3319         0.368276         59.7274
                               0               0                0               0         0.176165         59.7573        0.0714088         147.782
                               0               0                0               0        0.0714597         147.773         0.176129         59.7471
75.72                          0               0                0               0         0.368451         58.7032         0.910757        -31.4043
                               0               0                0               0         0.910807        -31.4029         0.368424         58.7149
                               0               0                0               0         0.177085         58.9237        0.0718459         145.539
                               0               0                0               0        0.0718928          145.54          0.17705         58.9142
75.765                         0               0                0               0         0.368563         57.6856         0.910049        -32.4808
                               0               0                0               0         0.910105         -32.481         0.368541         57.6971
                               0               0                0               0         0.177958         58.0871        0.0722812         143.302
                               0               0                0               0        0.0723237         143.315         0.177924         58.0782
75.81                          0               0                0               0         0.368644         56.6628         0.909297        -33.5641
                               0               0                0               0         0.909359        -33.5662         0.368626         56.6741
                               0               0                0               0         0.178783         57.2473        0.0727142         141.072
                               0               0                0               0        0.0727521         141.097         0.178751         57.2391
75.855                         0               0                0               0         0.368693          55.635         0.908502        -34.6542
                               0               0                0               0         0.908569        -34.6583          0.36868         55.6461
                               0               0                0               0          0.17956         56.4044        0.0731444         138.849
                               0               0                0               0        0.0731775         138.888         0.179529         56.3971
75.9                           0               0                0               0         0.368709         54.6022         0.907662        -35.7511
                               0               0                0               0         0.907736        -35.7574         0.368702         54.6131
                               0               0                0               0         0.180287         55.5586        0.0735712         136.632
                               0               0                0               0        0.0735994         136.686         0.180259          55.552
75.945                         0               0                0               0         0.368693         53.5645         0.906779        -36.8547
                               0               0                0               0         0.906859        -36.8634         0.368692         53.5752
                               0               0                0               0         0.180965         54.7097        0.0739942         134.422
                               0               0                0               0        0.0740173         134.491         0.180938          54.704
75.99                          0               0                0               0         0.368644          52.522         0.905853        -37.9649
                               0               0                0               0         0.905939        -37.9762         0.368649         52.5324
                               0               0                0               0         0.181592         53.8579        0.0744128         132.219
                               0               0                0               0        0.0744308         132.305         0.181567         53.8531
76.035                         0               0                0               0         0.368563         51.4747         0.904883        -39.0817
                               0               0                0               0         0.904976        -39.0958         0.368574         51.4848
                               0               0                0               0         0.182167         53.0032        0.0748266         130.024
                               0               0                0               0        0.0748395         130.127         0.182145         52.9993
76.08                          0               0                0               0         0.368449         50.4227         0.903871         -40.205
                               0               0                0               0          0.90397        -40.2221         0.368466         50.4325
                               0               0                0               0         0.182689         52.1457        0.0752349         127.835
                               0               0                0               0         0.075243         127.956          0.18267         52.1426
76.125                         0               0                0               0         0.368302         49.3661         0.902816        -41.3348
                               0               0                0               0         0.902922        -41.3549         0.368326         49.3756
                               0               0                0               0         0.183159         51.2854        0.0756374         125.654
                               0               0                0               0        0.0756407         125.793         0.183143         51.2833
76.17                          0               0                0               0         0.368122          48.305          0.90172        -42.4709
                               0               0                0               0         0.901831        -42.4943         0.368153         48.3141
                               0               0                0               0         0.183574         50.4225        0.0760335         123.481
                               0               0                0               0        0.0760322         123.639         0.183561         50.4212
76.215                         0               0                0               0         0.367909         47.2394         0.900582        -43.6134
                               0               0                0               0         0.900699        -43.6402         0.367947         47.2482
                               0               0                0               0         0.183935         49.5569        0.0764228         121.315
                               0               0                0               0        0.0764171         121.492         0.183925         49.5566
76.26                          0               0                0               0         0.367664         46.1694         0.899403        -44.7622
                               0               0                0               0         0.899526        -44.7924         0.367709         46.1778
                               0               0                0               0          0.18424         48.6888        0.0768048         119.156
                               0               0                0               0        0.0767951         119.352         0.184234         48.6894
76.305                         0               0                0               0         0.367386         45.0951         0.898184        -45.9171
                               0               0                0               0         0.898313        -45.9509         0.367438         45.1031
                               0               0                0               0         0.184489         47.8183        0.0771789         117.005
                               0               0                0               0        0.0771656         117.221         0.184487         47.8198
76.35                          0               0                0               0         0.367075         44.0166         0.896925        -47.0781
                               0               0                0               0          0.89706        -47.1157         0.367135         44.0242
                               0               0                0               0          0.18468         46.9455        0.0775449         114.861
                               0               0                0               0        0.0775282         115.097         0.184682         46.9478
76.395                         0               0                0               0         0.366731         42.9339         0.895628        -48.2451
                               0               0                0               0         0.895768        -48.2865         0.366799         42.9411
                               0               0                0               0         0.184814         46.0705        0.0779021         112.724
                               0               0                0               0        0.0778826          112.98          0.18482         46.0736
76.44                          0               0                0               0         0.366356         41.8473         0.894293         -49.418
                               0               0                0               0         0.894437        -49.4634         0.366431         41.8539
