! TOUCHSTONE file generated by CST MICROWAVE STUDIO
! Date and time: Sun Jun 20 22:37:47 2021
! Project name: HIPS_d_sweep.cst
! Parameters = {fmax=120; fmin=75; b=0.46; d=22.9; a=0.63; phi=0; theta=0}
! Header version: 2018
! Port assignment regex: !\s*Touchstone port\s*([0-9]+)\s*=\s*(CST MWS port|CST DS port)\s*([0-9]+|Zmin|Zmax)\s*\(\"(.*)\"\)(\s*mode\s*([0-9]+))?.*
! Touchstone port assignment:
! Touchstone port 1 = CST MWS port Zmin ("") mode 1
! Touchstone port 2 = CST MWS port Zmin ("") mode 2
! Touchstone port 3 = CST MWS port Zmax ("") mode 1
! Touchstone port 4 = CST MWS port Zmax ("") mode 2
! S-Parameters are not renormalized. Unphysical impedance of 0 will be written to the file.
# GHz S MA R 0
75                             0               0                0               0        0.0148114        -38.6778         0.999282         53.1297
                               0               0                0               0         0.999084         53.1243        0.0147468        -38.3124
                               0               0                0               0        0.0363799        -37.1803        0.0139193        -39.2565
                               0               0                0               0         0.013893         -38.896        0.0363191         -37.206
75.045                         0               0                0               0        0.0107979        -38.5044         0.999683           52.36
                               0               0                0               0         0.999488         52.3556        0.0109684         -34.516
                               0               0                0               0        0.0338519        -37.9671        0.0144303        -40.2626
                               0               0                0               0        0.0143695        -38.7427        0.0337846        -38.0093
75.09                          0               0                0               0       0.00719155        -38.4949         0.999952         51.5132
                               0               0                0               0         0.999764         51.5093        0.0074843        -29.8037
                               0               0                0               0        0.0309957        -38.7999        0.0148018        -41.0083
                               0               0                0               0        0.0147002        -38.9059        0.0309251        -38.8582
75.135                         0               0                0               0       0.00400315        -38.4856                1         50.5889
                               0               0                0               0          0.99994         50.5853       0.00438517        -21.7938
                               0               0                0               0        0.0278152         -39.684        0.0150212        -41.6364
                               0               0                0               0        0.0148889        -39.3446        0.0277435        -39.7572
75.18                          0               0                0               0       0.00123842        -37.0563                1         49.5875
                               0               0                0               0                1         49.5838        0.0018722         3.23687
                               0               0                0               0        0.0243154        -40.6221        0.0150855        -42.2519
                               0               0                0               0        0.0149391        -40.0276        0.0242442        -40.7081
75.225                         0               0                0               0       0.00110792         135.779                1         48.5094
                               0               0                0               0                1         48.5055       0.00153014         91.6534
                               0               0                0               0        0.0205018        -41.6136        0.0149978        -42.9275
                               0               0                0               0        0.0148536        -40.9299         0.020432        -41.7096
75.27                          0               0                0               0       0.00302961         136.829                1         47.3558
                               0               0                0               0                1         47.3514       0.00313883         121.193
                               0               0                0               0        0.0163806        -42.6512        0.0147638        -43.7103
                               0               0                0               0        0.0146345        -42.0309        0.0163129        -42.7533
75.315                         0               0                0               0       0.00453836         135.966                1         46.1278
                               0               0                0               0                1         46.1229       0.00459635         128.386
                               0               0                0               0        0.0119589        -43.7095        0.0143902        -44.6281
                               0               0                0               0         0.014284        -43.3129        0.0118937         -43.812
75.36                          0               0                0               0       0.00564166         134.661                1         44.8273
                               0               0                0               0                1         44.8218       0.00568967         130.899
                               0               0                0               0       0.00724503        -44.6861        0.0138835        -45.6945
                               0               0                0               0        0.0138038        -44.7596        0.0071824        -44.7753
75.405                         0               0                0               0       0.00634983         133.083                1         43.4562
                               0               0                0               0         0.999974         43.4501       0.00639791         131.601
                               0               0                0               0       0.00224891        -44.5184        0.0132496        -46.9123
                               0               0                0               0        0.0131962        -46.3557       0.00218916        -44.4743
75.45                          0               0                0               0       0.00667513         131.275                1         42.0169
                               0               0                0               0         0.999915         42.0103       0.00672543         131.336
                               0               0                0               0       0.00302363          130.36        0.0124936        -48.2761
                               0               0                0               0        0.0124634        -48.0859       0.00308093         130.173
75.495                         0               0                0               0        0.0066317         129.245                1          40.512
                               0               0                0               0         0.999847          40.505       0.00668402         130.452
                               0               0                0               0       0.00855322         129.937        0.0116201        -49.7728
                               0               0                0               0        0.0116084        -49.9338       0.00860767          129.78
75.54                          0               0                0               0       0.00623548         126.972         0.999967         38.9445
                               0               0                0               0         0.999764         38.9371       0.00628902         129.122
                               0               0                0               0        0.0143303          128.64        0.0106333        -51.3815
                               0               0                0               0        0.0106347        -51.8812         0.014382         128.498
75.585                         0               0                0               0       0.00550426         124.386         0.999874         37.3173
                               0               0                0               0          0.99966         37.3098        0.0055581         127.445
                               0               0                0               0         0.020339         127.149       0.00953785          -53.07
                               0               0                0               0       0.00954671        -53.9054        0.0203881         127.017
75.63                          0               0                0               0       0.00445778         121.282         0.999752         35.6339
                               0               0                0               0         0.999527         35.6264       0.00451073         125.463
                               0               0                0               0        0.0265621         125.548       0.00833846         -54.789
                               0               0                0               0       0.00834976        -55.9753        0.0266088         125.427
75.675                         0               0                0               0       0.00311874          116.97         0.999591         33.8977
                               0               0                0               0         0.999356         33.8904       0.00316785         123.124
                               0               0                0               0        0.0329804         123.865       0.00704082        -56.4544
                               0               0                0               0       0.00705009        -58.0429        0.0330252         123.755
75.72                          0               0                0               0       0.00152214          107.36         0.999379         32.1124
                               0               0                0               0         0.999138         32.1055       0.00155168          119.84
                               0               0                0               0        0.0395734         122.113       0.00565168        -57.9025
                               0               0                0               0       0.00565497         -60.018        0.0396168         122.014
75.765                         0               0                0               0      0.000545916        -17.5164          0.99911         30.2817
                               0               0                0               0         0.998862         30.2754      0.000323154         -49.378
                               0               0                0               0        0.0463185           120.3        0.0041796        -58.7396
                               0               0                0               0       0.00417276         -61.688        0.0463613         120.212
75.81                          0               0                0               0       0.00252903        -54.5562         0.998773         28.4095
                               0               0                0               0         0.998522          28.404        0.0024146        -61.0291
                               0               0                0               0        0.0531921         118.432        0.0026377        -57.6371
                               0               0                0               0       0.00261363        -62.3317         0.053235         118.356
75.855                         0               0                0               0       0.00482637        -60.9466         0.998364         26.4996
                               0               0                0               0         0.998111         26.4951       0.00471652        -64.0659
                               0               0                0               0        0.0601691         116.517       0.00107241        -45.2866
                               0               0                0               0      0.000998269        -56.4731        0.0602132         116.452
75.9                           0               0                0               0       0.00731665        -64.7905         0.997879         24.5561
                               0               0                0               0         0.997626         24.5526       0.00720246        -66.6701
                               0               0                0               0         0.067224          114.56      0.000841108         75.0398
                               0               0                0               0       0.00076062         89.1109        0.0672699         114.504
75.945                         0               0                0               0       0.00997169        -67.8902          0.99732         22.5829
                               0               0                0               0         0.997067         22.5804       0.00985074        -69.1466
                               0               0                0               0        0.0743306         112.567       0.00248726         94.2071
                               0               0                0               0       0.00247758         99.0085        0.0743791         112.519
75.99                          0               0                0               0        0.0127684        -70.6622          0.99669         20.5838
                               0               0                0               0         0.996437         20.5824        0.0126405         -71.554
                               0               0                0               0        0.0814629         110.543        0.0042455         95.8095
                               0               0                0               0       0.00425611         98.5616        0.0815144         110.503
76.035                         0               0                0               0        0.0156849        -73.2514         0.995997         18.5627
                               0               0                0               0         0.995742         18.5623        0.0155512         -73.907
                               0               0                0               0        0.0885952         108.494       0.00604386         94.8745
                               0               0                0               0        0.0060674         96.7593        0.0886495          108.46
76.08                          0               0                0               0        0.0187003        -75.7201         0.995252         16.5234
                               0               0                0               0         0.994994         16.5238        0.0185628        -76.2094
                               0               0                0               0        0.0957023         106.427       0.00786582         93.1077
                               0               0                0               0       0.00789972         94.5132        0.0957591         106.397
76.125                         0               0                0               0        0.0217938        -78.0999          0.99447         14.4698
                               0               0                0               0         0.994205         14.4707        0.0216549        -78.4631
                               0               0                0               0          0.10276         104.345       0.00969996         90.9701
                               0               0                0               0       0.00974292         92.0676         0.102819         104.318
76.17                          0               0                0               0        0.0249448        -80.4091         0.993667         12.4054
                               0               0                0               0         0.993394         12.4065        0.0248067        -80.6705
                               0               0                0               0         0.109746         102.254        0.0115362         88.6393
                               0               0                0               0        0.0115874         89.5175         0.109805         102.229
76.215                         0               0                0               0        0.0281323        -82.6602          0.99286         10.3339
                               0               0                0               0         0.992576         10.3349        0.0279969        -82.8356
                               0               0                0               0         0.116638         100.159        0.0133651         86.1985
                               0               0                0               0         0.013424          86.908         0.116695         100.134
76.26                          0               0                0               0         0.031335        -84.8641         0.992065         8.25886
                               0               0                0               0         0.991769         8.25945         0.031203        -84.9651
                               0               0                0               0         0.123415         98.0634        0.0151773         83.6914
                               0               0                0               0        0.0152435         84.2637         0.123468         98.0379
76.305                         0               0                0               0        0.0345311         -87.031         0.991293         6.18392
                               0               0                0               0         0.990984         6.18375         0.034402         -87.068
                               0               0                0               0         0.130057          95.971        0.0169635         81.1424
                               0               0                0               0        0.0170369         81.5991         0.130105         95.9445
76.35                          0               0                0               0        0.0376981         -89.172         0.990547         4.11257
                               0               0                0               0         0.990229          4.1114        0.0375705        -89.1556
                               0               0                0               0         0.136542         93.8846        0.0187144          78.565
                               0               0                0               0        0.0187951          78.923         0.136584         93.8568
76.395                         0               0                0               0        0.0408138        -91.2995         0.989821         2.04829
                               0               0                0               0         0.989498         2.04605        0.0406851        -91.2409
                               0               0                0               0          0.14285         91.8061        0.0204203         75.9665
                               0               0                0               0        0.0205086         76.2406         0.142886         91.7771
76.44                          0               0                0               0        0.0438559         -93.427         0.989095     -0.00557858
                               0               0                0               0         0.988774      -0.0087768        0.0437238        -93.3383
