! TOUCHSTONE file generated by CST MICROWAVE STUDIO
! Date and time: Sun Jun 20 22:38:12 2021
! Project name: HIPS_d_sweep.cst
! Parameters = {fmax=120; fmin=75; b=0.46; d=25.15; a=0.63; phi=0; theta=0}
! Header version: 2018
! Port assignment regex: !\s*Touchstone port\s*([0-9]+)\s*=\s*(CST MWS port|CST DS port)\s*([0-9]+|Zmin|Zmax)\s*\(\"(.*)\"\)(\s*mode\s*([0-9]+))?.*
! Touchstone port assignment:
! Touchstone port 1 = CST MWS port Zmin ("") mode 1
! Touchstone port 2 = CST MWS port Zmin ("") mode 2
! Touchstone port 3 = CST MWS port Zmax ("") mode 1
! Touchstone port 4 = CST MWS port Zmax ("") mode 2
! S-Parameters are not renormalized. Unphysical impedance of 0 will be written to the file.
# GHz S MA R 0
75                             0               0                0               0         0.169674         64.1752         0.962611         157.209
                               0               0                0               0         0.962511         157.214         0.169522         64.1888
                               0               0                0               0         0.204383         64.9832        0.0547637         25.9353
                               0               0                0               0        0.0548025         26.0419          0.20431         64.9921
75.045                         0               0                0               0         0.165276         63.2929         0.963343         156.403
                               0               0                0               0         0.963254         156.409         0.164915         63.1829
                               0               0                0               0         0.205369         64.2798         0.053791          25.383
                               0               0                0               0        0.0538538          25.451         0.205392         64.2844
75.09                          0               0                0               0         0.161299         62.3536         0.963873         155.515
                               0               0                0               0         0.963792         155.521         0.160946         62.2173
                               0               0                0               0         0.206388         63.4783        0.0529278         24.6921
                               0               0                0               0        0.0529991         24.7445         0.206439         63.4851
75.135                         0               0                0               0         0.157749         61.3487         0.964239         154.546
                               0               0                0               0         0.964166         154.551         0.157486         61.2447
                               0               0                0               0         0.207448          62.582        0.0521669         23.8668
                               0               0                0               0         0.052237         23.9176         0.207478         62.5922
75.18                          0               0                0               0         0.154625          60.272         0.964477         153.495
                               0               0                0               0         0.964409         153.499         0.154458         60.2279
                               0               0                0               0         0.208551         61.5946        0.0515007         22.9095
                               0               0                0               0         0.051564         22.9656         0.208532         61.6066
75.225                         0               0                0               0         0.151924         59.1197         0.964615         152.365
                               0               0                0               0          0.96455         152.368         0.151822          59.139
                               0               0                0               0         0.209692         60.5196        0.0509214          21.821
                               0               0                0               0        0.0509755         21.8843         0.209615         60.5309
75.27                          0               0                0               0         0.149639         57.8903         0.964676         151.157
                               0               0                0               0         0.964613         151.159         0.149565           57.96
                               0               0                0               0          0.21086         59.3602        0.0504211         20.6007
                               0               0                0               0         0.050465         20.6694         0.210732         59.3691
75.315                         0               0                0               0         0.147761         56.5846          0.96468         149.872
                               0               0                0               0         0.964616         149.873         0.147686          56.683
                               0               0                0               0         0.212043         58.1196        0.0499913         19.2471
                               0               0                0               0        0.0500251         19.3179         0.211878         58.1255
75.36                          0               0                0               0         0.146278          55.205         0.964642         148.513
                               0               0                0               0         0.964574         148.513         0.146191         55.3089
                               0               0                0               0         0.213222         56.8006        0.0496233          17.758
                               0               0                0               0        0.0496476         17.8269          0.21304         56.8043
75.405                         0               0                0               0         0.145178         53.7554         0.964572         147.082
                               0               0                0               0         0.964499         147.081         0.145082         53.8454
                               0               0                0               0         0.214376         55.4059        0.0493078         16.1309
                               0               0                0               0        0.0493234          16.195         0.214196         55.4091
75.45                          0               0                0               0         0.144446         52.2407         0.964476         145.581
                               0               0                0               0         0.964397          145.58         0.144355         52.3044
                               0               0                0               0         0.215482         53.9383        0.0490354         14.3633
                               0               0                0               0        0.0490431         14.4212         0.215321          53.943
75.495                         0               0                0               0         0.144066         50.6664          0.96436         144.013
                               0               0                0               0         0.964274         144.012         0.143996         50.6994
                               0               0                0               0         0.216515         52.4003         0.048796         12.4529
                               0               0                0               0        0.0487971         12.5055         0.216384         52.4083
75.54                          0               0                0               0         0.144022         49.0383         0.964225         142.381
                               0               0                0               0         0.964133          142.38         0.143986         49.0432
                               0               0                0               0         0.217447         50.7947        0.0485795         10.3982
                               0               0                0               0        0.0485757         10.4486         0.217353         50.8072
75.585                         0               0                0               0         0.144296         47.3621         0.964071         140.687
                               0               0                0               0         0.963974         140.687           0.1443         47.3468
                               0               0                0               0         0.218253         49.1244        0.0483758         8.19875
                               0               0                0               0        0.0483696         8.25189         0.218195         49.1417
75.63                          0               0                0               0         0.144871         45.6432         0.963898         138.934
                               0               0                0               0         0.963799         138.935         0.144913         45.6181
                               0               0                0               0         0.218906         47.3928        0.0481748         5.85486
                               0               0                0               0        0.0481694         5.91695         0.218879         47.4141
75.675                         0               0                0               0          0.14573         43.8866         0.963707         137.127
                               0               0                0               0          0.96361         137.129         0.145797         43.8621
                               0               0                0               0          0.21938         45.6033        0.0479671         3.36809
                               0               0                0               0        0.0479665         3.44565         0.219376         45.6272
75.72                          0               0                0               0         0.146856         42.0963         0.963499         135.267
                               0               0                0               0         0.963408         135.271          0.14693         42.0813
                               0               0                0               0         0.219652         43.7598        0.0477441        0.741035
                               0               0                0               0        0.0477524        0.839826         0.219658         43.7843
75.765                         0               0                0               0         0.148231          40.276         0.963276         133.359
                               0               0                0               0         0.963196         133.364         0.148292          40.276
                               0               0                0               0         0.219699         41.8663        0.0474983         -2.0229
                               0               0                0               0        0.0475192        -1.89892         0.219703         41.8895
75.81                          0               0                0               0         0.149841         38.4286         0.963044         131.407
                               0               0                0               0          0.96298         131.413         0.149867         38.4451
                               0               0                0               0         0.219504         39.9272        0.0472233        -4.91974
                               0               0                0               0        0.0472595        -4.76944         0.219494         39.9476
75.855                         0               0                0               0         0.151668         36.5561         0.962811         129.413
                               0               0                0               0         0.962767         129.419         0.151644         36.5869
                               0               0                0               0         0.219051         37.9469        0.0469144        -7.94531
                               0               0                0               0        0.0469662        -7.77121         0.219018         37.9636
75.9                           0               0                0               0         0.153699           34.66         0.962589         127.381
                               0               0                0               0         0.962568         127.388         0.153619         34.6994
                               0               0                0               0         0.218327         35.9299         0.046568        -11.0956
                               0               0                0               0         0.046633        -10.9046         0.218267         35.9431
75.945                         0               0                0               0          0.15592         32.7414         0.962391         125.316
                               0               0                0               0         0.962394         125.322          0.15579         32.7816
                               0               0                0               0         0.217323         33.8808         0.046182        -14.3672
                               0               0                0               0        0.0462539         -14.171         0.217238         33.8913
75.99                          0               0                0               0         0.158319          30.801         0.962235          123.22
                               0               0                0               0          0.96226         123.225         0.158161         30.8341
                               0               0                0               0         0.216033         31.8039        0.0457553        -17.7575
                               0               0                0               0        0.0458235        -17.5735         0.215929         31.8135
76.035                         0               0                0               0         0.160883         28.8392         0.962139         121.098
                               0               0                0               0          0.96218         121.101         0.160734         28.8595
                               0               0                0               0         0.214454         29.7032        0.0452876        -21.2651
                               0               0                0               0         0.045337        -21.1168         0.214344         29.7142
76.08                          0               0                0               0         0.163602         26.8564         0.962121         118.952
                               0               0                0               0         0.962169         118.953         0.163512         26.8629
                               0               0                0               0         0.212584         27.5826        0.0447793        -24.8899
                               0               0                0               0         0.044791        -24.8084         0.212484         27.5972
76.125                         0               0                0               0         0.166466         24.8532         0.962197         116.788
                               0               0                0               0         0.962242         116.785         0.166491         24.8514
                               0               0                0               0         0.210423         25.4458        0.0442308         -28.633
                               0               0                0               0        0.0441834        -28.6594         0.210351         25.4657
76.17                          0               0                0               0         0.169468         22.8305         0.962381         114.607
                               0               0                0               0         0.962408         114.602         0.169657         22.8335
                               0               0                0               0         0.207972         23.2961        0.0436428        -32.4971
                               0               0                0               0         0.043516        -32.6858         0.207944         23.3222
76.215                         0               0                0               0         0.172597         20.7904         0.962678         112.414
                               0               0                0               0         0.962673         112.405         0.172983          20.817
                               0               0                0               0         0.205232         21.1369        0.0430156        -36.4859
                               0               0                0               0        0.0427969        -36.9097         0.205261         21.1689
76.26                          0               0                0               0         0.175845         18.7354         0.963084         110.211
                               0               0                0               0         0.963033         110.199         0.176428         18.8068
                               0               0                0               0         0.202202         18.9715        0.0423493        -40.6043
                               0               0                0               0        0.0420474         -41.358         0.202294         19.0081
76.305                         0               0                0               0           0.1792           16.67         0.963582         108.002
                               0               0                0               0         0.963477         107.988         0.179941         16.8042
                               0               0                0               0         0.198882         16.8035        0.0416436        -44.8583
                               0               0                0               0        0.0413127        -46.0494         0.199036         16.8426
76.35                          0               0                0               0         0.182645         14.5996         0.964144         105.789
                               0               0                0               0         0.963979         105.773         0.183468         14.8056
                               0               0                0               0          0.19527          14.637         0.040898        -49.2544
                               0               0                0               0         0.040667        -50.9502         0.195477         14.6758
76.395                         0               0                0               0         0.186153          12.531         0.964722         103.575
                               0               0                0               0         0.964504         103.559         0.186959         12.8037
                               0               0                0               0         0.191364         12.4767        0.0401119           -53.8
                               0               0                0               0          0.04017         -55.896         0.191607         12.5126
76.44                          0               0                0               0         0.189684          10.471         0.965257         101.362
                               0               0                0               0            0.965         101.347         0.190371         10.7893
