! TOUCHSTONE file generated by CST MICROWAVE STUDIO
! Date and time: Sun Jun 20 22:37:57 2021
! Project name: HIPS_d_sweep.cst
! Parameters = {fmax=120; fmin=75; b=0.46; d=23.85; a=0.63; phi=0; theta=0}
! Header version: 2018
! Port assignment regex: !\s*Touchstone port\s*([0-9]+)\s*=\s*(CST MWS port|CST DS port)\s*([0-9]+|Zmin|Zmax)\s*\(\"(.*)\"\)(\s*mode\s*([0-9]+))?.*
! Touchstone port assignment:
! Touchstone port 1 = CST MWS port Zmin ("") mode 1
! Touchstone port 2 = CST MWS port Zmin ("") mode 2
! Touchstone port 3 = CST MWS port Zmax ("") mode 1
! Touchstone port 4 = CST MWS port Zmax ("") mode 2
! S-Parameters are not renormalized. Unphysical impedance of 0 will be written to the file.
# GHz S MA R 0
75                             0               0                0               0        0.0793216        -150.015         0.971019        -54.5945
                               0               0                0               0         0.971203        -54.6094        0.0792329        -150.133
                               0               0                0               0         0.221439         34.6066        0.0375724         6.19646
                               0               0                0               0        0.0374596         6.21279         0.221331         34.6121
75.045                         0               0                0               0        0.0753086        -151.055         0.971496        -55.3597
                               0               0                0               0         0.971674        -55.3754        0.0749451        -151.064
                               0               0                0               0         0.220826           33.88        0.0370521         6.74029
                               0               0                0               0        0.0369429         6.76062         0.220718         33.8857
75.09                          0               0                0               0        0.0716405        -152.152         0.971944        -56.2037
                               0               0                0               0         0.972127        -56.2195        0.0712799        -152.166
                               0               0                0               0         0.220131         33.0697        0.0365837         7.09357
                               0               0                0               0        0.0364752          7.1172         0.220024         33.0755
75.135                         0               0                0               0        0.0683451        -153.308          0.97237        -57.1258
                               0               0                0               0         0.972561        -57.1411        0.0681113        -153.391
                               0               0                0               0          0.21935          32.177        0.0361611         7.25489
                               0               0                0               0        0.0360521         7.28123         0.219243         32.1829
75.18                          0               0                0               0        0.0654409        -154.518         0.972779        -58.1249
                               0               0                0               0         0.972978        -58.1395        0.0653598          -154.7
                               0               0                0               0         0.218473         31.2034        0.0357775         7.22277
                               0               0                0               0        0.0356682         7.25122         0.218366         31.2094
75.225                         0               0                0               0        0.0629373        -155.778         0.973177        -59.1998
                               0               0                0               0          0.97338        -59.2139        0.0629795        -156.055
                               0               0                0               0         0.217491         30.1503        0.0354255         6.99582
                               0               0                0               0        0.0353169         7.02567         0.217383         30.1564
75.27                          0               0                0               0        0.0608362        -157.082          0.97357        -60.3494
                               0               0                0               0         0.973774        -60.3631        0.0609481        -157.427
                               0               0                0               0         0.216391         29.0192        0.0350973         6.57289
                               0               0                0               0         0.034991          6.6033         0.216283         29.0254
75.315                         0               0                0               0        0.0591328        -158.421         0.973963        -61.5722
                               0               0                0               0         0.974163        -61.5857        0.0592581        -158.796
                               0               0                0               0          0.21516         27.8118        0.0347846         5.95321
                               0               0                0               0        0.0346823         5.98315         0.215053         27.8181
75.36                          0               0                0               0        0.0578177        -159.785         0.974362        -62.8666
                               0               0                0               0         0.974555        -62.8801        0.0579105        -160.152
                               0               0                0               0         0.213785         26.5297        0.0344787         5.13653
                               0               0                0               0        0.0343823         5.16478         0.213677         26.5361
75.405                         0               0                0               0        0.0568776        -161.168         0.974772        -64.2308
                               0               0                0               0         0.974954        -64.2445         0.056909        -161.492
                               0               0                0               0          0.21225         25.1749        0.0341709         4.12318
                               0               0                0               0         0.034082         4.14839         0.212141         25.1815
75.45                          0               0                0               0        0.0562969        -162.563         0.975199        -65.6627
                               0               0                0               0         0.975368        -65.6767        0.0562558        -162.824
                               0               0                0               0          0.21054         23.7493        0.0338522         2.91415
                               0               0                0               0        0.0337721         2.93487          0.21043         23.7561
75.495                         0               0                0               0        0.0560583        -163.964         0.975645        -67.1601
                               0               0                0               0         0.975801        -67.1746        0.0559496        -164.157
                               0               0                0               0         0.208638         22.2553        0.0335138         1.51111
                               0               0                0               0        0.0334434         1.52586         0.208528         22.2623
75.54                          0               0                0               0        0.0561442         -165.37         0.976114        -68.7208
                               0               0                0               0         0.976256        -68.7357        0.0559844        -165.504
                               0               0                0               0          0.20653         20.6953         0.033147      -0.0836594
                               0               0                0               0        0.0330867      -0.0763307         0.206419         20.7026
75.585                         0               0                0               0        0.0565371        -166.779         0.976608         -70.342
                               0               0                0               0         0.976738        -70.3573          0.05635        -166.874
                               0               0                0               0         0.204201          19.072        0.0327436        -1.86734
                               0               0                0               0        0.0326934        -1.86878         0.204088         19.0796
75.63                          0               0                0               0        0.0572201        -168.195         0.977129        -72.0211
                               0               0                0               0         0.977248        -72.0365        0.0570326        -168.275
                               0               0                0               0         0.201636         17.3885        0.0322958        -3.83671
                               0               0                0               0        0.0322554        -3.84813         0.201522         17.3963
75.675                         0               0                0               0        0.0581774        -169.621         0.977677        -73.7552
                               0               0                0               0         0.977787        -73.7706         0.058016         -169.71
                               0               0                0               0         0.198823         15.6478        0.0317967        -5.98837
                               0               0                0               0        0.0317653        -6.01086         0.198708         15.6559
75.72                          0               0                0               0        0.0593943        -171.061          0.97825         -75.541
                               0               0                0               0         0.978354        -75.5562        0.0592822        -171.181
                               0               0                0               0         0.195751         13.8535        0.0312401        -8.31904
                               0               0                0               0        0.0312166        -8.35353         0.195634          13.862
75.765                         0               0                0               0        0.0608579        -172.522         0.978848        -77.3756
                               0               0                0               0         0.978948        -77.3904        0.0608128        -172.684
                               0               0                0               0         0.192411         12.0092        0.0306208        -10.8258
                               0               0                0               0        0.0306039        -10.8732         0.192293          12.018
75.81                          0               0                0               0        0.0625564        -174.008         0.979469        -79.2554
                               0               0                0               0         0.979567        -79.2698        0.0625888        -174.217
                               0               0                0               0         0.188796         10.1186        0.0299349        -13.5068
                               0               0                0               0        0.0299231        -13.5678         0.188676         10.1279
75.855                         0               0                0               0          0.06448        -175.526         0.980109        -81.1772
                               0               0                0               0         0.980208        -81.1911        0.0645914        -175.777
                               0               0                0               0         0.184902         8.18573        0.0291794        -16.3611
                               0               0                0               0        0.0291712        -16.4367         0.184779         8.19564
75.9                           0               0                0               0        0.0666199         -177.08         0.980765        -83.1375
                               0               0                0               0         0.980868        -83.1509        0.0668022        -177.361
                               0               0                0               0         0.180724         6.21457        0.0283525        -19.3901
                               0               0                0               0        0.0283464        -19.4811         0.180601         6.22516
75.945                         0               0                0               0         0.068969        -178.673         0.981434        -85.1328
                               0               0                0               0         0.981542        -85.1457         0.069203        -178.968
                               0               0                0               0         0.176265         4.20917        0.0274536        -22.5973
                               0               0                0               0        0.0274482        -22.7051          0.17614         4.22057
75.99                          0               0                0               0        0.0715209         179.692         0.982112        -87.1595
                               0               0                0               0         0.982227        -87.1722        0.0717765         179.401
                               0               0                0               0         0.171526          2.1736        0.0264832        -25.9898
                               0               0                0               0        0.0264772        -26.1159         0.171399         2.18596
76.035                         0               0                0               0        0.0742699         178.015         0.982795        -89.2142
                               0               0                0               0          0.98292        -89.2268        0.0745057         177.746
                               0               0                0               0         0.166511        0.111867        0.0254429        -29.5788
                               0               0                0               0        0.0254353         -29.725         0.166383        0.125352
76.08                          0               0                0               0        0.0772099           176.3          0.98348        -91.2933
                               0               0                0               0         0.983615        -91.3062         0.077374         176.064
                               0               0                0               0         0.161226        -1.97205        0.0243353        -33.3807
                               0               0                0               0        0.0243255        -33.5494         0.161097        -1.95725
76.125                         0               0                0               0        0.0803331         174.549         0.984161        -93.3935
                               0               0                0               0          0.98431        -93.4068        0.0803655          174.35
                               0               0                0               0         0.155679        -4.07419        0.0231643        -37.4188
                               0               0                0               0        0.0231517        -37.6128         0.155551        -4.05788
76.17                          0               0                0               0         0.083627         172.772         0.984837        -95.5112
                               0               0                0               0         0.985001        -95.5252        0.0834646         172.602
                               0               0                0               0          0.14988        -6.19059        0.0219347        -41.7255
                               0               0                0               0        0.0219196         -41.948         0.149751        -6.17255
76.215                         0               0                0               0        0.0870712         170.978           0.9855        -97.6431
                               0               0                0               0         0.985682        -97.6579        0.0866561         170.814
                               0               0                0               0          0.14384        -8.31717         0.020653        -46.3443
                               0               0                0               0        0.0206359        -46.5987          0.14371        -8.29717
76.26                          0               0                0               0        0.0906311         169.177         0.986146        -99.7859
                               0               0                0               0         0.986346        -99.8014        0.0899247         168.983
                               0               0                0               0         0.137568        -10.4496        0.0193273         -51.334
                               0               0                0               0        0.0193095        -51.6238         0.137439        -10.4274
76.305                         0               0                0               0        0.0942493         167.379         0.986766        -101.936
                               0               0                0               0         0.986986        -101.952        0.0932556         167.105
                               0               0                0               0         0.131079         -12.583        0.0179683        -56.7736
                               0               0                0               0        0.0179516        -57.1017          0.13095        -12.5583
76.35                          0               0                0               0        0.0978326         165.582         0.987349        -104.091
                               0               0                0               0         0.987588        -104.107        0.0966333         165.176
                               0               0                0               0         0.124386        -14.7118        0.0165901         -62.769
                               0               0                0               0        0.0165769        -63.1371         0.124257        -14.6844
76.395                         0               0                0               0         0.101233         163.759         0.987877        -106.247
                               0               0                0               0         0.988135        -106.262         0.100043         163.195
                               0               0                0               0         0.117503        -16.8293        0.0152115        -69.4616
                               0               0                0               0        0.0152048         -69.868         0.117373        -16.7988
76.44                          0               0                0               0         0.104241          161.79         0.988328        -108.401
                               0               0                0               0           0.9886        -108.414         0.103468          161.16
