! TOUCHSTONE file generated by CST MICROWAVE STUDIO
! Date and time: Sun Jun 20 22:37:18 2021
! Project name: HIPS_d_sweep.cst
! Parameters = {fmax=120; fmin=75; b=0.46; d=20.15; a=0.63; phi=0; theta=0}
! Header version: 2018
! Port assignment regex: !\s*Touchstone port\s*([0-9]+)\s*=\s*(CST MWS port|CST DS port)\s*([0-9]+|Zmin|Zmax)\s*\(\"(.*)\"\)(\s*mode\s*([0-9]+))?.*
! Touchstone port assignment:
! Touchstone port 1 = CST MWS port Zmin ("") mode 1
! Touchstone port 2 = CST MWS port Zmin ("") mode 2
! Touchstone port 3 = CST MWS port Zmax ("") mode 1
! Touchstone port 4 = CST MWS port Zmax ("") mode 2
! S-Parameters are not renormalized. Unphysical impedance of 0 will be written to the file.
# GHz S MA R 0
75                             0               0                0               0         0.169776         93.4495         0.975958         4.28166
                               0               0                0               0         0.975996         4.28341         0.169702          93.427
                               0               0                0               0         0.132409          93.074        0.0291284        -139.881
                               0               0                0               0        0.0291358        -139.831         0.132456         93.0582
75.045                         0               0                0               0         0.173123         92.7778         0.975366         3.62564
                               0               0                0               0         0.975414         3.63644         0.173095         92.7709
                               0               0                0               0         0.133675         92.3877        0.0297178        -141.374
                               0               0                0               0        0.0297213        -141.361         0.133717         92.3698
75.09                          0               0                0               0         0.176115         92.0509         0.974573         2.88543
                               0               0                0               0         0.974606         2.89486         0.176077         92.0407
                               0               0                0               0         0.135172         91.6498        0.0302077        -143.113
                               0               0                0               0        0.0302104        -143.093         0.135215          91.633
75.135                         0               0                0               0         0.178741          91.266         0.973692         2.06592
                               0               0                0               0         0.973729         2.06755         0.178661         91.2401
                               0               0                0               0          0.13689         90.8603        0.0306115        -145.099
                               0               0                0               0        0.0306124        -145.045         0.136938         90.8467
75.18                          0               0                0               0         0.180997          90.421         0.972803         1.17226
                               0               0                0               0         0.972883         1.16317         0.180858         90.3729
                               0               0                0               0         0.138819         90.0195         0.030942        -147.332
                               0               0                0               0        0.0309378         -147.23         0.138874         90.0099
75.225                         0               0                0               0          0.18288         89.5147         0.971962        0.209515
                               0               0                0               0         0.972124        0.189603         0.182681         89.4426
                               0               0                0               0         0.140947         89.1272        0.0312117        -149.811
                               0               0                0               0        0.0311983        -149.654          0.14101         89.1218
75.27                          0               0                0               0         0.184393         88.5468         0.971205       -0.817496
                               0               0                0               0         0.971475         -0.8463          0.18414         88.4524
                               0               0                0               0         0.143262         88.1836        0.0314327        -152.532
                               0               0                0               0        0.0314061        -152.323         0.143333         88.1818
75.315                         0               0                0               0         0.185542          87.518         0.970549        -1.90435
                               0               0                0               0         0.970934        -1.93885         0.185249         87.4057
                               0               0                0               0         0.145751         87.1885        0.0316164        -155.489
                               0               0                0               0        0.0315734        -155.238         0.145827         87.1895
75.36                          0               0                0               0         0.186335         86.4294         0.969998        -3.04709
                               0               0                0               0         0.970485        -3.08351         0.186018         86.3056
                               0               0                0               0         0.148399         86.1422        0.0317736        -158.676
                               0               0                0               0        0.0317125        -158.394          0.14848         86.1449
75.405                         0               0                0               0         0.186784         85.2831         0.969544        -4.24226
                               0               0                0               0         0.970101        -4.27687         0.186462          85.155
                               0               0                0               0         0.151192          85.045        0.0319146        -162.084
                               0               0                0               0        0.0318351        -161.787         0.151275         85.0481
75.45                          0               0                0               0         0.186903         84.0817         0.969172        -5.48695
                               0               0                0               0         0.969751        -5.51653         0.186592         83.9568
                               0               0                0               0         0.154114         83.8973        0.0320491        -165.703
                               0               0                0               0        0.0319526        -165.405         0.154196         83.8998
75.495                         0               0                0               0         0.186708         82.8284         0.968863        -6.77875
                               0               0                0               0         0.969403        -6.80101         0.186422         82.7136
                               0               0                0               0         0.157148         82.6998        0.0321863        -169.519
                               0               0                0               0        0.0320753        -169.236         0.157228         82.7007
75.54                          0               0                0               0         0.186217         81.5267         0.968593        -8.11577
                               0               0                0               0          0.96903        -8.12958         0.185967         81.4282
                               0               0                0               0         0.160278         81.4535        0.0323346        -173.519
                               0               0                0               0        0.0322127        -173.263         0.160353          81.452
75.585                         0               0                0               0         0.185449         80.1805         0.968337        -9.49657
                               0               0                0               0         0.968611        -9.50212         0.185242         80.1029
                               0               0                0               0         0.163486         80.1597        0.0325018        -177.686
                               0               0                0               0        0.0323731        -177.467         0.163554         80.1554
75.63                          0               0                0               0         0.184424         78.7939         0.968076        -10.9202
                               0               0                0               0         0.968135        -10.9189         0.184262         78.7404
                               0               0                0               0         0.166754         78.8198        0.0326948         177.998
                               0               0                0               0        0.0325637         178.175         0.166814         78.8124
75.675                         0               0                0               0         0.183161         77.3711         0.967789        -12.3858
                               0               0                0               0         0.967605        -12.3804         0.183043         77.3428
                               0               0                0               0         0.170062         77.4355        0.0329196         173.554
                               0               0                0               0        0.0327903         173.685         0.170113         77.4251
75.72                          0               0                0               0         0.181682         75.9164         0.967468        -13.8931
                               0               0                0               0         0.967033        -13.8866         0.181604         75.9126
                               0               0                0               0         0.173392         76.0088        0.0331815         169.003
                               0               0                0               0        0.0330574          169.09         0.173435         75.9957
75.765                         0               0                0               0         0.180008         74.4339         0.967109        -15.4417
                               0               0                0               0         0.966448        -15.4375         0.179963         74.4521
                               0               0                0               0         0.176724         74.5419        0.0334845         164.368
                               0               0                0               0        0.0333681         164.415         0.176759         74.5266
75.81                          0               0                0               0         0.178158         72.9277          0.96672        -17.0309
                               0               0                0               0         0.965882        -17.0319         0.178138         72.9636
                               0               0                0               0          0.18004         73.0372        0.0338315         159.673
                               0               0                0               0         0.033724         159.687         0.180069         73.0204
75.855                         0               0                0               0         0.176153         71.4015         0.966318        -18.6597
                               0               0                0               0         0.965376        -18.6677         0.176149         71.4495
                               0               0                0               0          0.18332         71.4974        0.0342243         154.941
                               0               0                0               0        0.0341259          154.93         0.183344         71.4797
75.9                           0               0                0               0         0.174013          69.859         0.965928        -20.3266
                               0               0                0               0         0.964969        -20.3419         0.174016         69.9124
                               0               0                0               0         0.186545         69.9251        0.0346638         150.197
                               0               0                0               0        0.0345731         150.168         0.186566         69.9073
75.945                         0               0                0               0         0.171758         68.3032         0.965582        -22.0289
                               0               0                0               0          0.96469          -22.05         0.171761          68.355
                               0               0                0               0         0.189696         68.3232        0.0351495         145.462
                               0               0                0               0        0.0350643         145.425         0.189718         68.3061
75.99                          0               0                0               0         0.169406         66.7371         0.965311         -23.763
                               0               0                0               0         0.964558        -23.7871         0.169403         66.7802
                               0               0                0               0         0.192757         66.6947        0.0356799         140.758
                               0               0                0               0        0.0355973          140.72         0.192781         66.6788
76.035                         0               0                0               0         0.166976          65.163          0.96514         -25.524
                               0               0                0               0         0.964573        -25.5474         0.166963          65.191
                               0               0                0               0         0.195709         65.0425        0.0362528         136.104
                               0               0                0               0        0.0361696         136.071         0.195738         65.0284
76.08                          0               0                0               0         0.164485          63.583         0.965082        -27.3063
                               0               0                0               0          0.96472        -27.3251         0.164461         63.5907
                               0               0                0               0         0.198537         63.3697        0.0368648         131.519
                               0               0                0               0        0.0367782         131.493         0.198572         63.3577
76.125                         0               0                0               0          0.16195         61.9988         0.965131        -29.1036
                               0               0                0               0         0.964966        -29.1145         0.161917         61.9829
                               0               0                0               0         0.201225         61.6793        0.0375121         127.016
                               0               0                0               0        0.0374198             127         0.201268         61.6696
76.17                          0               0                0               0         0.159389         60.4116         0.965267        -30.9093
                               0               0                0               0         0.965267        -30.9104          0.15935          60.371
                               0               0                0               0         0.203758         59.9744        0.0381901          122.61
                               0               0                0               0        0.0380912         122.603          0.20381         59.9668
76.215                         0               0                0               0         0.156817         58.8225          0.96545        -32.7173
                               0               0                0               0         0.965573        -32.7082         0.156776          58.759
                               0               0                0               0         0.206125         58.2579        0.0388938          118.31
                               0               0                0               0        0.0387888         118.309         0.206184         58.2523
76.26                          0               0                0               0          0.15425         57.2322         0.965634        -34.5219
                               0               0                0               0         0.965833        -34.5039         0.154212         57.1502
                               0               0                0               0         0.208313         56.5327        0.0396178         114.125
                               0               0                0               0        0.0395088         114.126         0.208379         56.5286
76.305                         0               0                0               0         0.151703         55.6416         0.965767        -36.3184
                               0               0                0               0         0.965999        -36.2944         0.151673         55.5481
                               0               0                0               0         0.210312         54.8018        0.0403565         110.059
                               0               0                0               0        0.0402468         110.059         0.210383         54.7986
76.35                          0               0                0               0         0.149193         54.0516         0.965807        -38.1033
                               0               0                0               0         0.966037        -38.0772         0.149173         53.9556
                               0               0                0               0         0.212116          53.068         0.041104         106.115
                               0               0                0               0        0.0409981          106.11         0.212187         53.0651
76.395                         0               0                0               0         0.146731         52.4635         0.965731         -39.874
                               0               0                0               0         0.965931        -39.8503         0.146722         52.3744
                               0               0                0               0         0.213717          51.334        0.0418543         102.295
                               0               0                0               0        0.0417568         102.282         0.213786         51.3307
76.44                          0               0                0               0         0.144333         50.8792         0.965546        -41.6294
                               0               0                0               0         0.965696        -41.6125         0.144333         50.8054
