! TOUCHSTONE file generated by CST MICROWAVE STUDIO
! Date and time: Sun Jun 20 22:36:49 2021
! Project name: HIPS_d_sweep.cst
! Parameters = {fmax=120; fmin=75; b=0.46; d=16.55; a=0.63; phi=0; theta=0}
! Header version: 2018
! Port assignment regex: !\s*Touchstone port\s*([0-9]+)\s*=\s*(CST MWS port|CST DS port)\s*([0-9]+|Zmin|Zmax)\s*\(\"(.*)\"\)(\s*mode\s*([0-9]+))?.*
! Touchstone port assignment:
! Touchstone port 1 = CST MWS port Zmin ("") mode 1
! Touchstone port 2 = CST MWS port Zmin ("") mode 2
! Touchstone port 3 = CST MWS port Zmax ("") mode 1
! Touchstone port 4 = CST MWS port Zmax ("") mode 2
! S-Parameters are not renormalized. Unphysical impedance of 0 will be written to the file.
# GHz S MA R 0
75                             0               0                0               0         0.420032         144.378          0.89936         53.5599
                               0               0                0               0          0.89962         53.5454         0.419992         144.378
                               0               0                0               0        0.0642499          9.7653         0.101549        -24.5029
                               0               0                0               0         0.101638        -24.5085         0.064281         9.75296
75.045                         0               0                0               0           0.4225         143.668         0.898696          52.928
                               0               0                0               0         0.899246         52.8943         0.422495          143.67
                               0               0                0               0        0.0634079         10.3757         0.101697        -25.5802
                               0               0                0               0         0.101791        -25.5889        0.0635754         10.2038
75.09                          0               0                0               0          0.42481         142.935         0.898041         52.2631
                               0               0                0               0          0.89879         52.2179         0.424826         142.939
                               0               0                0               0        0.0624701         11.0711         0.101751        -26.7049
                               0               0                0               0         0.101848        -26.7162        0.0627109         10.8045
75.135                         0               0                0               0         0.426936         142.176         0.897386         51.5631
                               0               0                0               0         0.898247         51.5127         0.426961         142.183
                               0               0                0               0        0.0614421         11.8599         0.101708        -27.8843
                               0               0                0               0         0.101808        -27.8975        0.0617075         11.5489
75.18                          0               0                0               0         0.428852          141.39          0.89672         50.8254
                               0               0                0               0         0.897615          50.775         0.428876         141.398
                               0               0                0               0         0.060331         12.7521         0.101565        -29.1259
                               0               0                0               0         0.101668        -29.1405        0.0605854         12.4356
75.225                         0               0                0               0         0.430534         140.574         0.896042         50.0477
                               0               0                0               0         0.896903         50.0012         0.430549         140.583
                               0               0                0               0        0.0591452         13.7596         0.101324        -30.4373
                               0               0                0               0         0.101429        -30.4527        0.0593651         13.4673
75.27                          0               0                0               0         0.431962         139.723         0.895355         49.2277
                               0               0                0               0         0.896122         49.1877         0.431962         139.733
                               0               0                0               0        0.0578952          14.896         0.100987         -31.826
                               0               0                0               0         0.101092        -31.8416        0.0580671         14.6502
75.315                         0               0                0               0         0.433116         138.836         0.894666         48.3632
                               0               0                0               0         0.895295         48.3311         0.433098         138.844
                               0               0                0               0        0.0565931          16.177         0.100557         -33.299
                               0               0                0               0         0.100662        -33.3144        0.0567123         15.9937
75.36                          0               0                0               0         0.433987         137.907          0.89399         47.4523
                               0               0                0               0         0.894449         47.4285          0.43395         137.915
                               0               0                0               0        0.0552537         17.6201         0.100042        -34.8628
                               0               0                0               0         0.100145        -34.8776        0.0553219         17.5097
75.405                         0               0                0               0         0.434566         136.934         0.893348         46.4933
                               0               0                0               0         0.893619         46.4775         0.434512          136.94
                               0               0                0               0        0.0538942         19.2443        0.0994491         -36.523
                               0               0                0               0        0.0995481         -36.537        0.0539184         19.2123
75.45                          0               0                0               0         0.434856         135.912         0.892764         45.4852
                               0               0                0               0         0.892845         45.4762         0.434788         135.916
                               0               0                0               0        0.0525349         21.0698        0.0987861        -38.2842
                               0               0                0               0        0.0988805        -38.2972        0.0525253         21.1172
75.495                         0               0                0               0         0.434863          134.84         0.892266         44.4274
                               0               0                0               0         0.892169         44.4237         0.434785         134.842
                               0               0                0               0        0.0511994         23.1172        0.0980624        -40.1496
                               0               0                0               0        0.0981511        -40.1618        0.0511682         23.2404
75.54                          0               0                0               0         0.434601         133.714         0.891887         43.3199
                               0               0                0               0         0.891634         43.3199         0.434519         133.714
                               0               0                0               0        0.0499149         25.4059        0.0972873        -42.1215
                               0               0                0               0        0.0973696        -42.1329        0.0498749         25.5969
75.585                         0               0                0               0          0.43409         132.532         0.891655         42.1636
                               0               0                0               0          0.89128         42.1657         0.434009         132.532
                               0               0                0               0        0.0487126         27.9525        0.0964699        -44.2008
                               0               0                0               0        0.0965451        -44.2116        0.0486757         28.1992
75.63                          0               0                0               0         0.433354         131.296           0.8916         40.9599
                               0               0                0               0         0.891142         40.9627         0.433278         131.294
                               0               0                0               0        0.0476275         30.7677        0.0956183         -46.387
                               0               0                0               0        0.0956861        -46.3975        0.0476037         31.0542
75.675                         0               0                0               0         0.432418         130.004         0.891747         39.7111
                               0               0                0               0         0.891248         39.7134         0.432352         130.002
                               0               0                0               0        0.0466979         33.8537          0.09474        -48.6786
                               0               0                0               0        0.0948004         -48.689        0.0466942         34.1611
75.72                          0               0                0               0         0.431311         128.659         0.892113         38.4198
                               0               0                0               0         0.891615          38.421         0.431255         128.658
                               0               0                0               0        0.0459646         37.1999         0.093841         -51.073
                               0               0                0               0        0.0938941        -51.0837        0.0459845         37.5073
75.765                         0               0                0               0         0.430057         127.264          0.89271         37.0894
                               0               0                0               0          0.89225         37.0892         0.430013         127.264
                               0               0                0               0        0.0454692         40.7795         0.092926        -53.5667
                               0               0                0               0        0.0929723        -53.5779        0.0455121         41.0662
75.81                          0               0                0               0          0.42868         125.821         0.893538         35.7235
                               0               0                0               0         0.893149          35.722         0.428647         125.824
                               0               0                0               0         0.045252          44.548        0.0919986        -56.1554
                               0               0                0               0        0.0920386        -56.1674        0.0453134         44.7952
75.855                         0               0                0               0         0.427199         124.337         0.894591         34.3261
                               0               0                0               0         0.894297         34.3235         0.427176         124.342
                               0               0                0               0        0.0453493         48.4425        0.0910607        -58.8342
                               0               0                0               0        0.0910953        -58.8471        0.0454213         48.6356
75.9                           0               0                0               0          0.42563         122.817         0.895852         32.9012
                               0               0                0               0          0.89567         32.8978         0.425614         122.824
                               0               0                0               0        0.0457905         52.3852        0.0901134        -61.5977
                               0               0                0               0        0.0901436        -61.6117        0.0458629         52.5157
75.945                         0               0                0               0         0.423984         121.265         0.897295         31.4527
                               0               0                0               0         0.897233          31.449         0.423971         121.275
                               0               0                0               0        0.0465959         56.2895        0.0891567        -64.4403
                               0               0                0               0        0.0891833        -64.4553        0.0466573         56.3557
75.99                          0               0                0               0         0.422266         119.688          0.89889         29.9846
                               0               0                0               0         0.898947          29.981         0.422254         119.701
                               0               0                0               0        0.0477747         60.0683        0.0881897        -67.3559
                               0               0                0               0        0.0882138         -67.372        0.0478144         60.0752
76.035                         0               0                0               0         0.420479         118.091         0.900598         28.5002
                               0               0                0               0         0.900768         28.4971         0.420466         118.107
                               0               0                0               0        0.0493252         63.6427        0.0872111        -70.3386
                               0               0                0               0        0.0872337        -70.3557        0.0493343         63.6001
76.08                          0               0                0               0         0.418624         116.481         0.902377         27.0031
                               0               0                0               0         0.902649         27.0007         0.418606           116.5
                               0               0                0               0        0.0512354          66.948        0.0862191        -73.3822
                               0               0                0               0        0.0862411        -73.4001         0.051208          66.869
76.125                         0               0                0               0         0.416697         114.864         0.904184         25.4961
                               0               0                0               0          0.90454         25.4947         0.416673         114.884
                               0               0                0               0        0.0534848         69.9382        0.0852119        -76.4805
                               0               0                0               0        0.0852342        -76.4992        0.0534181         69.8363
76.17                          0               0                0               0         0.414694         113.243         0.905972         23.9821
                               0               0                0               0         0.906396         23.9815         0.414663         113.265
                               0               0                0               0        0.0560463         72.5856        0.0841878        -79.6276
                               0               0                0               0        0.0842111        -79.6468        0.0559414         72.4734
76.215                         0               0                0               0         0.412613         111.625         0.907699         22.4633
                               0               0                0               0          0.90817         22.4636         0.412573         111.648
                               0               0                0               0         0.058889         74.8798        0.0831453        -82.8174
                               0               0                0               0        0.0831702         -82.837        0.0587499         74.7676
76.26                          0               0                0               0         0.410448         110.013         0.909321         20.9419
                               0               0                0               0          0.90982          20.943           0.4104         110.037
                               0               0                0               0        0.0619794         76.8236        0.0820831        -86.0441
                               0               0                0               0        0.0821102         -86.064        0.0618127         76.7189
76.305                         0               0                0               0         0.408198         108.412         0.910799         19.4199
                               0               0                0               0         0.911308         19.4216         0.408141         108.436
                               0               0                0               0        0.0652832           78.43        0.0810009        -89.3021
                               0               0                0               0        0.0810305        -89.3221        0.0650972         78.3373
76.35                          0               0                0               0          0.40586         106.825         0.912096         17.8988
                               0               0                0               0         0.912599         17.9011         0.405795         106.849
                               0               0                0               0        0.0687662         79.7183        0.0798984        -92.5858
                               0               0                0               0        0.0799308        -92.6059        0.0685703         79.6397
76.395                         0               0                0               0         0.403436         105.256         0.913182         16.3803
                               0               0                0               0         0.913664         16.3829         0.403362         105.279
                               0               0                0               0        0.0723951         80.7118        0.0787765        -95.8899
                               0               0                0               0        0.0788118          -95.91        0.0721985         80.6472
76.44                          0               0                0               0         0.400925         103.707         0.914029         14.8658
                               0               0                0               0         0.914478         14.8687         0.400845         103.729
