! TOUCHSTONE file generated by CST MICROWAVE STUDIO
! Date and time: Sun Jun 20 22:37:31 2021
! Project name: HIPS_d_sweep.cst
! Parameters = {fmax=120; fmin=75; b=0.46; d=21.45; a=0.63; phi=0; theta=0}
! Header version: 2018
! Port assignment regex: !\s*Touchstone port\s*([0-9]+)\s*=\s*(CST MWS port|CST DS port)\s*([0-9]+|Zmin|Zmax)\s*\(\"(.*)\"\)(\s*mode\s*([0-9]+))?.*
! Touchstone port assignment:
! Touchstone port 1 = CST MWS port Zmin ("") mode 1
! Touchstone port 2 = CST MWS port Zmin ("") mode 2
! Touchstone port 3 = CST MWS port Zmax ("") mode 1
! Touchstone port 4 = CST MWS port Zmax ("") mode 2
! S-Parameters are not renormalized. Unphysical impedance of 0 will be written to the file.
# GHz S MA R 0
75                             0               0                0               0        0.0866895        -53.1759         0.995811        -142.685
                               0               0                0               0         0.995536        -142.694        0.0867269        -53.1847
                               0               0                0               0        0.0217932         120.393        0.0273578        -56.9996
                               0               0                0               0        0.0274087        -56.9536         0.021806          120.46
75.045                         0               0                0               0        0.0891133        -54.9268         0.989958        -144.056
                               0               0                0               0         0.998842        -143.462        0.0898907        -56.4219
                               0               0                0               0         0.023957         120.638        0.0274525        -58.7617
                               0               0                0               0        0.0274584        -58.6401        0.0240246         120.672
75.09                          0               0                0               0        0.0917268        -56.5034         0.985136        -145.366
                               0               0                0               0                1        -144.267        0.0939253        -58.8552
                               0               0                0               0        0.0264286         120.507         0.027518        -60.5325
                               0               0                0               0        0.0274868        -60.3587        0.0265343         120.525
75.135                         0               0                0               0        0.0944695        -57.8637         0.981486        -146.613
                               0               0                0               0                1         -145.12        0.0981995        -60.3169
                               0               0                0               0        0.0292138         120.092        0.0275449        -62.3147
                               0               0                0               0        0.0274877        -62.1119        0.0293406         120.106
75.18                          0               0                0               0        0.0972401        -58.9762         0.979208        -147.785
                               0               0                0               0                1        -146.037         0.101927        -60.9254
                               0               0                0               0        0.0323153          119.47         0.027523        -64.1135
                               0               0                0               0        0.0274537        -63.9036         0.032447         119.486
75.225                         0               0                0               0        0.0998957        -59.8293         0.978602         -148.86
                               0               0                0               0                1        -147.026          0.10453        -61.0101
                               0               0                0               0        0.0357319         118.695        0.0274408        -65.9372
                               0               0                0               0        0.0273766        -65.7394        0.0358533         118.716
75.27                          0               0                0               0         0.102264        -60.4404         0.980155        -149.788
                               0               0                0               0         0.998048        -148.096         0.105847        -60.9312
                               0               0                0               0        0.0394584         117.809        0.0272868        -67.7978
                               0               0                0               0        0.0272472        -67.6273        0.0395559         117.834
75.315                         0               0                0               0         0.104172        -60.8601         0.984671        -150.445
                               0               0                0               0         0.995571         -149.25         0.106046        -60.9493
                               0               0                0               0        0.0434854         116.838        0.0270491        -69.7116
                               0               0                0               0        0.0270555        -69.5779        0.0435476         116.867
75.36                          0               0                0               0         0.105479        -61.1676         0.993108        -150.484
                               0               0                0               0         0.992832        -150.488         0.105431        -61.1976
                               0               0                0               0        0.0478002         115.797        0.0267164        -71.6996
                               0               0                0               0        0.0267909        -71.6055        0.0478179          115.83
75.405                         0               0                0               0         0.106109         -61.458                1        -148.656
                               0               0                0               0         0.990035        -151.808         0.104291        -61.7158
                               0               0                0               0        0.0523864         114.697        0.0262787        -73.7879
                               0               0                0               0        0.0264426        -73.7283        0.0523531         114.734
75.45                          0               0                0               0         0.106066        -61.8254         0.895062        -142.793
                               0               0                0               0         0.987352        -153.205         0.102842        -62.4931
                               0               0                0               0        0.0572248         113.542        0.0257279        -76.0083
                               0               0                0               0        0.0260001        -75.9697        0.0571364         113.583
75.495                         0               0                0               0          0.10542        -62.3469         0.780769        -155.621
                               0               0                0               0         0.984916        -154.672         0.101228        -63.4979
                               0               0                0               0        0.0622935         112.334        0.0250584         -78.399
                               0               0                0               0        0.0254536        -78.3589        0.0621487          112.38
75.54                          0               0                0               0         0.104283        -63.0744         0.850206        -160.362
                               0               0                0               0         0.982817        -156.202        0.0995346        -64.6946
                               0               0                0               0        0.0675684         111.074         0.024268        -81.0047
                               0               0                0               0        0.0247949        -80.9321        0.0673685         111.125
75.585                         0               0                0               0         0.102779        -64.0332         0.883912        -161.854
                               0               0                0               0         0.981111        -157.786        0.0978105        -66.0502
                               0               0                0               0        0.0730232         109.761        0.0233582        -83.8778
                               0               0                0               0        0.0240179        -83.7342         0.072772         109.819
75.63                          0               0                0               0          0.10102        -65.2262         0.902136        -163.057
                               0               0                0               0         0.979822        -159.417        0.0960802        -67.5369
                               0               0                0               0        0.0786303         108.396        0.0223348        -87.0795
                               0               0                0               0          0.02312        -86.8202         0.078334         108.462
75.675                         0               0                0               0        0.0990951         -66.641         0.914158        -164.272
                               0               0                0               0         0.978946        -161.089        0.0943535        -69.1318
                               0               0                0               0        0.0843606          106.98        0.0212082        -90.6823
                               0               0                0               0        0.0221027        -90.2576        0.0840275         107.055
75.72                          0               0                0               0         0.097068        -68.2561         0.923332         -165.54
                               0               0                0               0         0.978462        -162.794         0.092632        -70.8169
                               0               0                0               0        0.0901844         105.515        0.0199938        -94.7722
                               0               0                0               0        0.0209727          -94.13        0.0898246         105.598
75.765                         0               0                0               0        0.0949799        -70.0457         0.931066        -166.862
                               0               0                0               0         0.978333        -164.528        0.0909124        -72.5776
                               0               0                0               0        0.0960716         104.003        0.0187126        -99.4531
                               0               0                0               0        0.0197431        -98.5412        0.0956967         104.094
75.81                          0               0                0               0        0.0928533        -71.9833         0.938013        -168.236
                               0               0                0               0         0.978514        -166.285        0.0891887         -74.402
                               0               0                0               0         0.101992         102.448        0.0173918         -104.85
                               0               0                0               0        0.0184351        -103.621         0.101615         102.546
75.855                         0               0                0               0        0.0906979        -74.0431         0.944494        -169.662
                               0               0                0               0         0.978954        -168.062        0.0874536        -76.2802
                               0               0                0               0         0.107918         100.854         0.016066        -111.115
                               0               0                0               0        0.0170791        -109.529          0.10755         100.956
75.9                           0               0                0               0        0.0885148        -76.2011         0.950662        -171.135
                               0               0                0               0         0.979599        -169.856         0.085699         -78.204
                               0               0                0               0          0.11382         99.2247        0.0147785         -118.42
                               0               0                0               0         0.015717        -116.463         0.113475         99.3288
75.945                         0               0                0               0        0.0862999         -78.435         0.956582        -172.656
                               0               0                0               0         0.980393        -171.663         0.083917        -80.1658
                               0               0                0               0         0.119674         97.5654        0.0135826        -126.946
                               0               0                0               0        0.0144051        -124.646         0.119363         97.6678
75.99                          0               0                0               0        0.0840466        -80.7241         0.962262        -174.223
                               0               0                0               0         0.981283        -173.482        0.0820994        -82.1585
                               0               0                0               0         0.125456         95.8807        0.0125422         -136.84
                               0               0                0               0        0.0132152        -134.301          0.12519         95.9775
76.035                         0               0                0               0        0.0817477        -83.0488          0.96768        -175.834
                               0               0                0               0         0.982217         -175.31        0.0802387        -84.1751
                               0               0                0               0         0.131147         94.1753        0.0117284        -148.124
                               0               0                0               0        0.0122337        -145.559         0.130932         94.2624
76.08                          0               0                0               0        0.0793967        -85.3903         0.972794        -177.488
                               0               0                0               0         0.983144        -177.146        0.0783279        -86.2083
                               0               0                0               0         0.136729         92.4535        0.0112093        -160.586
                               0               0                0               0        0.0115527        -158.321         0.136569         92.5266
76.125                         0               0                0               0        0.0769886        -87.7299         0.977552        -179.181
                               0               0                0               0         0.984017        -178.989        0.0763605        -88.2502
                               0               0                0               0          0.14219         90.7189        0.0110325        -173.714
                               0               0                0               0        0.0112485        -172.106         0.142086         90.7742
76.17                          0               0                0               0        0.0745208        -90.0486         0.981895         179.088
                               0               0                0               0         0.984792         179.163        0.0743313         -90.292
                               0               0                0               0         0.147518         88.9747        0.0112081         173.206
                               0               0                0               0        0.0113538         173.909         0.147467         89.0087
76.215                         0               0                0               0        0.0719933        -92.3272         0.985764         177.323
                               0               0                0               0         0.985428          177.31         0.072236        -92.3236
                               0               0                0               0         0.152706          87.223        0.0117032         160.847
                               0               0                0               0        0.0118421         160.598         0.152701         87.2329
76.26                          0               0                0               0        0.0694088        -94.5452         0.989103         175.528
                               0               0                0               0         0.985887         175.455        0.0700718        -94.3333
                               0               0                0               0         0.157748         85.4651        0.0124548         149.625
                               0               0                0               0        0.0126395         148.546         0.157778          85.449
76.305                         0               0                0               0        0.0667735        -96.6812         0.991861         173.707
                               0               0                0               0         0.986136         173.597        0.0678376        -96.3074
                               0               0                0               0          0.16264         83.7013        0.0133902         139.666
                               0               0                0               0        0.0136536          137.95         0.162692         83.6588
76.35                          0               0                0               0        0.0640963        -98.7123         0.993994         171.864
                               0               0                0               0         0.986142         171.739        0.0655345        -98.2301
                               0               0                0               0         0.167379         81.9313        0.0144416         130.901
                               0               0                0               0        0.0147971         128.734         0.167436         81.8628
76.395                         0               0                0               0        0.0613895        -100.614          0.99547         170.003
                               0               0                0               0         0.985881         169.881        0.0631656        -100.083
                               0               0                0               0         0.171959         80.1537        0.0155534         123.175
                               0               0                0               0         0.015999         120.707         0.172005         80.0613
76.44                          0               0                0               0         0.058668        -102.361         0.996267          168.13
                               0               0                0               0         0.985327         168.025        0.0607373        -101.844
