! TOUCHSTONE file generated by CST MICROWAVE STUDIO
! Date and time: Sun Jun 20 22:36:58 2021
! Project name: HIPS_d_sweep.cst
! Parameters = {fmax=120; fmin=75; b=0.46; d=17.55; a=0.63; phi=0; theta=0}
! Header version: 2018
! Port assignment regex: !\s*Touchstone port\s*([0-9]+)\s*=\s*(CST MWS port|CST DS port)\s*([0-9]+|Zmin|Zmax)\s*\(\"(.*)\"\)(\s*mode\s*([0-9]+))?.*
! Touchstone port assignment:
! Touchstone port 1 = CST MWS port Zmin ("") mode 1
! Touchstone port 2 = CST MWS port Zmin ("") mode 2
! Touchstone port 3 = CST MWS port Zmax ("") mode 1
! Touchstone port 4 = CST MWS port Zmax ("") mode 2
! S-Parameters are not renormalized. Unphysical impedance of 0 will be written to the file.
# GHz S MA R 0
75                             0               0                0               0         0.334231         31.7617         0.918789        -60.2127
                               0               0                0               0         0.918634        -60.2108         0.334396         31.7748
                               0               0                0               0         0.192629         35.2971        0.0853958         84.9874
                               0               0                0               0        0.0852943         84.9333         0.192682         35.2981
75.045                         0               0                0               0         0.337174         31.1668         0.918549        -60.8256
                               0               0                0               0         0.918649        -60.8033         0.337223         31.1603
                               0               0                0               0         0.191474         34.8833        0.0860606         84.1203
                               0               0                0               0        0.0857389          84.178         0.191743         34.8748
75.09                          0               0                0               0         0.339866         30.5218         0.918104        -61.4871
                               0               0                0               0         0.918332        -61.4514         0.339842         30.5022
                               0               0                0               0         0.190413         34.4044        0.0866952         83.1645
                               0               0                0               0        0.0862466         83.2847         0.190791         34.3908
75.135                         0               0                0               0         0.342304         29.8255         0.917502        -62.1992
                               0               0                0               0         0.917763        -62.1569         0.342241         29.7984
                               0               0                0               0         0.189421         33.8641        0.0873023         82.1156
                               0               0                0               0        0.0868028         82.2575         0.189829         33.8487
75.18                          0               0                0               0         0.344484          29.077         0.916795         -62.963
                               0               0                0               0          0.91702        -62.9206         0.344412         29.0473
                               0               0                0               0         0.188476         33.2655         0.087885         80.9701
                               0               0                0               0        0.0873942         81.1017         0.188859         33.2511
75.225                         0               0                0               0         0.346408         28.2757         0.916031        -63.7794
                               0               0                0               0         0.916178        -63.7426         0.346348         28.2476
                               0               0                0               0         0.187558         32.6116        0.0884466         79.7251
                               0               0                0               0        0.0880086         79.8229         0.187881         32.6004
75.27                          0               0                0               0         0.348077         27.4217         0.915257        -64.6487
                               0               0                0               0         0.915305        -64.6223         0.348043         27.3985
                               0               0                0               0         0.186648         31.9053        0.0889902         78.3787
                               0               0                0               0        0.0886352         78.4271         0.186891         31.8989
75.315                         0               0                0               0         0.349495         26.5152         0.914516        -65.5708
                               0               0                0               0          0.91446        -65.5582         0.349496         26.4992
                               0               0                0               0         0.185731         31.1489        0.0895189         76.9299
                               0               0                0               0        0.0892638         76.9206         0.185886         31.1488
75.36                          0               0                0               0         0.350668         25.5571         0.913846        -66.5451
                               0               0                0               0         0.913693        -66.5485         0.350706         25.5497
                               0               0                0               0          0.18479          30.345        0.0900351         75.3787
                               0               0                0               0         0.089886           75.31         0.184859          30.352
75.405                         0               0                0               0         0.351602         24.5483          0.91328        -67.5707
                               0               0                0               0         0.913045        -67.5911         0.351674         24.5501
                               0               0                0               0         0.183813         29.4958        0.0905406         73.7262
                               0               0                0               0        0.0904941         73.6015         0.183803         29.5105
75.45                          0               0                0               0         0.352306         23.4903         0.912845        -68.6464
                               0               0                0               0         0.912547        -68.6834         0.352406         23.5012
                               0               0                0               0         0.182785         28.6036        0.0910366         71.9744
                               0               0                0               0        0.0910816         71.8016         0.182711          28.626
75.495                         0               0                0               0         0.352788         22.3848          0.91256        -69.7708
                               0               0                0               0         0.912221        -69.8229         0.352908         22.4038
                               0               0                0               0         0.181697         27.6706        0.0915231         70.1263
                               0               0                0               0        0.0916432         69.9165         0.181573         27.7002
75.54                          0               0                0               0         0.353059         21.2337         0.912439        -70.9422
                               0               0                0               0         0.912078        -71.0069         0.353188         21.2594
                               0               0                0               0         0.180536         26.6989        0.0919995         68.1858
                               0               0                0               0        0.0921745         67.9523         0.180381         26.7348
75.585                         0               0                0               0         0.353129          20.039         0.912487        -72.1587
                               0               0                0               0         0.912124        -72.2326         0.353255         20.0696
                               0               0                0               0         0.179294         25.6907         0.092464         66.1575
                               0               0                0               0        0.0926721         65.9145         0.179125         25.7316
75.63                          0               0                0               0         0.353009         18.8029         0.912704        -73.4182
                               0               0                0               0         0.912354        -73.4974         0.353121         18.8364
                               0               0                0               0         0.177962          24.648        0.0929142         64.0472
                               0               0                0               0        0.0931334         63.8088         0.177795         24.6922
75.675                         0               0                0               0         0.352711         17.5278         0.913083        -74.7185
                               0               0                0               0         0.912761        -74.7987         0.352799         17.5618
                               0               0                0               0         0.176532          23.573        0.0933468         61.8609
                               0               0                0               0        0.0935569         61.6404         0.176382         23.6186
75.72                          0               0                0               0         0.352247         16.2159         0.913612        -76.0575
                               0               0                0               0          0.91333        -76.1342         0.352302         16.2483
                               0               0                0               0         0.174998         22.4678        0.0937582         59.6055
                               0               0                0               0        0.0939415         59.4143         0.174877         22.5127
75.765                         0               0                0               0         0.351629         14.8696         0.914273        -77.4325
                               0               0                0               0         0.914042        -77.5015         0.351646         14.8982
                               0               0                0               0         0.173355         21.3345        0.0941442         57.2883
                               0               0                0               0        0.0942871         57.1351          0.17327         21.3767
75.81                          0               0                0               0          0.35087          13.491         0.915045        -78.8411
                               0               0                0               0         0.914875        -78.8983         0.350845         13.5141
                               0               0                0               0         0.171597         20.1752         0.094501         54.9168
                               0               0                0               0         0.094594         54.8073         0.171555         20.2129
75.855                         0               0                0               0         0.349982         12.0823         0.915903        -80.2805
                               0               0                0               0         0.915806        -80.3227         0.349914         12.0983
                               0               0                0               0         0.169722         18.9921        0.0948249         52.4986
                               0               0                0               0        0.0948629         52.4352         0.169723         19.0239
75.9                           0               0                0               0         0.348978         10.6456         0.916821        -81.7476
                               0               0                0               0          0.91681        -81.7725         0.348871         10.6535
                               0               0                0               0         0.167726         17.7874        0.0951126         50.0416
                               0               0                0               0         0.095095          50.023         0.167769         17.8122
75.945                         0               0                0               0         0.347871         9.18282         0.917774        -83.2393
                               0               0                0               0         0.917859        -83.2459         0.347729         9.18191
                               0               0                0               0         0.165608         16.5632        0.0953617         47.5529
                               0               0                0               0        0.0952917         47.5747         0.165688         16.5808
75.99                          0               0                0               0         0.346674         7.69574         0.918741        -84.7522
                               0               0                0               0          0.91893        -84.7408         0.346504         7.68598
                               0               0                0               0         0.163367         15.3218        0.0955706         45.0397
                               0               0                0               0        0.0954545         45.0942         0.163477         15.3325
76.035                         0               0                0               0           0.3454         6.18612         0.919703        -86.2827
                               0               0                0               0         0.919999        -86.2552          0.34521         6.16792
                               0               0                0               0         0.161002         14.0656        0.0957385         42.5081
                               0               0                0               0        0.0955846         42.5856         0.161134         14.0704
76.08                          0               0                0               0         0.344062         4.65563         0.920651        -87.8272
                               0               0                0               0         0.921046        -87.7871         0.343862         4.62988
                               0               0                0               0         0.158515         12.7969        0.0958654         39.9637
                               0               0                0               0        0.0956832         40.0529         0.158659         12.7977
76.125                         0               0                0               0         0.342672         3.10596         0.921584        -89.3821
                               0               0                0               0         0.922057        -89.3343         0.342472         3.07396
                               0               0                0               0         0.155906         11.5186        0.0959519         37.4108
                               0               0                0               0         0.095751         37.5003         0.156054         11.5174
76.17                          0               0                0               0         0.341243         1.53885         0.922509        -90.9441
                               0               0                0               0         0.923021        -90.8944         0.341051         1.50226
                               0               0                0               0         0.153177         10.2333        0.0959986          34.853
                               0               0                0               0        0.0957879         34.9318         0.153321         10.2326
76.215                         0               0                0               0         0.339786      -0.0437931         0.923442        -92.5105
                               0               0                0               0          0.92394        -92.4647          0.33961      -0.0831154
                               0               0                0               0         0.150329         8.94424        0.0960063         32.2927
                               0               0                0               0        0.0957934          32.352         0.150463         8.94655
76.26                          0               0                0               0         0.338313        -1.63981         0.924402        -94.0789
                               0               0                0               0          0.92482        -94.0424         0.338156        -1.67995
                               0               0                0               0         0.147364         7.65488         0.095975         29.7313
                               0               0                0               0        0.0957659         29.7651         0.147484         7.66224
76.305                         0               0                0               0         0.336833        -3.24672         0.925407        -95.6478
                               0               0                0               0         0.925681        -95.6243         0.336695        -3.28585
                               0               0                0               0         0.144286         6.36913        0.0959038         27.1697
                               0               0                0               0        0.0957027         27.1757          0.14439         6.38299
76.35                          0               0                0               0         0.335352        -4.86159         0.926466        -97.2164
                               0               0                0               0         0.926551         -97.207         0.335231        -4.89819
                               0               0                0               0         0.141095          5.0914        0.0957907         24.6084
                               0               0                0               0        0.0956003         24.5882         0.141185         5.11229
76.395                         0               0                0               0         0.333876        -6.48105          0.92758        -98.7841
                               0               0                0               0         0.927463        -98.7873         0.333767        -6.51405
                               0               0                0               0         0.137794          3.8267        0.0956323         22.0479
                               0               0                0               0         0.095454          22.007         0.137873         3.85407
76.44                          0               0                0               0         0.332406        -8.10127         0.928728        -100.351
                               0               0                0               0         0.928447        -100.362         0.332299        -8.13014
