! TOUCHSTONE file generated by CST MICROWAVE STUDIO
! Date and time: Sun Jun 20 22:36:46 2021
! Project name: HIPS_d_sweep.cst
! Parameters = {fmax=120; fmin=75; b=0.46; d=16.2; a=0.63; phi=0; theta=0}
! Header version: 2018
! Port assignment regex: !\s*Touchstone port\s*([0-9]+)\s*=\s*(CST MWS port|CST DS port)\s*([0-9]+|Zmin|Zmax)\s*\(\"(.*)\"\)(\s*mode\s*([0-9]+))?.*
! Touchstone port assignment:
! Touchstone port 1 = CST MWS port Zmin ("") mode 1
! Touchstone port 2 = CST MWS port Zmin ("") mode 2
! Touchstone port 3 = CST MWS port Zmax ("") mode 1
! Touchstone port 4 = CST MWS port Zmax ("") mode 2
! S-Parameters are not renormalized. Unphysical impedance of 0 will be written to the file.
# GHz S MA R 0
75                             0               0                0               0         0.427963        -174.683         0.884547          93.038
                               0               0                0               0         0.884502          93.038         0.427922        -174.676
                               0               0                0               0         0.149978          19.247         0.109602         43.0492
                               0               0                0               0         0.109599         43.0073         0.149972         19.2528
75.045                         0               0                0               0         0.429939        -175.525         0.884874         92.4148
                               0               0                0               0         0.885548         92.4035          0.42977         -175.58
                               0               0                0               0         0.148778         18.8356         0.110008         41.6771
                               0               0                0               0         0.110009         41.7186         0.148767         18.8321
75.09                          0               0                0               0         0.431879        -176.378         0.884898         91.7512
                               0               0                0               0         0.886213         91.7385         0.431633        -176.488
                               0               0                0               0         0.147533         18.4169         0.110418         40.2994
                               0               0                0               0         0.110414         40.4143         0.147519         18.4055
75.135                         0               0                0               0         0.433771        -177.241         0.884681          91.045
                               0               0                0               0          0.88653          91.039         0.433498        -177.401
                               0               0                0               0          0.14624          17.991         0.110828         38.9156
                               0               0                0               0         0.110808         39.0936         0.146225          17.973
75.18                          0               0                0               0           0.4356        -178.116         0.884284         90.2951
                               0               0                0               0         0.886541         90.3021         0.435349        -178.317
                               0               0                0               0         0.144895         17.5577         0.111232         37.5252
                               0               0                0               0         0.111188         37.7551          0.14488         17.5345
75.225                         0               0                0               0          0.43735        -179.002         0.883769         89.5009
                               0               0                0               0         0.886293         89.5249         0.437167        -179.237
                               0               0                0               0         0.143493         17.1168         0.111623         36.1272
                               0               0                0               0         0.111546         36.3972         0.143481         17.0897
75.27                          0               0                0               0         0.439005        -179.901         0.883189         88.6627
                               0               0                0               0          0.88584         88.7054         0.438928          179.84
                               0               0                0               0         0.142031          16.668         0.111994         34.7205
                               0               0                0               0         0.111877         35.0181         0.142021         16.6383
75.315                         0               0                0               0         0.440544         179.186         0.882593         87.7811
                               0               0                0               0         0.885236         87.8423         0.440602         178.914
                               0               0                0               0         0.140503         16.2109         0.112334         33.3031
                               0               0                0               0         0.112173         33.6152         0.140497         16.1801
75.36                          0               0                0               0         0.441945         178.259         0.882021         86.8574
                               0               0                0               0         0.884537         86.9349         0.442159         177.983
                               0               0                0               0         0.138906         15.7453         0.112633         31.8723
                               0               0                0               0         0.112426         32.1853         0.138903         15.7146
75.405                         0               0                0               0         0.443187         177.315         0.881506          85.893
                               0               0                0               0         0.883794         85.9831         0.443559         177.047
                               0               0                0               0         0.137233         15.2705         0.112878         30.4243
                               0               0                0               0         0.112627         30.7246         0.137234         15.2411
75.45                          0               0                0               0         0.444246         176.353         0.881072         84.8896
                               0               0                0               0         0.883056         84.9875         0.444764         176.102
                               0               0                0               0         0.135482          14.786         0.113057         28.9537
                               0               0                0               0          0.11277         29.2282         0.135486          14.759
75.495                         0               0                0               0         0.445099         175.369         0.880733         83.8489
                               0               0                0               0         0.882365         83.9491         0.445733         175.145
                               0               0                0               0         0.133647         14.2912         0.113157         27.4531
                               0               0                0               0         0.112845         27.6901         0.133654         14.2675
75.54                          0               0                0               0         0.445727          174.36         0.880498         82.7724
                               0               0                0               0         0.881757         82.8693         0.446429         174.171
                               0               0                0               0         0.131725         13.7854         0.113168         25.9135
                               0               0                0               0         0.112848         26.1034         0.131733         13.7657
75.585                         0               0                0               0         0.446114         173.323         0.880367         81.6617
                               0               0                0               0          0.88126         81.7498         0.446824         173.173
                               0               0                0               0         0.129712         13.2678         0.113082         24.3234
                               0               0                0               0         0.112775         24.4602         0.129722         13.2527
75.63                          0               0                0               0         0.446249         172.253         0.880339         80.5179
                               0               0                0               0         0.880894         80.5924           0.4469         172.144
                               0               0                0               0         0.127607          12.738         0.112897         22.6703
                               0               0                0               0         0.112626         22.7521         0.127616         12.7277
75.675                         0               0                0               0          0.44613         171.144         0.880405         79.3419
                               0               0                0               0         0.880674         79.3991         0.446661         171.074
                               0               0                0               0         0.125407         12.1955          0.11262         20.9409
                               0               0                0               0         0.112405         20.9707         0.125416         12.1899
75.72                          0               0                0               0         0.445767         169.993         0.880558         78.1344
                               0               0                0               0         0.880609         78.1718         0.446129         169.956
                               0               0                0               0         0.123112         11.6402         0.112263         19.1232
                               0               0                0               0          0.11212         19.1084         0.123119         11.6391
75.765                         0               0                0               0          0.44518         168.795          0.88079         76.8956
                               0               0                0               0         0.880702         76.9123         0.445346         168.783
                               0               0                0               0         0.120722         11.0726         0.111847         17.2081
                               0               0                0               0         0.111785         17.1593         0.120727         11.0755
75.81                          0               0                0               0         0.444397         167.547         0.881098         75.6254
                               0               0                0               0         0.880952         75.6223          0.44437         167.551
                               0               0                0               0         0.118239         10.4937         0.111399         15.1912
                               0               0                0               0         0.111416         15.1204         0.118241         10.4998
75.855                         0               0                0               0         0.443457         166.247         0.881485         74.3238
                               0               0                0               0         0.881358         74.3036         0.443266         166.259
                               0               0                0               0         0.115663         9.90556         0.110945         13.0735
                               0               0                0               0          0.11103          12.992         0.115664           9.914
75.9                           0               0                0               0         0.442404         164.894         0.881963         72.9907
                               0               0                0               0         0.881916         72.9577         0.442098         164.908
                               0               0                0               0         0.112998         9.31101         0.110506         10.8617
                               0               0                0               0         0.110642          10.778         0.112999         9.32094
75.945                         0               0                0               0          0.44128         163.492         0.882554         71.6263
                               0               0                0               0         0.882623          71.586         0.440918         163.504
                               0               0                0               0         0.110247         8.71426         0.110099         8.56663
                               0               0                0               0         0.110265         8.48571         0.110248         8.72482
75.99                          0               0                0               0         0.440125         162.044         0.883288         70.2318
                               0               0                0               0         0.883478         70.1904         0.439765         162.052
                               0               0                0               0         0.107414         8.12083          0.10973         6.20174
                               0               0                0               0         0.109907         6.12498         0.107416         8.13124
76.035                         0               0                0               0         0.438969         160.555         0.884201         68.8095
                               0               0                0               0         0.884481         68.7725         0.438658         160.561
                               0               0                0               0         0.104501         7.53773         0.109395         3.78106
                               0               0                0               0         0.109568          3.7071         0.104506         7.54735
76.08                          0               0                0               0         0.437829         159.033         0.885327         67.3632
                               0               0                0               0         0.885634         67.3347         0.437601         159.039
                               0               0                0               0         0.101513         6.97355         0.109086         1.31771
                               0               0                0               0         0.109243         1.24366         0.101522         6.98189
76.125                         0               0                0               0         0.436713         157.485         0.886685         65.8982
                               0               0                0               0          0.88694         65.8797         0.436583         157.495
                               0               0                0               0        0.0984543          6.4386         0.108787        -1.17703
                               0               0                0               0         0.108923         -1.2544        0.0984682          6.4453
76.17                          0               0                0               0         0.435615         155.919         0.888267         64.4207
                               0               0                0               0         0.888396          64.411         0.435583         155.934
                               0               0                0               0        0.0953285         5.94495          0.10848        -3.69406
                               0               0                0               0         0.108594        -3.77737        0.0953477         5.94979
76.215                         0               0                0               0         0.434522         154.341         0.890039         62.9373
                               0               0                0               0         0.889991         62.9327         0.434576         154.365
                               0               0                0               0        0.0921412         5.50661         0.108148        -6.22628
                               0               0                0               0         0.108241         -6.3171        0.0921657         5.50947
76.26                          0               0                0               0         0.433412         152.758         0.891934         61.4539
                               0               0                0               0         0.891702         61.4494         0.433532         152.791
                               0               0                0               0        0.0888987          5.1396         0.107773        -8.76823
                               0               0                0               0          0.10785        -8.86692        0.0889283         5.14046
76.305                         0               0                0               0         0.432261         151.176         0.893868         59.9749
                               0               0                0               0         0.893486          59.966         0.432425         151.218
                               0               0                0               0        0.0856089         4.86219         0.107339        -11.3157
                               0               0                0               0         0.107405        -11.4214         0.085643         4.86106
76.35                          0               0                0               0         0.431047           149.6         0.895745          58.503
                               0               0                0               0         0.895283         58.4867         0.431228          149.65
                               0               0                0               0        0.0822817         4.69505         0.106834         -13.865
                               0               0                0               0         0.106894        -13.9763        0.0823194         4.69197
76.395                         0               0                0               0         0.429745         148.033         0.897477         57.0394
                               0               0                0               0         0.897017          57.015         0.429922          148.09
                               0               0                0               0        0.0789296         4.66144         0.106248        -16.4132
                               0               0                0               0         0.106306        -16.5279        0.0789699         4.65651
76.44                          0               0                0               0         0.428337          146.48         0.898986         55.5842
                               0               0                0               0         0.898605         55.5533         0.428488          146.54
