! TOUCHSTONE file generated by CST MICROWAVE STUDIO
! Date and time: Sun Jun 20 22:37:45 2021
! Project name: HIPS_d_sweep.cst
! Parameters = {fmax=120; fmin=75; b=0.46; d=22.75; a=0.63; phi=0; theta=0}
! Header version: 2018
! Port assignment regex: !\s*Touchstone port\s*([0-9]+)\s*=\s*(CST MWS port|CST DS port)\s*([0-9]+|Zmin|Zmax)\s*\(\"(.*)\"\)(\s*mode\s*([0-9]+))?.*
! Touchstone port assignment:
! Touchstone port 1 = CST MWS port Zmin ("") mode 1
! Touchstone port 2 = CST MWS port Zmin ("") mode 2
! Touchstone port 3 = CST MWS port Zmax ("") mode 1
! Touchstone port 4 = CST MWS port Zmax ("") mode 2
! S-Parameters are not renormalized. Unphysical impedance of 0 will be written to the file.
# GHz S MA R 0
75                             0               0                0               0       0.00343839        -63.1693         0.994485         70.5363
                               0               0                0               0         0.994722          70.516        0.0034982        -65.1538
                               0               0                0               0         0.101513        -19.2911        0.0255258        -19.4256
                               0               0                0               0        0.0255318        -19.2797          0.10156        -19.3989
75.045                         0               0                0               0       0.00300737        -136.197          0.99537         69.7873
                               0               0                0               0         0.995552         69.7667        0.0031727        -141.266
                               0               0                0               0        0.0990159        -20.0574        0.0259155        -19.2685
                               0               0                0               0        0.0259373        -19.2449        0.0990683        -20.1699
75.09                          0               0                0               0       0.00559353        -170.989         0.995874         68.9573
                               0               0                0               0         0.996036         68.9362       0.00596569        -173.367
                               0               0                0               0        0.0962876         -20.864        0.0262366        -19.3474
                               0               0                0               0        0.0262636         -19.379        0.0963425        -20.9808
75.135                         0               0                0               0        0.0084962         176.767         0.996102         68.0457
                               0               0                0               0         0.996271         68.0243       0.00891026         175.705
                               0               0                0               0        0.0933181        -21.7169        0.0264756        -19.6542
                               0               0                0               0        0.0265013        -19.6869         0.093373        -21.8378
75.18                          0               0                0               0         0.011193         170.138         0.996148          67.053
                               0               0                0               0         0.996346         67.0313        0.0115442         169.819
                               0               0                0               0        0.0900978        -22.6222        0.0266199        -20.1779
                               0               0                0               0        0.0266416        -20.1709        0.0901505        -22.7472
75.225                         0               0                0               0        0.0135766         165.607         0.996098         65.9805
                               0               0                0               0         0.996341         65.9587        0.0137949         165.773
                               0               0                0               0         0.086617        -23.5863        0.0266587        -20.9058
                               0               0                0               0        0.0266765         -20.831        0.0866658        -23.7158
75.27                          0               0                0               0        0.0156048         162.106         0.996022         64.8306
                               0               0                0               0         0.996321         64.8087        0.0156484         162.597
                               0               0                0               0         0.082866        -24.6155        0.0265827        -21.8237
                               0               0                0               0         0.026599        -21.6648        0.0829098        -24.7501
75.315                         0               0                0               0        0.0172547         159.201         0.995976         63.6058
                               0               0                0               0         0.996339         63.5838        0.0171069         159.904
                               0               0                0               0        0.0788355         -25.716        0.0263848        -22.9163
                               0               0                0               0        0.0264035        -22.6679        0.0788737        -25.8569
75.36                          0               0                0               0        0.0185129         156.683         0.996001         62.3092
                               0               0                0               0         0.996432         62.2871        0.0181792         157.507
                               0               0                0               0        0.0745162        -26.8935        0.0260605        -24.1678
                               0               0                0               0        0.0260857         -23.834        0.0745485        -27.0422
75.405                         0               0                0               0        0.0193724          154.43         0.996122         60.9443
                               0               0                0               0         0.996624         60.9219        0.0188771         155.306
                               0               0                0               0        0.0698993        -28.1528        0.0256075        -25.5623
                               0               0                0               0        0.0256429         -25.155         0.069926        -28.3114
75.45                          0               0                0               0         0.019832         152.362         0.996351         59.5143
                               0               0                0               0         0.996922         59.4917        0.0192142         153.242
                               0               0                0               0        0.0649774        -29.4968        0.0250258        -27.0845
                               0               0                0               0        0.0250738         -26.622        0.0649989        -29.6679
75.495                         0               0                0               0        0.0198955         150.422         0.996683         58.0227
                               0               0                0               0          0.99732              58        0.0192051         151.273
                               0               0                0               0        0.0597457        -30.9251        0.0243174        -28.7199
                               0               0                0               0        0.0243791        -28.2249        0.0597624        -31.1125
75.54                          0               0                0               0        0.0195716         148.559         0.997103         56.4726
                               0               0                0               0         0.997797         56.4499         0.018865         149.374
                               0               0                0               0        0.0542035         -32.433        0.0234863        -30.4551
                               0               0                0               0        0.0235606        -29.9534         0.054216         -32.641
75.585                         0               0                0               0        0.0188739          146.73         0.997582         54.8666
                               0               0                0               0         0.998319         54.8444        0.0182091         147.523
                               0               0                0               0        0.0483573        -34.0087        0.0225378        -32.2782
                               0               0                0               0        0.0226219        -31.7971        0.0483664        -34.2426
75.63                          0               0                0               0        0.0178203         144.888         0.998085          53.207
                               0               0                0               0         0.998838         53.1858         0.017253         145.703
                               0               0                0               0         0.042223        -35.6312        0.0214782        -34.1788
                               0               0                0               0        0.0215674        -33.7456        0.0422307        -35.8981
75.675                         0               0                0               0        0.0164327         142.978         0.998569         51.4953
                               0               0                0               0         0.999298         51.4755        0.0160124         143.897
                               0               0                0               0        0.0358286        -37.2686        0.0203145        -36.1479
                               0               0                0               0        0.0204028        -35.7893        0.0358381        -37.5789
75.72                          0               0                0               0        0.0147361         140.932         0.998991         49.7319
                               0               0                0               0         0.999633         49.7134        0.0145028          142.09
                               0               0                0               0        0.0292128        -38.8758        0.0190537        -38.1782
                               0               0                0               0        0.0191342        -37.9187        0.0292296        -39.2493
75.765                         0               0                0               0        0.0127589         138.642         0.999319         47.9162
                               0               0                0               0         0.999787         47.8976          0.01274         140.263
                               0               0                0               0        0.0224206        -40.3883         0.017703        -40.2631
                               0               0                0               0        0.0177685        -40.1253        0.0224515        -40.8703
75.81                          0               0                0               0        0.0105316         135.918         0.999544         46.0464
                               0               0                0               0         0.999731         46.0235        0.0107401         138.387
                               0               0                0               0        0.0154941        -41.6844        0.0162694         -42.397
                               0               0                0               0        0.0163124        -42.4005         0.015545        -42.3968
75.855                         0               0                0               0       0.00808835         132.331           0.9997         44.1203
                               0               0                0               0         0.999506          44.084       0.00851958         136.413
                               0               0                0               0       0.00846338        -42.3131        0.0147591        -44.5741
                               0               0                0               0        0.0147731        -44.7361       0.00853528        -43.7096
75.9                           0               0                0               0       0.00547198         126.606         0.999879         42.1364
                               0               0                0               0         0.999286         42.0719       0.00609533         134.216
                               0               0                0               0       0.00136694        -32.3897        0.0131782         -46.787
                               0               0                0               0        0.0131574        -47.1222       0.00142921        -42.2578
75.945                         0               0                0               0       0.00277975         112.344                1         40.0966
                               0               0                0               0         0.999409         39.9861       0.00348557         131.294
                               0               0                0               0       0.00591165         129.148        0.0115322        -49.0246
                               0               0                0               0        0.0114722        -49.5463       0.00579229         131.642
75.99                          0               0                0               0       0.00124233         24.7447                1         38.0091
                               0               0                0               0                1          37.841      0.000720278         119.265
                               0               0                0               0        0.0132525         129.251       0.00982621        -51.2668
                               0               0                0               0       0.00972405        -51.9886        0.0131355         130.508
76.035                         0               0                0               0       0.00369147        -28.3649                1         35.8893
                               0               0                0               0                1         35.6701       0.00223222        -45.6675
                               0               0                0               0        0.0207233         128.051       0.00806502        -53.4734
                               0               0                0               0        0.0079196        -54.4121        0.0206157         128.937
76.08                          0               0                0               0       0.00675702        -38.8856                1         33.7577
                               0               0                0               0                1         33.5141       0.00528687        -49.9622
                               0               0                0               0        0.0283237           126.5        0.0062536        -55.5521
                               0               0                0               0       0.00606557        -56.7344        0.0282324         127.194
76.125                         0               0                0               0       0.00993786        -44.2409                1         31.6333
                               0               0                0               0                1         31.3989       0.00845219         -52.587
                               0               0                0               0        0.0360435         124.751       0.00439738        -57.2435
                               0               0                0               0       0.00416907        -58.7194        0.0359723         125.319
76.17                          0               0                0               0        0.0131731        -48.1638                1         29.5284
                               0               0                0               0                1         29.3281        0.0117045        -54.9268
                               0               0                0               0         0.043861         122.857       0.00250402        -57.4787
                               0               0                0               0       0.00223898        -59.3046        0.0438106         123.329
76.215                         0               0                0               0        0.0164335        -51.5418                1          27.447
                               0               0                0               0                1         27.2905        0.0150208        -57.2078
                               0               0                0               0         0.051745         120.841      0.000613034        -41.5622
                               0               0                0               0      0.000330745        -31.3799        0.0517135         121.239
76.26                          0               0                0               0        0.0196969        -54.6895                1          25.387
                               0               0                0               0                1         25.2728         0.018378        -59.5029
                               0               0                0               0         0.059657         118.725       0.00142703         100.607
                               0               0                0               0       0.00172543         103.322        0.0596411          119.06
76.305                         0               0                0               0        0.0229446        -57.7446                1         23.3443
                               0               0                0               0                1          23.265        0.0217526        -61.8449
                               0               0                0               0        0.0675542         116.523       0.00339474         103.596
                               0               0                0               0        0.0037133         103.696        0.0675497         116.808
76.35                          0               0                0               0        0.0261596        -60.7752                1         21.3147
                               0               0                0               0                1         21.2618        0.0251211        -64.2513
                               0               0                0               0        0.0753914         114.254       0.00538265         102.106
                               0               0                0               0       0.00570621           101.6        0.0753938         114.496
76.395                         0               0                0               0        0.0293263        -63.8168                1         19.2955
                               0               0                0               0                1         19.2613        0.0284603        -66.7327
                               0               0                0               0        0.0831228          111.93       0.00737197         99.6797
                               0               0                0               0       0.00768993         98.9043         0.083128         112.137
76.44                          0               0                0               0        0.0324302        -66.8881                1         17.2853
                               0               0                0               0                1         17.2639        0.0317478        -69.2955
