! TOUCHSTONE file generated by CST MICROWAVE STUDIO
! Date and time: Sun Jun 20 22:37:23 2021
! Project name: HIPS_d_sweep.cst
! Parameters = {fmax=120; fmin=75; b=0.46; d=20.65; a=0.63; phi=0; theta=0}
! Header version: 2018
! Port assignment regex: !\s*Touchstone port\s*([0-9]+)\s*=\s*(CST MWS port|CST DS port)\s*([0-9]+|Zmin|Zmax)\s*\(\"(.*)\"\)(\s*mode\s*([0-9]+))?.*
! Touchstone port assignment:
! Touchstone port 1 = CST MWS port Zmin ("") mode 1
! Touchstone port 2 = CST MWS port Zmin ("") mode 2
! Touchstone port 3 = CST MWS port Zmax ("") mode 1
! Touchstone port 4 = CST MWS port Zmax ("") mode 2
! S-Parameters are not renormalized. Unphysical impedance of 0 will be written to the file.
# GHz S MA R 0
75                             0               0                0               0         0.132492         41.9031         0.965641        -51.8289
                               0               0                0               0         0.965676        -51.8157         0.132418         41.8833
                               0               0                0               0         0.218813          39.623        0.0482059         76.6083
                               0               0                0               0        0.0481588         76.4839         0.218757         39.6186
75.045                         0               0                0               0         0.135614          40.927         0.965974        -52.4942
                               0               0                0               0          0.96579        -52.4993         0.135279         40.8673
                               0               0                0               0         0.218478         39.0142        0.0489708         76.0862
                               0               0                0               0        0.0488884         75.9639         0.218411         39.0204
75.09                          0               0                0               0         0.138601         39.9812         0.966042        -53.2293
                               0               0                0               0         0.965745        -53.2461         0.138082         39.8835
                               0               0                0               0         0.217986         38.3388        0.0497155         75.4705
                               0               0                0               0        0.0496067         75.3503         0.217905         38.3514
75.135                         0               0                0               0         0.141409         39.0557         0.965915        -54.0344
                               0               0                0               0         0.965582        -54.0569         0.140782         38.9268
                               0               0                0               0         0.217359         37.5941        0.0504382         74.7504
                               0               0                0               0        0.0503119         74.6325         0.217266         37.6092
75.18                          0               0                0               0         0.143997         38.1386         0.965655        -54.9087
                               0               0                0               0          0.96534         -54.932         0.143332         37.9895
                               0               0                0               0         0.216618         36.7788        0.0511381         73.9154
                               0               0                0               0        0.0510026         73.8006         0.216519         36.7937
75.225                         0               0                0               0         0.146327         37.2168          0.96532        -55.8514
                               0               0                0               0         0.965057        -55.8714         0.145686         37.0606
                               0               0                0               0         0.215783          35.893        0.0518149         72.9561
                               0               0                0               0        0.0516774         72.8452         0.215682         35.9057
75.27                          0               0                0               0          0.14837         36.2766         0.964961        -56.8608
                               0               0                0               0         0.964765        -56.8746           0.1478         36.1271
                               0               0                0               0         0.214867         34.9381        0.0524687         71.8644
                               0               0                0               0        0.0523353         71.7581          0.21477         34.9473
75.315                         0               0                0               0         0.150106         35.3045          0.96462        -57.9353
                               0               0                0               0         0.964495         -57.941         0.149638         35.1742
                               0               0                0               0         0.213882          33.916        0.0530998          70.634
                               0               0                0               0        0.0529752         70.5328         0.213792         33.9212
75.36                          0               0                0               0         0.151523         34.2882         0.964332        -59.0725
                               0               0                0               0         0.964272        -59.0693         0.151172         34.1868
                               0               0                0               0         0.212833         32.8293        0.0537085         69.2609
                               0               0                0               0        0.0535954         69.1645         0.212753         32.8305
75.405                         0               0                0               0         0.152618         33.2172         0.964125        -60.2701
                               0               0                0               0         0.964118        -60.2582         0.152385         33.1499
                               0               0                0               0         0.211721         31.6807        0.0542948         67.7431
                               0               0                0               0        0.0541944         67.6509         0.211653         31.6783
75.45                          0               0                0               0         0.153395          32.083         0.964019        -61.5257
                               0               0                0               0          0.96405         -61.506         0.153268         32.0505
                               0               0                0               0         0.210544         30.4733        0.0548577         66.0814
                               0               0                0               0        0.0547694          65.992         0.210489         30.4677
75.495                         0               0                0               0         0.153863         30.8799         0.964026        -62.8365
                               0               0                0               0         0.964079        -62.8107         0.153824         30.8781
                               0               0                0               0         0.209297         29.2098        0.0553957         64.2789
                               0               0                0               0        0.0553174         64.1903         0.209255         29.2018
75.54                          0               0                0               0         0.154039         29.6045         0.964155        -64.1999
                               0               0                0               0         0.964215        -64.1702         0.154063         29.6251
                               0               0                0               0         0.207971          27.893         0.055906          62.341
                               0               0                0               0        0.0558344         62.2513         0.207939         27.8834
75.585                         0               0                0               0         0.153939         28.2561         0.964406        -65.6131
                               0               0                0               0         0.964459        -65.5821         0.153999         28.2877
                               0               0                0               0         0.206556         26.5255        0.0563851         60.2756
                               0               0                0               0        0.0563158         60.1827         0.206531         26.5151
75.63                          0               0                0               0         0.153583         26.8363         0.964776        -67.0735
                               0               0                0               0         0.964811        -67.0437          0.15365         26.8655
                               0               0                0               0         0.205039         25.1099        0.0568283         58.0924
                               0               0                0               0        0.0567567         57.9946         0.205018         25.0993
75.675                         0               0                0               0          0.15299         25.3487         0.965257        -68.5782
                               0               0                0               0         0.965267        -68.5524         0.153037         25.3618
                               0               0                0               0         0.203405         23.6486        0.0572308         55.8029
                               0               0                0               0        0.0571519          55.699         0.203384         23.6384
75.72                          0               0                0               0         0.152182         23.7985         0.965838        -70.1248
                               0               0                0               0         0.965818        -70.1051          0.15218         23.7827
                               0               0                0               0          0.20164         22.1438        0.0575871         53.4197
                               0               0                0               0        0.0574966         53.3096         0.201616         22.1345
75.765                         0               0                0               0         0.151175         22.1923         0.966505        -71.7106
                               0               0                0               0         0.966454        -71.6988         0.151101          22.137
                               0               0                0               0         0.199729         20.5978        0.0578923         50.9562
                               0               0                0               0        0.0577868         50.8406         0.199696         20.5899
75.81                          0               0                0               0         0.149989         20.5374         0.967245        -73.3331
                               0               0                0               0         0.967164        -73.3305         0.149821         20.4358
                               0               0                0               0         0.197654         19.0129        0.0581418         48.4262
                               0               0                0               0        0.0580192         48.3068          0.19761         19.0065
75.855                         0               0                0               0         0.148641         18.8419         0.968041        -74.9898
                               0               0                0               0         0.967933        -74.9968         0.148361         18.6912
                               0               0                0               0         0.195401         17.3916        0.0583321          45.843
                               0               0                0               0         0.058192         45.7223         0.195342         17.3867
75.9                           0               0                0               0         0.147147         17.1139         0.968879        -76.6783
                               0               0                0               0         0.968748        -76.6944         0.146744         16.9166
                               0               0                0               0         0.192954         15.7364        0.0584608         43.2194
                               0               0                0               0        0.0583045         43.1002         0.192878         15.7326
75.945                         0               0                0               0         0.145522         15.3614         0.969745         -78.396
                               0               0                0               0         0.969597        -78.4201         0.144995         15.1252
                               0               0                0               0         0.190298         14.0497        0.0585265         40.5667
                               0               0                0               0        0.0583573         40.4519         0.190203         14.0467
75.99                          0               0                0               0         0.143782         13.5917         0.970627        -80.1406
                               0               0                0               0         0.970467        -80.1705         0.143141         13.3292
                               0               0                0               0         0.187419         12.3343        0.0585292         37.8945
                               0               0                0               0        0.0583516         37.7867         0.187306         12.3312
76.035                         0               0                0               0         0.141939         11.8114         0.971518        -81.9095
                               0               0                0               0          0.97135        -81.9424         0.141211         11.5389
                               0               0                0               0         0.184306         10.5929        0.0584693         35.2107
                               0               0                0               0        0.0582889         35.1115         0.184178         10.5887
76.08                          0               0                0               0         0.140007         10.0258         0.972413        -83.7002
                               0               0                0               0         0.972239        -83.7326         0.139235         9.76134
                               0               0                0               0          0.18095         8.82804        0.0583478         32.5207
                               0               0                0               0        0.0581708         32.4309         0.180811         8.82149
76.125                         0               0                0               0         0.137996         8.23826         0.973311        -85.5097
                               0               0                0               0         0.973134        -85.5381         0.137243         7.99878
                               0               0                0               0         0.177346         7.04192        0.0581657         29.8282
                               0               0                0               0        0.0579981         29.7474         0.177204         7.03198
76.17                          0               0                0               0         0.135916         6.44981         0.974216        -87.3351
                               0               0                0               0         0.974035        -87.3562         0.135257         6.24785
                               0               0                0               0         0.173495         5.23636        0.0579237         27.1348
                               0               0                0               0        0.0577704         27.0616         0.173362         5.22254
76.215                         0               0                0               0         0.133775         4.65852         0.975135        -89.1731
                               0               0                0               0         0.974948        -89.1842         0.133288         4.49901
                               0               0                0               0         0.169407         3.41276        0.0576216         24.4406
                               0               0                0               0         0.057486         24.3728         0.169294         3.39585
76.26                          0               0                0               0         0.131578          2.8588         0.976079          -91.02
                               0               0                0               0         0.975881          -91.02         0.131331         2.73735
                               0               0                0               0         0.165103         1.57281        0.0572586         21.7448
                               0               0                0               0        0.0571418           21.68         0.165021         1.55536
76.305                         0               0                0               0         0.129331         1.04098         0.977057        -92.8718
                               0               0                0               0         0.976843        -92.8615         0.129355        0.945087
                               0               0                0               0         0.160618       -0.279803        0.0568331         19.0459
                               0               0                0               0        0.0567339         18.9821         0.160569        -0.29386
76.35                          0               0                0               0         0.127044       -0.808179         0.978074        -94.7246
                               0               0                0               0         0.977844         -94.707         0.127309       -0.894595
                               0               0                0               0         0.155994        -2.13688        0.0563435         16.3431
                               0               0                0               0        0.0562578         16.2795         0.155969        -2.14439
76.395                         0               0                0               0         0.124734        -2.70265         0.979131        -96.5744
                               0               0                0               0         0.978887        -96.5548         0.125127          -2.793
                               0               0                0               0          0.15127        -3.98453        0.0557889         13.6369
                               0               0                0               0        0.0557103         13.5742         0.151249        -3.98671
76.44                          0               0                0               0          0.12243        -4.64997         0.980218        -98.4182
                               0               0                0               0         0.979967        -98.4026         0.122756        -4.75096
