! TOUCHSTONE file generated by CST MICROWAVE STUDIO
! Date and time: Sun Jun 20 22:38:05 2021
! Project name: HIPS_d_sweep.cst
! Parameters = {fmax=120; fmin=75; b=0.46; d=24.5; a=0.63; phi=0; theta=0}
! Header version: 2018
! Port assignment regex: !\s*Touchstone port\s*([0-9]+)\s*=\s*(CST MWS port|CST DS port)\s*([0-9]+|Zmin|Zmax)\s*\(\"(.*)\"\)(\s*mode\s*([0-9]+))?.*
! Touchstone port assignment:
! Touchstone port 1 = CST MWS port Zmin ("") mode 1
! Touchstone port 2 = CST MWS port Zmin ("") mode 2
! Touchstone port 3 = CST MWS port Zmax ("") mode 1
! Touchstone port 4 = CST MWS port Zmax ("") mode 2
! S-Parameters are not renormalized. Unphysical impedance of 0 will be written to the file.
# GHz S MA R 0
75                             0               0                0               0         0.128715         141.757         0.991362        -128.477
                               0               0                0               0         0.991328        -128.484         0.128616         141.751
                               0               0                0               0        0.0258353        -34.9218        0.0128553         156.168
                               0               0                0               0        0.0128855         156.223        0.0258525        -34.7371
75.045                         0               0                0               0         0.122745          141.51         0.992568        -129.292
                               0               0                0               0          0.99256        -129.298         0.122236         141.395
                               0               0                0               0        0.0229661        -36.1155        0.0124276         154.766
                               0               0                0               0        0.0124707         154.893        0.0229874        -35.8851
75.09                          0               0                0               0         0.118278         140.744         0.993376        -130.191
                               0               0                0               0         0.993378        -130.196         0.117724         140.577
                               0               0                0               0        0.0198598        -37.0854         0.012048         152.589
                               0               0                0               0         0.012096         152.768        0.0198825        -36.8038
75.135                         0               0                0               0         0.114983         139.662         0.993857        -131.173
                               0               0                0               0         0.993858        -131.178         0.114519         139.496
                               0               0                0               0        0.0164952        -37.7107        0.0117516         149.654
                               0               0                0               0        0.0117992         149.858        0.0165177        -37.3667
75.18                          0               0                0               0         0.112588         138.388         0.994077        -132.238
                               0               0                0               0         0.994072        -132.243         0.112251         138.258
                               0               0                0               0        0.0128565         -37.709        0.0115706         146.043
                               0               0                0               0        0.0116158         146.242        0.0128789        -37.2777
75.225                         0               0                0               0          0.11089         136.994         0.994099        -133.386
                               0               0                0               0         0.994085        -133.393          0.11067         136.919
                               0               0                0               0       0.00893976        -36.2358        0.0115316         141.901
                               0               0                0               0        0.0115751         142.071       0.00896375         -35.652
75.27                          0               0                0               0         0.109734         135.523         0.993979        -134.617
                               0               0                0               0         0.993956        -134.624         0.109607         135.511
                               0               0                0               0        0.0047868        -29.2645        0.0116536         137.426
                               0               0                0               0        0.0116977          137.55       0.00482004        -28.3021
75.315                         0               0                0               0         0.109005         134.001         0.993765        -135.927
                               0               0                0               0         0.993737        -135.936         0.108942          134.05
                               0               0                0               0       0.00145812         42.2131        0.0119459         132.832
                               0               0                0               0        0.0119937         132.905       0.00153706         41.9879
75.36                          0               0                0               0         0.108615         132.442         0.993498        -137.316
                               0               0                0               0         0.993468        -137.326         0.108589         132.544
                               0               0                0               0       0.00511565         113.716        0.0124094         128.311
                               0               0                0               0        0.0124638         128.339       0.00513138         112.942
75.405                         0               0                0               0         0.108498          130.85          0.99321         -138.78
                               0               0                0               0         0.993182        -138.791         0.108483         130.996
                               0               0                0               0        0.0102093         120.689        0.0130386         124.009
                               0               0                0               0        0.0131016         124.005        0.0102127         120.333
75.45                          0               0                0               0         0.108602         129.229         0.992923        -140.317
                               0               0                0               0         0.992903        -140.328         0.108579         129.403
                               0               0                0               0        0.0156797         122.163        0.0138244          120.01
                               0               0                0               0        0.0138967         119.988        0.0156779         121.953
75.495                         0               0                0               0         0.108886         127.574         0.992654        -141.922
                               0               0                0               0         0.992646        -141.934          0.10884         127.763
                               0               0                0               0        0.0214643         122.167        0.0147571         116.343
                               0               0                0               0        0.0148382         116.317         0.021459         122.023
75.54                          0               0                0               0         0.109318         125.882          0.99241        -143.594
                               0               0                0               0         0.992418        -143.604          0.10924         126.069
                               0               0                0               0        0.0275387         121.543         0.015828         112.993
                               0               0                0               0        0.0159165         112.977        0.0275308         121.434
75.585                         0               0                0               0         0.109874         124.146          0.99219        -145.327
                               0               0                0               0         0.992219        -145.337         0.109761         124.314
                               0               0                0               0        0.0338825         120.573        0.0170309         109.919
                               0               0                0               0        0.0171247         109.925        0.0338725         120.482
75.63                          0               0                0               0         0.110535         122.355         0.991989        -147.118
                               0               0                0               0          0.99204        -147.127         0.110392          122.49
                               0               0                0               0        0.0404742         119.375        0.0183623         107.063
                               0               0                0               0        0.0184592         107.102        0.0404628         119.292
75.675                         0               0                0               0          0.11129         120.501         0.991796        -148.964
                               0               0                0               0          0.99187         -148.97         0.111131         120.587
                               0               0                0               0        0.0472899         118.007        0.0198207         104.362
                               0               0                0               0        0.0199189         104.442        0.0472776         117.927
75.72                          0               0                0               0         0.112136         118.569         0.991593         -150.86
                               0               0                0               0         0.991692        -150.864         0.111984         118.596
                               0               0                0               0        0.0543027         116.499        0.0214055         101.747
                               0               0                0               0        0.0215043         101.876          0.05429         116.418
75.765                         0               0                0               0          0.11308         116.547         0.991361        -152.801
                               0               0                0               0         0.991484        -152.803         0.112967         116.509
                               0               0                0               0        0.0614825          114.87        0.0231154         99.1506
                               0               0                0               0        0.0232158         99.3356        0.0614697         114.787
75.81                          0               0                0               0         0.114142         114.423         0.991079        -154.786
                               0               0                0               0         0.991225        -154.784         0.114108          114.32
                               0               0                0               0        0.0687959         113.134        0.0249454         96.5091
                               0               0                0               0         0.025051         96.7534        0.0687832         113.047
75.855                         0               0                0               0         0.115357         112.187         0.990723        -156.808
                               0               0                0               0          0.99089        -156.803         0.115443         112.031
                               0               0                0               0        0.0762065           111.3        0.0268836         93.7646
                               0               0                0               0         0.027001         94.0664        0.0761937          111.21
75.9                           0               0                0               0         0.116778         109.838         0.990271        -158.865
                               0               0                0               0         0.990456        -158.857         0.117017         109.648
                               0               0                0               0        0.0836749         109.378        0.0289078         90.8715
                               0               0                0               0         0.029046         91.2214        0.0836616         109.285
75.945                         0               0                0               0         0.118467         107.385         0.989699        -160.952
                               0               0                0               0         0.989899        -160.941         0.118879         107.191
                               0               0                0               0        0.0911592         107.377         0.030983         87.8028
                               0               0                0               0        0.0311517         88.1826        0.0911449          107.28
75.99                          0               0                0               0         0.120492         104.852          0.98899        -163.065
                               0               0                0               0           0.9892        -163.052         0.121066         104.686
                               0               0                0               0        0.0986159         105.304         0.033062         84.5568
                               0               0                0               0        0.0332682         84.9407        0.0985997         105.206
76.035                         0               0                0               0         0.122905         102.281         0.988125        -165.201
                               0               0                0               0         0.988341        -165.185         0.123598         102.171
                               0               0                0               0         0.106001         103.169        0.0350902         81.1609
                               0               0                0               0        0.0353345         81.5199         0.105982         103.071
76.08                          0               0                0               0         0.125722         99.7218         0.987095        -167.357
                               0               0                0               0         0.987311        -167.339         0.126467         99.6822
                               0               0                0               0          0.11327         100.983        0.0370164         77.6686
                               0               0                0               0        0.0372902         77.9773         0.113248         100.885
76.125                         0               0                0               0         0.128911         97.2249         0.985893        -169.527
                               0               0                0               0         0.986104        -169.509          0.12963         97.2534
                               0               0                0               0         0.120381         98.7544        0.0388037         74.1482
                               0               0                0               0        0.0390901         74.3917         0.120355         98.6592
76.17                          0               0                0               0         0.132388         94.8267          0.98452         -171.71
                               0               0                0               0         0.984721        -171.691         0.133014         94.9053
                               0               0                0               0         0.127295         96.4948        0.0404377         70.6668
                               0               0                0               0         0.040716          70.844         0.127267         96.4038
76.215                         0               0                0               0         0.136041         92.5413         0.982987        -173.902
                               0               0                0               0         0.983171        -173.883         0.136534         92.6442
                               0               0                0               0         0.133981         94.2148        0.0419269         67.2752
                               0               0                0               0        0.0421783         67.3969          0.13395         94.1295
76.26                          0               0                0               0         0.139747          90.361         0.981311        -176.099
                               0               0                0               0         0.981475        -176.081         0.140099         90.4631
                               0               0                0               0         0.140411          91.925        0.0432963         63.9995
                               0               0                0               0        0.0435081         64.0828         0.140379          91.847
76.305                         0               0                0               0         0.143404         88.2627         0.979523        -178.298
                               0               0                0               0         0.979662        -178.282         0.143631         88.3454
                               0               0                0               0         0.146567         89.6359         0.044577          60.841
                               0               0                0               0        0.0447442         60.9037         0.146537         89.5664
76.35                          0               0                0               0         0.146937          86.217         0.977661         179.505
                               0               0                0               0         0.977774         179.518         0.147068         86.2702
                               0               0                0               0         0.152444         87.3569         0.045798         57.7825
                               0               0                0               0        0.0459215         57.8388         0.152418         87.2968
76.395                         0               0                0               0         0.150298         84.1951         0.975774         177.312
                               0               0                0               0          0.97586         177.322         0.150366         84.2166
                               0               0                0               0         0.158043         85.0963        0.0469805         54.7964
                               0               0                0               0        0.0470652         54.8554         0.158025         85.0461
76.44                          0               0                0               0         0.153466         82.1734         0.973919         175.128
                               0               0                0               0          0.97398         175.134           0.1535         82.1663
