# Hz S RI R 50.000000
! Metas.Vna.Tools, 2.4.7724.19584
! Metas.Vna.Data, 2.4.7724.19560
! Created: UTC 2021.04.29 12:40:10
! FREQ                re:S1,1             im:S1,1             re:S2,1             im:S2,1             re:S1,2             im:S1,2             re:S2,2             im:S2,2          
  7.5000000000e+010  -5.1122546675e-004  -7.6649161944e-004   9.8919247191e-001  -1.7093105154e-001   9.9009280355e-001  -1.7893896176e-001  -7.5291947579e-004   4.3789595920e-004
  7.5025000000e+010  -5.1122008354e-004  -7.6646743417e-004   9.8919232731e-001  -1.7093090549e-001   9.9009267742e-001  -1.7893876813e-001  -7.5289605427e-004   4.3788147178e-004
  7.5050000000e+010  -5.1120931700e-004  -7.6641906463e-004   9.8919203810e-001  -1.7093061340e-001   9.9009242518e-001  -1.7893838088e-001  -7.5284921282e-004   4.3785249780e-004
  7.5075000000e+010  -5.1119316686e-004  -7.6634651285e-004   9.8919160430e-001  -1.7093017527e-001   9.9009204681e-001  -1.7893780001e-001  -7.5277895461e-004   4.3780903900e-004
  7.5100000000e+010  -5.1117163277e-004  -7.6624978187e-004   9.8919102591e-001  -1.7092959109e-001   9.9009154232e-001  -1.7893702551e-001  -7.5268528441e-004   4.3775109797e-004
  7.5125000000e+010  -5.1114471421e-004  -7.6612887571e-004   9.8919030292e-001  -1.7092886089e-001   9.9009091172e-001  -1.7893605739e-001  -7.5256820857e-004   4.3767867820e-004
  7.5150000000e+010  -5.1111241055e-004  -7.6598379944e-004   9.8918943534e-001  -1.7092798465e-001   9.9009015500e-001  -1.7893489566e-001  -7.5242773502e-004   4.3759178401e-004
  7.5175000000e+010  -5.1107472106e-004  -7.6581455912e-004   9.8918842317e-001  -1.7092696240e-001   9.9008927217e-001  -1.7893354031e-001  -7.5226387329e-004   4.3749042060e-004
  7.5200000000e+010  -5.1103164484e-004  -7.6562116181e-004   9.8918726642e-001  -1.7092579413e-001   9.9008826323e-001  -1.7893199135e-001  -7.5207663447e-004   4.3737459405e-004
  7.5225000000e+010  -5.1098318089e-004  -7.6540361560e-004   9.8918596510e-001  -1.7092447987e-001   9.9008712819e-001  -1.7893024879e-001  -7.5186603127e-004   4.3724431128e-004
  7.5250000000e+010  -5.1092932810e-004  -7.6516192959e-004   9.8918451921e-001  -1.7092301962e-001   9.9008586705e-001  -1.7892831263e-001  -7.5163207796e-004   4.3709958010e-004
  7.5275000000e+010  -5.1087008520e-004  -7.6489611386e-004   9.8918292876e-001  -1.7092141339e-001   9.9008447981e-001  -1.7892618287e-001  -7.5137479038e-004   4.3694040916e-004
  7.5300000000e+010  -5.1080545083e-004  -7.6460617953e-004   9.8918119375e-001  -1.7091966119e-001   9.9008296649e-001  -1.7892385952e-001  -7.5109418599e-004   4.3676680800e-004
  7.5325000000e+010  -5.1073542348e-004  -7.6429213871e-004   9.8917931420e-001  -1.7091776305e-001   9.9008132709e-001  -1.7892134260e-001  -7.5079028378e-004   4.3657878700e-004
  7.5350000000e+010  -5.1066000153e-004  -7.6395400454e-004   9.8917729012e-001  -1.7091571898e-001   9.9007956161e-001  -1.7891863210e-001  -7.5046310436e-004   4.3637635741e-004
  7.5375000000e+010  -5.1057918325e-004  -7.6359179113e-004   9.8917512150e-001  -1.7091352900e-001   9.9007767007e-001  -1.7891572803e-001  -7.5011266990e-004   4.3615953134e-004
  7.5400000000e+010  -5.1049296674e-004  -7.6320551362e-004   9.8917280838e-001  -1.7091119313e-001   9.9007565247e-001  -1.7891263041e-001  -7.4973900413e-004   4.3592832177e-004
  7.5425000000e+010  -5.1040135004e-004  -7.6279518817e-004   9.8917035075e-001  -1.7090871138e-001   9.9007350883e-001  -1.7890933924e-001  -7.4934213237e-004   4.3568274252e-004
  7.5450000000e+010  -5.1030433103e-004  -7.6236083191e-004   9.8916774863e-001  -1.7090608378e-001   9.9007123914e-001  -1.7890585453e-001  -7.4892208151e-004   4.3542280829e-004
  7.5475000000e+010  -5.1020190746e-004  -7.6190246301e-004   9.8916500203e-001  -1.7090331035e-001   9.9006884342e-001  -1.7890217630e-001  -7.4847887999e-004   4.3514853462e-004
  7.5500000000e+010  -5.1009407700e-004  -7.6142010062e-004   9.8916211096e-001  -1.7090039111e-001   9.9006632168e-001  -1.7889830454e-001  -7.4801255784e-004   4.3485993791e-004
  7.5525000000e+010  -5.0998083716e-004  -7.6091376490e-004   9.8915907545e-001  -1.7089732610e-001   9.9006367394e-001  -1.7889423929e-001  -7.4752314663e-004   4.3455703542e-004
  7.5550000000e+010  -5.0986218534e-004  -7.6038347702e-004   9.8915589550e-001  -1.7089411534e-001   9.9006090019e-001  -1.7888998053e-001  -7.4701067950e-004   4.3423984526e-004
  7.5575000000e+010  -5.0973811885e-004  -7.5982925915e-004   9.8915257113e-001  -1.7089075885e-001   9.9005800047e-001  -1.7888552830e-001  -7.4647519116e-004   4.3390838638e-004
  7.5600000000e+010  -5.0960863483e-004  -7.5925113445e-004   9.8914910236e-001  -1.7088725667e-001   9.9005497477e-001  -1.7888088260e-001  -7.4591671785e-004   4.3356267861e-004
  7.5625000000e+010  -5.0947373035e-004  -7.5864912709e-004   9.8914548920e-001  -1.7088360882e-001   9.9005182311e-001  -1.7887604345e-001  -7.4533529737e-004   4.3320274259e-004
  7.5650000000e+010  -5.0933340232e-004  -7.5802326224e-004   9.8914173168e-001  -1.7087981534e-001   9.9004854550e-001  -1.7887101086e-001  -7.4473096909e-004   4.3282859984e-004
  7.5675000000e+010  -5.0918764758e-004  -7.5737356607e-004   9.8913782980e-001  -1.7087587626e-001   9.9004514196e-001  -1.7886578484e-001  -7.4410377389e-004   4.3244027271e-004
  7.5700000000e+010  -5.0903646281e-004  -7.5670006573e-004   9.8913378360e-001  -1.7087179161e-001   9.9004161251e-001  -1.7886036541e-001  -7.4345375422e-004   4.3203778438e-004
  7.5725000000e+010  -5.0887984461e-004  -7.5600278939e-004   9.8912959309e-001  -1.7086756144e-001   9.9003795715e-001  -1.7885475259e-001  -7.4278095405e-004   4.3162115890e-004
  7.5750000000e+010  -5.0871778943e-004  -7.5528176621e-004   9.8912525829e-001  -1.7086318577e-001   9.9003417591e-001  -1.7884894640e-001  -7.4208541889e-004   4.3119042114e-004
  7.5775000000e+010  -5.0855029364e-004  -7.5453702633e-004   9.8912077922e-001  -1.7085866465e-001   9.9003026879e-001  -1.7884294684e-001  -7.4136719580e-004   4.3074559681e-004
  7.5800000000e+010  -5.0837735347e-004  -7.5376860091e-004   9.8911615591e-001  -1.7085399811e-001   9.9002623583e-001  -1.7883675395e-001  -7.4062633332e-004   4.3028671247e-004
  7.5825000000e+010  -5.0819896506e-004  -7.5297652207e-004   9.8911138837e-001  -1.7084918620e-001   9.9002207703e-001  -1.7883036773e-001  -7.3986288157e-004   4.2981379550e-004
  7.5850000000e+010  -5.0801512443e-004  -7.5216082294e-004   9.8910647664e-001  -1.7084422896e-001   9.9001779241e-001  -1.7882378820e-001  -7.3907689215e-004   4.2932687411e-004
  7.5875000000e+010  -5.0782582748e-004  -7.5132153763e-004   9.8910142073e-001  -1.7083912642e-001   9.9001338199e-001  -1.7881701540e-001  -7.3826841819e-004   4.2882597734e-004
  7.5900000000e+010  -5.0763107001e-004  -7.5045870127e-004   9.8909622067e-001  -1.7083387865e-001   9.9000884579e-001  -1.7881004932e-001  -7.3743751432e-004   4.2831113507e-004
  7.5925000000e+010  -5.0743084772e-004  -7.4957234993e-004   9.8909087649e-001  -1.7082848567e-001   9.9000418384e-001  -1.7880289001e-001  -7.3658423668e-004   4.2778237799e-004
  7.5950000000e+010  -5.0722515618e-004  -7.4866252069e-004   9.8908538822e-001  -1.7082294754e-001   9.8999939614e-001  -1.7879553747e-001  -7.3570864292e-004   4.2723973761e-004
  7.5975000000e+010  -5.0701399087e-004  -7.4772925162e-004   9.8907975587e-001  -1.7081726431e-001   9.8999448272e-001  -1.7878799173e-001  -7.3481079218e-004   4.2668324628e-004
  7.6000000000e+010  -5.0679734717e-004  -7.4677258177e-004   9.8907397948e-001  -1.7081143603e-001   9.8998944361e-001  -1.7878025281e-001  -7.3389074508e-004   4.2611293714e-004
  7.6025000000e+010  -5.0657522033e-004  -7.4579255116e-004   9.8906805909e-001  -1.7080546274e-001   9.8998427882e-001  -1.7877232074e-001  -7.3294856374e-004   4.2552884417e-004
  7.6050000000e+010  -5.0634760552e-004  -7.4478920080e-004   9.8906199470e-001  -1.7079934450e-001   9.8997898837e-001  -1.7876419554e-001  -7.3198431176e-004   4.2493100214e-004
  7.6075000000e+010  -5.0611449779e-004  -7.4376257268e-004   9.8905578637e-001  -1.7079308136e-001   9.8997357230e-001  -1.7875587722e-001  -7.3099805421e-004   4.2431944665e-004
  7.6100000000e+010  -5.0587589212e-004  -7.4271270976e-004   9.8904943411e-001  -1.7078667337e-001   9.8996803061e-001  -1.7874736583e-001  -7.2998985763e-004   4.2369421408e-004
  7.6125000000e+010  -5.0563178335e-004  -7.4163965599e-004   9.8904293796e-001  -1.7078012060e-001   9.8996236335e-001  -1.7873866138e-001  -7.2895979003e-004   4.2305534164e-004
  7.6150000000e+010  -5.0538216624e-004  -7.4054345627e-004   9.8903629796e-001  -1.7077342310e-001   9.8995657052e-001  -1.7872976389e-001  -7.2790792089e-004   4.2240286733e-004
  7.6175000000e+010  -5.0512703545e-004  -7.3942415649e-004   9.8902951412e-001  -1.7076658093e-001   9.8995065216e-001  -1.7872067340e-001  -7.2683432111e-004   4.2173682994e-004
  7.6200000000e+010  -5.0486638556e-004  -7.3828180351e-004   9.8902258650e-001  -1.7075959415e-001   9.8994460829e-001  -1.7871138994e-001  -7.2573906308e-004   4.2105726905e-004
  7.6225000000e+010  -5.0460021102e-004  -7.3711644516e-004   9.8901551512e-001  -1.7075246281e-001   9.8993843894e-001  -1.7870191352e-001  -7.2462222059e-004   4.2036422507e-004
  7.6250000000e+010  -5.0432850622e-004  -7.3592813022e-004   9.8900830001e-001  -1.7074518698e-001   9.8993214413e-001  -1.7869224417e-001  -7.2348386890e-004   4.1965773914e-004
  7.6275000000e+010  -5.0405126542e-004  -7.3471690847e-004   9.8900094122e-001  -1.7073776673e-001   9.8992572390e-001  -1.7868238194e-001  -7.2232408468e-004   4.1893785324e-004
  7.6300000000e+010  -5.0376848283e-004  -7.3348283061e-004   9.8899343878e-001  -1.7073020212e-001   9.8991917826e-001  -1.7867232684e-001  -7.2114294602e-004   4.1820461009e-004
  7.6325000000e+010  -5.0348015255e-004  -7.3222594833e-004   9.8898579273e-001  -1.7072249320e-001   9.8991250725e-001  -1.7866207891e-001  -7.1994053245e-004   4.1745805320e-004
  7.6350000000e+010  -5.0318626858e-004  -7.3094631428e-004   9.8897800311e-001  -1.7071464007e-001   9.8990571090e-001  -1.7865163817e-001  -7.1871692488e-004   4.1669822688e-004
  7.6375000000e+010  -5.0288682485e-004  -7.2964398206e-004   9.8897006994e-001  -1.7070664277e-001   9.8989878924e-001  -1.7864100466e-001  -7.1747220565e-004   4.1592517617e-004
  7.6400000000e+010  -5.0258181519e-004  -7.2831900622e-004   9.8896199328e-001  -1.7069850138e-001   9.8989174229e-001  -1.7863017840e-001  -7.1620645848e-004   4.1513894690e-004
  7.6425000000e+010  -5.0227123336e-004  -7.2697144228e-004   9.8895377317e-001  -1.7069021597e-001   9.8988457008e-001  -1.7861915944e-001  -7.1491976847e-004   4.1433958567e-004
  7.6450000000e+010  -5.0195507302e-004  -7.2560134669e-004   9.8894540963e-001  -1.7068178661e-001   9.8987727266e-001  -1.7860794780e-001  -7.1361222214e-004   4.1352713983e-004
  7.6475000000e+010  -5.0163332777e-004  -7.2420877688e-004   9.8893690273e-001  -1.7067321338e-001   9.8986985004e-001  -1.7859654352e-001  -7.1228390734e-004   4.1270165749e-004
  7.6500000000e+010  -5.0130599111e-004  -7.2279379120e-004   9.8892825249e-001  -1.7066449634e-001   9.8986230226e-001  -1.7858494663e-001  -7.1093491331e-004   4.1186318750e-004
  7.6525000000e+010  -5.0097305646e-004  -7.2135644896e-004   9.8891945896e-001  -1.7065563559e-001   9.8985462936e-001  -1.7857315717e-001  -7.0956533067e-004   4.1101177948e-004
  7.6550000000e+010  -5.0063451719e-004  -7.1989681040e-004   9.8891052219e-001  -1.7064663118e-001   9.8984683137e-001  -1.7856117517e-001  -7.0817525135e-004   4.1014748379e-004
  7.6575000000e+010  -5.0029036656e-004  -7.1841493672e-004   9.8890144222e-001  -1.7063748321e-001   9.8983890831e-001  -1.7854900066e-001  -7.0676476865e-004   4.0927035151e-004
  7.6600000000e+010  -4.9994059777e-004  -7.1691089005e-004   9.8889221909e-001  -1.7062819175e-001   9.8983086023e-001  -1.7853663369e-001  -7.0533397722e-004   4.0838043449e-004
  7.6625000000e+010  -4.9958520396e-004  -7.1538473344e-004   9.8888285285e-001  -1.7061875688e-001   9.8982268717e-001  -1.7852407428e-001  -7.0388297302e-004   4.0747778529e-004
  7.6650000000e+010  -4.9922417818e-004  -7.1383653091e-004   9.8887334355e-001  -1.7060917869e-001   9.8981438914e-001  -1.7851132249e-001  -7.0241185333e-004   4.0656245720e-004
  7.6675000000e+010  -4.9885751341e-004  -7.1226634737e-004   9.8886369123e-001  -1.7059945725e-001   9.8980596620e-001  -1.7849837834e-001  -7.0092071675e-004   4.0563450425e-004
  7.6700000000e+010  -4.9848520259e-004  -7.1067424870e-004   9.8885389594e-001  -1.7058959266e-001   9.8979741837e-001  -1.7848524187e-001  -6.9940966320e-004   4.0469398117e-004
  7.6725000000e+010  -4.9810723856e-004  -7.0906030168e-004   9.8884395774e-001  -1.7057958499e-001   9.8978874570e-001  -1.7847191312e-001  -6.9787879387e-004   4.0374094343e-004
  7.6750000000e+010  -4.9772361411e-004  -7.0742457402e-004   9.8883387666e-001  -1.7056943433e-001   9.8977994823e-001  -1.7845839214e-001  -6.9632821126e-004   4.0277544718e-004
  7.6775000000e+010  -4.9733432197e-004  -7.0576713435e-004   9.8882365276e-001  -1.7055914078e-001   9.8977102598e-001  -1.7844467897e-001  -6.9475801915e-004   4.0179754931e-004
  7.6800000000e+010  -4.9693935481e-004  -7.0408805223e-004   9.8881328610e-001  -1.7054870442e-001   9.8976197900e-001  -1.7843077363e-001  -6.9316832258e-004   4.0080730739e-004
  7.6825000000e+010  -4.9653870524e-004  -7.0238739814e-004   9.8880277671e-001  -1.7053812534e-001   9.8975280733e-001  -1.7841667619e-001  -6.9155922786e-004   3.9980477970e-004
  7.6850000000e+010  -4.9613236580e-004  -7.0066524345e-004   9.8879212466e-001  -1.7052740364e-001   9.8974351101e-001  -1.7840238667e-001  -6.8993084256e-004   3.9879002522e-004
  7.6875000000e+010  -4.9572032900e-004  -6.9892166046e-004   9.8878133000e-001  -1.7051653941e-001   9.8973409007e-001  -1.7838790512e-001  -6.8828327547e-004   3.9776310358e-004
  7.6900000000e+010  -4.9530258727e-004  -6.9715672237e-004   9.8877039278e-001  -1.7050553273e-001   9.8972454457e-001  -1.7837323158e-001  -6.8661663666e-004   3.9672407515e-004
  7.6925000000e+010  -4.9487913300e-004  -6.9537050331e-004   9.8875931305e-001  -1.7049438372e-001   9.8971487453e-001  -1.7835836611e-001  -6.8493103739e-004   3.9567300095e-004
  7.6950000000e+010  -4.9444995854e-004  -6.9356307827e-004   9.8874809087e-001  -1.7048309246e-001   9.8970508001e-001  -1.7834330873e-001  -6.8322659015e-004   3.9460994266e-004
  7.6975000000e+010  -4.9401505617e-004  -6.9173452319e-004   9.8873672630e-001  -1.7047165905e-001   9.8969516104e-001  -1.7832805951e-001  -6.8150340865e-004   3.9353496267e-004
  7.7000000000e+010  -4.9357441815e-004  -6.8988491487e-004   9.8872521939e-001  -1.7046008360e-001   9.8968511767e-001  -1.7831261848e-001  -6.7976160778e-004   3.9244812400e-004
  7.7025000000e+010  -4.9312803667e-004  -6.8801433102e-004   9.8871357020e-001  -1.7044836619e-001   9.8967494994e-001  -1.7829698568e-001  -6.7800130364e-004   3.9134949034e-004
  7.7050000000e+010  -4.9267590391e-004  -6.8612285024e-004   9.8870177879e-001  -1.7043650694e-001   9.8966465790e-001  -1.7828116118e-001  -6.7622261350e-004   3.9023912605e-004
  7.7075000000e+010  -4.9221801196e-004  -6.8421055203e-004   9.8868984521e-001  -1.7042450595e-001   9.8965424158e-001  -1.7826514501e-001  -6.7442565580e-004   3.8911709612e-004
  7.7100000000e+010  -4.9175435292e-004  -6.8227751675e-004   9.8867776953e-001  -1.7041236332e-001   9.8964370104e-001  -1.7824893722e-001  -6.7261055014e-004   3.8798346619e-004
  7.7125000000e+010  -4.9128491884e-004  -6.8032382568e-004   9.8866555180e-001  -1.7040007916e-001   9.8963303632e-001  -1.7823253786e-001  -6.7077741727e-004   3.8683830255e-004
  7.7150000000e+010  -4.9080970172e-004  -6.7834956094e-004   9.8865319209e-001  -1.7038765356e-001   9.8962224747e-001  -1.7821594698e-001  -6.6892637910e-004   3.8568167211e-004
  7.7175000000e+010  -4.9032869355e-004  -6.7635480557e-004   9.8864069046e-001  -1.7037508665e-001   9.8961133453e-001  -1.7819916463e-001  -6.6705755864e-004   3.8451364242e-004
  7.7200000000e+010  -4.8984188627e-004  -6.7433964344e-004   9.8862804696e-001  -1.7036237853e-001   9.8960029756e-001  -1.7818219086e-001  -6.6517108004e-004   3.8333428165e-004
  7.7225000000e+010  -4.8934927180e-004  -6.7230415932e-004   9.8861526167e-001  -1.7034952931e-001   9.8958913659e-001  -1.7816502572e-001  -6.6326706856e-004   3.8214365858e-004
  7.7250000000e+010  -4.8885084205e-004  -6.7024843885e-004   9.8860233464e-001  -1.7033653910e-001   9.8957785168e-001  -1.7814766927e-001  -6.6134565055e-004   3.8094184263e-004
  7.7275000000e+010  -4.8834658887e-004  -6.6817256852e-004   9.8858926594e-001  -1.7032340802e-001   9.8956644287e-001  -1.7813012155e-001  -6.5940695347e-004   3.7972890380e-004
  7.7300000000e+010  -4.8783650413e-004  -6.6607663568e-004   9.8857605564e-001  -1.7031013617e-001   9.8955491022e-001  -1.7811238261e-001  -6.5745110584e-004   3.7850491270e-004
  7.7325000000e+010  -4.8732057965e-004  -6.6396072856e-004   9.8856270380e-001  -1.7029672367e-001   9.8954325378e-001  -1.7809445252e-001  -6.5547823726e-004   3.7726994054e-004
  7.7350000000e+010  -4.8679880725e-004  -6.6182493621e-004   9.8854921048e-001  -1.7028317065e-001   9.8953147359e-001  -1.7807633133e-001  -6.5348847837e-004   3.7602405912e-004
  7.7375000000e+010  -4.8627117872e-004  -6.5966934857e-004   9.8853557576e-001  -1.7026947721e-001   9.8951956971e-001  -1.7805801908e-001  -6.5148196087e-004   3.7476734082e-004
  7.7400000000e+010  -4.8573768585e-004  -6.5749405641e-004   9.8852179969e-001  -1.7025564347e-001   9.8950754219e-001  -1.7803951584e-001  -6.4945881751e-004   3.7349985862e-004
  7.7425000000e+010  -4.8519832041e-004  -6.5529915134e-004   9.8850788236e-001  -1.7024166956e-001   9.8949539108e-001  -1.7802082165e-001  -6.4741918204e-004   3.7222168605e-004
  7.7450000000e+010  -4.8465307417e-004  -6.5308472581e-004   9.8849382383e-001  -1.7022755560e-001   9.8948311644e-001  -1.7800193659e-001  -6.4536318924e-004   3.7093289721e-004
  7.7475000000e+010  -4.8410193888e-004  -6.5085087313e-004   9.8847962416e-001  -1.7021330170e-001   9.8947071831e-001  -1.7798286070e-001  -6.4329097488e-004   3.6963356679e-004
  7.7500000000e+010  -4.8354490631e-004  -6.4859768742e-004   9.8846528344e-001  -1.7019890800e-001   9.8945819675e-001  -1.7796359404e-001  -6.4120267575e-004   3.6832376999e-004
  7.7525000000e+010  -4.8298196821e-004  -6.4632526364e-004   9.8845080172e-001  -1.7018437461e-001   9.8944555182e-001  -1.7794413667e-001  -6.3909842957e-004   3.6700358261e-004
  7.7550000000e+010  -4.8241311633e-004  -6.4403369759e-004   9.8843617909e-001  -1.7016970166e-001   9.8943278357e-001  -1.7792448865e-001  -6.3697837509e-004   3.6567308097e-004
  7.7575000000e+010  -4.8183834242e-004  -6.4172308587e-004   9.8842141561e-001  -1.7015488928e-001   9.8941989205e-001  -1.7790465003e-001  -6.3484265196e-004   3.6433234191e-004
  7.7600000000e+010  -4.8125763826e-004  -6.3939352592e-004   9.8840651136e-001  -1.7013993760e-001   9.8940687733e-001  -1.7788462089e-001  -6.3269140082e-004   3.6298144285e-004
  7.7625000000e+010  -4.8067099560e-004  -6.3704511599e-004   9.8839146641e-001  -1.7012484675e-001   9.8939373945e-001  -1.7786440127e-001  -6.3052476323e-004   3.6162046170e-004
  7.7650000000e+010  -4.8007840623e-004  -6.3467795514e-004   9.8837628084e-001  -1.7010961685e-001   9.8938047848e-001  -1.7784399124e-001  -6.2834288165e-004   3.6024947690e-004
  7.7675000000e+010  -4.7947986195e-004  -6.3229214325e-004   9.8836095472e-001  -1.7009424804e-001   9.8936709447e-001  -1.7782339086e-001  -6.2614589950e-004   3.5886856740e-004
  7.7700000000e+010  -4.7887535455e-004  -6.2988778098e-004   9.8834548814e-001  -1.7007874045e-001   9.8935358748e-001  -1.7780260020e-001  -6.2393396104e-004   3.5747781268e-004
