# Hz S RI R 50.000000
! Metas.Vna.Tools, 2.4.7724.19584
! Metas.Vna.Data, 2.4.7724.19560
! Created: UTC 2021.04.29 12:40:10
! FREQ                re:S1,1             im:S1,1             re:S2,1             im:S2,1             re:S1,2             im:S1,2             re:S2,2             im:S2,2          
  7.5000000000e+010  -5.0948027810e-004  -6.8585084468e-004   1.0000000000e+000   2.3345910892e-016   1.0000000000e+000   1.5482256840e-016  -2.4832811931e-004   3.6854257627e-004
  7.5025000000e+010  -5.0947508738e-004  -6.8582860606e-004   1.0000000000e+000   2.3345910892e-016   1.0000000000e+000   1.5482256840e-016  -2.4831463955e-004   3.6852782285e-004
  7.5050000000e+010  -5.0946470580e-004  -6.8578412973e-004   1.0000000000e+000   5.6652601630e-016   1.0000000000e+000   5.6652601630e-016  -2.4828768120e-004   3.6849831692e-004
  7.5075000000e+010  -5.0944913310e-004  -6.8571741755e-004   1.0000000000e+000   3.2135602209e-016   1.0000000000e+000   2.8897026015e-016  -2.4824724664e-004   3.6845406026e-004
  7.5100000000e+010  -5.0942836890e-004  -6.8562847227e-004   1.0000000000e+000   3.2135602209e-016   1.0000000000e+000   2.8897026015e-016  -2.4819333941e-004   3.6839505555e-004
  7.5125000000e+010  -5.0940241267e-004  -6.8551729758e-004   1.0000000000e+000   3.1209564943e-016   1.0000000000e+000   2.5658449820e-016  -2.4812596426e-004   3.6832130637e-004
  7.5150000000e+010  -5.0937126377e-004  -6.8538389809e-004   1.0000000000e+000   2.1033371963e-016   1.0000000000e+000   3.6760680066e-016  -2.4804512709e-004   3.6823281719e-004
  7.5175000000e+010  -5.0933492142e-004  -6.8522827933e-004   1.0000000000e+000   3.2135602209e-016   1.0000000000e+000   1.5482256840e-016  -2.4795083502e-004   3.6812959338e-004
  7.5200000000e+010  -5.0929338471e-004  -6.8505044774e-004   1.0000000000e+000   9.9311417170e-017   1.0000000000e+000  -1.1710885293e-017  -2.4784309631e-004   3.6801164120e-004
  7.5225000000e+010  -5.0924665260e-004  -6.8485041070e-004   1.0000000000e+000   2.6561506708e-016   1.0000000000e+000   3.2112621831e-016  -2.4772192043e-004   3.6787896779e-004
  7.5250000000e+010  -5.0919472393e-004  -6.8462817650e-004   1.0000000000e+000   2.6561506708e-016   1.0000000000e+000   3.2112621831e-016  -2.4758731803e-004   3.6773158121e-004
  7.5275000000e+010  -5.0913759739e-004  -6.8438375434e-004   1.0000000000e+000   1.7876545628e-016   1.0000000000e+000   9.9081613384e-017  -2.4743930091e-004   3.6756949038e-004
  7.5300000000e+010  -5.0907527158e-004  -6.8411715436e-004   1.0000000000e+000   2.6561506708e-016   1.0000000000e+000   2.6561506708e-016  -2.4727788209e-004   3.6739270514e-004
  7.5325000000e+010  -5.0900774493e-004  -6.8382838760e-004   1.0000000000e+000   2.6561506708e-016   1.0000000000e+000   2.6561506708e-016  -2.4710307573e-004   3.6720123619e-004
  7.5350000000e+010  -5.0893501576e-004  -6.8351746604e-004   1.0000000000e+000   2.6561506708e-016   1.0000000000e+000   2.6561506708e-016  -2.4691489719e-004   3.6699509515e-004
  7.5375000000e+010  -5.0885708227e-004  -6.8318440257e-004   1.0000000000e+000  -4.6390345086e-017   1.0000000000e+000  -2.1292379878e-016  -2.4671336298e-004   3.6677429450e-004
  7.5400000000e+010  -5.0877394253e-004  -6.8282921098e-004   1.0000000000e+000  -4.6390345086e-017   1.0000000000e+000  -2.1292379878e-016  -2.4649849080e-004   3.6653884764e-004
  7.5425000000e+010  -5.0868559447e-004  -6.8245190600e-004   1.0000000000e+000  -2.1292379878e-016   1.0000000000e+000  -1.3118881049e-016  -2.4627029953e-004   3.6628876882e-004
  7.5450000000e+010  -5.0859203590e-004  -6.8205250327e-004   1.0000000000e+000  -4.6390345086e-017   1.0000000000e+000  -7.5677659261e-017  -2.4602880918e-004   3.6602407320e-004
  7.5475000000e+010  -5.0849326452e-004  -6.8163101936e-004   1.0000000000e+000  -1.5741264755e-016   1.0000000000e+000  -1.3118881049e-016  -2.4577404096e-004   3.6574477682e-004
  7.5500000000e+010  -5.0838927787e-004  -6.8118747172e-004   1.0000000000e+000  -2.1292379878e-016   1.0000000000e+000  -2.1292379878e-016  -2.4550601724e-004   3.6545089660e-004
  7.5525000000e+010  -5.0828007341e-004  -6.8072187875e-004   1.0000000000e+000  -2.0105556212e-016   1.0000000000e+000  -1.4554441089e-016  -2.4522476155e-004   3.6514245035e-004
  7.5550000000e+010  -5.0816564843e-004  -6.8023425976e-004   1.0000000000e+000  -2.0105556212e-016   1.0000000000e+000  -1.4554441089e-016  -2.4493029856e-004   3.6481945674e-004
  7.5575000000e+010  -5.0804600013e-004  -6.7972463496e-004   1.0000000000e+000   1.3774561112e-016   1.0000000000e+000   1.0855646904e-016  -2.4462265413e-004   3.6448193534e-004
  7.5600000000e+010  -5.0792112557e-004  -6.7919302548e-004   1.0000000000e+000  -2.0105556212e-016   1.0000000000e+000  -2.0105556212e-016  -2.4430185526e-004   3.6412990659e-004
  7.5625000000e+010  -5.0779102170e-004  -6.7863945337e-004   1.0000000000e+000  -2.0105556212e-016   1.0000000000e+000  -2.0105556212e-016  -2.4396793010e-004   3.6376339180e-004
  7.5650000000e+010  -5.0765568533e-004  -6.7806394158e-004   1.0000000000e+000   1.0568933611e-016   1.0000000000e+000   1.9038962942e-016  -2.4362090795e-004   3.6338241317e-004
  7.5675000000e+010  -5.0751511316e-004  -6.7746651398e-004   1.0000000000e+000   4.5714711626e-017   1.0000000000e+000   1.5673701409e-016  -2.4326081927e-004   3.6298699377e-004
  7.5700000000e+010  -5.0736930176e-004  -6.7684719534e-004   1.0000000000e+000   4.5714711626e-017   1.0000000000e+000   1.5673701409e-016  -2.4288769564e-004   3.6257715752e-004
  7.5725000000e+010  -5.0721824760e-004  -6.7620601136e-004   1.0000000000e+000  -9.7964396048e-018   1.0000000000e+000  -4.2723894231e-017  -2.4250156981e-004   3.6215292923e-004
  7.5750000000e+010  -5.0706194701e-004  -6.7554298862e-004   1.0000000000e+000   1.5673701409e-016   1.0000000000e+000   1.5673701409e-016  -2.4210247565e-004   3.6171433457e-004
  7.5775000000e+010  -5.0690039622e-004  -6.7485815463e-004   1.0000000000e+000   2.4517561995e-016   1.0000000000e+000   3.0068677118e-016  -2.4169044816e-004   3.6126140009e-004
  7.5800000000e+010  -5.0673359131e-004  -6.7415153780e-004   1.0000000000e+000   2.6775931655e-016   1.0000000000e+000   2.6775931655e-016  -2.4126552350e-004   3.6079415317e-004
  7.5825000000e+010  -5.0656152828e-004  -6.7342316745e-004   1.0000000000e+000   9.8483575719e-017   1.0000000000e+000   1.9123375532e-016  -2.4082773892e-004   3.6031262209e-004
  7.5850000000e+010  -5.0638420300e-004  -6.7267307379e-004   1.0000000000e+000   9.8483575719e-017   1.0000000000e+000   1.9123375532e-016  -2.4037713282e-004   3.5981683597e-004
  7.5875000000e+010  -5.0620161121e-004  -6.7190128794e-004   1.0000000000e+000   2.8398393491e-016   1.0000000000e+000   2.8398393491e-016  -2.3991374472e-004   3.5930682478e-004
  7.5900000000e+010  -5.0601374856e-004  -6.7110784194e-004   1.0000000000e+000   1.9123375532e-016   1.0000000000e+000   1.9123375532e-016  -2.3943761524e-004   3.5878261936e-004
  7.5925000000e+010  -5.0582061057e-004  -6.7029276871e-004   1.0000000000e+000   4.2972424488e-017   1.0000000000e+000   1.3572260408e-016  -2.3894878614e-004   3.5824425140e-004
  7.5950000000e+010  -5.0562219265e-004  -6.6945610207e-004   1.0000000000e+000   4.2972424488e-017   1.0000000000e+000  -1.2538726743e-017  -2.3844730025e-004   3.5769175343e-004
  7.5975000000e+010  -5.0541849010e-004  -6.6859787675e-004   1.0000000000e+000  -1.5858724841e-016   1.0000000000e+000  -1.5858724841e-016  -2.3793320154e-004   3.5712515884e-004
  7.6000000000e+010  -5.0520949811e-004  -6.6771812839e-004   1.0000000000e+000  -1.5858724841e-016   1.0000000000e+000  -1.5858724841e-016  -2.3740653508e-004   3.5654450186e-004
  7.6025000000e+010  -5.0499521177e-004  -6.6681689348e-004   1.0000000000e+000  -2.0727156641e-016   1.0000000000e+000  -1.5858724841e-016  -2.3686734701e-004   3.5594981757e-004
  7.6050000000e+010  -5.0477562603e-004  -6.6589420947e-004   1.0000000000e+000  -1.0990293041e-016   1.0000000000e+000  -1.5858724841e-016  -2.3631568458e-004   3.5534114186e-004
  7.6075000000e+010  -5.0455073577e-004  -6.6495011464e-004   1.0000000000e+000  -1.5858724841e-016   1.0000000000e+000  -2.0727156641e-016  -2.3575159612e-004   3.5471851151e-004
  7.6100000000e+010  -5.0432053575e-004  -6.6398464821e-004   1.0000000000e+000   2.0951031052e-016   1.0000000000e+000   2.0951031052e-016  -2.3517513107e-004   3.5408196409e-004
  7.6125000000e+010  -5.0408502060e-004  -6.6299785027e-004   1.0000000000e+000   1.4348092356e-016   1.0000000000e+000   1.4348092356e-016  -2.3458633990e-004   3.5343153801e-004
  7.6150000000e+010  -5.0384418488e-004  -6.6198976180e-004   1.0000000000e+000   1.4348092356e-016   1.0000000000e+000   1.4348092356e-016  -2.3398527419e-004   3.5276727254e-004
  7.6175000000e+010  -5.0359802304e-004  -6.6096042467e-004   1.0000000000e+000  -1.8518088615e-017   1.0000000000e+000  -6.9494798332e-017  -2.3337198658e-004   3.5208920773e-004
  7.6200000000e+010  -5.0334652941e-004  -6.5990988165e-004   1.0000000000e+000   1.4348092356e-016   1.0000000000e+000   1.4348092356e-016  -2.3274653077e-004   3.5139738449e-004
  7.6225000000e+010  -5.0308969824e-004  -6.5883817637e-004   1.0000000000e+000   9.2504213848e-017   1.0000000000e+000   9.7038655362e-017  -2.3210896152e-004   3.5069184453e-004
  7.6250000000e+010  -5.0282752366e-004  -6.5774535337e-004   1.0000000000e+000   1.9899207480e-016   1.0000000000e+000   9.7038655362e-017  -2.3145933463e-004   3.4997263038e-004
  7.6275000000e+010  -5.0255999972e-004  -6.5663145806e-004   1.0000000000e+000   1.4629752762e-016   1.0000000000e+000   1.9933985272e-016  -2.3079770697e-004   3.4923978538e-004
  7.6300000000e+010  -5.0228712037e-004  -6.5549653672e-004   1.0000000000e+000   1.4629752762e-016   1.0000000000e+000   1.9933985272e-016  -2.3012413644e-004   3.4849335371e-004
  7.6325000000e+010  -5.0200887944e-004  -6.5434063653e-004   1.0000000000e+000   4.1397797927e-016   1.0000000000e+000   3.5846682804e-016  -2.2943868198e-004   3.4773338031e-004
  7.6350000000e+010  -5.0172527070e-004  -6.5316380554e-004   1.0000000000e+000   1.4629752762e-016   1.0000000000e+000   1.4629752762e-016  -2.2874140355e-004   3.4695991096e-004
  7.6375000000e+010  -5.0143628782e-004  -6.5196609267e-004   1.0000000000e+000   1.4629752762e-016   1.0000000000e+000   2.0180867885e-016  -2.2803236215e-004   3.4617299223e-004
  7.6400000000e+010  -5.0114192434e-004  -6.5074754771e-004   1.0000000000e+000   9.8192854764e-017   1.0000000000e+000   9.8192854764e-017  -2.2731161979e-004   3.4537267148e-004
  7.6425000000e+010  -5.0084217377e-004  -6.4950822134e-004   1.0000000000e+000   4.4831913381e-017   1.0000000000e+000   1.7956084167e-017  -2.2657923950e-004   3.4455899686e-004
  7.6450000000e+010  -5.0053702948e-004  -6.4824816510e-004   1.0000000000e+000   4.4831913381e-017   1.0000000000e+000   1.7956084167e-017  -2.2583528531e-004   3.4373201733e-004
  7.6475000000e+010  -5.0022648478e-004  -6.4696743140e-004   1.0000000000e+000   2.6423727910e-016   1.0000000000e+000   2.6423727910e-016  -2.2507982225e-004   3.4289178262e-004
  7.6500000000e+010  -4.9991053289e-004  -6.4566607351e-004   1.0000000000e+000   4.4831913381e-017   1.0000000000e+000   1.7956084167e-017  -2.2431291636e-004   3.4203834325e-004
  7.6525000000e+010  -4.9958916692e-004  -6.4434414558e-004   1.0000000000e+000   9.9463318211e-017   1.0000000000e+000   9.9463318211e-017  -2.2353463464e-004   3.4117175051e-004
  7.6550000000e+010  -4.9926237994e-004  -6.4300170261e-004   1.0000000000e+000   2.0960587427e-016   1.0000000000e+000   2.9199285472e-016  -2.2274504511e-004   3.4029205647e-004
  7.6575000000e+010  -4.9893016491e-004  -6.4163880046e-004   1.0000000000e+000   3.4042219305e-017   1.0000000000e+000   8.9500309743e-017  -2.2194421673e-004   3.3939931397e-004
  7.6600000000e+010  -4.9859251471e-004  -6.4025549586e-004   1.0000000000e+000   3.4042219305e-017   1.0000000000e+000   8.9500309743e-017  -2.2113221945e-004   3.3849357663e-004
  7.6625000000e+010  -4.9824942215e-004  -6.3885184640e-004   1.0000000000e+000   1.9347759672e-016   1.0000000000e+000   7.5622521935e-017  -2.2030912418e-004   3.3757489880e-004
  7.6650000000e+010  -4.9790087996e-004  -6.3742791050e-004   1.0000000000e+000   8.9500309743e-017   1.0000000000e+000   8.9500309743e-017  -2.1947500277e-004   3.3664333562e-004
  7.6675000000e+010  -4.9754688079e-004  -6.3598374747e-004   1.0000000000e+000   3.4042219305e-017   1.0000000000e+000   8.9500309743e-017  -2.1862992803e-004   3.3569894297e-004
  7.6700000000e+010  -4.9718741722e-004  -6.3451941744e-004   1.0000000000e+000   2.9745488369e-016   1.0000000000e+000   2.5587458106e-016  -2.1777397373e-004   3.3474177749e-004
  7.6725000000e+010  -4.9682248176e-004  -6.3303498140e-004   1.0000000000e+000  -7.8262555055e-017   1.0000000000e+000  -1.1959441933e-016  -2.1690721453e-004   3.3377189656e-004
  7.6750000000e+010  -4.9645206684e-004  -6.3153050119e-004   1.0000000000e+000  -7.8262555055e-017   1.0000000000e+000  -1.1959441933e-016  -2.1602972605e-004   3.3278935829e-004
  7.6775000000e+010  -4.9607616484e-004  -6.3000603948e-004   1.0000000000e+000  -3.6930690783e-017   1.0000000000e+000  -7.8262555055e-017  -2.1514158483e-004   3.3179422156e-004
  7.6800000000e+010  -4.9569476804e-004  -6.2846165982e-004   1.0000000000e+000  -7.8262555055e-017   1.0000000000e+000  -1.1959441933e-016  -2.1424286831e-004   3.3078654595e-004
  7.6825000000e+010  -4.9530786870e-004  -6.2689742655e-004   1.0000000000e+000  -7.8262555055e-017   1.0000000000e+000   4.6034536912e-017  -2.1333365483e-004   3.2976639179e-004
  7.6850000000e+010  -4.9491545897e-004  -6.2531340489e-004   1.0000000000e+000   4.5733037761e-017   1.0000000000e+000   4.5733037761e-017  -2.1241402365e-004   3.2873382012e-004
  7.6875000000e+010  -4.9451753096e-004  -6.2370966086e-004   1.0000000000e+000   1.3756801584e-016   1.0000000000e+000   1.3561972637e-016  -2.1148405491e-004   3.2768889270e-004
  7.6900000000e+010  -4.9411407673e-004  -6.2208626135e-004   1.0000000000e+000   1.3756801584e-016   1.0000000000e+000   1.3561972637e-016  -2.1054382961e-004   3.2663167203e-004
  7.6925000000e+010  -4.9370508826e-004  -6.2044327405e-004   1.0000000000e+000   1.9113087760e-016   1.0000000000e+000   1.9113087760e-016  -2.0959342966e-004   3.2556222129e-004
  7.6950000000e+010  -4.9329055748e-004  -6.1878076749e-004   1.0000000000e+000   8.4005154075e-017   1.0000000000e+000   1.3561972637e-016  -2.0863293781e-004   3.2448060439e-004
  7.6975000000e+010  -4.9287047628e-004  -6.1709881103e-004   1.0000000000e+000   8.2056864606e-017   1.0000000000e+000   1.3756801584e-016  -2.0766243768e-004   3.2338688591e-004
  7.7000000000e+010  -4.9244483647e-004  -6.1539747485e-004   1.0000000000e+000   1.3561972637e-016   1.0000000000e+000   8.2056864606e-017  -2.0668201374e-004   3.2228113115e-004
  7.7025000000e+010  -4.9201362982e-004  -6.1367682995e-004   1.0000000000e+000   2.8022186974e-016   1.0000000000e+000   1.1899067232e-016  -2.0569175130e-004   3.2116340610e-004
  7.7050000000e+010  -4.9157684807e-004  -6.1193694814e-004   1.0000000000e+000   2.8022186974e-016   1.0000000000e+000   1.1899067232e-016  -2.0469173651e-004   3.2003377744e-004
  7.7075000000e+010  -4.9113448289e-004  -6.1017790208e-004   1.0000000000e+000   2.3875138683e-017   1.0000000000e+000   2.3875138683e-017  -2.0368205633e-004   3.1889231251e-004
  7.7100000000e+010  -4.9068652591e-004  -6.0839976520e-004   1.0000000000e+000   1.7980407983e-016   1.0000000000e+000   1.1899067232e-016  -2.0266279855e-004   3.1773907935e-004
  7.7125000000e+010  -4.9023296871e-004  -6.0660261177e-004   1.0000000000e+000   1.7450182355e-016   1.0000000000e+000   1.2429292859e-016  -2.0163405177e-004   3.1657414666e-004
  7.7150000000e+010  -4.8977380284e-004  -6.0478651685e-004   1.0000000000e+000   1.8572882407e-017   1.0000000000e+000  -3.1636012548e-017  -2.0059590539e-004   3.1539758381e-004
  7.7175000000e+010  -4.8930901980e-004  -6.0295155631e-004   1.0000000000e+000  -1.8296987488e-016   1.0000000000e+000  -3.4198560941e-018  -1.9954844959e-004   3.1420946082e-004
  7.7200000000e+010  -4.8883861107e-004  -6.0109780685e-004   1.0000000000e+000  -1.8296987488e-016   1.0000000000e+000  -3.4198560941e-018  -1.9849177534e-004   3.1300984838e-004
  7.7225000000e+010  -4.8836256808e-004  -5.9922534593e-004   1.0000000000e+000  -1.4870601672e-016   1.0000000000e+000  -3.4198560941e-018  -1.9742597440e-004   3.1179881782e-004
  7.7250000000e+010  -4.8788088222e-004  -5.9733425182e-004   1.0000000000e+000  -1.8296987488e-016   1.0000000000e+000  -9.3194865485e-017  -1.9635113927e-004   3.1057644113e-004
  7.7275000000e+010  -4.8739354486e-004  -5.9542460360e-004   1.0000000000e+000  -1.8296987488e-016   1.0000000000e+000   1.7827436978e-017  -1.9526736323e-004   3.0934279093e-004
  7.7300000000e+010  -4.8690054734e-004  -5.9349648113e-004   1.0000000000e+000   3.0844002065e-017   1.0000000000e+000  -8.0178300397e-017  -1.9417474027e-004   3.0809794046e-004
  7.7325000000e+010  -4.8640188096e-004  -5.9154996506e-004   1.0000000000e+000  -5.6642138618e-017   1.0000000000e+000  -1.1309873870e-018  -1.9307336517e-004   3.0684196362e-004
  7.7350000000e+010  -4.8589753702e-004  -5.8958513683e-004   1.0000000000e+000  -5.6642138618e-017   1.0000000000e+000  -1.1309873870e-018  -1.9196333340e-004   3.0557493491e-004
  7.7375000000e+010  -4.8538750677e-004  -5.8760207865e-004   1.0000000000e+000  -7.5991139744e-017   1.0000000000e+000   3.5031162718e-017  -1.9084474116e-004   3.0429692946e-004
  7.7400000000e+010  -4.8487178146e-004  -5.8560087352e-004   1.0000000000e+000  -5.6642138618e-017   1.0000000000e+000  -1.1309873870e-018  -1.8971768538e-004   3.0300802300e-004
  7.7425000000e+010  -4.8435035230e-004  -5.8358160523e-004   1.0000000000e+000  -1.1309873870e-018   1.0000000000e+000  -5.6642138618e-017  -1.8858226365e-004   3.0170829188e-004
  7.7450000000e+010  -4.8382321049e-004  -5.8154435832e-004   1.0000000000e+000   7.3729164970e-017   1.0000000000e+000   7.3729164970e-017  -1.8743857429e-004   3.0039781304e-004
  7.7475000000e+010  -4.8329034724e-004  -5.7948921812e-004   1.0000000000e+000   5.4172045914e-017   1.0000000000e+000   5.4172045914e-017  -1.8628671630e-004   2.9907666402e-004
  7.7500000000e+010  -4.8275175371e-004  -5.7741627072e-004   1.0000000000e+000   5.4172045914e-017   1.0000000000e+000   5.4172045914e-017  -1.8512678932e-004   2.9774492296e-004
  7.7525000000e+010  -4.8220742107e-004  -5.7532560298e-004   1.0000000000e+000  -2.2349147628e-016   1.0000000000e+000  -2.2349147628e-016  -1.8395889369e-004   2.9640266857e-004
  7.7550000000e+010  -4.8165734047e-004  -5.7321730252e-004   1.0000000000e+000   5.4172045914e-017   1.0000000000e+000   5.4172045914e-017  -1.8278313039e-004   2.9504998014e-004
  7.7575000000e+010  -4.8110150308e-004  -5.7109145770e-004   1.0000000000e+000   5.4172045914e-017   1.0000000000e+000  -1.4468713571e-018  -1.8159960103e-004   2.9368693753e-004
  7.7600000000e+010  -4.8053990004e-004  -5.6894815768e-004   1.0000000000e+000  -5.6634724468e-017   1.0000000000e+000  -5.6634724468e-017  -1.8040840787e-004   2.9231362118e-004
  7.7625000000e+010  -4.7997252250e-004  -5.6678749233e-004   1.0000000000e+000   3.7272654525e-016   1.0000000000e+000   2.8483101356e-016  -1.7920965380e-004   2.9093011207e-004
  7.7650000000e+010  -4.7939936160e-004  -5.6460955230e-004   1.0000000000e+000   3.7272654525e-016   1.0000000000e+000   2.8483101356e-016  -1.7800344231e-004   2.8953649175e-004
  7.7675000000e+010  -4.7882040850e-004  -5.6241442896e-004   1.0000000000e+000   2.7096185247e-016   1.0000000000e+000   2.0619309156e-016  -1.7678987749e-004   2.8813284231e-004
  7.7700000000e+010  -4.7823565435e-004  -5.6020221444e-004   1.0000000000e+000   3.7272654525e-016   1.0000000000e+000   2.8483101356e-016  -1.7556906404e-004   2.8671924638e-004
