# Hz S RI R 50.000000
! Metas.Vna.Tools, 2.4.7724.19584
! Metas.Vna.Data, 2.4.7724.19560
! Created: UTC 2021.04.29 12:40:11
! FREQ                re:S1,1             im:S1,1             re:S2,1             im:S2,1             re:S1,2             im:S1,2             re:S2,2             im:S2,2          
  7.5000000000e+010   1.1509392272e-003  -6.2320421511e-004  -5.1253872594e-002  -5.9360343207e-002  -5.3056365074e-002  -5.7783930188e-002   5.8840596168e-005   1.2289753120e-003
  7.5025000000e+010   1.1451228517e-003  -6.2745715908e-004  -5.1253779178e-002  -5.9360336178e-002  -5.3056274728e-002  -5.7783924273e-002   5.6854743695e-005   1.2302872504e-003
  7.5050000000e+010   1.1392864941e-003  -6.3167818253e-004  -5.1253592348e-002  -5.9360322121e-002  -5.3056094037e-002  -5.7783912442e-002   5.4834573551e-005   1.2315490470e-003
  7.5075000000e+010   1.1334304122e-003  -6.3586708500e-004  -5.1253312104e-002  -5.9360301032e-002  -5.3055823003e-002  -5.7783894692e-002   5.2780484478e-005   1.2327606162e-003
  7.5100000000e+010   1.1275548647e-003  -6.4002366784e-004  -5.1252938450e-002  -5.9360272910e-002  -5.3055461627e-002  -5.7783871023e-002   5.0692875537e-005   1.2339218751e-003
  7.5125000000e+010   1.1216601111e-003  -6.4414773421e-004  -5.1252471388e-002  -5.9360237752e-002  -5.3055009913e-002  -5.7783841429e-002   4.8572146083e-005   1.2350327438e-003
  7.5150000000e+010   1.1157464121e-003  -6.4823908912e-004  -5.1251910921e-002  -5.9360195553e-002  -5.3054467864e-002  -5.7783805907e-002   4.6418695738e-005   1.2360931450e-003
  7.5175000000e+010   1.1098140291e-003  -6.5229753940e-004  -5.1251257055e-002  -5.9360146308e-002  -5.3053835484e-002  -5.7783764452e-002   4.4232924375e-005   1.2371030043e-003
  7.5200000000e+010   1.1038632244e-003  -6.5632289376e-004  -5.1250509794e-002  -5.9360090012e-002  -5.3053112780e-002  -5.7783717058e-002   4.2015232087e-005   1.2380622502e-003
  7.5225000000e+010   1.0978942613e-003  -6.6031496275e-004  -5.1249669145e-002  -5.9360026657e-002  -5.3052299756e-002  -5.7783663717e-002   3.9766019167e-005   1.2389708138e-003
  7.5250000000e+010   1.0919074040e-003  -6.6427355880e-004  -5.1248735114e-002  -5.9359956237e-002  -5.3051396419e-002  -5.7783604422e-002   3.7485686084e-005   1.2398286293e-003
  7.5275000000e+010   1.0859029174e-003  -6.6819849625e-004  -5.1247707708e-002  -5.9359878743e-002  -5.3050402777e-002  -5.7783539164e-002   3.5174633463e-005   1.2406356336e-003
  7.5300000000e+010   1.0798810673e-003  -6.7208959132e-004  -5.1246586937e-002  -5.9359794167e-002  -5.3049318838e-002  -5.7783467935e-002   3.2833262053e-005   1.2413917664e-003
  7.5325000000e+010   1.0738421204e-003  -6.7594666215e-004  -5.1245372809e-002  -5.9359702497e-002  -5.3048144610e-002  -5.7783390722e-002   3.0461972715e-005   1.2420969703e-003
  7.5350000000e+010   1.0677863442e-003  -6.7976952880e-004  -5.1244065334e-002  -5.9359603724e-002  -5.3046880103e-002  -5.7783307516e-002   2.8061166391e-005   1.2427511908e-003
  7.5375000000e+010   1.0617140069e-003  -6.8355801326e-004  -5.1242664522e-002  -5.9359497836e-002  -5.3045525328e-002  -5.7783218304e-002   2.5631244081e-005   1.2433543762e-003
  7.5400000000e+010   1.0556253775e-003  -6.8731193947e-004  -5.1241170384e-002  -5.9359384821e-002  -5.3044080295e-002  -5.7783123074e-002   2.3172606826e-005   1.2439064778e-003
  7.5425000000e+010   1.0495207259e-003  -6.9103113332e-004  -5.1239582933e-002  -5.9359264665e-002  -5.3042545016e-002  -5.7783021811e-002   2.0685655679e-005   1.2444074494e-003
  7.5450000000e+010   1.0434003227e-003  -6.9471542268e-004  -5.1237902181e-002  -5.9359137354e-002  -5.3040919503e-002  -5.7782914501e-002   1.8170791684e-005   1.2448572481e-003
  7.5475000000e+010   1.0372644392e-003  -6.9836463736e-004  -5.1236128142e-002  -5.9359002874e-002  -5.3039203770e-002  -5.7782801128e-002   1.5628415854e-005   1.2452558338e-003
  7.5500000000e+010   1.0311133473e-003  -7.0197860920e-004  -5.1234260830e-002  -5.9358861209e-002  -5.3037397831e-002  -5.7782681676e-002   1.3058929149e-005   1.2456031690e-003
  7.5525000000e+010   1.0249473199e-003  -7.0555717201e-004  -5.1232300260e-002  -5.9358712342e-002  -5.3035501701e-002  -5.7782556127e-002   1.0462732448e-005   1.2458992193e-003
  7.5550000000e+010   1.0187666304e-003  -7.0910016161e-004  -5.1230246448e-002  -5.9358556257e-002  -5.3033515394e-002  -5.7782424465e-002   7.8402265333e-006   1.2461439533e-003
  7.5575000000e+010   1.0125715529e-003  -7.1260741584e-004  -5.1228099410e-002  -5.9358392934e-002  -5.3031438927e-002  -5.7782286669e-002   5.1918120642e-006   1.2463373422e-003
  7.5600000000e+010   1.0063623622e-003  -7.1607877457e-004  -5.1225859164e-002  -5.9358222355e-002  -5.3029272316e-002  -5.7782142720e-002   2.5178895543e-006   1.2464793605e-003
  7.5625000000e+010   1.0001393338e-003  -7.1951407970e-004  -5.1223525727e-002  -5.9358044500e-002  -5.3027015581e-002  -5.7781992597e-002  -1.8114064990e-007   1.2465699851e-003
  7.5650000000e+010   9.9390274368e-004  -7.2291317517e-004  -5.1221099118e-002  -5.9357859350e-002  -5.3024668737e-002  -5.7781836280e-002  -2.9048783918e-006   1.2466091963e-003
  7.5675000000e+010   9.8765286858e-004  -7.2627590699e-004  -5.1218579357e-002  -5.9357666881e-002  -5.3022231806e-002  -5.7781673744e-002  -5.6529237273e-006   1.2465969769e-003
  7.5700000000e+010   9.8138998579e-004  -7.2960212323e-004  -5.1215966463e-002  -5.9357467072e-002  -5.3019704806e-002  -5.7781504968e-002  -8.4248769463e-006   1.2465333129e-003
  7.5725000000e+010   9.7511437319e-004  -7.3289167401e-004  -5.1213260459e-002  -5.9357259901e-002  -5.3017087759e-002  -5.7781329927e-002  -1.1220338595e-005   1.2464181932e-003
  7.5750000000e+010   9.6882630925e-004  -7.3614441157e-004  -5.1210461365e-002  -5.9357045342e-002  -5.3014380685e-002  -5.7781148595e-002  -1.4038909500e-005   1.2462516094e-003
  7.5775000000e+010   9.6252607299e-004  -7.3936019022e-004  -5.1207569204e-002  -5.9356823372e-002  -5.3011583606e-002  -5.7780960949e-002  -1.6880190787e-005   1.2460335561e-003
  7.5800000000e+010   9.5621394397e-004  -7.4253886637e-004  -5.1204584000e-002  -5.9356593965e-002  -5.3008696545e-002  -5.7780766960e-002  -1.9743783904e-005   1.2457640311e-003
  7.5825000000e+010   9.4989020227e-004  -7.4568029854e-004  -5.1201505776e-002  -5.9356357094e-002  -5.3005719526e-002  -5.7780566601e-002  -2.2629290646e-005   1.2454430347e-003
  7.5850000000e+010   9.4355512850e-004  -7.4878434738e-004  -5.1198334556e-002  -5.9356112733e-002  -5.3002652572e-002  -5.7780359845e-002  -2.5536313172e-005   1.2450705704e-003
  7.5875000000e+010   9.3720900375e-004  -7.5185087564e-004  -5.1195070367e-002  -5.9355860854e-002  -5.2999495710e-002  -5.7780146661e-002  -2.8464454029e-005   1.2446466445e-003
  7.5900000000e+010   9.3085210960e-004  -7.5487974823e-004  -5.1191713235e-002  -5.9355601427e-002  -5.2996248963e-002  -5.7779927019e-002  -3.1413316176e-005   1.2441712664e-003
  7.5925000000e+010   9.2448472810e-004  -7.5787083219e-004  -5.1188263186e-002  -5.9355334424e-002  -5.2992912359e-002  -5.7779700890e-002  -3.4382503001e-005   1.2436444483e-003
  7.5950000000e+010   9.1810714173e-004  -7.6082399671e-004  -5.1184720248e-002  -5.9355059814e-002  -5.2989485925e-002  -5.7779468241e-002  -3.7371618345e-005   1.2430662053e-003
  7.5975000000e+010   9.1171963343e-004  -7.6373911314e-004  -5.1181084450e-002  -5.9354777565e-002  -5.2985969688e-002  -5.7779229039e-002  -4.0380266524e-005   1.2424365555e-003
  7.6000000000e+010   9.0532248652e-004  -7.6661605498e-004  -5.1177355821e-002  -5.9354487646e-002  -5.2982363678e-002  -5.7778983251e-002  -4.3408052349e-005   1.2417555200e-003
  7.6025000000e+010   8.9891598477e-004  -7.6945469794e-004  -5.1173534391e-002  -5.9354190024e-002  -5.2978667922e-002  -5.7778730843e-002  -4.6454581147e-005   1.2410231227e-003
  7.6050000000e+010   8.9250041229e-004  -7.7225491987e-004  -5.1169620189e-002  -5.9353884666e-002  -5.2974882453e-002  -5.7778471780e-002  -4.9519458783e-005   1.2402393905e-003
  7.6075000000e+010   8.8607605359e-004  -7.7501660084e-004  -5.1165613249e-002  -5.9353571536e-002  -5.2971007299e-002  -5.7778206026e-002  -5.2602291680e-005   1.2394043532e-003
  7.6100000000e+010   8.7964319353e-004  -7.7773962309e-004  -5.1161513601e-002  -5.9353250600e-002  -5.2967042493e-002  -5.7777933543e-002  -5.5702686842e-005   1.2385180437e-003
  7.6125000000e+010   8.7320211731e-004  -7.8042387107e-004  -5.1157321279e-002  -5.9352921822e-002  -5.2962988066e-002  -5.7777654295e-002  -5.8820251871e-005   1.2375804977e-003
  7.6150000000e+010   8.6675311043e-004  -7.8306923144e-004  -5.1153036317e-002  -5.9352585164e-002  -5.2958844052e-002  -5.7777368243e-002  -6.1954594992e-005   1.2365917537e-003
  7.6175000000e+010   8.6029645872e-004  -7.8567559308e-004  -5.1148658748e-002  -5.9352240590e-002  -5.2954610485e-002  -5.7777075347e-002  -6.5105325071e-005   1.2355518535e-003
  7.6200000000e+010   8.5383244830e-004  -7.8824284709e-004  -5.1144188608e-002  -5.9351888061e-002  -5.2950287398e-002  -5.7776775567e-002  -6.8272051638e-005   1.2344608414e-003
  7.6225000000e+010   8.4736136555e-004  -7.9077088680e-004  -5.1139625933e-002  -5.9351527537e-002  -5.2945874827e-002  -5.7776468863e-002  -7.1454384902e-005   1.2333187651e-003
  7.6250000000e+010   8.4088349713e-004  -7.9325960776e-004  -5.1134970759e-002  -5.9351158978e-002  -5.2941372807e-002  -5.7776155192e-002  -7.4651935778e-005   1.2321256749e-003
  7.6275000000e+010   8.3439912992e-004  -7.9570890777e-004  -5.1130223123e-002  -5.9350782344e-002  -5.2936781376e-002  -5.7775834512e-002  -7.7864315904e-005   1.2308816241e-003
  7.6300000000e+010   8.2790855104e-004  -7.9811868689e-004  -5.1125383065e-002  -5.9350397594e-002  -5.2932100569e-002  -5.7775506780e-002  -8.1091137660e-005   1.2295866691e-003
  7.6325000000e+010   8.2141204781e-004  -8.0048884742e-004  -5.1120450621e-002  -5.9350004684e-002  -5.2927330426e-002  -5.7775171950e-002  -8.4332014192e-005   1.2282408689e-003
  7.6350000000e+010   8.1490990776e-004  -8.0281929391e-004  -5.1115425833e-002  -5.9349603571e-002  -5.2922470985e-002  -5.7774829979e-002  -8.7586559426e-005   1.2268442859e-003
  7.6375000000e+010   8.0840241858e-004  -8.0510993319e-004  -5.1110308740e-002  -5.9349194211e-002  -5.2917522285e-002  -5.7774480819e-002  -9.0854388094e-005   1.2253969849e-003
  7.6400000000e+010   8.0188986814e-004  -8.0736067435e-004  -5.1105099383e-002  -5.9348776560e-002  -5.2912484367e-002  -5.7774124424e-002  -9.4135115750e-005   1.2238990341e-003
  7.6425000000e+010   7.9537254444e-004  -8.0957142876e-004  -5.1099797804e-002  -5.9348350572e-002  -5.2907357271e-002  -5.7773760746e-002  -9.7428358790e-005   1.2223505044e-003
  7.6450000000e+010   7.8885073561e-004  -8.1174211007e-004  -5.1094404045e-002  -5.9347916201e-002  -5.2902141039e-002  -5.7773389737e-002  -1.0073373447e-004   1.2207514695e-003
  7.6475000000e+010   7.8232472991e-004  -8.1387263421e-004  -5.1088918150e-002  -5.9347473398e-002  -5.2896835713e-002  -5.7773011348e-002  -1.0405086094e-004   1.2191020063e-003
  7.6500000000e+010   7.7579481568e-004  -8.1596291940e-004  -5.1083340163e-002  -5.9347022117e-002  -5.2891441337e-002  -5.7772625528e-002  -1.0737935723e-004   1.2174021945e-003
  7.6525000000e+010   7.6926128134e-004  -8.1801288616e-004  -5.1077670128e-002  -5.9346562309e-002  -5.2885957953e-002  -5.7772232226e-002  -1.1071884331e-004   1.2156521167e-003
  7.6550000000e+010   7.6272441539e-004  -8.2002245731e-004  -5.1071908090e-002  -5.9346093923e-002  -5.2880385607e-002  -5.7771831391e-002  -1.1406894007e-004   1.2138518583e-003
  7.6575000000e+010   7.5618450636e-004  -8.2199155796e-004  -5.1066054097e-002  -5.9345616911e-002  -5.2874724343e-002  -5.7771422971e-002  -1.1742926938e-004   1.2120015079e-003
  7.6600000000e+010   7.4964184283e-004  -8.2392011555e-004  -5.1060108194e-002  -5.9345131219e-002  -5.2868974208e-002  -5.7771006910e-002  -1.2079945407e-004   1.2101011567e-003
  7.6625000000e+010   7.4309671338e-004  -8.2580805981e-004  -5.1054070429e-002  -5.9344636797e-002  -5.2863135248e-002  -5.7770583156e-002  -1.2417911797e-004   1.2081508990e-003
  7.6650000000e+010   7.3654940659e-004  -8.2765532279e-004  -5.1047940852e-002  -5.9344133593e-002  -5.2857207510e-002  -5.7770151654e-002  -1.2756788593e-004   1.2061508320e-003
  7.6675000000e+010   7.3000021104e-004  -8.2946183887e-004  -5.1041719509e-002  -5.9343621551e-002  -5.2851191042e-002  -5.7769712346e-002  -1.3096538382e-004   1.2041010556e-003
  7.6700000000e+010   7.2344941526e-004  -8.3122754476e-004  -5.1035406453e-002  -5.9343100619e-002  -5.2845085894e-002  -5.7769265178e-002  -1.3437123857e-004   1.2020016728e-003
  7.6725000000e+010   7.1689730773e-004  -8.3295237946e-004  -5.1029001732e-002  -5.9342570741e-002  -5.2838892114e-002  -5.7768810090e-002  -1.3778507819e-004   1.1998527895e-003
  7.6750000000e+010   7.1034417687e-004  -8.3463628435e-004  -5.1022505399e-002  -5.9342031861e-002  -5.2832609753e-002  -5.7768347026e-002  -1.4120653176e-004   1.1976545143e-003
  7.6775000000e+010   7.0379031101e-004  -8.3627920311e-004  -5.1015917505e-002  -5.9341483923e-002  -5.2826238861e-002  -5.7767875925e-002  -1.4463522946e-004   1.1954069588e-003
  7.6800000000e+010   6.9723599840e-004  -8.3788108176e-004  -5.1009238103e-002  -5.9340926869e-002  -5.2819779491e-002  -5.7767396729e-002  -1.4807080263e-004   1.1931102376e-003
  7.6825000000e+010   6.9068152716e-004  -8.3944186867e-004  -5.1002467247e-002  -5.9340360642e-002  -5.2813231694e-002  -5.7766909375e-002  -1.5151288371e-004   1.1907644678e-003
  7.6850000000e+010   6.8412718527e-004  -8.4096151455e-004  -5.0995604990e-002  -5.9339785182e-002  -5.2806595523e-002  -5.7766413803e-002  -1.5496110632e-004   1.1883697698e-003
  7.6875000000e+010   6.7757326059e-004  -8.4243997245e-004  -5.0988651387e-002  -5.9339200430e-002  -5.2799871033e-002  -5.7765909950e-002  -1.5841510525e-004   1.1859262665e-003
  7.6900000000e+010   6.7102004079e-004  -8.4387719777e-004  -5.0981606495e-002  -5.9338606325e-002  -5.2793058278e-002  -5.7765397754e-002  -1.6187451650e-004   1.1834340840e-003
  7.6925000000e+010   6.6446781336e-004  -8.4527314827e-004  -5.0974470369e-002  -5.9338002807e-002  -5.2786157312e-002  -5.7764877149e-002  -1.6533897725e-004   1.1808933509e-003
  7.6950000000e+010   6.5791686561e-004  -8.4662778405e-004  -5.0967243066e-002  -5.9337389812e-002  -5.2779168192e-002  -5.7764348072e-002  -1.6880812594e-004   1.1783041989e-003
  7.6975000000e+010   6.5136748463e-004  -8.4794106756e-004  -5.0959924645e-002  -5.9336767279e-002  -5.2772090973e-002  -5.7763810457e-002  -1.7228160225e-004   1.1756667624e-003
  7.7000000000e+010   6.4481995728e-004  -8.4921296362e-004  -5.0952515164e-002  -5.9336135144e-002  -5.2764925715e-002  -5.7763264237e-002  -1.7575904710e-004   1.1729811788e-003
  7.7025000000e+010   6.3827457017e-004  -8.5044343941e-004  -5.0945014681e-002  -5.9335493343e-002  -5.2757672474e-002  -5.7762709346e-002  -1.7924010271e-004   1.1702475881e-003
  7.7050000000e+010   6.3173160965e-004  -8.5163246445e-004  -5.0937423258e-002  -5.9334841810e-002  -5.2750331308e-002  -5.7762145715e-002  -1.8272441259e-004   1.1674661332e-003
  7.7075000000e+010   6.2519136179e-004  -8.5278001063e-004  -5.0929740954e-002  -5.9334180480e-002  -5.2742902278e-002  -5.7761573276e-002  -1.8621162157e-004   1.1646369599e-003
  7.7100000000e+010   6.1865411238e-004  -8.5388605223e-004  -5.0921967831e-002  -5.9333509287e-002  -5.2735385444e-002  -5.7760991959e-002  -1.8970137579e-004   1.1617602168e-003
  7.7125000000e+010   6.1212014688e-004  -8.5495056584e-004  -5.0914103951e-002  -5.9332828163e-002  -5.2727780866e-002  -5.7760401694e-002  -1.9319332277e-004   1.1588360552e-003
  7.7150000000e+010   6.0558975044e-004  -8.5597353047e-004  -5.0906149377e-002  -5.9332137041e-002  -5.2720088605e-002  -5.7759802410e-002  -1.9668711135e-004   1.1558646293e-003
  7.7175000000e+010   5.9906320784e-004  -8.5695492746e-004  -5.0898104173e-002  -5.9331435850e-002  -5.2712308725e-002  -5.7759194036e-002  -2.0018239177e-004   1.1528460960e-003
  7.7200000000e+010   5.9254080352e-004  -8.5789474052e-004  -5.0889968402e-002  -5.9330724523e-002  -5.2704441287e-002  -5.7758576497e-002  -2.0367881568e-004   1.1497806150e-003
  7.7225000000e+010   5.8602282156e-004  -8.5879295574e-004  -5.0881742130e-002  -5.9330002989e-002  -5.2696486356e-002  -5.7757949722e-002  -2.0717603609e-004   1.1466683488e-003
  7.7250000000e+010   5.7950954561e-004  -8.5964956158e-004  -5.0873425422e-002  -5.9329271176e-002  -5.2688443995e-002  -5.7757313636e-002  -2.1067370749e-004   1.1435094626e-003
  7.7275000000e+010   5.7300125894e-004  -8.6046454884e-004  -5.0865018345e-002  -5.9328529013e-002  -5.2680314269e-002  -5.7756668163e-002  -2.1417148577e-004   1.1403041245e-003
  7.7300000000e+010   5.6649824439e-004  -8.6123791073e-004  -5.0856520965e-002  -5.9327776428e-002  -5.2672097245e-002  -5.7756013229e-002  -2.1766902830e-004   1.1370525052e-003
  7.7325000000e+010   5.6000078434e-004  -8.6196964279e-004  -5.0847933351e-002  -5.9327013347e-002  -5.2663792989e-002  -5.7755348757e-002  -2.2116599391e-004   1.1337547782e-003
  7.7350000000e+010   5.5350916075e-004  -8.6265974295e-004  -5.0839255572e-002  -5.9326239697e-002  -5.2655401567e-002  -5.7754674668e-002  -2.2466204291e-004   1.1304111198e-003
  7.7375000000e+010   5.4702365508e-004  -8.6330821149e-004  -5.0830487695e-002  -5.9325455402e-002  -5.2646923048e-002  -5.7753990887e-002  -2.2815683714e-004   1.1270217088e-003
  7.7400000000e+010   5.4054454831e-004  -8.6391505108e-004  -5.0821629792e-002  -5.9324660388e-002  -5.2638357499e-002  -5.7753297332e-002  -2.3165003991e-004   1.1235867270e-003
  7.7425000000e+010   5.3407212091e-004  -8.6448026674e-004  -5.0812681933e-002  -5.9323854578e-002  -5.2629704991e-002  -5.7752593926e-002  -2.3514131610e-004   1.1201063587e-003
  7.7450000000e+010   5.2760665283e-004  -8.6500386587e-004  -5.0803644190e-002  -5.9323037895e-002  -5.2620965592e-002  -5.7751880588e-002  -2.3863033212e-004   1.1165807911e-003
  7.7475000000e+010   5.2114842349e-004  -8.6548585821e-004  -5.0794516633e-002  -5.9322210262e-002  -5.2612139374e-002  -5.7751157236e-002  -2.4211675593e-004   1.1130102138e-003
  7.7500000000e+010   5.1469771175e-004  -8.6592625588e-004  -5.0785299337e-002  -5.9321371601e-002  -5.2603226407e-002  -5.7750423789e-002  -2.4560025708e-004   1.1093948193e-003
  7.7525000000e+010   5.0825479590e-004  -8.6632507337e-004  -5.0775992374e-002  -5.9320521831e-002  -5.2594226764e-002  -5.7749680164e-002  -2.4908050671e-004   1.1057348027e-003
  7.7550000000e+010   5.0181995367e-004  -8.6668232753e-004  -5.0766595819e-002  -5.9319660875e-002  -5.2585140516e-002  -5.7748926278e-002  -2.5255717754e-004   1.1020303618e-003
  7.7575000000e+010   4.9539346214e-004  -8.6699803755e-004  -5.0757109747e-002  -5.9318788651e-002  -5.2575967738e-002  -5.7748162046e-002  -2.5602994392e-004   1.0982816970e-003
  7.7600000000e+010   4.8897559782e-004  -8.6727222499e-004  -5.0747534233e-002  -5.9317905078e-002  -5.2566708504e-002  -5.7747387385e-002  -2.5949848184e-004   1.0944890113e-003
  7.7625000000e+010   4.8256663657e-004  -8.6750491378e-004  -5.0737869354e-002  -5.9317010074e-002  -5.2557362887e-002  -5.7746602207e-002  -2.6296246891e-004   1.0906525105e-003
  7.7650000000e+010   4.7616685359e-004  -8.6769613019e-004  -5.0728115186e-002  -5.9316103556e-002  -5.2547930963e-002  -5.7745806428e-002  -2.6642158441e-004   1.0867724028e-003
  7.7675000000e+010   4.6977652344e-004  -8.6784590284e-004  -5.0718271807e-002  -5.9315185442e-002  -5.2538412809e-002  -5.7744999959e-002  -2.6987550928e-004   1.0828488992e-003
  7.7700000000e+010   4.6339591999e-004  -8.6795426271e-004  -5.0708339296e-002  -5.9314255647e-002  -5.2528808500e-002  -5.7744182714e-002  -2.7332392616e-004   1.0788822132e-003
