# Hz S RI R 50.000000
! Metas.Vna.Tools, 2.4.7724.19584
! Metas.Vna.Data, 2.4.7724.19560
! Created: UTC 2021.04.29 12:40:11
! FREQ                re:S1,1             im:S1,1             re:S2,1             im:S2,1             re:S1,2             im:S1,2             re:S2,2             im:S2,2          
  7.5000000000e+010   3.2071253949e-004  -1.5912484614e-003   2.8061682217e-003  -2.2639663862e-001   1.7220482085e-003  -2.2684329203e-001   1.6978306554e-004   6.2235524084e-004
  7.5025000000e+010   3.1898829139e-004  -1.5839527096e-003   2.8061345108e-003  -2.2639645805e-001   1.7219947967e-003  -2.2684310910e-001   1.7123869702e-004   6.2433520679e-004
  7.5050000000e+010   3.1725624872e-004  -1.5766520607e-003   2.8060670890e-003  -2.2639609690e-001   1.7218879729e-003  -2.2684274323e-001   1.7265898322e-004   6.2631435440e-004
  7.5075000000e+010   3.1551648535e-004  -1.5693467085e-003   2.8059659563e-003  -2.2639555519e-001   1.7217277371e-003  -2.2684219444e-001   1.7404396090e-004   6.2829226565e-004
  7.5100000000e+010   3.1376907557e-004  -1.5620368461e-003   2.8058311128e-003  -2.2639483290e-001   1.7215140889e-003  -2.2684146272e-001   1.7539366872e-004   6.3026852392e-004
  7.5125000000e+010   3.1201409406e-004  -1.5547226661e-003   2.8056625584e-003  -2.2639393004e-001   1.7212470280e-003  -2.2684054807e-001   1.7670814727e-004   6.3224271407e-004
  7.5150000000e+010   3.1025161591e-004  -1.5474043604e-003   2.8054602933e-003  -2.2639284662e-001   1.7209265540e-003  -2.2683945050e-001   1.7798743907e-004   6.3421442243e-004
  7.5175000000e+010   3.0848171658e-004  -1.5400821202e-003   2.8052243175e-003  -2.2639158263e-001   1.7205526663e-003  -2.2683816999e-001   1.7923158854e-004   6.3618323684e-004
  7.5200000000e+010   3.0670447195e-004  -1.5327561362e-003   2.8049546311e-003  -2.2639013807e-001   1.7201253645e-003  -2.2683670656e-001   1.8044064203e-004   6.3814874668e-004
  7.5225000000e+010   3.0491995827e-004  -1.5254265985e-003   2.8046512340e-003  -2.2638851295e-001   1.7196446477e-003  -2.2683506021e-001   1.8161464778e-004   6.4011054288e-004
  7.5250000000e+010   3.0312825218e-004  -1.5180936963e-003   2.8043141265e-003  -2.2638670727e-001   1.7191105152e-003  -2.2683323094e-001   1.8275365595e-004   6.4206821799e-004
  7.5275000000e+010   3.0132943069e-004  -1.5107576185e-003   2.8039433086e-003  -2.2638472103e-001   1.7185229662e-003  -2.2683121875e-001   1.8385771861e-004   6.4402136616e-004
  7.5300000000e+010   2.9952357118e-004  -1.5034185530e-003   2.8035387804e-003  -2.2638255423e-001   1.7178819998e-003  -2.2682902364e-001   1.8492688971e-004   6.4596958317e-004
  7.5325000000e+010   2.9771075143e-004  -1.4960766872e-003   2.8031005420e-003  -2.2638020688e-001   1.7171876148e-003  -2.2682664561e-001   1.8596122510e-004   6.4791246652e-004
  7.5350000000e+010   2.9589104956e-004  -1.4887322078e-003   2.8026285935e-003  -2.2637767897e-001   1.7164398102e-003  -2.2682408467e-001   1.8696078253e-004   6.4984961535e-004
  7.5375000000e+010   2.9406454405e-004  -1.4813853010e-003   2.8021229351e-003  -2.2637497052e-001   1.7156385849e-003  -2.2682134083e-001   1.8792562164e-004   6.5178063056e-004
  7.5400000000e+010   2.9223131375e-004  -1.4740361520e-003   2.8015835669e-003  -2.2637208153e-001   1.7147839374e-003  -2.2681841408e-001   1.8885580393e-004   6.5370511481e-004
  7.5425000000e+010   2.9039143787e-004  -1.4666849456e-003   2.8010104890e-003  -2.2636901199e-001   1.7138758665e-003  -2.2681530442e-001   1.8975139281e-004   6.5562267250e-004
  7.5450000000e+010   2.8854499595e-004  -1.4593318657e-003   2.8004037016e-003  -2.2636576192e-001   1.7129143708e-003  -2.2681201186e-001   1.9061245354e-004   6.5753290986e-004
  7.5475000000e+010   2.8669206789e-004  -1.4519770957e-003   2.7997632050e-003  -2.2636233132e-001   1.7118994486e-003  -2.2680853641e-001   1.9143905326e-004   6.5943543496e-004
  7.5500000000e+010   2.8483273393e-004  -1.4446208181e-003   2.7990889991e-003  -2.2635872019e-001   1.7108310984e-003  -2.2680487807e-001   1.9223126097e-004   6.6132985770e-004
  7.5525000000e+010   2.8296707465e-004  -1.4372632148e-003   2.7983810843e-003  -2.2635492853e-001   1.7097093184e-003  -2.2680103684e-001   1.9298914755e-004   6.6321578987e-004
  7.5550000000e+010   2.8109517096e-004  -1.4299044670e-003   2.7976394607e-003  -2.2635095636e-001   1.7085341069e-003  -2.2679701272e-001   1.9371278572e-004   6.6509284517e-004
  7.5575000000e+010   2.7921710409e-004  -1.4225447553e-003   2.7968641286e-003  -2.2634680368e-001   1.7073054621e-003  -2.2679280573e-001   1.9440225004e-004   6.6696063923e-004
  7.5600000000e+010   2.7733295561e-004  -1.4151842593e-003   2.7960550881e-003  -2.2634247048e-001   1.7060233819e-003  -2.2678841586e-001   1.9505761694e-004   6.6881878963e-004
  7.5625000000e+010   2.7544280741e-004  -1.4078231581e-003   2.7952123395e-003  -2.2633795679e-001   1.7046878643e-003  -2.2678384312e-001   1.9567896468e-004   6.7066691596e-004
  7.5650000000e+010   2.7354674170e-004  -1.4004616300e-003   2.7943358831e-003  -2.2633326260e-001   1.7032989073e-003  -2.2677908752e-001   1.9626637336e-004   6.7250463977e-004
  7.5675000000e+010   2.7164484097e-004  -1.3930998526e-003   2.7934257190e-003  -2.2632838792e-001   1.7018565085e-003  -2.2677414906e-001   1.9681992490e-004   6.7433158469e-004
  7.5700000000e+010   2.6973718807e-004  -1.3857380027e-003   2.7924818475e-003  -2.2632333275e-001   1.7003606658e-003  -2.2676902774e-001   1.9733970307e-004   6.7614737638e-004
  7.5725000000e+010   2.6782386612e-004  -1.3783762564e-003   2.7915042689e-003  -2.2631809711e-001   1.6988113768e-003  -2.2676372358e-001   1.9782579342e-004   6.7795164258e-004
  7.5750000000e+010   2.6590495855e-004  -1.3710147892e-003   2.7904929834e-003  -2.2631268100e-001   1.6972086389e-003  -2.2675823658e-001   1.9827828336e-004   6.7974401314e-004
  7.5775000000e+010   2.6398054907e-004  -1.3636537756e-003   2.7894479914e-003  -2.2630708443e-001   1.6955524498e-003  -2.2675256673e-001   1.9869726209e-004   6.8152412005e-004
  7.5800000000e+010   2.6205072172e-004  -1.3562933894e-003   2.7883692932e-003  -2.2630130739e-001   1.6938428067e-003  -2.2674671406e-001   1.9908282059e-004   6.8329159745e-004
  7.5825000000e+010   2.6011556079e-004  -1.3489338039e-003   2.7872568890e-003  -2.2629534992e-001   1.6920797070e-003  -2.2674067857e-001   1.9943505167e-004   6.8504608163e-004
  7.5850000000e+010   2.5817515086e-004  -1.3415751913e-003   2.7861107792e-003  -2.2628921200e-001   1.6902631478e-003  -2.2673446026e-001   1.9975404993e-004   6.8678721112e-004
  7.5875000000e+010   2.5622957681e-004  -1.3342177232e-003   2.7849309642e-003  -2.2628289364e-001   1.6883931265e-003  -2.2672805914e-001   2.0003991173e-004   6.8851462666e-004
  7.5900000000e+010   2.5427892377e-004  -1.3268615706e-003   2.7837174441e-003  -2.2627639487e-001   1.6864696399e-003  -2.2672147522e-001   2.0029273523e-004   6.9022797122e-004
  7.5925000000e+010   2.5232327716e-004  -1.3195069033e-003   2.7824702195e-003  -2.2626971568e-001   1.6844926851e-003  -2.2671470851e-001   2.0051262036e-004   6.9192689007e-004
  7.5950000000e+010   2.5036272264e-004  -1.3121538908e-003   2.7811892907e-003  -2.2626285608e-001   1.6824622590e-003  -2.2670775901e-001   2.0069966881e-004   6.9361103076e-004
  7.5975000000e+010   2.4839734616e-004  -1.3048027015e-003   2.7798746580e-003  -2.2625581608e-001   1.6803783584e-003  -2.2670062673e-001   2.0085398403e-004   6.9528004316e-004
  7.6000000000e+010   2.4642723392e-004  -1.2974535032e-003   2.7785263218e-003  -2.2624859569e-001   1.6782409800e-003  -2.2669331167e-001   2.0097567124e-004   6.9693357947e-004
  7.6025000000e+010   2.4445247236e-004  -1.2901064628e-003   2.7771442826e-003  -2.2624119493e-001   1.6760501206e-003  -2.2668581386e-001   2.0106483738e-004   6.9857129427e-004
  7.6050000000e+010   2.4247314817e-004  -1.2827617465e-003   2.7757285407e-003  -2.2623361379e-001   1.6738057766e-003  -2.2667813329e-001   2.0112159116e-004   7.0019284450e-004
  7.6075000000e+010   2.4048934831e-004  -1.2754195197e-003   2.7742790966e-003  -2.2622585230e-001   1.6715079447e-003  -2.2667026998e-001   2.0114604299e-004   7.0179788954e-004
  7.6100000000e+010   2.3850115995e-004  -1.2680799469e-003   2.7727959507e-003  -2.2621791045e-001   1.6691566211e-003  -2.2666222393e-001   2.0113830504e-004   7.0338609117e-004
  7.6125000000e+010   2.3650867050e-004  -1.2607431920e-003   2.7712791034e-003  -2.2620978827e-001   1.6667518023e-003  -2.2665399515e-001   2.0109849119e-004   7.0495711364e-004
  7.6150000000e+010   2.3451196763e-004  -1.2534094179e-003   2.7697285553e-003  -2.2620148575e-001   1.6642934845e-003  -2.2664558365e-001   2.0102671701e-004   7.0651062365e-004
  7.6175000000e+010   2.3251113921e-004  -1.2460787869e-003   2.7681443067e-003  -2.2619300292e-001   1.6617816640e-003  -2.2663698945e-001   2.0092309980e-004   7.0804629042e-004
  7.6200000000e+010   2.3050627332e-004  -1.2387514603e-003   2.7665263581e-003  -2.2618433979e-001   1.6592163367e-003  -2.2662821254e-001   2.0078775855e-004   7.0956378567e-004
  7.6225000000e+010   2.2849745830e-004  -1.2314275988e-003   2.7648747102e-003  -2.2617549636e-001   1.6565974988e-003  -2.2661925295e-001   2.0062081395e-004   7.1106278365e-004
  7.6250000000e+010   2.2648478267e-004  -1.2241073621e-003   2.7631893633e-003  -2.2616647264e-001   1.6539251463e-003  -2.2661011068e-001   2.0042238835e-004   7.1254296118e-004
  7.6275000000e+010   2.2446833518e-004  -1.2167909092e-003   2.7614703180e-003  -2.2615726865e-001   1.6511992749e-003  -2.2660078574e-001   2.0019260580e-004   7.1400399767e-004
  7.6300000000e+010   2.2244820477e-004  -1.2094783984e-003   2.7597175748e-003  -2.2614788441e-001   1.6484198806e-003  -2.2659127814e-001   1.9993159200e-004   7.1544557509e-004
  7.6325000000e+010   2.2042448058e-004  -1.2021699869e-003   2.7579311342e-003  -2.2613831992e-001   1.6455869590e-003  -2.2658158790e-001   1.9963947433e-004   7.1686737806e-004
  7.6350000000e+010   2.1839725197e-004  -1.1948658313e-003   2.7561109969e-003  -2.2612857519e-001   1.6427005058e-003  -2.2657171502e-001   1.9931638180e-004   7.1826909383e-004
  7.6375000000e+010   2.1636660846e-004  -1.1875660873e-003   2.7542571635e-003  -2.2611865024e-001   1.6397605166e-003  -2.2656165952e-001   1.9896244508e-004   7.1965041231e-004
  7.6400000000e+010   2.1433263978e-004  -1.1802709098e-003   2.7523696344e-003  -2.2610854509e-001   1.6367669868e-003  -2.2655142140e-001   1.9857779647e-004   7.2101102608e-004
  7.6425000000e+010   2.1229543584e-004  -1.1729804530e-003   2.7504484103e-003  -2.2609825974e-001   1.6337199120e-003  -2.2654100068e-001   1.9816256991e-004   7.2235063044e-004
  7.6450000000e+010   2.1025508672e-004  -1.1656948700e-003   2.7484934919e-003  -2.2608779421e-001   1.6306192874e-003  -2.2653039738e-001   1.9771690095e-004   7.2366892339e-004
  7.6475000000e+010   2.0821168269e-004  -1.1584143133e-003   2.7465048797e-003  -2.2607714851e-001   1.6274651084e-003  -2.2651961150e-001   1.9724092674e-004   7.2496560566e-004
  7.6500000000e+010   2.0616531417e-004  -1.1511389346e-003   2.7444825744e-003  -2.2606632266e-001   1.6242573702e-003  -2.2650864305e-001   1.9673478607e-004   7.2624038076e-004
  7.6525000000e+010   2.0411607175e-004  -1.1438688846e-003   2.7424265766e-003  -2.2605531667e-001   1.6209960679e-003  -2.2649749205e-001   1.9619861928e-004   7.2749295496e-004
  7.6550000000e+010   2.0206404621e-004  -1.1366043133e-003   2.7403368871e-003  -2.2604413056e-001   1.6176811966e-003  -2.2648615851e-001   1.9563256833e-004   7.2872303732e-004
  7.6575000000e+010   2.0000932844e-004  -1.1293453698e-003   2.7382135065e-003  -2.2603276434e-001   1.6143127512e-003  -2.2647464245e-001   1.9503677676e-004   7.2993033972e-004
  7.6600000000e+010   1.9795200952e-004  -1.1220922024e-003   2.7360564356e-003  -2.2602121802e-001   1.6108907268e-003  -2.2646294387e-001   1.9441138965e-004   7.3111457687e-004
  7.6625000000e+010   1.9589218065e-004  -1.1148449585e-003   2.7338656750e-003  -2.2600949163e-001   1.6074151182e-003  -2.2645106280e-001   1.9375655368e-004   7.3227546632e-004
  7.6650000000e+010   1.9382993321e-004  -1.1076037848e-003   2.7316412255e-003  -2.2599758518e-001   1.6038859200e-003  -2.2643899924e-001   1.9307241704e-004   7.3341272851e-004
  7.6675000000e+010   1.9176535868e-004  -1.1003688271e-003   2.7293830879e-003  -2.2598549867e-001   1.6003031272e-003  -2.2642675321e-001   1.9235912951e-004   7.3452608672e-004
  7.6700000000e+010   1.8969854869e-004  -1.0931402304e-003   2.7270912628e-003  -2.2597323214e-001   1.5966667343e-003  -2.2641432472e-001   1.9161684236e-004   7.3561526718e-004
  7.6725000000e+010   1.8762959501e-004  -1.0859181387e-003   2.7247657512e-003  -2.2596078560e-001   1.5929767359e-003  -2.2640171379e-001   1.9084570841e-004   7.3667999901e-004
  7.6750000000e+010   1.8555858953e-004  -1.0787026954e-003   2.7224065538e-003  -2.2594815906e-001   1.5892331264e-003  -2.2638892043e-001   1.9004588200e-004   7.3772001426e-004
  7.6775000000e+010   1.8348562424e-004  -1.0714940428e-003   2.7200136714e-003  -2.2593535253e-001   1.5854359005e-003  -2.2637594467e-001   1.8921751896e-004   7.3873504796e-004
  7.6800000000e+010   1.8141079129e-004  -1.0642923226e-003   2.7175871049e-003  -2.2592236605e-001   1.5815850524e-003  -2.2636278650e-001   1.8836077663e-004   7.3972483808e-004
  7.6825000000e+010   1.7933418289e-004  -1.0570976756e-003   2.7151268551e-003  -2.2590919962e-001   1.5776805764e-003  -2.2634944595e-001   1.8747581384e-004   7.4068912559e-004
  7.6850000000e+010   1.7725589141e-004  -1.0499102417e-003   2.7126329228e-003  -2.2589585326e-001   1.5737224668e-003  -2.2633592304e-001   1.8656279089e-004   7.4162765446e-004
  7.6875000000e+010   1.7517600929e-004  -1.0427301599e-003   2.7101053091e-003  -2.2588232700e-001   1.5697107178e-003  -2.2632221777e-001   1.8562186956e-004   7.4254017169e-004
  7.6900000000e+010   1.7309462907e-004  -1.0355575685e-003   2.7075440147e-003  -2.2586862084e-001   1.5656453235e-003  -2.2630833017e-001   1.8465321308e-004   7.4342642728e-004
  7.6925000000e+010   1.7101184341e-004  -1.0283926049e-003   2.7049490407e-003  -2.2585473482e-001   1.5615262779e-003  -2.2629426026e-001   1.8365698612e-004   7.4428617430e-004
  7.6950000000e+010   1.6892774502e-004  -1.0212354057e-003   2.7023203878e-003  -2.2584066894e-001   1.5573535750e-003  -2.2628000804e-001   1.8263335483e-004   7.4511916890e-004
  7.6975000000e+010   1.6684242674e-004  -1.0140861066e-003   2.6996580572e-003  -2.2582642322e-001   1.5531272088e-003  -2.2626557354e-001   1.8158248676e-004   7.4592517027e-004
  7.7000000000e+010   1.6475598145e-004  -1.0069448424e-003   2.6969620498e-003  -2.2581199769e-001   1.5488471731e-003  -2.2625095677e-001   1.8050455087e-004   7.4670394073e-004
  7.7025000000e+010   1.6266850214e-004  -9.9981174721e-004   2.6942323666e-003  -2.2579739237e-001   1.5445134617e-003  -2.2623615776e-001   1.7939971757e-004   7.4745524569e-004
  7.7050000000e+010   1.6058008185e-004  -9.9268695418e-004   2.6914690085e-003  -2.2578260727e-001   1.5401260684e-003  -2.2622117651e-001   1.7826815864e-004   7.4817885370e-004
  7.7075000000e+010   1.5849081370e-004  -9.8557059567e-004   2.6886719767e-003  -2.2576764241e-001   1.5356849868e-003  -2.2620601304e-001   1.7711004726e-004   7.4887453641e-004
  7.7100000000e+010   1.5640079087e-004  -9.7846280317e-004   2.6858412722e-003  -2.2575249783e-001   1.5311902105e-003  -2.2619066738e-001   1.7592555799e-004   7.4954206867e-004
  7.7125000000e+010   1.5431010659e-004  -9.7136370736e-004   2.6829768961e-003  -2.2573717353e-001   1.5266417331e-003  -2.2617513955e-001   1.7471486676e-004   7.5018122846e-004
  7.7150000000e+010   1.5221885417e-004  -9.6427343805e-004   2.6800788495e-003  -2.2572166953e-001   1.5220395482e-003  -2.2615942955e-001   1.7347815087e-004   7.5079179695e-004
  7.7175000000e+010   1.5012712693e-004  -9.5719212423e-004   2.6771471335e-003  -2.2570598587e-001   1.5173836490e-003  -2.2614353741e-001   1.7221558896e-004   7.5137355851e-004
  7.7200000000e+010   1.4803501827e-004  -9.5011989404e-004   2.6741817491e-003  -2.2569012256e-001   1.5126740292e-003  -2.2612746316e-001   1.7092736101e-004   7.5192630071e-004
  7.7225000000e+010   1.4594262161e-004  -9.4305687476e-004   2.6711826977e-003  -2.2567407962e-001   1.5079106818e-003  -2.2611120680e-001   1.6961364834e-004   7.5244981433e-004
  7.7250000000e+010   1.4385003043e-004  -9.3600319288e-004   2.6681499804e-003  -2.2565785707e-001   1.5030936003e-003  -2.2609476836e-001   1.6827463356e-004   7.5294389339e-004
  7.7275000000e+010   1.4175733821e-004  -9.2895897400e-004   2.6650835983e-003  -2.2564145494e-001   1.4982227778e-003  -2.2607814785e-001   1.6691050063e-004   7.5340833515e-004
  7.7300000000e+010   1.3966463848e-004  -9.2192434291e-004   2.6619835528e-003  -2.2562487326e-001   1.4932982076e-003  -2.2606134531e-001   1.6552143478e-004   7.5384294014e-004
  7.7325000000e+010   1.3757202480e-004  -9.1489942355e-004   2.6588498450e-003  -2.2560811203e-001   1.4883198826e-003  -2.2604436074e-001   1.6410762252e-004   7.5424751213e-004
  7.7350000000e+010   1.3547959072e-004  -9.0788433904e-004   2.6556824762e-003  -2.2559117129e-001   1.4832877960e-003  -2.2602719418e-001   1.6266925166e-004   7.5462185819e-004
  7.7375000000e+010   1.3338742983e-004  -9.0087921165e-004   2.6524814478e-003  -2.2557405107e-001   1.4782019407e-003  -2.2600984563e-001   1.6120651127e-004   7.5496578867e-004
  7.7400000000e+010   1.3129563572e-004  -8.9388416283e-004   2.6492467609e-003  -2.2555675137e-001   1.4730623098e-003  -2.2599231512e-001   1.5971959165e-004   7.5527911724e-004
  7.7425000000e+010   1.2920430198e-004  -8.8689931316e-004   2.6459784171e-003  -2.2553927224e-001   1.4678688960e-003  -2.2597460268e-001   1.5820868438e-004   7.5556166086e-004
  7.7450000000e+010   1.2711352220e-004  -8.7992478244e-004   2.6426764175e-003  -2.2552161368e-001   1.4626216922e-003  -2.2595670832e-001   1.5667398224e-004   7.5581323984e-004
  7.7475000000e+010   1.2502338999e-004  -8.7296068960e-004   2.6393407637e-003  -2.2550377574e-001   1.4573206913e-003  -2.2593863207e-001   1.5511567925e-004   7.5603367780e-004
  7.7500000000e+010   1.2293399893e-004  -8.6600715275e-004   2.6359714571e-003  -2.2548575843e-001   1.4519658860e-003  -2.2592037394e-001   1.5353397063e-004   7.5622280171e-004
  7.7525000000e+010   1.2084544259e-004  -8.5906428919e-004   2.6325684990e-003  -2.2546756177e-001   1.4465572689e-003  -2.2590193397e-001   1.5192905281e-004   7.5638044192e-004
  7.7550000000e+010   1.1875781451e-004  -8.5213221537e-004   2.6291318909e-003  -2.2544918580e-001   1.4410948327e-003  -2.2588331217e-001   1.5030112340e-004   7.5650643211e-004
  7.7575000000e+010   1.1667120825e-004  -8.4521104692e-004   2.6256616343e-003  -2.2543063054e-001   1.4355785701e-003  -2.2586450857e-001   1.4865038118e-004   7.5660060936e-004
  7.7600000000e+010   1.1458571730e-004  -8.3830089865e-004   2.6221577308e-003  -2.2541189602e-001   1.4300084735e-003  -2.2584552318e-001   1.4697702612e-004   7.5666281414e-004
  7.7625000000e+010   1.1250143515e-004  -8.3140188455e-004   2.6186201818e-003  -2.2539298225e-001   1.4243845354e-003  -2.2582635604e-001   1.4528125931e-004   7.5669289028e-004
  7.7650000000e+010   1.1041845523e-004  -8.2451411777e-004   2.6150489889e-003  -2.2537388928e-001   1.4187067484e-003  -2.2580700717e-001   1.4356328300e-004   7.5669068504e-004
  7.7675000000e+010   1.0833687095e-004  -8.1763771068e-004   2.6114441538e-003  -2.2535461712e-001   1.4129751049e-003  -2.2578747659e-001   1.4182330057e-004   7.5665604909e-004
  7.7700000000e+010   1.0625677568e-004  -8.1077277478e-004   2.6078056779e-003  -2.2533516581e-001   1.4071895971e-003  -2.2576776433e-001   1.4006151653e-004   7.5658883652e-004
