# Hz S RI R 50.000000
! Metas.Vna.Tools, 2.4.7724.19584
! Metas.Vna.Data, 2.4.7724.19560
! Created: UTC 2021.04.29 12:40:11
! FREQ                re:S1,1             im:S1,1             re:S2,1             im:S2,1             re:S1,2             im:S1,2             re:S2,2             im:S2,2          
  7.5000000000e+010   9.1312370610e-004  -1.5711671669e-003   1.1270284788e-001  -3.6750467322e-001   1.0582951922e-001  -3.6952059307e-001  -6.2832401145e-005   1.3434951032e-003
  7.5025000000e+010   9.0609630665e-004  -1.5645073516e-003   1.1270271348e-001  -3.6750432727e-001   1.0582937763e-001  -3.6952025058e-001  -6.3730670693e-005   1.3441878863e-003
  7.5050000000e+010   8.9907058110e-004  -1.5578390319e-003   1.1270244468e-001  -3.6750363536e-001   1.0582909444e-001  -3.6951956561e-001  -6.4650645669e-005   1.3448494921e-003
  7.5075000000e+010   8.9204676465e-004  -1.5511623770e-003   1.1270204149e-001  -3.6750259750e-001   1.0582866966e-001  -3.6951853816e-001  -6.5592173562e-005   1.3454796790e-003
  7.5100000000e+010   8.8502509207e-004  -1.5444775561e-003   1.1270150389e-001  -3.6750121369e-001   1.0582810328e-001  -3.6951716823e-001  -6.6555101042e-005   1.3460782077e-003
  7.5125000000e+010   8.7800579767e-004  -1.5377847377e-003   1.1270083190e-001  -3.6749948394e-001   1.0582739531e-001  -3.6951545583e-001  -6.7539273973e-005   1.3466448415e-003
  7.5150000000e+010   8.7098911528e-004  -1.5310840903e-003   1.1270002551e-001  -3.6749740826e-001   1.0582654575e-001  -3.6951340097e-001  -6.8544537418e-005   1.3471793463e-003
  7.5175000000e+010   8.6397527827e-004  -1.5243757818e-003   1.1269908472e-001  -3.6749498666e-001   1.0582555458e-001  -3.6951100365e-001  -6.9570735649e-005   1.3476814905e-003
  7.5200000000e+010   8.5696451953e-004  -1.5176599799e-003   1.1269800955e-001  -3.6749221914e-001   1.0582442183e-001  -3.6950826388e-001  -7.0617712155e-005   1.3481510452e-003
  7.5225000000e+010   8.4995707144e-004  -1.5109368519e-003   1.1269679997e-001  -3.6748910572e-001   1.0582314747e-001  -3.6950518169e-001  -7.1685309647e-005   1.3485877841e-003
  7.5250000000e+010   8.4295316589e-004  -1.5042065647e-003   1.1269545601e-001  -3.6748564641e-001   1.0582173152e-001  -3.6950175707e-001  -7.2773370069e-005   1.3489914833e-003
  7.5275000000e+010   8.3595303425e-004  -1.4974692850e-003   1.1269397766e-001  -3.6748184122e-001   1.0582017397e-001  -3.6949799005e-001  -7.3881734605e-005   1.3493619217e-003
  7.5300000000e+010   8.2895690737e-004  -1.4907251788e-003   1.1269236493e-001  -3.6747769018e-001   1.0581847483e-001  -3.6949388065e-001  -7.5010243689e-005   1.3496988810e-003
  7.5325000000e+010   8.2196501555e-004  -1.4839744122e-003   1.1269061781e-001  -3.6747319330e-001   1.0581663408e-001  -3.6948942887e-001  -7.6158737008e-005   1.3500021452e-003
  7.5350000000e+010   8.1497758858e-004  -1.4772171506e-003   1.1268873630e-001  -3.6746835060e-001   1.0581465173e-001  -3.6948463474e-001  -7.7327053518e-005   1.3502715012e-003
  7.5375000000e+010   8.0799485567e-004  -1.4704535591e-003   1.1268672042e-001  -3.6746316210e-001   1.0581252779e-001  -3.6947949829e-001  -7.8515031444e-005   1.3505067387e-003
  7.5400000000e+010   8.0101704547e-004  -1.4636838025e-003   1.1268457017e-001  -3.6745762782e-001   1.0581026224e-001  -3.6947401952e-001  -7.9722508294e-005   1.3507076497e-003
  7.5425000000e+010   7.9404438609e-004  -1.4569080450e-003   1.1268228554e-001  -3.6745174779e-001   1.0580785508e-001  -3.6946819847e-001  -8.0949320864e-005   1.3508740294e-003
  7.5450000000e+010   7.8707710502e-004  -1.4501264506e-003   1.1267986654e-001  -3.6744552203e-001   1.0580530632e-001  -3.6946203517e-001  -8.2195305250e-005   1.3510056754e-003
  7.5475000000e+010   7.8011542918e-004  -1.4433391830e-003   1.1267731318e-001  -3.6743895056e-001   1.0580261596e-001  -3.6945552963e-001  -8.3460296850e-005   1.3511023881e-003
  7.5500000000e+010   7.7315958489e-004  -1.4365464053e-003   1.1267462545e-001  -3.6743203343e-001   1.0579978399e-001  -3.6944868189e-001  -8.4744130380e-005   1.3511639708e-003
  7.5525000000e+010   7.6620979788e-004  -1.4297482802e-003   1.1267180336e-001  -3.6742477065e-001   1.0579681041e-001  -3.6944149198e-001  -8.6046639875e-005   1.3511902294e-003
  7.5550000000e+010   7.5926629322e-004  -1.4229449702e-003   1.1266884693e-001  -3.6741716226e-001   1.0579369522e-001  -3.6943395992e-001  -8.7367658703e-005   1.3511809726e-003
  7.5575000000e+010   7.5232929540e-004  -1.4161366373e-003   1.1266575614e-001  -3.6740920828e-001   1.0579043842e-001  -3.6942608576e-001  -8.8707019571e-005   1.3511360120e-003
  7.5600000000e+010   7.4539902824e-004  -1.4093234429e-003   1.1266253100e-001  -3.6740090877e-001   1.0578704001e-001  -3.6941786952e-001  -9.0064554532e-005   1.3510551620e-003
  7.5625000000e+010   7.3847571495e-004  -1.4025055483e-003   1.1265917153e-001  -3.6739226374e-001   1.0578349998e-001  -3.6940931124e-001  -9.1440094997e-005   1.3509382396e-003
  7.5650000000e+010   7.3155957805e-004  -1.3956831141e-003   1.1265567772e-001  -3.6738327324e-001   1.0577981833e-001  -3.6940041095e-001  -9.2833471740e-005   1.3507850650e-003
  7.5675000000e+010   7.2465083943e-004  -1.3888563007e-003   1.1265204958e-001  -3.6737393730e-001   1.0577599507e-001  -3.6939116871e-001  -9.4244514909e-005   1.3505954609e-003
  7.5700000000e+010   7.1774972030e-004  -1.3820252681e-003   1.1264828712e-001  -3.6736425597e-001   1.0577203019e-001  -3.6938158454e-001  -9.5673054031e-005   1.3503692530e-003
  7.5725000000e+010   7.1085644117e-004  -1.3751901756e-003   1.1264439033e-001  -3.6735422929e-001   1.0576792368e-001  -3.6937165849e-001  -9.7118918027e-005   1.3501062699e-003
  7.5750000000e+010   7.0397122190e-004  -1.3683511823e-003   1.1264035924e-001  -3.6734385729e-001   1.0576367555e-001  -3.6936139060e-001  -9.8581935213e-005   1.3498063429e-003
  7.5775000000e+010   6.9709428162e-004  -1.3615084469e-003   1.1263619383e-001  -3.6733314003e-001   1.0575928580e-001  -3.6935078092e-001  -1.0006193331e-004   1.3494693065e-003
  7.5800000000e+010   6.9022583878e-004  -1.3546621274e-003   1.1263189412e-001  -3.6732207756e-001   1.0575475442e-001  -3.6933982949e-001  -1.0155873947e-004   1.3490949979e-003
  7.5825000000e+010   6.8336611109e-004  -1.3478123817e-003   1.1262746012e-001  -3.6731066990e-001   1.0575008141e-001  -3.6932853636e-001  -1.0307218023e-004   1.3486832570e-003
  7.5850000000e+010   6.7651531557e-004  -1.3409593670e-003   1.1262289183e-001  -3.6729891713e-001   1.0574526676e-001  -3.6931690158e-001  -1.0460208162e-004   1.3482339271e-003
  7.5875000000e+010   6.6967366848e-004  -1.3341032403e-003   1.1261818925e-001  -3.6728681929e-001   1.0574031048e-001  -3.6930492520e-001  -1.0614826905e-004   1.3477468540e-003
  7.5900000000e+010   6.6284138537e-004  -1.3272441578e-003   1.1261335240e-001  -3.6727437642e-001   1.0573521257e-001  -3.6929260727e-001  -1.0771056742e-004   1.3472218867e-003
  7.5925000000e+010   6.5601868100e-004  -1.3203822756e-003   1.1260838129e-001  -3.6726158859e-001   1.0572997301e-001  -3.6927994785e-001  -1.0928880108e-004   1.3466588771e-003
  7.5950000000e+010   6.4920576943e-004  -1.3135177491e-003   1.1260327591e-001  -3.6724845584e-001   1.0572459181e-001  -3.6926694699e-001  -1.1088279383e-004   1.3460576799e-003
  7.5975000000e+010   6.4240286391e-004  -1.3066507334e-003   1.1259803628e-001  -3.6723497824e-001   1.0571906897e-001  -3.6925360474e-001  -1.1249236897e-004   1.3454181529e-003
  7.6000000000e+010   6.3561017694e-004  -1.2997813832e-003   1.1259266240e-001  -3.6722115584e-001   1.0571340449e-001  -3.6923992117e-001  -1.1411734926e-004   1.3447401570e-003
  7.6025000000e+010   6.2882792023e-004  -1.2929098525e-003   1.1258715428e-001  -3.6720698870e-001   1.0570759835e-001  -3.6922589634e-001  -1.1575755699e-004   1.3440235558e-003
  7.6050000000e+010   6.2205630472e-004  -1.2860362950e-003   1.1258151194e-001  -3.6719247688e-001   1.0570165056e-001  -3.6921153030e-001  -1.1741281390e-004   1.3432682162e-003
  7.6075000000e+010   6.1529554053e-004  -1.2791608639e-003   1.1257573537e-001  -3.6717762045e-001   1.0569556111e-001  -3.6919682312e-001  -1.1908294130e-004   1.3424740078e-003
  7.6100000000e+010   6.0854583700e-004  -1.2722837120e-003   1.1256982460e-001  -3.6716241947e-001   1.0568933001e-001  -3.6918177486e-001  -1.2076775996e-004   1.3416408035e-003
  7.6125000000e+010   6.0180740264e-004  -1.2654049914e-003   1.1256377961e-001  -3.6714687399e-001   1.0568295725e-001  -3.6916638559e-001  -1.2246709023e-004   1.3407684790e-003
  7.6150000000e+010   5.9508044514e-004  -1.2585248541e-003   1.1255760044e-001  -3.6713098410e-001   1.0567644283e-001  -3.6915065537e-001  -1.2418075195e-004   1.3398569131e-003
  7.6175000000e+010   5.8836517137e-004  -1.2516434513e-003   1.1255128708e-001  -3.6711474986e-001   1.0566978673e-001  -3.6913458428e-001  -1.2590856456e-004   1.3389059877e-003
  7.6200000000e+010   5.8166178737e-004  -1.2447609338e-003   1.1254483954e-001  -3.6709817134e-001   1.0566298897e-001  -3.6911817238e-001  -1.2765034699e-004   1.3379155878e-003
  7.6225000000e+010   5.7497049834e-004  -1.2378774520e-003   1.1253825783e-001  -3.6708124860e-001   1.0565604954e-001  -3.6910141974e-001  -1.2940591780e-004   1.3368856012e-003
  7.6250000000e+010   5.6829150860e-004  -1.2309931558e-003   1.1253154197e-001  -3.6706398173e-001   1.0564896843e-001  -3.6908432644e-001  -1.3117509506e-004   1.3358159190e-003
  7.6275000000e+010   5.6162502165e-004  -1.2241081946e-003   1.1252469196e-001  -3.6704637079e-001   1.0564174564e-001  -3.6906689256e-001  -1.3295769647e-004   1.3347064353e-003
  7.6300000000e+010   5.5497124010e-004  -1.2172227172e-003   1.1251770781e-001  -3.6702841587e-001   1.0563438117e-001  -3.6904911816e-001  -1.3475353929e-004   1.3335570473e-003
  7.6325000000e+010   5.4833036570e-004  -1.2103368722e-003   1.1251058954e-001  -3.6701011703e-001   1.0562687502e-001  -3.6903100332e-001  -1.3656244040e-004   1.3323676551e-003
  7.6350000000e+010   5.4170259931e-004  -1.2034508073e-003   1.1250333715e-001  -3.6699147437e-001   1.0561922718e-001  -3.6901254813e-001  -1.3838421625e-004   1.3311381621e-003
  7.6375000000e+010   5.3508814091e-004  -1.1965646700e-003   1.1249595066e-001  -3.6697248795e-001   1.0561143764e-001  -3.6899375267e-001  -1.4021868296e-004   1.3298684748e-003
  7.6400000000e+010   5.2848718958e-004  -1.1896786073e-003   1.1248843007e-001  -3.6695315786e-001   1.0560350641e-001  -3.6897461701e-001  -1.4206565623e-004   1.3285585026e-003
  7.6425000000e+010   5.2189994351e-004  -1.1827927657e-003   1.1248077540e-001  -3.6693348418e-001   1.0559543348e-001  -3.6895514124e-001  -1.4392495141e-004   1.3272081583e-003
  7.6450000000e+010   5.1532659997e-004  -1.1759072909e-003   1.1247298665e-001  -3.6691346699e-001   1.0558721885e-001  -3.6893532545e-001  -1.4579638351e-004   1.3258173575e-003
  7.6475000000e+010   5.0876735531e-004  -1.1690223285e-003   1.1246506385e-001  -3.6689310639e-001   1.0557886252e-001  -3.6891516971e-001  -1.4767976715e-004   1.3243860191e-003
  7.6500000000e+010   5.0222240498e-004  -1.1621380235e-003   1.1245700700e-001  -3.6687240247e-001   1.0557036447e-001  -3.6889467413e-001  -1.4957491664e-004   1.3229140651e-003
  7.6525000000e+010   4.9569194347e-004  -1.1552545202e-003   1.1244881612e-001  -3.6685135530e-001   1.0556172472e-001  -3.6887383878e-001  -1.5148164597e-004   1.3214014206e-003
  7.6550000000e+010   4.8917616435e-004  -1.1483719625e-003   1.1244049121e-001  -3.6682996498e-001   1.0555294324e-001  -3.6885266376e-001  -1.5339976878e-004   1.3198480140e-003
  7.6575000000e+010   4.8267526024e-004  -1.1414904939e-003   1.1243203229e-001  -3.6680823160e-001   1.0554402005e-001  -3.6883114916e-001  -1.5532909840e-004   1.3182537765e-003
  7.6600000000e+010   4.7618942283e-004  -1.1346102573e-003   1.1242343937e-001  -3.6678615525e-001   1.0553495513e-001  -3.6880929507e-001  -1.5726944788e-004   1.3166186427e-003
  7.6625000000e+010   4.6971884283e-004  -1.1277313951e-003   1.1241471247e-001  -3.6676373604e-001   1.0552574848e-001  -3.6878710159e-001  -1.5922062995e-004   1.3149425503e-003
  7.6650000000e+010   4.6326370998e-004  -1.1208540492e-003   1.1240585159e-001  -3.6674097405e-001   1.0551640011e-001  -3.6876456882e-001  -1.6118245707e-004   1.3132254401e-003
  7.6675000000e+010   4.5682421309e-004  -1.1139783609e-003   1.1239685676e-001  -3.6671786939e-001   1.0550690999e-001  -3.6874169686e-001  -1.6315474140e-004   1.3114672562e-003
  7.6700000000e+010   4.5040053994e-004  -1.1071044711e-003   1.1238772798e-001  -3.6669442215e-001   1.0549727814e-001  -3.6871848579e-001  -1.6513729486e-004   1.3096679457e-003
  7.6725000000e+010   4.4399287738e-004  -1.1002325201e-003   1.1237846527e-001  -3.6667063243e-001   1.0548750455e-001  -3.6869493574e-001  -1.6712992909e-004   1.3078274589e-003
  7.6750000000e+010   4.3760141122e-004  -1.0933626478e-003   1.1236906864e-001  -3.6664650034e-001   1.0547758920e-001  -3.6867104679e-001  -1.6913245549e-004   1.3059457492e-003
  7.6775000000e+010   4.3122632632e-004  -1.0864949935e-003   1.1235953811e-001  -3.6662202598e-001   1.0546753211e-001  -3.6864681905e-001  -1.7114468520e-004   1.3040227734e-003
  7.6800000000e+010   4.2486780651e-004  -1.0796296959e-003   1.1234987369e-001  -3.6659720946e-001   1.0545733326e-001  -3.6862225263e-001  -1.7316642916e-004   1.3020584913e-003
  7.6825000000e+010   4.1852603462e-004  -1.0727668934e-003   1.1234007539e-001  -3.6657205088e-001   1.0544699266e-001  -3.6859734763e-001  -1.7519749804e-004   1.3000528658e-003
  7.6850000000e+010   4.1220119246e-004  -1.0659067236e-003   1.1233014324e-001  -3.6654655035e-001   1.0543651029e-001  -3.6857210417e-001  -1.7723770234e-004   1.2980058632e-003
  7.6875000000e+010   4.0589346084e-004  -1.0590493237e-003   1.1232007724e-001  -3.6652070797e-001   1.0542588615e-001  -3.6854652234e-001  -1.7928685231e-004   1.2959174529e-003
  7.6900000000e+010   3.9960301951e-004  -1.0521948306e-003   1.1230987741e-001  -3.6649452387e-001   1.0541512024e-001  -3.6852060228e-001  -1.8134475805e-004   1.2937876073e-003
  7.6925000000e+010   3.9333004722e-004  -1.0453433802e-003   1.1229954377e-001  -3.6646799816e-001   1.0540421256e-001  -3.6849434408e-001  -1.8341122943e-004   1.2916163022e-003
  7.6950000000e+010   3.8707472167e-004  -1.0384951084e-003   1.1228907634e-001  -3.6644113094e-001   1.0539316309e-001  -3.6846774786e-001  -1.8548607615e-004   1.2894035166e-003
  7.6975000000e+010   3.8083721950e-004  -1.0316501501e-003   1.1227847512e-001  -3.6641392233e-001   1.0538197185e-001  -3.6844081374e-001  -1.8756910776e-004   1.2871492325e-003
  7.7000000000e+010   3.7461771634e-004  -1.0248086400e-003   1.1226774013e-001  -3.6638637246e-001   1.0537063881e-001  -3.6841354183e-001  -1.8966013361e-004   1.2848534352e-003
  7.7025000000e+010   3.6841638672e-004  -1.0179707122e-003   1.1225687140e-001  -3.6635848144e-001   1.0535916398e-001  -3.6838593226e-001  -1.9175896294e-004   1.2825161133e-003
  7.7050000000e+010   3.6223340413e-004  -1.0111365001e-003   1.1224586893e-001  -3.6633024938e-001   1.0534754736e-001  -3.6835798514e-001  -1.9386540480e-004   1.2801372585e-003
  7.7075000000e+010   3.5606894101e-004  -1.0043061367e-003   1.1223473275e-001  -3.6630167641e-001   1.0533578893e-001  -3.6832970060e-001  -1.9597926813e-004   1.2777168655e-003
  7.7100000000e+010   3.4992316870e-004  -9.9747975465e-004   1.1222346287e-001  -3.6627276266e-001   1.0532388870e-001  -3.6830107876e-001  -1.9810036175e-004   1.2752549325e-003
  7.7125000000e+010   3.4379625748e-004  -9.9065748571e-004   1.1221205930e-001  -3.6624350825e-001   1.0531184667e-001  -3.6827211974e-001  -2.0022849434e-004   1.2727514608e-003
  7.7150000000e+010   3.3768837654e-004  -9.8383946134e-004   1.1220052208e-001  -3.6621391330e-001   1.0529966281e-001  -3.6824282367e-001  -2.0236347448e-004   1.2702064548e-003
  7.7175000000e+010   3.3159969398e-004  -9.7702581241e-004   1.1218885121e-001  -3.6618397794e-001   1.0528733714e-001  -3.6821319068e-001  -2.0450511065e-004   1.2676199221e-003
  7.7200000000e+010   3.2553037682e-004  -9.7021666926e-004   1.1217704671e-001  -3.6615370230e-001   1.0527486965e-001  -3.6818322090e-001  -2.0665321123e-004   1.2649918737e-003
  7.7225000000e+010   3.1948059097e-004  -9.6341216170e-004   1.1216510860e-001  -3.6612308651e-001   1.0526226033e-001  -3.6815291446e-001  -2.0880758452e-004   1.2623223235e-003
  7.7250000000e+010   3.1345050123e-004  -9.5661241898e-004   1.1215303690e-001  -3.6609213070e-001   1.0524950918e-001  -3.6812227149e-001  -2.1096803876e-004   1.2596112889e-003
  7.7275000000e+010   3.0744027132e-004  -9.4981756986e-004   1.1214083163e-001  -3.6606083501e-001   1.0523661619e-001  -3.6809129212e-001  -2.1313438210e-004   1.2568587902e-003
  7.7300000000e+010   3.0145006381e-004  -9.4302774252e-004   1.1212849280e-001  -3.6602919957e-001   1.0522358137e-001  -3.6805997649e-001  -2.1530642265e-004   1.2540648510e-003
  7.7325000000e+010   2.9548004018e-004  -9.3624306465e-004   1.1211602044e-001  -3.6599722452e-001   1.0521040470e-001  -3.6802832474e-001  -2.1748396846e-004   1.2512294983e-003
  7.7350000000e+010   2.8953036078e-004  -9.2946366337e-004   1.1210341457e-001  -3.6596490999e-001   1.0519708618e-001  -3.6799633700e-001  -2.1966682754e-004   1.2483527619e-003
  7.7375000000e+010   2.8360118482e-004  -9.2268966528e-004   1.1209067520e-001  -3.6593225612e-001   1.0518362581e-001  -3.6796401341e-001  -2.2185480789e-004   1.2454346751e-003
  7.7400000000e+010   2.7769267039e-004  -9.1592119644e-004   1.1207780235e-001  -3.6589926306e-001   1.0517002358e-001  -3.6793135412e-001  -2.2404771744e-004   1.2424752743e-003
  7.7425000000e+010   2.7180497445e-004  -9.0915838237e-004   1.1206479605e-001  -3.6586593095e-001   1.0515627950e-001  -3.6789835927e-001  -2.2624536417e-004   1.2394745989e-003
  7.7450000000e+010   2.6593825280e-004  -9.0240134807e-004   1.1205165632e-001  -3.6583225992e-001   1.0514239354e-001  -3.6786502899e-001  -2.2844755599e-004   1.2364326919e-003
  7.7475000000e+010   2.6009266010e-004  -8.9565021800e-004   1.1203838316e-001  -3.6579825013e-001   1.0512836572e-001  -3.6783136345e-001  -2.3065410087e-004   1.2333495990e-003
  7.7500000000e+010   2.5426834986e-004  -8.8890511606e-004   1.1202497662e-001  -3.6576390172e-001   1.0511419602e-001  -3.6779736278e-001  -2.3286480674e-004   1.2302253693e-003
  7.7525000000e+010   2.4846547445e-004  -8.8216616566e-004   1.1201143670e-001  -3.6572921484e-001   1.0509988444e-001  -3.6776302713e-001  -2.3507948159e-004   1.2270600553e-003
  7.7550000000e+010   2.4268418506e-004  -8.7543348963e-004   1.1199776343e-001  -3.6569418964e-001   1.0508543098e-001  -3.6772835665e-001  -2.3729793342e-004   1.2238537122e-003
  7.7575000000e+010   2.3692463173e-004  -8.6870721029e-004   1.1198395684e-001  -3.6565882627e-001   1.0507083563e-001  -3.6769335149e-001  -2.3951997027e-004   1.2206063987e-003
  7.7600000000e+010   2.3118696331e-004  -8.6198744942e-004   1.1197001693e-001  -3.6562312488e-001   1.0505609839e-001  -3.6765801182e-001  -2.4174540023e-004   1.2173181765e-003
  7.7625000000e+010   2.2547132751e-004  -8.5527432826e-004   1.1195594373e-001  -3.6558708563e-001   1.0504121925e-001  -3.6762233777e-001  -2.4397403145e-004   1.2139891107e-003
  7.7650000000e+010   2.1977787085e-004  -8.4856796753e-004   1.1194173728e-001  -3.6555070866e-001   1.0502619821e-001  -3.6758632951e-001  -2.4620567211e-004   1.2106192693e-003
  7.7675000000e+010   2.1410673867e-004  -8.4186848740e-004   1.1192739758e-001  -3.6551399415e-001   1.0501103527e-001  -3.6754998719e-001  -2.4844013051e-004   1.2072087235e-003
  7.7700000000e+010   2.0845807511e-004  -8.3517600751e-004   1.1191292466e-001  -3.6547694225e-001   1.0499573042e-001  -3.6751331098e-001  -2.5067721498e-004   1.2037575478e-003
