# Hz S RI R 50.000000
! Metas.Vna.Tools, 2.4.7724.19584
! Metas.Vna.Data, 2.4.7724.19560
! Created: UTC 2021.04.29 12:40:11
! FREQ                re:S1,1             im:S1,1             re:S2,1             im:S2,1             re:S1,2             im:S1,2             re:S2,2             im:S2,2          
  7.5000000000e+010   5.2056602304e-004  -1.2229184432e-004   2.6404941171e-001  -4.6939215785e-001   2.5735263269e-001  -4.7386870573e-001   6.0430452541e-004   1.1186920209e-003
  7.5025000000e+010   5.1795513506e-004  -1.2314774924e-004   2.6404915289e-001  -4.6939170799e-001   2.5735237630e-001  -4.7386825895e-001   6.0250936401e-004   1.1188533649e-003
  7.5050000000e+010   5.1533994724e-004  -1.2399848136e-004   2.6404863526e-001  -4.6939080827e-001   2.5735186353e-001  -4.7386736539e-001   6.0069083019e-004   1.1189912937e-003
  7.5075000000e+010   5.1272052342e-004  -1.2484392953e-004   2.6404785881e-001  -4.6938945868e-001   2.5735109436e-001  -4.7386602506e-001   5.9884897059e-004   1.1191056661e-003
  7.5100000000e+010   5.1009692760e-004  -1.2568398315e-004   2.6404682355e-001  -4.6938765925e-001   2.5735006881e-001  -4.7386423796e-001   5.9698383329e-004   1.1191963426e-003
  7.5125000000e+010   5.0746922400e-004  -1.2651853222e-004   2.6404552949e-001  -4.6938540998e-001   2.5734878688e-001  -4.7386200410e-001   5.9509546778e-004   1.1192631848e-003
  7.5150000000e+010   5.0483747699e-004  -1.2734746727e-004   2.6404397662e-001  -4.6938271087e-001   2.5734724857e-001  -4.7385932349e-001   5.9318392496e-004   1.1193060560e-003
  7.5175000000e+010   5.0220175116e-004  -1.2817067943e-004   2.6404216495e-001  -4.6937956195e-001   2.5734545388e-001  -4.7385619615e-001   5.9124925718e-004   1.1193248207e-003
  7.5200000000e+010   4.9956211125e-004  -1.2898806042e-004   2.6404009450e-001  -4.6937596322e-001   2.5734340282e-001  -4.7385262210e-001   5.8929151819e-004   1.1193193452e-003
  7.5225000000e+010   4.9691862221e-004  -1.2979950255e-004   2.6403776526e-001  -4.6937191470e-001   2.5734109539e-001  -4.7384860134e-001   5.8731076316e-004   1.1192894968e-003
  7.5250000000e+010   4.9427134914e-004  -1.3060489871e-004   2.6403517725e-001  -4.6936741641e-001   2.5733853160e-001  -4.7384413391e-001   5.8530704867e-004   1.1192351447e-003
  7.5275000000e+010   4.9162035735e-004  -1.3140414242e-004   2.6403233047e-001  -4.6936246838e-001   2.5733571145e-001  -4.7383921981e-001   5.8328043272e-004   1.1191561594e-003
  7.5300000000e+010   4.8896571231e-004  -1.3219712779e-004   2.6402922495e-001  -4.6935707062e-001   2.5733263494e-001  -4.7383385909e-001   5.8123097472e-004   1.1190524129e-003
  7.5325000000e+010   4.8630747967e-004  -1.3298374956e-004   2.6402586068e-001  -4.6935122317e-001   2.5732930210e-001  -4.7382805176e-001   5.7915873549e-004   1.1189237786e-003
  7.5350000000e+010   4.8364572528e-004  -1.3376390309e-004   2.6402223768e-001  -4.6934492604e-001   2.5732571292e-001  -4.7382179785e-001   5.7706377722e-004   1.1187701315e-003
  7.5375000000e+010   4.8098051513e-004  -1.3453748437e-004   2.6401835597e-001  -4.6933817927e-001   2.5732186741e-001  -4.7381509740e-001   5.7494616356e-004   1.1185913483e-003
  7.5400000000e+010   4.7831191540e-004  -1.3530439002e-004   2.6401421556e-001  -4.6933098289e-001   2.5731776558e-001  -4.7380795045e-001   5.7280595951e-004   1.1183873070e-003
  7.5425000000e+010   4.7563999246e-004  -1.3606451733e-004   2.6400981647e-001  -4.6932333694e-001   2.5731340744e-001  -4.7380035701e-001   5.7064323150e-004   1.1181578871e-003
  7.5450000000e+010   4.7296481283e-004  -1.3681776419e-004   2.6400515870e-001  -4.6931524144e-001   2.5730879299e-001  -4.7379231714e-001   5.6845804732e-004   1.1179029699e-003
  7.5475000000e+010   4.7028644321e-004  -1.3756402919e-004   2.6400024229e-001  -4.6930669645e-001   2.5730392226e-001  -4.7378383088e-001   5.6625047618e-004   1.1176224380e-003
  7.5500000000e+010   4.6760495047e-004  -1.3830321156e-004   2.6399506724e-001  -4.6929770199e-001   2.5729879525e-001  -4.7377489826e-001   5.6402058867e-004   1.1173161757e-003
  7.5525000000e+010   4.6492040164e-004  -1.3903521121e-004   2.6398963359e-001  -4.6928825811e-001   2.5729341197e-001  -4.7376551933e-001   5.6176845675e-004   1.1169840689e-003
  7.5550000000e+010   4.6223286394e-004  -1.3975992870e-004   2.6398394134e-001  -4.6927836485e-001   2.5728777243e-001  -4.7375569415e-001   5.5949415377e-004   1.1166260050e-003
  7.5575000000e+010   4.5954240474e-004  -1.4047726530e-004   2.6397799052e-001  -4.6926802227e-001   2.5728187665e-001  -4.7374542275e-001   5.5719775447e-004   1.1162418729e-003
  7.5600000000e+010   4.5684909157e-004  -1.4118712293e-004   2.6397178115e-001  -4.6925723040e-001   2.5727572463e-001  -4.7373470520e-001   5.5487933495e-004   1.1158315634e-003
  7.5625000000e+010   4.5415299213e-004  -1.4188940424e-004   2.6396531326e-001  -4.6924598930e-001   2.5726931640e-001  -4.7372354154e-001   5.5253897268e-004   1.1153949686e-003
  7.5650000000e+010   4.5145417430e-004  -1.4258401255e-004   2.6395858687e-001  -4.6923429903e-001   2.5726265197e-001  -4.7371193183e-001   5.5017674650e-004   1.1149319824e-003
  7.5675000000e+010   4.4875270610e-004  -1.4327085190e-004   2.6395160200e-001  -4.6922215964e-001   2.5725573135e-001  -4.7369987614e-001   5.4779273663e-004   1.1144425003e-003
  7.5700000000e+010   4.4604865570e-004  -1.4394982702e-004   2.6394435869e-001  -4.6920957117e-001   2.5724855456e-001  -4.7368737451e-001   5.4538702464e-004   1.1139264193e-003
  7.5725000000e+010   4.4334209146e-004  -1.4462084337e-004   2.6393685695e-001  -4.6919653371e-001   2.5724112161e-001  -4.7367442702e-001   5.4295969343e-004   1.1133836383e-003
  7.5750000000e+010   4.4063308187e-004  -1.4528380712e-004   2.6392909683e-001  -4.6918304729e-001   2.5723343253e-001  -4.7366103373e-001   5.4051082730e-004   1.1128140575e-003
  7.5775000000e+010   4.3792169560e-004  -1.4593862519e-004   2.6392107834e-001  -4.6916911200e-001   2.5722548732e-001  -4.7364719470e-001   5.3804051187e-004   1.1122175791e-003
  7.5800000000e+010   4.3520800145e-004  -1.4658520519e-004   2.6391280151e-001  -4.6915472789e-001   2.5721728600e-001  -4.7363291001e-001   5.3554883410e-004   1.1115941068e-003
  7.5825000000e+010   4.3249206838e-004  -1.4722345551e-004   2.6390426639e-001  -4.6913989503e-001   2.5720882860e-001  -4.7361817974e-001   5.3303588232e-004   1.1109435459e-003
  7.5850000000e+010   4.2977396552e-004  -1.4785328525e-004   2.6389547299e-001  -4.6912461349e-001   2.5720011514e-001  -4.7360300394e-001   5.3050174618e-004   1.1102658035e-003
  7.5875000000e+010   4.2705376212e-004  -1.4847460429e-004   2.6388642136e-001  -4.6910888334e-001   2.5719114562e-001  -4.7358738270e-001   5.2794651665e-004   1.1095607884e-003
  7.5900000000e+010   4.2433152760e-004  -1.4908732324e-004   2.6387711153e-001  -4.6909270466e-001   2.5718192008e-001  -4.7357131611e-001   5.2537028605e-004   1.1088284110e-003
  7.5925000000e+010   4.2160733151e-004  -1.4969135347e-004   2.6386754353e-001  -4.6907607753e-001   2.5717243853e-001  -4.7355480423e-001   5.2277314802e-004   1.1080685834e-003
  7.5950000000e+010   4.1888124356e-004  -1.5028660713e-004   2.6385771740e-001  -4.6905900201e-001   2.5716270100e-001  -4.7353784716e-001   5.2015519752e-004   1.1072812196e-003
  7.5975000000e+010   4.1615333360e-004  -1.5087299713e-004   2.6384763318e-001  -4.6904147819e-001   2.5715270750e-001  -4.7352044497e-001   5.1751653082e-004   1.1064662351e-003
  7.6000000000e+010   4.1342367161e-004  -1.5145043716e-004   2.6383729090e-001  -4.6902350616e-001   2.5714245806e-001  -4.7350259776e-001   5.1485724551e-004   1.1056235472e-003
  7.6025000000e+010   4.1069232772e-004  -1.5201884169e-004   2.6382669060e-001  -4.6900508599e-001   2.5713195271e-001  -4.7348430562e-001   5.1217744047e-004   1.1047530750e-003
  7.6050000000e+010   4.0795937221e-004  -1.5257812598e-004   2.6381583233e-001  -4.6898621778e-001   2.5712119145e-001  -4.7346556864e-001   5.0947721591e-004   1.1038547392e-003
  7.6075000000e+010   4.0522487548e-004  -1.5312820607e-004   2.6380471612e-001  -4.6896690160e-001   2.5711017433e-001  -4.7344638690e-001   5.0675667332e-004   1.1029284623e-003
  7.6100000000e+010   4.0248890805e-004  -1.5366899880e-004   2.6379334202e-001  -4.6894713757e-001   2.5709890136e-001  -4.7342676052e-001   5.0401591549e-004   1.1019741686e-003
  7.6125000000e+010   3.9975154062e-004  -1.5420042183e-004   2.6378171006e-001  -4.6892692575e-001   2.5708737258e-001  -4.7340668959e-001   5.0125504648e-004   1.1009917841e-003
  7.6150000000e+010   3.9701284397e-004  -1.5472239361e-004   2.6376982030e-001  -4.6890626626e-001   2.5707558799e-001  -4.7338617421e-001   4.9847417167e-004   1.0999812367e-003
  7.6175000000e+010   3.9427288905e-004  -1.5523483340e-004   2.6375767278e-001  -4.6888515919e-001   2.5706354764e-001  -4.7336521449e-001   4.9567339768e-004   1.0989424559e-003
  7.6200000000e+010   3.9153174692e-004  -1.5573766129e-004   2.6374526755e-001  -4.6886360463e-001   2.5705125155e-001  -4.7334381052e-001   4.9285283242e-004   1.0978753730e-003
  7.6225000000e+010   3.8878948876e-004  -1.5623079818e-004   2.6373260464e-001  -4.6884160269e-001   2.5703869975e-001  -4.7332196242e-001   4.9001258509e-004   1.0967799211e-003
  7.6250000000e+010   3.8604618589e-004  -1.5671416579e-004   2.6371968411e-001  -4.6881915347e-001   2.5702589226e-001  -4.7329967030e-001   4.8715276611e-004   1.0956560352e-003
  7.6275000000e+010   3.8330190973e-004  -1.5718768670e-004   2.6370650602e-001  -4.6879625708e-001   2.5701282911e-001  -4.7327693427e-001   4.8427348719e-004   1.0945036520e-003
  7.6300000000e+010   3.8055673185e-004  -1.5765128429e-004   2.6369307039e-001  -4.6877291362e-001   2.5699951034e-001  -4.7325375445e-001   4.8137486129e-004   1.0933227101e-003
  7.6325000000e+010   3.7781072393e-004  -1.5810488282e-004   2.6367937730e-001  -4.6874912320e-001   2.5698593597e-001  -4.7323013094e-001   4.7845700260e-004   1.0921131496e-003
  7.6350000000e+010   3.7506395774e-004  -1.5854840737e-004   2.6366542679e-001  -4.6872488594e-001   2.5697210604e-001  -4.7320606388e-001   4.7552002658e-004   1.0908749128e-003
  7.6375000000e+010   3.7231650519e-004  -1.5898178388e-004   2.6365121891e-001  -4.6870020195e-001   2.5695802057e-001  -4.7318155338e-001   4.7256404990e-004   1.0896079437e-003
  7.6400000000e+010   3.6956843831e-004  -1.5940493913e-004   2.6363675372e-001  -4.6867507135e-001   2.5694367960e-001  -4.7315659957e-001   4.6958919048e-004   1.0883121879e-003
  7.6425000000e+010   3.6681982922e-004  -1.5981780078e-004   2.6362203127e-001  -4.6864949425e-001   2.5692908316e-001  -4.7313120257e-001   4.6659556745e-004   1.0869875932e-003
  7.6450000000e+010   3.6407075016e-004  -1.6022029735e-004   2.6360705161e-001  -4.6862347077e-001   2.5691423128e-001  -4.7310536251e-001   4.6358330119e-004   1.0856341089e-003
  7.6475000000e+010   3.6132127347e-004  -1.6061235822e-004   2.6359181481e-001  -4.6859700104e-001   2.5689912399e-001  -4.7307907952e-001   4.6055251325e-004   1.0842516864e-003
  7.6500000000e+010   3.5857147161e-004  -1.6099391365e-004   2.6357632092e-001  -4.6857008517e-001   2.5688376134e-001  -4.7305235373e-001   4.5750332643e-004   1.0828402789e-003
  7.6525000000e+010   3.5582141711e-004  -1.6136489478e-004   2.6356057001e-001  -4.6854272331e-001   2.5686814335e-001  -4.7302518529e-001   4.5443586470e-004   1.0813998412e-003
  7.6550000000e+010   3.5307118265e-004  -1.6172523362e-004   2.6354456212e-001  -4.6851491557e-001   2.5685227006e-001  -4.7299757432e-001   4.5135025327e-004   1.0799303303e-003
  7.6575000000e+010   3.5032084097e-004  -1.6207486309e-004   2.6352829732e-001  -4.6848666208e-001   2.5683614151e-001  -4.7296952096e-001   4.4824661850e-004   1.0784317049e-003
  7.6600000000e+010   3.4757046491e-004  -1.6241371698e-004   2.6351177567e-001  -4.6845796298e-001   2.5681975773e-001  -4.7294102536e-001   4.4512508796e-004   1.0769039255e-003
  7.6625000000e+010   3.4482012741e-004  -1.6274172998e-004   2.6349499724e-001  -4.6842881841e-001   2.5680311876e-001  -4.7291208766e-001   4.4198579038e-004   1.0753469546e-003
  7.6650000000e+010   3.4206990152e-004  -1.6305883767e-004   2.6347796208e-001  -4.6839922849e-001   2.5678622464e-001  -4.7288270800e-001   4.3882885568e-004   1.0737607566e-003
  7.6675000000e+010   3.3931986036e-004  -1.6336497656e-004   2.6346067027e-001  -4.6836919337e-001   2.5676907540e-001  -4.7285288654e-001   4.3565441495e-004   1.0721452976e-003
  7.6700000000e+010   3.3657007712e-004  -1.6366008404e-004   2.6344312187e-001  -4.6833871320e-001   2.5675167109e-001  -4.7282262343e-001   4.3246260042e-004   1.0705005457e-003
  7.6725000000e+010   3.3382062513e-004  -1.6394409842e-004   2.6342531694e-001  -4.6830778810e-001   2.5673401174e-001  -4.7279191881e-001   4.2925354550e-004   1.0688264709e-003
  7.6750000000e+010   3.3107157774e-004  -1.6421695893e-004   2.6340725555e-001  -4.6827641824e-001   2.5671609740e-001  -4.7276077285e-001   4.2602738474e-004   1.0671230451e-003
  7.6775000000e+010   3.2832300843e-004  -1.6447860572e-004   2.6338893777e-001  -4.6824460375e-001   2.5669792810e-001  -4.7272918569e-001   4.2278425383e-004   1.0653902421e-003
  7.6800000000e+010   3.2557499073e-004  -1.6472897985e-004   2.6337036367e-001  -4.6821234478e-001   2.5667950389e-001  -4.7269715750e-001   4.1952428958e-004   1.0636280375e-003
  7.6825000000e+010   3.2282759826e-004  -1.6496802333e-004   2.6335153332e-001  -4.6817964149e-001   2.5666082481e-001  -4.7266468845e-001   4.1624762997e-004   1.0618364089e-003
  7.6850000000e+010   3.2008090471e-004  -1.6519567906e-004   2.6333244680e-001  -4.6814649404e-001   2.5664189089e-001  -4.7263177869e-001   4.1295441406e-004   1.0600153359e-003
  7.6875000000e+010   3.1733498384e-004  -1.6541189093e-004   2.6331310416e-001  -4.6811290256e-001   2.5662270219e-001  -4.7259842838e-001   4.0964478206e-004   1.0581647998e-003
  7.6900000000e+010   3.1458990948e-004  -1.6561660372e-004   2.6329350550e-001  -4.6807886724e-001   2.5660325875e-001  -4.7256463771e-001   4.0631887527e-004   1.0562847839e-003
  7.6925000000e+010   3.1184575554e-004  -1.6580976317e-004   2.6327365087e-001  -4.6804438821e-001   2.5658356062e-001  -4.7253040684e-001   4.0297683610e-004   1.0543752735e-003
  7.6950000000e+010   3.0910259597e-004  -1.6599131597e-004   2.6325354036e-001  -4.6800946565e-001   2.5656360782e-001  -4.7249573594e-001   3.9961880805e-004   1.0524362558e-003
  7.6975000000e+010   3.0636050480e-004  -1.6616120976e-004   2.6323317405e-001  -4.6797409972e-001   2.5654340043e-001  -4.7246062518e-001   3.9624493573e-004   1.0504677198e-003
  7.7000000000e+010   3.0361955612e-004  -1.6631939311e-004   2.6321255200e-001  -4.6793829059e-001   2.5652293846e-001  -4.7242507475e-001   3.9285536481e-004   1.0484696566e-003
  7.7025000000e+010   3.0087982406e-004  -1.6646581558e-004   2.6319167430e-001  -4.6790203842e-001   2.5650222199e-001  -4.7238908482e-001   3.8945024205e-004   1.0464420591e-003
  7.7050000000e+010   2.9814138283e-004  -1.6660042765e-004   2.6317054103e-001  -4.6786534339e-001   2.5648125105e-001  -4.7235265558e-001   3.8602971527e-004   1.0443849223e-003
  7.7075000000e+010   2.9540430668e-004  -1.6672318079e-004   2.6314915227e-001  -4.6782820566e-001   2.5646002569e-001  -4.7231578721e-001   3.8259393336e-004   1.0422982428e-003
  7.7100000000e+010   2.9266866990e-004  -1.6683402743e-004   2.6312750810e-001  -4.6779062542e-001   2.5643854595e-001  -4.7227847989e-001   3.7914304627e-004   1.0401820197e-003
  7.7125000000e+010   2.8993454684e-004  -1.6693292097e-004   2.6310560860e-001  -4.6775260283e-001   2.5641681190e-001  -4.7224073381e-001   3.7567720498e-004   1.0380362534e-003
  7.7150000000e+010   2.8720201190e-004  -1.6701981577e-004   2.6308345385e-001  -4.6771413808e-001   2.5639482357e-001  -4.7220254917e-001   3.7219656153e-004   1.0358609468e-003
  7.7175000000e+010   2.8447113951e-004  -1.6709466718e-004   2.6306104394e-001  -4.6767523135e-001   2.5637258103e-001  -4.7216392615e-001   3.6870126899e-004   1.0336561043e-003
  7.7200000000e+010   2.8174200415e-004  -1.6715743152e-004   2.6303837895e-001  -4.6763588282e-001   2.5635008431e-001  -4.7212486496e-001   3.6519148145e-004   1.0314217327e-003
  7.7225000000e+010   2.7901468032e-004  -1.6720806608e-004   2.6301545898e-001  -4.6759609267e-001   2.5632733348e-001  -4.7208536578e-001   3.6166735403e-004   1.0291578403e-003
  7.7250000000e+010   2.7628924257e-004  -1.6724652916e-004   2.6299228410e-001  -4.6755586110e-001   2.5630432857e-001  -4.7204542882e-001   3.5812904285e-004   1.0268644377e-003
  7.7275000000e+010   2.7356576549e-004  -1.6727278003e-004   2.6296885440e-001  -4.6751518829e-001   2.5628106966e-001  -4.7200505428e-001   3.5457670504e-004   1.0245415374e-003
  7.7300000000e+010   2.7084432369e-004  -1.6728677894e-004   2.6294516998e-001  -4.6747407443e-001   2.5625755678e-001  -4.7196424236e-001   3.5101049874e-004   1.0221891536e-003
  7.7325000000e+010   2.6812499178e-004  -1.6728848716e-004   2.6292123092e-001  -4.6743251972e-001   2.5623379000e-001  -4.7192299327e-001   3.4743058306e-004   1.0198073028e-003
  7.7350000000e+010   2.6540784445e-004  -1.6727786694e-004   2.6289703731e-001  -4.6739052435e-001   2.5620976937e-001  -4.7188130722e-001   3.4383711812e-004   1.0173960032e-003
  7.7375000000e+010   2.6269295636e-004  -1.6725488152e-004   2.6287258926e-001  -4.6734808851e-001   2.5618549495e-001  -4.7183918441e-001   3.4023026499e-004   1.0149552752e-003
  7.7400000000e+010   2.5998040221e-004  -1.6721949514e-004   2.6284788684e-001  -4.6730521242e-001   2.5616096678e-001  -4.7179662507e-001   3.3661018571e-004   1.0124851409e-003
  7.7425000000e+010   2.5727025673e-004  -1.6717167307e-004   2.6282293016e-001  -4.6726189627e-001   2.5613618493e-001  -4.7175362939e-001   3.3297704330e-004   1.0099856247e-003
  7.7450000000e+010   2.5456259464e-004  -1.6711138156e-004   2.6279771930e-001  -4.6721814026e-001   2.5611114945e-001  -4.7171019761e-001   3.2933100172e-004   1.0074567526e-003
  7.7475000000e+010   2.5185749069e-004  -1.6703858787e-004   2.6277225437e-001  -4.6717394459e-001   2.5608586041e-001  -4.7166632994e-001   3.2567222587e-004   1.0048985528e-003
  7.7500000000e+010   2.4915501961e-004  -1.6695326027e-004   2.6274653546e-001  -4.6712930949e-001   2.5606031786e-001  -4.7162202660e-001   3.2200088159e-004   1.0023110555e-003
  7.7525000000e+010   2.4645525617e-004  -1.6685536807e-004   2.6272056267e-001  -4.6708423515e-001   2.5603452185e-001  -4.7157728782e-001   3.1831713567e-004   9.9969429274e-004
  7.7550000000e+010   2.4375827512e-004  -1.6674488155e-004   2.6269433609e-001  -4.6703872179e-001   2.5600847246e-001  -4.7153211381e-001   3.1462115580e-004   9.9704829856e-004
  7.7575000000e+010   2.4106415121e-004  -1.6662177204e-004   2.6266785584e-001  -4.6699276963e-001   2.5598216973e-001  -4.7148650482e-001   3.1091311058e-004   9.9437310901e-004
  7.7600000000e+010   2.3837295920e-004  -1.6648601188e-004   2.6264112200e-001  -4.6694637887e-001   2.5595561374e-001  -4.7144046106e-001   3.0719316954e-004   9.9166876209e-004
  7.7625000000e+010   2.3568477383e-004  -1.6633757444e-004   2.6261413468e-001  -4.6689954974e-001   2.5592880454e-001  -4.7139398278e-001   3.0346150309e-004   9.8893529778e-004
  7.7650000000e+010   2.3299966984e-004  -1.6617643409e-004   2.6258689399e-001  -4.6685228246e-001   2.5590174219e-001  -4.7134707020e-001   2.9971828254e-004   9.8617275804e-004
  7.7675000000e+010   2.3031772196e-004  -1.6600256624e-004   2.6255940002e-001  -4.6680457725e-001   2.5587442676e-001  -4.7129972356e-001   2.9596368007e-004   9.8338118679e-004
  7.7700000000e+010   2.2763900490e-004  -1.6581594735e-004   2.6253165289e-001  -4.6675643433e-001   2.5584685832e-001  -4.7125194311e-001   2.9219786875e-004   9.8056062993e-004
