# Hz S RI R 50.000000
! Metas.Vna.Tools, 2.4.7724.19584
! Metas.Vna.Data, 2.4.7724.19560
! Created: UTC 2021.04.29 12:40:11
! FREQ                re:S1,1             im:S1,1             re:S2,1             im:S2,1             re:S1,2             im:S1,2             re:S2,2             im:S2,2          
  7.5000000000e+010   7.8702315252e-004   1.0257893454e-004   4.4035597949e-001  -5.2219457521e-001   4.3266877172e-001  -5.2893273165e-001   8.7563526423e-004   5.6327454263e-004
  7.5025000000e+010   7.8755521823e-004   9.9659811101e-005   4.4035567612e-001  -5.2219405624e-001   4.3266846072e-001  -5.2893222377e-001   8.7204559953e-004   5.6419983473e-004
  7.5050000000e+010   7.8805203796e-004   9.6739906598e-005   4.4035506938e-001  -5.2219301830e-001   4.3266783872e-001  -5.2893120802e-001   8.6844128664e-004   5.6510757566e-004
  7.5075000000e+010   7.8851364725e-004   9.3819424597e-005   4.4035415927e-001  -5.2219146140e-001   4.3266690573e-001  -5.2892968440e-001   8.6482241089e-004   5.6599769387e-004
  7.5100000000e+010   7.8894008362e-004   9.0898568550e-005   4.4035294579e-001  -5.2218938555e-001   4.3266566174e-001  -5.2892765292e-001   8.6118905816e-004   5.6687011845e-004
  7.5125000000e+010   7.8933138649e-004   8.7977541781e-005   4.4035142896e-001  -5.2218679074e-001   4.3266410676e-001  -5.2892511360e-001   8.5754131488e-004   5.6772477919e-004
  7.5150000000e+010   7.8968759722e-004   8.5056547474e-005   4.4034960877e-001  -5.2218367701e-001   4.3266224078e-001  -5.2892206644e-001   8.5387926805e-004   5.6856160651e-004
  7.5175000000e+010   7.9000875911e-004   8.2135788661e-005   4.4034748524e-001  -5.2218004436e-001   4.3266006383e-001  -5.2891851148e-001   8.5020300521e-004   5.6938053155e-004
  7.5200000000e+010   7.9029491738e-004   7.9215468206e-005   4.4034505837e-001  -5.2217589280e-001   4.3265757588e-001  -5.2891444872e-001   8.4651261447e-004   5.7018148611e-004
  7.5225000000e+010   7.9054611915e-004   7.6295788792e-005   4.4034232817e-001  -5.2217122236e-001   4.3265477696e-001  -5.2890987819e-001   8.4280818445e-004   5.7096440267e-004
  7.5250000000e+010   7.9076241347e-004   7.3376952907e-005   4.4033929466e-001  -5.2216603306e-001   4.3265166707e-001  -5.2890479992e-001   8.3908980436e-004   5.7172921443e-004
  7.5275000000e+010   7.9094385130e-004   7.0459162832e-005   4.4033595784e-001  -5.2216032493e-001   4.3264824621e-001  -5.2889921394e-001   8.3535756394e-004   5.7247585527e-004
  7.5300000000e+010   7.9109048550e-004   6.7542620623e-005   4.4033231773e-001  -5.2215409799e-001   4.3264451439e-001  -5.2889312029e-001   8.3161155346e-004   5.7320425981e-004
  7.5325000000e+010   7.9120237082e-004   6.4627528102e-005   4.4032837435e-001  -5.2214735227e-001   4.3264047162e-001  -5.2888651899e-001   8.2785186376e-004   5.7391436334e-004
  7.5350000000e+010   7.9127956392e-004   6.1714086841e-005   4.4032412770e-001  -5.2214008780e-001   4.3263611790e-001  -5.2887941009e-001   8.2407858621e-004   5.7460610189e-004
  7.5375000000e+010   7.9132212332e-004   5.8802498149e-005   4.4031957782e-001  -5.2213230461e-001   4.3263145324e-001  -5.2887179364e-001   8.2029181270e-004   5.7527941222e-004
  7.5400000000e+010   7.9133010947e-004   5.5892963058e-005   4.4031472470e-001  -5.2212400275e-001   4.3262647766e-001  -5.2886366967e-001   8.1649163570e-004   5.7593423182e-004
  7.5425000000e+010   7.9130358465e-004   5.2985682308e-005   4.4030956839e-001  -5.2211518226e-001   4.3262119115e-001  -5.2885503824e-001   8.1267814817e-004   5.7657049891e-004
  7.5450000000e+010   7.9124261304e-004   5.0080856337e-005   4.4030410888e-001  -5.2210584316e-001   4.3261559373e-001  -5.2884589940e-001   8.0885144365e-004   5.7718815244e-004
  7.5475000000e+010   7.9114726067e-004   4.7178685263e-005   4.4029834622e-001  -5.2209598552e-001   4.3260968542e-001  -5.2883625319e-001   8.0501161617e-004   5.7778713214e-004
  7.5500000000e+010   7.9101759545e-004   4.4279368876e-005   4.4029228042e-001  -5.2208560936e-001   4.3260346621e-001  -5.2882609969e-001   8.0115876031e-004   5.7836737847e-004
  7.5525000000e+010   7.9085368712e-004   4.1383106618e-005   4.4028591150e-001  -5.2207471475e-001   4.3259693613e-001  -5.2881543895e-001   7.9729297120e-004   5.7892883265e-004
  7.5550000000e+010   7.9065560729e-004   3.8490097575e-005   4.4027923950e-001  -5.2206330174e-001   4.3259009519e-001  -5.2880427103e-001   7.9341434446e-004   5.7947143667e-004
  7.5575000000e+010   7.9042342939e-004   3.5600540460e-005   4.4027226443e-001  -5.2205137037e-001   4.3258294339e-001  -5.2879259600e-001   7.8952297627e-004   5.7999513330e-004
  7.5600000000e+010   7.9015722872e-004   3.2714633600e-005   4.4026498633e-001  -5.2203892071e-001   4.3257548075e-001  -5.2878041393e-001   7.8561896331e-004   5.8049986607e-004
  7.5625000000e+010   7.8985708238e-004   2.9832574925e-005   4.4025740522e-001  -5.2202595281e-001   4.3256770729e-001  -5.2876772489e-001   7.8170240280e-004   5.8098557930e-004
  7.5650000000e+010   7.8952306929e-004   2.6954561953e-005   4.4024952115e-001  -5.2201246673e-001   4.3255962302e-001  -5.2875452896e-001   7.7777339246e-004   5.8145221809e-004
  7.5675000000e+010   7.8915527022e-004   2.4080791776e-005   4.4024133413e-001  -5.2199846254e-001   4.3255122796e-001  -5.2874082622e-001   7.7383203055e-004   5.8189972835e-004
  7.5700000000e+010   7.8875376771e-004   2.1211461047e-005   4.4023284420e-001  -5.2198394030e-001   4.3254252211e-001  -5.2872661675e-001   7.6987841584e-004   5.8232805678e-004
  7.5725000000e+010   7.8831864614e-004   1.8346765968e-005   4.4022405140e-001  -5.2196890009e-001   4.3253350550e-001  -5.2871190063e-001   7.6591264762e-004   5.8273715086e-004
  7.5750000000e+010   7.8784999165e-004   1.5486902275e-005   4.4021495575e-001  -5.2195334197e-001   4.3252417815e-001  -5.2869667796e-001   7.6193482568e-004   5.8312695893e-004
  7.5775000000e+010   7.8734789221e-004   1.2632065227e-005   4.4020555731e-001  -5.2193726601e-001   4.3251454007e-001  -5.2868094881e-001   7.5794505033e-004   5.8349743010e-004
  7.5800000000e+010   7.8681243753e-004   9.7824495892e-006   4.4019585610e-001  -5.2192067230e-001   4.3250459128e-001  -5.2866471330e-001   7.5394342241e-004   5.8384851431e-004
  7.5825000000e+010   7.8624371912e-004   6.9382496233e-006   4.4018585217e-001  -5.2190356090e-001   4.3249433179e-001  -5.2864797151e-001   7.4993004323e-004   5.8418016235e-004
  7.5850000000e+010   7.8564183027e-004   4.0996590731e-006   4.4017554556e-001  -5.2188593191e-001   4.3248376164e-001  -5.2863072354e-001   7.4590501464e-004   5.8449232581e-004
  7.5875000000e+010   7.8500686599e-004   1.2668711516e-006   4.4016493630e-001  -5.2186778539e-001   4.3247288083e-001  -5.2861296949e-001   7.4186843897e-004   5.8478495714e-004
  7.5900000000e+010   7.8433892309e-004  -1.5599214725e-006   4.4015402444e-001  -5.2184912145e-001   4.3246168939e-001  -5.2859470948e-001   7.3782041908e-004   5.8505800961e-004
  7.5925000000e+010   7.8363810008e-004  -4.3805266873e-006   4.4014281002e-001  -5.2182994016e-001   4.3245018733e-001  -5.2857594362e-001   7.3376105831e-004   5.8531143734e-004
  7.5950000000e+010   7.8290449725e-004  -7.1947529508e-006   4.4013129310e-001  -5.2181024162e-001   4.3243837469e-001  -5.2855667200e-001   7.2969046049e-004   5.8554519533e-004
  7.5975000000e+010   7.8213821659e-004  -1.0002409304e-005   4.4011947371e-001  -5.2179002592e-001   4.3242625148e-001  -5.2853689476e-001   7.2560872999e-004   5.8575923941e-004
  7.6000000000e+010   7.8133936183e-004  -1.2803305383e-005   4.4010735190e-001  -5.2176929315e-001   4.3241381773e-001  -5.2851661200e-001   7.2151597164e-004   5.8595352626e-004
  7.6025000000e+010   7.8050803840e-004  -1.5597251433e-005   4.4009492773e-001  -5.2174804342e-001   4.3240107345e-001  -5.2849582385e-001   7.1741229076e-004   5.8612801347e-004
  7.6050000000e+010   7.7964435345e-004  -1.8384058320e-005   4.4008220124e-001  -5.2172627682e-001   4.3238801868e-001  -5.2847453043e-001   7.1329779319e-004   5.8628265947e-004
  7.6075000000e+010   7.7874841581e-004  -2.1163537545e-005   4.4006917249e-001  -5.2170399345e-001   4.3237465343e-001  -5.2845273187e-001   7.0917258523e-004   5.8641742357e-004
  7.6100000000e+010   7.7782033602e-004  -2.3935501254e-005   4.4005584152e-001  -5.2168119343e-001   4.3236097774e-001  -5.2843042830e-001   7.0503677370e-004   5.8653226596e-004
  7.6125000000e+010   7.7686022629e-004  -2.6699762254e-005   4.4004220840e-001  -5.2165787685e-001   4.3234699163e-001  -5.2840761985e-001   7.0089046588e-004   5.8662714775e-004
  7.6150000000e+010   7.7586820050e-004  -2.9456134022e-005   4.4002827317e-001  -5.2163404383e-001   4.3233269512e-001  -5.2838430666e-001   6.9673376955e-004   5.8670203089e-004
  7.6175000000e+010   7.7484437420e-004  -3.2204430723e-005   4.4001403589e-001  -5.2160969447e-001   4.3231808824e-001  -5.2836048886e-001   6.9256679295e-004   5.8675687828e-004
  7.6200000000e+010   7.7378886460e-004  -3.4944467214e-005   4.3999949662e-001  -5.2158482890e-001   4.3230317102e-001  -5.2833616661e-001   6.8838964484e-004   5.8679165367e-004
  7.6225000000e+010   7.7270179055e-004  -3.7676059065e-005   4.3998465542e-001  -5.2155944724e-001   4.3228794349e-001  -5.2831134004e-001   6.8420243442e-004   5.8680632176e-004
  7.6250000000e+010   7.7158327253e-004  -4.0399022567e-005   4.3996951235e-001  -5.2153354959e-001   4.3227240567e-001  -5.2828600930e-001   6.8000527138e-004   5.8680084813e-004
  7.6275000000e+010   7.7043343267e-004  -4.3113174745e-005   4.3995406748e-001  -5.2150713609e-001   4.3225655760e-001  -5.2826017455e-001   6.7579826590e-004   5.8677519931e-004
  7.6300000000e+010   7.6925239470e-004  -4.5818333369e-005   4.3993832085e-001  -5.2148020685e-001   4.3224039930e-001  -5.2823383594e-001   6.7158152861e-004   5.8672934271e-004
  7.6325000000e+010   7.6804028397e-004  -4.8514316970e-005   4.3992227254e-001  -5.2145276200e-001   4.3222393082e-001  -5.2820699362e-001   6.6735517062e-004   5.8666324670e-004
  7.6350000000e+010   7.6679722744e-004  -5.1200944848e-005   4.3990592261e-001  -5.2142480168e-001   4.3220715216e-001  -5.2817964776e-001   6.6311930352e-004   5.8657688056e-004
  7.6375000000e+010   7.6552335364e-004  -5.3878037087e-005   4.3988927113e-001  -5.2139632602e-001   4.3219006338e-001  -5.2815179852e-001   6.5887403935e-004   5.8647021451e-004
  7.6400000000e+010   7.6421879271e-004  -5.6545414565e-005   4.3987231817e-001  -5.2136733514e-001   4.3217266450e-001  -5.2812344606e-001   6.5461949062e-004   5.8634321971e-004
  7.6425000000e+010   7.6288367635e-004  -5.9202898968e-005   4.3985506378e-001  -5.2133782919e-001   4.3215495555e-001  -5.2809459055e-001   6.5035577030e-004   5.8619586827e-004
  7.6450000000e+010   7.6151813781e-004  -6.1850312800e-005   4.3983750806e-001  -5.2130780831e-001   4.3213693657e-001  -5.2806523217e-001   6.4608299183e-004   5.8602813323e-004
  7.6475000000e+010   7.6012231192e-004  -6.4487479395e-005   4.3981965105e-001  -5.2127727262e-001   4.3211860759e-001  -5.2803537110e-001   6.4180126911e-004   5.8583998861e-004
  7.6500000000e+010   7.5869633504e-004  -6.7114222933e-005   4.3980149284e-001  -5.2124622229e-001   4.3209996865e-001  -5.2800500750e-001   6.3751071649e-004   5.8563140935e-004
  7.6525000000e+010   7.5724034507e-004  -6.9730368445e-005   4.3978303350e-001  -5.2121465746e-001   4.3208101978e-001  -5.2797414156e-001   6.3321144876e-004   5.8540237138e-004
  7.6550000000e+010   7.5575448144e-004  -7.2335741829e-005   4.3976427311e-001  -5.2118257827e-001   4.3206176102e-001  -5.2794277347e-001   6.2890358120e-004   5.8515285159e-004
  7.6575000000e+010   7.5423888507e-004  -7.4930169861e-005   4.3974521174e-001  -5.2114998488e-001   4.3204219240e-001  -5.2791090341e-001   6.2458722952e-004   5.8488282784e-004
  7.6600000000e+010   7.5269369842e-004  -7.7513480206e-005   4.3972584947e-001  -5.2111687743e-001   4.3202231397e-001  -5.2787853157e-001   6.2026250986e-004   5.8459227894e-004
  7.6625000000e+010   7.5111906542e-004  -8.0085501432e-005   4.3970618637e-001  -5.2108325609e-001   4.3200212575e-001  -5.2784565814e-001   6.1592953884e-004   5.8428118471e-004
  7.6650000000e+010   7.4951513150e-004  -8.2646063014e-005   4.3968622253e-001  -5.2104912102e-001   4.3198162780e-001  -5.2781228333e-001   6.1158843350e-004   5.8394952594e-004
  7.6675000000e+010   7.4788204355e-004  -8.5194995357e-005   4.3966595802e-001  -5.2101447237e-001   4.3196082014e-001  -5.2777840733e-001   6.0723931135e-004   5.8359728440e-004
  7.6700000000e+010   7.4621994993e-004  -8.7732129796e-005   4.3964539293e-001  -5.2097931031e-001   4.3193970282e-001  -5.2774403034e-001   6.0288229031e-004   5.8322444285e-004
  7.6725000000e+010   7.4452900046e-004  -9.0257298615e-005   4.3962452735e-001  -5.2094363500e-001   4.3191827587e-001  -5.2770915256e-001   5.9851748875e-004   5.8283098505e-004
  7.6750000000e+010   7.4280934638e-004  -9.2770335055e-005   4.3960336135e-001  -5.2090744661e-001   4.3189653935e-001  -5.2767377421e-001   5.9414502549e-004   5.8241689576e-004
  7.6775000000e+010   7.4106114040e-004  -9.5271073323e-005   4.3958189503e-001  -5.2087074531e-001   4.3187449328e-001  -5.2763789550e-001   5.8976501977e-004   5.8198216072e-004
  7.6800000000e+010   7.3928453662e-004  -9.7759348610e-005   4.3956012846e-001  -5.2083353128e-001   4.3185213772e-001  -5.2760151663e-001   5.8537759127e-004   5.8152676671e-004
  7.6825000000e+010   7.3747969056e-004  -1.0023499709e-004   4.3953806174e-001  -5.2079580470e-001   4.3182947270e-001  -5.2756463784e-001   5.8098286008e-004   5.8105070148e-004
  7.6850000000e+010   7.3564675915e-004  -1.0269785595e-004   4.3951569496e-001  -5.2075756572e-001   4.3180649827e-001  -5.2752725933e-001   5.7658094674e-004   5.8055395382e-004
  7.6875000000e+010   7.3378590068e-004  -1.0514776338e-004   4.3949302821e-001  -5.2071881455e-001   4.3178321447e-001  -5.2748938132e-001   5.7217197221e-004   5.8003651353e-004
  7.6900000000e+010   7.3189727486e-004  -1.0758455860e-004   4.3947006157e-001  -5.2067955136e-001   4.3175962135e-001  -5.2745100406e-001   5.6775605788e-004   5.7949837142e-004
  7.6925000000e+010   7.2998104272e-004  -1.1000808185e-004   4.3944679515e-001  -5.2063977634e-001   4.3173571896e-001  -5.2741212775e-001   5.6333332555e-004   5.7893951933e-004
  7.6950000000e+010   7.2803736669e-004  -1.1241817443e-004   4.3942322904e-001  -5.2059948966e-001   4.3171150733e-001  -5.2737275265e-001   5.5890389744e-004   5.7835995013e-004
  7.6975000000e+010   7.2606641051e-004  -1.1481467869e-004   4.3939936333e-001  -5.2055869153e-001   4.3168698651e-001  -5.2733287897e-001   5.5446789620e-004   5.7775965772e-004
  7.7000000000e+010   7.2406833927e-004  -1.1719743804e-004   4.3937519811e-001  -5.2051738214e-001   4.3166215656e-001  -5.2729250696e-001   5.5002544488e-004   5.7713863701e-004
  7.7025000000e+010   7.2204331938e-004  -1.1956629697e-004   4.3935073350e-001  -5.2047556168e-001   4.3163701752e-001  -5.2725163686e-001   5.4557666695e-004   5.7649688398e-004
  7.7050000000e+010   7.1999151855e-004  -1.2192110106e-004   4.3932596958e-001  -5.2043323035e-001   4.3161156944e-001  -5.2721026891e-001   5.4112168629e-004   5.7583439564e-004
  7.7075000000e+010   7.1791310581e-004  -1.2426169697e-004   4.3930090646e-001  -5.2039038834e-001   4.3158581236e-001  -5.2716840336e-001   5.3666062720e-004   5.7515117002e-004
  7.7100000000e+010   7.1580825146e-004  -1.2658793249e-004   4.3927554423e-001  -5.2034703586e-001   4.3155974634e-001  -5.2712604045e-001   5.3219361436e-004   5.7444720622e-004
  7.7125000000e+010   7.1367712707e-004  -1.2889965652e-004   4.3924988301e-001  -5.2030317311e-001   4.3153337143e-001  -5.2708318045e-001   5.2772077287e-004   5.7372250438e-004
  7.7150000000e+010   7.1151990549e-004  -1.3119671906e-004   4.3922392289e-001  -5.2025880031e-001   4.3150668768e-001  -5.2703982360e-001   5.2324222825e-004   5.7297706570e-004
  7.7175000000e+010   7.0933676081e-004  -1.3347897128e-004   4.3919766399e-001  -5.2021391765e-001   4.3147969514e-001  -5.2699597016e-001   5.1875810638e-004   5.7221089243e-004
  7.7200000000e+010   7.0712786836e-004  -1.3574626549e-004   4.3917110640e-001  -5.2016852536e-001   4.3145239386e-001  -5.2695162040e-001   5.1426853357e-004   5.7142398786e-004
  7.7225000000e+010   7.0489340472e-004  -1.3799845514e-004   4.3914425023e-001  -5.2012262364e-001   4.3142478390e-001  -5.2690677458e-001   5.0977363652e-004   5.7061635638e-004
  7.7250000000e+010   7.0263354764e-004  -1.4023539485e-004   4.3911709560e-001  -5.2007621271e-001   4.3139686531e-001  -5.2686143297e-001   5.0527354230e-004   5.6978800341e-004
  7.7275000000e+010   7.0034847613e-004  -1.4245694044e-004   4.3908964262e-001  -5.2002929279e-001   4.3136863814e-001  -5.2681559583e-001   5.0076837840e-004   5.6893893545e-004
  7.7300000000e+010   6.9803837034e-004  -1.4466294887e-004   4.3906189139e-001  -5.1998186410e-001   4.3134010245e-001  -5.2676926343e-001   4.9625827269e-004   5.6806916006e-004
  7.7325000000e+010   6.9570341164e-004  -1.4685327834e-004   4.3903384203e-001  -5.1993392687e-001   4.3131125829e-001  -5.2672243607e-001   4.9174335341e-004   5.6717868588e-004
  7.7350000000e+010   6.9334378254e-004  -1.4902778822e-004   4.3900549465e-001  -5.1988548132e-001   4.3128210572e-001  -5.2667511401e-001   4.8722374920e-004   5.6626752262e-004
  7.7375000000e+010   6.9095966672e-004  -1.5118633911e-004   4.3897684937e-001  -5.1983652767e-001   4.3125264480e-001  -5.2662729753e-001   4.8269958908e-004   5.6533568107e-004
  7.7400000000e+010   6.8855124900e-004  -1.5332879283e-004   4.3894790630e-001  -5.1978706617e-001   4.3122287558e-001  -5.2657898692e-001   4.7817100246e-004   5.6438317310e-004
  7.7425000000e+010   6.8611871533e-004  -1.5545501243e-004   4.3891866557e-001  -5.1973709704e-001   4.3119279813e-001  -5.2653018247e-001   4.7363811909e-004   5.6341001165e-004
  7.7450000000e+010   6.8366225276e-004  -1.5756486219e-004   4.3888912728e-001  -5.1968662052e-001   4.3116241250e-001  -5.2648088447e-001   4.6910106914e-004   5.6241621076e-004
  7.7475000000e+010   6.8118204948e-004  -1.5965820765e-004   4.3885929157e-001  -5.1963563685e-001   4.3113171875e-001  -5.2643109321e-001   4.6455998313e-004   5.6140178554e-004
  7.7500000000e+010   6.7867829474e-004  -1.6173491561e-004   4.3882915855e-001  -5.1958414626e-001   4.3110071694e-001  -5.2638080899e-001   4.6001499194e-004   5.6036675219e-004
  7.7525000000e+010   6.7615117890e-004  -1.6379485412e-004   4.3879872834e-001  -5.1953214901e-001   4.3106940713e-001  -5.2633003210e-001   4.5546622684e-004   5.5931112801e-004
  7.7550000000e+010   6.7360089335e-004  -1.6583789253e-004   4.3876800107e-001  -5.1947964533e-001   4.3103778938e-001  -5.2627876285e-001   4.5091381944e-004   5.5823493140e-004
  7.7575000000e+010   6.7102763057e-004  -1.6786390145e-004   4.3873697686e-001  -5.1942663547e-001   4.3100586376e-001  -5.2622700155e-001   4.4635790175e-004   5.5713818182e-004
  7.7600000000e+010   6.6843158406e-004  -1.6987275279e-004   4.3870565584e-001  -5.1937311969e-001   4.3097363033e-001  -5.2617474850e-001   4.4179860610e-004   5.5602089986e-004
  7.7625000000e+010   6.6581294837e-004  -1.7186431978e-004   4.3867403813e-001  -5.1931909823e-001   4.3094108915e-001  -5.2612200401e-001   4.3723606520e-004   5.5488310719e-004
  7.7650000000e+010   6.6317191903e-004  -1.7383847692e-004   4.3864212388e-001  -5.1926457135e-001   4.3090824029e-001  -5.2606876840e-001   4.3267041212e-004   5.5372482659e-004
  7.7675000000e+010   6.6050869260e-004  -1.7579510006e-004   4.3860991319e-001  -5.1920953932e-001   4.3087508380e-001  -5.2601504198e-001   4.2810178027e-004   5.5254608193e-004
  7.7700000000e+010   6.5782346664e-004  -1.7773406636e-004   4.3857740621e-001  -5.1915400237e-001   4.3084161976e-001  -5.2596082508e-001   4.2353030342e-004   5.5134689819e-004
