# Hz S RI R 50.000000
! Metas.Vna.Tools, 2.4.7724.19584
! Metas.Vna.Data, 2.4.7724.19560
! Created: UTC 2021.04.29 12:40:11
! FREQ                re:S1,1             im:S1,1             re:S2,1             im:S2,1             re:S1,2             im:S1,2             re:S2,2             im:S2,2          
  7.5000000000e+010   5.6608327420e-004   2.2963547830e-004   6.2744996692e-001  -5.1145726751e-001   6.1977067004e-001  -5.2029191264e-001   8.1936630701e-004   2.0995549184e-005
  7.5025000000e+010   5.6570431583e-004   2.2727451137e-004   6.2744963966e-001  -5.1145675432e-001   6.1977033215e-001  -5.2029142930e-001   8.1572998271e-004   2.3855475327e-005
  7.5050000000e+010   5.6530419824e-004   2.2490618177e-004   6.2744898513e-001  -5.1145572794e-001   6.1976965638e-001  -5.2029046261e-001   8.1208843005e-004   2.6694435369e-005
  7.5075000000e+010   5.6488295681e-004   2.2253068359e-004   6.2744800335e-001  -5.1145418838e-001   6.1976864271e-001  -5.2028901260e-001   8.0844172703e-004   2.9512359943e-005
  7.5100000000e+010   5.6444062812e-004   2.2014821115e-004   6.2744669431e-001  -5.1145213565e-001   6.1976729116e-001  -5.2028707926e-001   8.0478995141e-004   3.2309180818e-005
  7.5125000000e+010   5.6397724988e-004   2.1775895897e-004   6.2744505802e-001  -5.1144956975e-001   6.1976560174e-001  -5.2028466260e-001   8.0113318072e-004   3.5084830895e-005
  7.5150000000e+010   5.6349286099e-004   2.1536312179e-004   6.2744309448e-001  -5.1144649069e-001   6.1976357444e-001  -5.2028176265e-001   7.9747149225e-004   3.7839244214e-005
  7.5175000000e+010   5.6298750152e-004   2.1296089451e-004   6.2744080371e-001  -5.1144289850e-001   6.1976120927e-001  -5.2027837942e-001   7.9380496305e-004   4.0572355957e-005
  7.5200000000e+010   5.6246121269e-004   2.1055247224e-004   6.2743818571e-001  -5.1143879319e-001   6.1975850623e-001  -5.2027451293e-001   7.9013366997e-004   4.3284102443e-005
  7.5225000000e+010   5.6191403689e-004   2.0813805022e-004   6.2743524050e-001  -5.1143417478e-001   6.1975546534e-001  -5.2027016321e-001   7.8645768960e-004   4.5974421137e-005
  7.5250000000e+010   5.6134601766e-004   2.0571782383e-004   6.2743196808e-001  -5.1142904330e-001   6.1975208661e-001  -5.2026533027e-001   7.8277709832e-004   4.8643250649e-005
  7.5275000000e+010   5.6075719971e-004   2.0329198861e-004   6.2742836847e-001  -5.1142339876e-001   6.1974837003e-001  -5.2026001416e-001   7.7909197227e-004   5.1290530734e-005
  7.5300000000e+010   5.6014762888e-004   2.0086074019e-004   6.2742444168e-001  -5.1141724119e-001   6.1974431563e-001  -5.2025421490e-001   7.7540238737e-004   5.3916202297e-005
  7.5325000000e+010   5.5951735217e-004   1.9842427430e-004   6.2742018773e-001  -5.1141057063e-001   6.1973992342e-001  -5.2024793253e-001   7.7170841933e-004   5.6520207393e-005
  7.5350000000e+010   5.5886641772e-004   1.9598278677e-004   6.2741560663e-001  -5.1140338710e-001   6.1973519340e-001  -5.2024116709e-001   7.6801014363e-004   5.9102489227e-005
  7.5375000000e+010   5.5819487481e-004   1.9353647350e-004   6.2741069841e-001  -5.1139569065e-001   6.1973012558e-001  -5.2023391862e-001   7.6430763553e-004   6.1662992160e-005
  7.5400000000e+010   5.5750277387e-004   1.9108553044e-004   6.2740546308e-001  -5.1138748130e-001   6.1972472000e-001  -5.2022618717e-001   7.6060097006e-004   6.4201661704e-005
  7.5425000000e+010   5.5679016646e-004   1.8863015359e-004   6.2739990067e-001  -5.1137875910e-001   6.1971897665e-001  -5.2021797277e-001   7.5689022207e-004   6.6718444530e-005
  7.5450000000e+010   5.5605710526e-004   1.8617053897e-004   6.2739401119e-001  -5.1136952410e-001   6.1971289555e-001  -5.2020927549e-001   7.5317546615e-004   6.9213288465e-005
  7.5475000000e+010   5.5530364409e-004   1.8370688264e-004   6.2738779467e-001  -5.1135977633e-001   6.1970647673e-001  -5.2020009538e-001   7.4945677672e-004   7.1686142493e-005
  7.5500000000e+010   5.5452983790e-004   1.8123938063e-004   6.2738125114e-001  -5.1134951584e-001   6.1969972020e-001  -5.2019043249e-001   7.4573422797e-004   7.4136956759e-005
  7.5525000000e+010   5.5373574274e-004   1.7876822897e-004   6.2737438061e-001  -5.1133874268e-001   6.1969262597e-001  -5.2018028688e-001   7.4200789387e-004   7.6565682568e-005
  7.5550000000e+010   5.5292141579e-004   1.7629362367e-004   6.2736718313e-001  -5.1132745691e-001   6.1968519407e-001  -5.2016965861e-001   7.3827784822e-004   7.8972272388e-005
  7.5575000000e+010   5.5208691535e-004   1.7381576069e-004   6.2735965871e-001  -5.1131565858e-001   6.1967742452e-001  -5.2015854776e-001   7.3454416458e-004   8.1356679849e-005
  7.5600000000e+010   5.5123230082e-004   1.7133483594e-004   6.2735180738e-001  -5.1130334775e-001   6.1966931734e-001  -5.2014695439e-001   7.3080691632e-004   8.3718859743e-005
  7.5625000000e+010   5.5035763270e-004   1.6885104525e-004   6.2734362919e-001  -5.1129052447e-001   6.1966087255e-001  -5.2013487856e-001   7.2706617663e-004   8.6058768028e-005
  7.5650000000e+010   5.4946297261e-004   1.6636458437e-004   6.2733512415e-001  -5.1127718881e-001   6.1965209018e-001  -5.2012232036e-001   7.2332201847e-004   8.8376361827e-005
  7.5675000000e+010   5.4854838324e-004   1.6387564896e-004   6.2732629231e-001  -5.1126334084e-001   6.1964297025e-001  -5.2010927986e-001   7.1957451463e-004   9.0671599429e-005
  7.5700000000e+010   5.4761392840e-004   1.6138443455e-004   6.2731713370e-001  -5.1124898061e-001   6.1963351279e-001  -5.2009575715e-001   7.1582373769e-004   9.2944440290e-005
  7.5725000000e+010   5.4665967298e-004   1.5889113656e-004   6.2730764835e-001  -5.1123410821e-001   6.1962371781e-001  -5.2008175230e-001   7.1206976004e-004   9.5194845030e-005
  7.5750000000e+010   5.4568568295e-004   1.5639595026e-004   6.2729783631e-001  -5.1121872369e-001   6.1961358536e-001  -5.2006726540e-001   7.0831265391e-004   9.7422775442e-005
  7.5775000000e+010   5.4469202536e-004   1.5389907078e-004   6.2728769761e-001  -5.1120282715e-001   6.1960311545e-001  -5.2005229654e-001   7.0455249129e-004   9.9628194483e-005
  7.5800000000e+010   5.4367876835e-004   1.5140069305e-004   6.2727723229e-001  -5.1118641864e-001   6.1959230812e-001  -5.2003684581e-001   7.0078934405e-004   1.0181106628e-004
  7.5825000000e+010   5.4264598111e-004   1.4890101185e-004   6.2726644040e-001  -5.1116949826e-001   6.1958116340e-001  -5.2002091332e-001   6.9702328381e-004   1.0397135613e-004
  7.5850000000e+010   5.4159373392e-004   1.4640022174e-004   6.2725532198e-001  -5.1115206609e-001   6.1956968131e-001  -5.2000449914e-001   6.9325438207e-004   1.0610903049e-004
  7.5875000000e+010   5.4052209810e-004   1.4389851709e-004   6.2724387707e-001  -5.1113412221e-001   6.1955786189e-001  -5.1998760340e-001   6.8948271012e-004   1.0822405701e-004
  7.5900000000e+010   5.3943114605e-004   1.4139609201e-004   6.2723210571e-001  -5.1111566670e-001   6.1954570518e-001  -5.1997022619e-001   6.8570833908e-004   1.1031640448e-004
  7.5925000000e+010   5.3832095121e-004   1.3889314042e-004   6.2722000796e-001  -5.1109669966e-001   6.1953321120e-001  -5.1995236761e-001   6.8193133991e-004   1.1238604288e-004
  7.5950000000e+010   5.3719158806e-004   1.3638985594e-004   6.2720758387e-001  -5.1107722118e-001   6.1952037999e-001  -5.1993402779e-001   6.7815178338e-004   1.1443294336e-004
  7.5975000000e+010   5.3604313216e-004   1.3388643196e-004   6.2719483348e-001  -5.1105723135e-001   6.1950721159e-001  -5.1991520682e-001   6.7436974011e-004   1.1645707821e-004
  7.6000000000e+010   5.3487566006e-004   1.3138306156e-004   6.2718175684e-001  -5.1103673027e-001   6.1949370604e-001  -5.1989590483e-001   6.7058528055e-004   1.1845842093e-004
  7.6025000000e+010   5.3368924939e-004   1.2887993755e-004   6.2716835400e-001  -5.1101571804e-001   6.1947986336e-001  -5.1987612194e-001   6.6679847499e-004   1.2043694618e-004
  7.6050000000e+010   5.3248397877e-004   1.2637725242e-004   6.2715462503e-001  -5.1099419476e-001   6.1946568360e-001  -5.1985585827e-001   6.6300939356e-004   1.2239262975e-004
  7.6075000000e+010   5.3125992786e-004   1.2387519833e-004   6.2714056997e-001  -5.1097216054e-001   6.1945116681e-001  -5.1983511393e-001   6.5921810622e-004   1.2432544866e-004
  7.6100000000e+010   5.3001717735e-004   1.2137396712e-004   6.2712618888e-001  -5.1094961548e-001   6.1943631301e-001  -5.1981388907e-001   6.5542468279e-004   1.2623538105e-004
  7.6125000000e+010   5.2875580894e-004   1.1887375027e-004   6.2711148181e-001  -5.1092655969e-001   6.1942112225e-001  -5.1979218381e-001   6.5162919294e-004   1.2812240625e-004
  7.6150000000e+010   5.2747590531e-004   1.1637473890e-004   6.2709644884e-001  -5.1090299328e-001   6.1940559458e-001  -5.1976999828e-001   6.4783170618e-004   1.2998650476e-004
  7.6175000000e+010   5.2617755018e-004   1.1387712376e-004   6.2708109000e-001  -5.1087891637e-001   6.1938973004e-001  -5.1974733262e-001   6.4403229189e-004   1.3182765823e-004
  7.6200000000e+010   5.2486082825e-004   1.1138109520e-004   6.2706540538e-001  -5.1085432908e-001   6.1937352866e-001  -5.1972418697e-001   6.4023101929e-004   1.3364584949e-004
  7.6225000000e+010   5.2352582522e-004   1.0888684317e-004   6.2704939503e-001  -5.1082923152e-001   6.1935699050e-001  -5.1970056147e-001   6.3642795746e-004   1.3544106253e-004
  7.6250000000e+010   5.2217262775e-004   1.0639455719e-004   6.2703305901e-001  -5.1080362381e-001   6.1934011561e-001  -5.1967645627e-001   6.3262317536e-004   1.3721328252e-004
  7.6275000000e+010   5.2080132353e-004   1.0390442639e-004   6.2701639738e-001  -5.1077750609e-001   6.1932290402e-001  -5.1965187152e-001   6.2881674178e-004   1.3896249576e-004
  7.6300000000e+010   5.1941200118e-004   1.0141663940e-004   6.2699941023e-001  -5.1075087847e-001   6.1930535579e-001  -5.1962680737e-001   6.2500872543e-004   1.4068868975e-004
  7.6325000000e+010   5.1800475031e-004   9.8931384424e-005   6.2698209760e-001  -5.1072374109e-001   6.1928747097e-001  -5.1960126396e-001   6.2119919484e-004   1.4239185313e-004
  7.6350000000e+010   5.1657966150e-004   9.6448849200e-005   6.2696445958e-001  -5.1069609407e-001   6.1926924960e-001  -5.1957524147e-001   6.1738821843e-004   1.4407197571e-004
  7.6375000000e+010   5.1513682628e-004   9.3969220967e-005   6.2694649624e-001  -5.1066793756e-001   6.1925069175e-001  -5.1954874004e-001   6.1357586451e-004   1.4572904846e-004
  7.6400000000e+010   5.1367633713e-004   9.1492686471e-005   6.2692820763e-001  -5.1063927168e-001   6.1923179745e-001  -5.1952175985e-001   6.0976220126e-004   1.4736306350e-004
  7.6425000000e+010   5.1219828747e-004   8.9019431949e-005   6.2690959385e-001  -5.1061009658e-001   6.1921256676e-001  -5.1949430105e-001   6.0594729674e-004   1.4897401413e-004
  7.6450000000e+010   5.1070277169e-004   8.6549643112e-005   6.2689065495e-001  -5.1058041240e-001   6.1919299974e-001  -5.1946636382e-001   6.0213121888e-004   1.5056189478e-004
  7.6475000000e+010   5.0918988508e-004   8.4083505134e-005   6.2687139102e-001  -5.1055021927e-001   6.1917309644e-001  -5.1943794832e-001   5.9831403553e-004   1.5212670105e-004
  7.6500000000e+010   5.0765972388e-004   8.1621202641e-005   6.2685180214e-001  -5.1051951736e-001   6.1915285692e-001  -5.1940905474e-001   5.9449581440e-004   1.5366842969e-004
  7.6525000000e+010   5.0611238525e-004   7.9162919693e-005   6.2683188838e-001  -5.1048830681e-001   6.1913228123e-001  -5.1937968326e-001   5.9067662312e-004   1.5518707862e-004
  7.6550000000e+010   5.0454796726e-004   7.6708839776e-005   6.2681164982e-001  -5.1045658776e-001   6.1911136943e-001  -5.1934983404e-001   5.8685652920e-004   1.5668264687e-004
  7.6575000000e+010   5.0296656889e-004   7.4259145785e-005   6.2679108655e-001  -5.1042436038e-001   6.1909012158e-001  -5.1931950728e-001   5.8303560005e-004   1.5815513467e-004
  7.6600000000e+010   5.0136829004e-004   7.1814020016e-005   6.2677019864e-001  -5.1039162482e-001   6.1906853773e-001  -5.1928870315e-001   5.7921390299e-004   1.5960454335e-004
  7.6625000000e+010   4.9975323148e-004   6.9373644148e-005   6.2674898618e-001  -5.1035838123e-001   6.1904661796e-001  -5.1925742186e-001   5.7539150523e-004   1.6103087543e-004
  7.6650000000e+010   4.9812149489e-004   6.6938199232e-005   6.2672744925e-001  -5.1032462978e-001   6.1902436232e-001  -5.1922566360e-001   5.7156847392e-004   1.6243413455e-004
  7.6675000000e+010   4.9647318284e-004   6.4507865682e-005   6.2670558794e-001  -5.1029037064e-001   6.1900177087e-001  -5.1919342855e-001   5.6774487609e-004   1.6381432549e-004
  7.6700000000e+010   4.9480839875e-004   6.2082823255e-005   6.2668340234e-001  -5.1025560396e-001   6.1897884368e-001  -5.1916071692e-001   5.6392077870e-004   1.6517145419e-004
  7.6725000000e+010   4.9312724696e-004   5.9663251046e-005   6.2666089253e-001  -5.1022032993e-001   6.1895558081e-001  -5.1912752890e-001   5.6009624863e-004   1.6650552770e-004
  7.6750000000e+010   4.9142983262e-004   5.7249327471e-005   6.2663805861e-001  -5.1018454870e-001   6.1893198232e-001  -5.1909386471e-001   5.5627135266e-004   1.6781655424e-004
  7.6775000000e+010   4.8971626177e-004   5.4841230255e-005   6.2661490066e-001  -5.1014826045e-001   6.1890804829e-001  -5.1905972454e-001   5.5244615753e-004   1.6910454315e-004
  7.6800000000e+010   4.8798664131e-004   5.2439136420e-005   6.2659141879e-001  -5.1011146536e-001   6.1888377877e-001  -5.1902510862e-001   5.4862072988e-004   1.7036950489e-004
  7.6825000000e+010   4.8624107896e-004   5.0043222273e-005   6.2656761308e-001  -5.1007416361e-001   6.1885917385e-001  -5.1899001714e-001   5.4479513629e-004   1.7161145107e-004
  7.6850000000e+010   4.8447968329e-004   4.7653663396e-005   6.2654348362e-001  -5.1003635537e-001   6.1883423358e-001  -5.1895445033e-001   5.4096944327e-004   1.7283039443e-004
  7.6875000000e+010   4.8270256371e-004   4.5270634627e-005   6.2651903052e-001  -5.0999804084e-001   6.1880895804e-001  -5.1891840841e-001   5.3714371726e-004   1.7402634883e-004
  7.6900000000e+010   4.8090983043e-004   4.2894310055e-005   6.2649425388e-001  -5.0995922019e-001   6.1878334729e-001  -5.1888189159e-001   5.3331802466e-004   1.7519932923e-004
  7.6925000000e+010   4.7910159451e-004   4.0524863004e-005   6.2646915378e-001  -5.0991989362e-001   6.1875740142e-001  -5.1884490010e-001   5.2949243179e-004   1.7634935176e-004
  7.6950000000e+010   4.7727796780e-004   3.8162466022e-005   6.2644373034e-001  -5.0988006132e-001   6.1873112049e-001  -5.1880743417e-001   5.2566700494e-004   1.7747643364e-004
  7.6975000000e+010   4.7543906295e-004   3.5807290870e-005   6.2641798365e-001  -5.0983972347e-001   6.1870450457e-001  -5.1876949403e-001   5.2184181033e-004   1.7858059320e-004
  7.7000000000e+010   4.7358499341e-004   3.3459508508e-005   6.2639191382e-001  -5.0979888028e-001   6.1867755375e-001  -5.1873107992e-001   5.1801691414e-004   1.7966184990e-004
  7.7025000000e+010   4.7171587345e-004   3.1119289085e-005   6.2636552095e-001  -5.0975753194e-001   6.1865026810e-001  -5.1869219205e-001   5.1419238250e-004   1.8072022430e-004
  7.7050000000e+010   4.6983181806e-004   2.8786801924e-005   6.2633880514e-001  -5.0971567866e-001   6.1862264769e-001  -5.1865283069e-001   5.1036828151e-004   1.8175573809e-004
  7.7075000000e+010   4.6793294307e-004   2.6462215517e-005   6.2631176651e-001  -5.0967332063e-001   6.1859469260e-001  -5.1861299606e-001   5.0654467722e-004   1.8276841404e-004
  7.7100000000e+010   4.6601936503e-004   2.4145697505e-005   6.2628440516e-001  -5.0963045806e-001   6.1856640291e-001  -5.1857268842e-001   5.0272163565e-004   1.8375827604e-004
  7.7125000000e+010   4.6409120128e-004   2.1837414674e-005   6.2625672120e-001  -5.0958709117e-001   6.1853777871e-001  -5.1853190800e-001   4.9889922280e-004   1.8472534907e-004
  7.7150000000e+010   4.6214856990e-004   1.9537532936e-005   6.2622871475e-001  -5.0954322015e-001   6.1850882007e-001  -5.1849065507e-001   4.9507750462e-004   1.8566965922e-004
  7.7175000000e+010   4.6019158971e-004   1.7246217326e-005   6.2620038591e-001  -5.0949884523e-001   6.1847952707e-001  -5.1844892987e-001   4.9125654704e-004   1.8659123367e-004
  7.7200000000e+010   4.5822038027e-004   1.4963631984e-005   6.2617173480e-001  -5.0945396662e-001   6.1844989980e-001  -5.1840673266e-001   4.8743641599e-004   1.8749010067e-004
  7.7225000000e+010   4.5623506190e-004   1.2689940145e-005   6.2614276153e-001  -5.0940858453e-001   6.1841993834e-001  -5.1836406370e-001   4.8361717736e-004   1.8836628960e-004
  7.7250000000e+010   4.5423575559e-004   1.0425304130e-005   6.2611346622e-001  -5.0936269919e-001   6.1838964277e-001  -5.1832092324e-001   4.7979889702e-004   1.8921983090e-004
  7.7275000000e+010   4.5222258309e-004   8.1698853337e-006   6.2608384898e-001  -5.0931631082e-001   6.1835901318e-001  -5.1827731157e-001   4.7598164085e-004   1.9005075608e-004
  7.7300000000e+010   4.5019566685e-004   5.9238442135e-006   6.2605390994e-001  -5.0926941964e-001   6.1832804967e-001  -5.1823322894e-001   4.7216547470e-004   1.9085909776e-004
  7.7325000000e+010   4.4815512999e-004   3.6873402777e-006   6.2602364921e-001  -5.0922202589e-001   6.1829675230e-001  -5.1818867562e-001   4.6835046442e-004   1.9164488961e-004
  7.7350000000e+010   4.4610109636e-004   1.4605320754e-006   6.2599306693e-001  -5.0917412979e-001   6.1826512118e-001  -5.1814365189e-001   4.6453667587e-004   1.9240816639e-004
  7.7375000000e+010   4.4403369048e-004  -7.5642281411e-007   6.2596216319e-001  -5.0912573157e-001   6.1823315640e-001  -5.1809815802e-001   4.6072417489e-004   1.9314896392e-004
  7.7400000000e+010   4.4195303755e-004  -2.9633677929e-006   6.2593093815e-001  -5.0907683147e-001   6.1820085803e-001  -5.1805219430e-001   4.5691302734e-004   1.9386731909e-004
  7.7425000000e+010   4.3985926342e-004  -5.1601472544e-006   6.2589939191e-001  -5.0902742973e-001   6.1816822619e-001  -5.1800576099e-001   4.5310329908e-004   1.9456326983e-004
  7.7450000000e+010   4.3775249462e-004  -7.3466065943e-006   6.2586752460e-001  -5.0897752658e-001   6.1813526095e-001  -5.1795885840e-001   4.4929505598e-004   1.9523685517e-004
  7.7475000000e+010   4.3563285835e-004  -9.5225922210e-006   6.2583533636e-001  -5.0892712227e-001   6.1810196241e-001  -5.1791148681e-001   4.4548836392e-004   1.9588811517e-004
  7.7500000000e+010   4.3350048241e-004  -1.1687951566e-005   6.2580282730e-001  -5.0887621705e-001   6.1806833067e-001  -5.1786364650e-001   4.4168328881e-004   1.9651709093e-004
  7.7525000000e+010   4.3135549529e-004  -1.3842533095e-005   6.2576999757e-001  -5.0882481115e-001   6.1803436582e-001  -5.1781533778e-001   4.3787989657e-004   1.9712382461e-004
  7.7550000000e+010   4.2919802605e-004  -1.5986186315e-005   6.2573684729e-001  -5.0877290483e-001   6.1800006796e-001  -5.1776656093e-001   4.3407825313e-004   1.9770835943e-004
  7.7575000000e+010   4.2702820443e-004  -1.8118761791e-005   6.2570337660e-001  -5.0872049835e-001   6.1796543718e-001  -5.1771731626e-001   4.3027842448e-004   1.9827073962e-004
  7.7600000000e+010   4.2484616075e-004  -2.0240111148e-005   6.2566958563e-001  -5.0866759195e-001   6.1793047359e-001  -5.1766760406e-001   4.2648047660e-004   1.9881101046e-004
  7.7625000000e+010   4.2265202594e-004  -2.2350087088e-005   6.2563547451e-001  -5.0861418589e-001   6.1789517728e-001  -5.1761742465e-001   4.2268447554e-004   1.9932921827e-004
  7.7650000000e+010   4.2044593154e-004  -2.4448543396e-005   6.2560104339e-001  -5.0856028044e-001   6.1785954835e-001  -5.1756677833e-001   4.1889048735e-004   1.9982541038e-004
  7.7675000000e+010   4.1822800964e-004  -2.6535334950e-005   6.2556629240e-001  -5.0850587584e-001   6.1782358691e-001  -5.1751566541e-001   4.1509857815e-004   2.0029963515e-004
  7.7700000000e+010   4.1599839297e-004  -2.8610317733e-005   6.2553122168e-001  -5.0845097238e-001   6.1778729306e-001  -5.1746408621e-001   4.1130881408e-004   2.0075194197e-004
