# Hz S RI R 50.000000
! Metas.Vna.Tools, 2.4.7724.19584
! Metas.Vna.Data, 2.4.7724.19560
! Created: UTC 2021.04.29 12:40:11
! FREQ                re:S1,1             im:S1,1             re:S2,1             im:S2,1             re:S1,2             im:S1,2             re:S2,2             im:S2,2          
  7.5000000000e+010   1.6047954767e-004   1.4122988817e-004   7.9259469956e-001  -4.4650013438e-001   7.8588032272e-001  -4.5635705115e-001  -2.2260029556e-004  -4.6893106652e-004
  7.5025000000e+010   1.5897080380e-004   1.3850529372e-004   7.9259440052e-001  -4.4649967453e-001   7.8588000938e-001  -4.5635664489e-001  -2.2259414631e-004  -4.6892456006e-004
  7.5050000000e+010   1.5746182918e-004   1.3578380240e-004   7.9259380244e-001  -4.4649875483e-001   7.8587938270e-001  -4.5635583237e-001  -2.2258184848e-004  -4.6891154736e-004
  7.5075000000e+010   1.5595265525e-004   1.3306557793e-004   7.9259290531e-001  -4.4649737528e-001   7.8587844267e-001  -4.5635461360e-001  -2.2256340349e-004  -4.6889202880e-004
  7.5100000000e+010   1.5444331364e-004   1.3035078376e-004   7.9259170916e-001  -4.4649553590e-001   7.8587718931e-001  -4.5635298859e-001  -2.2253881342e-004  -4.6886600499e-004
  7.5125000000e+010   1.5293383610e-004   1.2763958300e-004   7.9259021397e-001  -4.4649323669e-001   7.8587562261e-001  -4.5635095734e-001  -2.2250808104e-004  -4.6883347672e-004
  7.5150000000e+010   1.5142425457e-004   1.2493213844e-004   7.9258841975e-001  -4.4649047766e-001   7.8587374258e-001  -4.5634851987e-001  -2.2247120984e-004  -4.6879444500e-004
  7.5175000000e+010   1.4991460114e-004   1.2222861257e-004   7.9258632652e-001  -4.4648725882e-001   7.8587154923e-001  -4.5634567620e-001  -2.2242820398e-004  -4.6874891102e-004
  7.5200000000e+010   1.4840490802e-004   1.1952916752e-004   7.9258393428e-001  -4.4648358019e-001   7.8586904256e-001  -4.5634242635e-001  -2.2237906833e-004  -4.6869687618e-004
  7.5225000000e+010   1.4689520763e-004   1.1683396505e-004   7.9258124304e-001  -4.4647944179e-001   7.8586622258e-001  -4.5633877034e-001  -2.2232380845e-004  -4.6863834208e-004
  7.5250000000e+010   1.4538553249e-004   1.1414316658e-004   7.9257825280e-001  -4.4647484363e-001   7.8586308929e-001  -4.5633470818e-001  -2.2226243059e-004  -4.6857331051e-004
  7.5275000000e+010   1.4387591530e-004   1.1145693315e-004   7.9257496359e-001  -4.4646978574e-001   7.8585964270e-001  -4.5633023992e-001  -2.2219494169e-004  -4.6850178348e-004
  7.5300000000e+010   1.4236638891e-004   1.0877542540e-004   7.9257137541e-001  -4.4646426814e-001   7.8585588283e-001  -4.5632536558e-001  -2.2212134938e-004  -4.6842376317e-004
  7.5325000000e+010   1.4085698631e-004   1.0609880359e-004   7.9256748827e-001  -4.4645829086e-001   7.8585180969e-001  -4.5632008518e-001  -2.2204166199e-004  -4.6833925200e-004
  7.5350000000e+010   1.3934774065e-004   1.0342722754e-004   7.9256330220e-001  -4.4645185392e-001   7.8584742328e-001  -4.5631439878e-001  -2.2195588852e-004  -4.6824825254e-004
  7.5375000000e+010   1.3783868520e-004   1.0076085667e-004   7.9255881720e-001  -4.4644495736e-001   7.8584272361e-001  -4.5630830640e-001  -2.2186403869e-004  -4.6815076761e-004
  7.5400000000e+010   1.3632985342e-004   9.8099849980e-005   7.9255403330e-001  -4.4643760120e-001   7.8583771071e-001  -4.5630180809e-001  -2.2176612286e-004  -4.6804680019e-004
  7.5425000000e+010   1.3482127887e-004   9.5444365995e-005   7.9254895051e-001  -4.4642978548e-001   7.8583238458e-001  -4.5629490389e-001  -2.2166215212e-004  -4.6793635349e-004
  7.5450000000e+010   1.3331299528e-004   9.2794562806e-005   7.9254356885e-001  -4.4642151024e-001   7.8582674523e-001  -4.5628759385e-001  -2.2155213821e-004  -4.6781943089e-004
  7.5475000000e+010   1.3180503653e-004   9.0150598030e-005   7.9253788835e-001  -4.4641277552e-001   7.8582079269e-001  -4.5627987801e-001  -2.2143609358e-004  -4.6769603600e-004
  7.5500000000e+010   1.3029743661e-004   8.7512628809e-005   7.9253190902e-001  -4.4640358136e-001   7.8581452698e-001  -4.5627175643e-001  -2.2131403133e-004  -4.6756617260e-004
  7.5525000000e+010   1.2879022969e-004   8.4880811797e-005   7.9252563088e-001  -4.4639392779e-001   7.8580794809e-001  -4.5626322916e-001  -2.2118596526e-004  -4.6742984470e-004
  7.5550000000e+010   1.2728345005e-004   8.2255303148e-005   7.9251905396e-001  -4.4638381487e-001   7.8580105607e-001  -4.5625429626e-001  -2.2105190985e-004  -4.6728705649e-004
  7.5575000000e+010   1.2577713212e-004   7.9636258506e-005   7.9251217829e-001  -4.4637324264e-001   7.8579385091e-001  -4.5624495779e-001  -2.2091188024e-004  -4.6713781236e-004
  7.5600000000e+010   1.2427131046e-004   7.7023832993e-005   7.9250500390e-001  -4.4636221115e-001   7.8578633265e-001  -4.5623521381e-001  -2.2076589224e-004  -4.6698211691e-004
  7.5625000000e+010   1.2276601977e-004   7.4418181199e-005   7.9249753080e-001  -4.4635072046e-001   7.8577850131e-001  -4.5622506438e-001  -2.2061396236e-004  -4.6681997493e-004
  7.5650000000e+010   1.2126129489e-004   7.1819457173e-005   7.9248975902e-001  -4.4633877061e-001   7.8577035690e-001  -4.5621450959e-001  -2.2045610775e-004  -4.6665139142e-004
  7.5675000000e+010   1.1975717079e-004   6.9227814407e-005   7.9248168861e-001  -4.4632636167e-001   7.8576189944e-001  -4.5620354948e-001  -2.2029234624e-004  -4.6647637157e-004
  7.5700000000e+010   1.1825368257e-004   6.6643405830e-005   7.9247331958e-001  -4.4631349369e-001   7.8575312897e-001  -4.5619218415e-001  -2.2012269632e-004  -4.6629492077e-004
  7.5725000000e+010   1.1675086545e-004   6.4066383796e-005   7.9246465197e-001  -4.4630016673e-001   7.8574404551e-001  -4.5618041367e-001  -2.1994717714e-004  -4.6610704462e-004
  7.5750000000e+010   1.1524875481e-004   6.1496900071e-005   7.9245568582e-001  -4.4628638085e-001   7.8573464907e-001  -4.5616823810e-001  -2.1976580851e-004  -4.6591274892e-004
  7.5775000000e+010   1.1374738612e-004   5.8935105826e-005   7.9244642115e-001  -4.4627213612e-001   7.8572493969e-001  -4.5615565755e-001  -2.1957861091e-004  -4.6571203965e-004
  7.5800000000e+010   1.1224679501e-004   5.6381151624e-005   7.9243685800e-001  -4.4625743260e-001   7.8571491739e-001  -4.5614267208e-001  -2.1938560545e-004  -4.6550492301e-004
  7.5825000000e+010   1.1074701721e-004   5.3835187410e-005   7.9242699641e-001  -4.4624227036e-001   7.8570458221e-001  -4.5612928179e-001  -2.1918681392e-004  -4.6529140539e-004
  7.5850000000e+010   1.0924808860e-004   5.1297362500e-005   7.9241683641e-001  -4.4622664948e-001   7.8569393416e-001  -4.5611548677e-001  -2.1898225874e-004  -4.6507149339e-004
  7.5875000000e+010   1.0775004515e-004   4.8767825571e-005   7.9240637805e-001  -4.4621057003e-001   7.8568297327e-001  -4.5610128711e-001  -2.1877196297e-004  -4.6484519380e-004
  7.5900000000e+010   1.0625292298e-004   4.6246724650e-005   7.9239562136e-001  -4.4619403208e-001   7.8567169959e-001  -4.5608668290e-001  -2.1855595033e-004  -4.6461251361e-004
  7.5925000000e+010   1.0475675832e-004   4.3734207106e-005   7.9238456639e-001  -4.4617703570e-001   7.8566011313e-001  -4.5607167425e-001  -2.1833424517e-004  -4.6437346002e-004
  7.5950000000e+010   1.0326158751e-004   4.1230419634e-005   7.9237321318e-001  -4.4615958099e-001   7.8564821393e-001  -4.5605626125e-001  -2.1810687248e-004  -4.6412804041e-004
  7.5975000000e+010   1.0176744702e-004   3.8735508253e-005   7.9236156176e-001  -4.4614166801e-001   7.8563600203e-001  -4.5604044401e-001  -2.1787385789e-004  -4.6387626239e-004
  7.6000000000e+010   1.0027437343e-004   3.6249618288e-005   7.9234961219e-001  -4.4612329686e-001   7.8562347745e-001  -4.5602422263e-001  -2.1763522764e-004  -4.6361813374e-004
  7.6025000000e+010   9.8782403437e-005   3.3772894362e-005   7.9233736451e-001  -4.4610446762e-001   7.8561064023e-001  -4.5600759722e-001  -2.1739100862e-004  -4.6335366247e-004
  7.6050000000e+010   9.7291573844e-005   3.1305480390e-005   7.9232481876e-001  -4.4608518038e-001   7.8559749041e-001  -4.5599056789e-001  -2.1714122833e-004  -4.6308285675e-004
  7.6075000000e+010   9.5801921570e-005   2.8847519564e-005   7.9231197500e-001  -4.4606543522e-001   7.8558402802e-001  -4.5597313476e-001  -2.1688591489e-004  -4.6280572498e-004
  7.6100000000e+010   9.4313483645e-005   2.6399154342e-005   7.9229883328e-001  -4.4604523224e-001   7.8557025310e-001  -4.5595529795e-001  -2.1662509703e-004  -4.6252227577e-004
  7.6125000000e+010   9.2826297203e-005   2.3960526446e-005   7.9228539363e-001  -4.4602457154e-001   7.8555616568e-001  -4.5593705757e-001  -2.1635880412e-004  -4.6223251789e-004
  7.6150000000e+010   9.1340399488e-005   2.1531776841e-005   7.9227165612e-001  -4.4600345321e-001   7.8554176581e-001  -4.5591841374e-001  -2.1608706610e-004  -4.6193646035e-004
  7.6175000000e+010   8.9855827848e-005   1.9113045734e-005   7.9225762080e-001  -4.4598187735e-001   7.8552705353e-001  -4.5589936660e-001  -2.1580991354e-004  -4.6163411233e-004
  7.6200000000e+010   8.8372619733e-005   1.6704472560e-005   7.9224328772e-001  -4.4595984406e-001   7.8551202887e-001  -4.5587991626e-001  -2.1552737761e-004  -4.6132548323e-004
  7.6225000000e+010   8.6890812697e-005   1.4306195972e-005   7.9222865693e-001  -4.4593735344e-001   7.8549669188e-001  -4.5586006286e-001  -2.1523949006e-004  -4.6101058264e-004
  7.6250000000e+010   8.5410444393e-005   1.1918353834e-005   7.9221372850e-001  -4.4591440560e-001   7.8548104260e-001  -4.5583980654e-001  -2.1494628325e-004  -4.6068942036e-004
  7.6275000000e+010   8.3931552574e-005   9.5410832077e-006   7.9219850247e-001  -4.4589100065e-001   7.8546508106e-001  -4.5581914742e-001  -2.1464779012e-004  -4.6036200638e-004
  7.6300000000e+010   8.2454175087e-005   7.1745203463e-006   7.9218297890e-001  -4.4586713869e-001   7.8544880733e-001  -4.5579808564e-001  -2.1434404418e-004  -4.6002835088e-004
  7.6325000000e+010   8.0978349878e-005   4.8188006826e-006   7.9216715786e-001  -4.4584281984e-001   7.8543222143e-001  -4.5577662136e-001  -2.1403507955e-004  -4.5968846427e-004
  7.6350000000e+010   7.9504114986e-005   2.4740588203e-006   7.9215103941e-001  -4.4581804421e-001   7.8541532342e-001  -4.5575475470e-001  -2.1372093091e-004  -4.5934235714e-004
  7.6375000000e+010   7.8031508539e-005   1.4042852453e-007   7.9213462360e-001  -4.4579281192e-001   7.8539811335e-001  -4.5573248582e-001  -2.1340163350e-004  -4.5899004028e-004
  7.6400000000e+010   7.6560568758e-005  -2.1819572876e-006   7.9211791050e-001  -4.4576712308e-001   7.8538059125e-001  -4.5570981487e-001  -2.1307722313e-004  -4.5863152469e-004
  7.6425000000e+010   7.5091333954e-005  -4.4929665562e-006   7.9210090017e-001  -4.4574097781e-001   7.8536275718e-001  -4.5568674200e-001  -2.1274773620e-004  -4.5826682155e-004
  7.6450000000e+010   7.3623842522e-005  -6.7924680881e-006   7.9208359268e-001  -4.4571437624e-001   7.8534461119e-001  -4.5566326735e-001  -2.1241320961e-004  -4.5789594226e-004
  7.6475000000e+010   7.2158132943e-005  -9.0803315658e-006   7.9206598809e-001  -4.4568731849e-001   7.8532615333e-001  -4.5563939110e-001  -2.1207368087e-004  -4.5751889842e-004
  7.6500000000e+010   7.0694243782e-005  -1.1356427557e-005   7.9204808647e-001  -4.4565980469e-001   7.8530738364e-001  -4.5561511340e-001  -2.1172918800e-004  -4.5713570181e-004
  7.6525000000e+010   6.9232213687e-005  -1.3620627523e-005   7.9202988789e-001  -4.4563183497e-001   7.8528830219e-001  -4.5559043441e-001  -2.1137976957e-004  -4.5674636444e-004
  7.6550000000e+010   6.7772081383e-005  -1.5872803829e-005   7.9201139242e-001  -4.4560340945e-001   7.8526890902e-001  -4.5556535429e-001  -2.1102546470e-004  -4.5635089849e-004
  7.6575000000e+010   6.6313885676e-005  -1.8112829751e-005   7.9199260013e-001  -4.4557452827e-001   7.8524920418e-001  -4.5553987323e-001  -2.1066631302e-004  -4.5594931635e-004
  7.6600000000e+010   6.4857665446e-005  -2.0340579488e-005   7.9197351109e-001  -4.4554519157e-001   7.8522918774e-001  -4.5551399137e-001  -2.1030235471e-004  -4.5554163063e-004
  7.6625000000e+010   6.3403459649e-005  -2.2555928166e-005   7.9195412537e-001  -4.4551539947e-001   7.8520885974e-001  -4.5548770891e-001  -2.0993363044e-004  -4.5512785411e-004
  7.6650000000e+010   6.1951307315e-005  -2.4758751850e-005   7.9193444305e-001  -4.4548515213e-001   7.8518822024e-001  -4.5546102601e-001  -2.0956018142e-004  -4.5470799979e-004
  7.6675000000e+010   6.0501247541e-005  -2.6948927556e-005   7.9191446420e-001  -4.4545444968e-001   7.8516726930e-001  -4.5543394286e-001  -2.0918204937e-004  -4.5428208087e-004
  7.6700000000e+010   5.9053319496e-005  -2.9126333250e-005   7.9189418889e-001  -4.4542329227e-001   7.8514600698e-001  -4.5540645963e-001  -2.0879927651e-004  -4.5385011072e-004
  7.6725000000e+010   5.7607562416e-005  -3.1290847867e-005   7.9187361722e-001  -4.4539168004e-001   7.8512443333e-001  -4.5537857650e-001  -2.0841190555e-004  -4.5341210296e-004
  7.6750000000e+010   5.6164015603e-005  -3.3442351312e-005   7.9185274925e-001  -4.4535961314e-001   7.8510254842e-001  -4.5535029368e-001  -2.0801997970e-004  -4.5296807136e-004
  7.6775000000e+010   5.4722718419e-005  -3.5580724473e-005   7.9183158506e-001  -4.4532709172e-001   7.8508035231e-001  -4.5532161134e-001  -2.0762354267e-004  -4.5251802993e-004
  7.6800000000e+010   5.3283710291e-005  -3.7705849227e-005   7.9181012473e-001  -4.4529411593e-001   7.8505784505e-001  -4.5529252967e-001  -2.0722263863e-004  -4.5206199286e-004
  7.6825000000e+010   5.1847030705e-005  -3.9817608448e-005   7.9178836835e-001  -4.4526068593e-001   7.8503502671e-001  -4.5526304887e-001  -2.0681731225e-004  -4.5159997454e-004
  7.6850000000e+010   5.0412719203e-005  -4.1915886019e-005   7.9176631601e-001  -4.4522680186e-001   7.8501189736e-001  -4.5523316915e-001  -2.0640760864e-004  -4.5113198955e-004
  7.6875000000e+010   4.8980815384e-005  -4.4000566834e-005   7.9174396777e-001  -4.4519246390e-001   7.8498845705e-001  -4.5520289069e-001  -2.0599357342e-004  -4.5065805271e-004
  7.6900000000e+010   4.7551358901e-005  -4.6071536810e-005   7.9172132374e-001  -4.4515767220e-001   7.8496470586e-001  -4.5517221370e-001  -2.0557525261e-004  -4.5017817898e-004
  7.6925000000e+010   4.6124389458e-005  -4.8128682896e-005   7.9169838399e-001  -4.4512242693e-001   7.8494064384e-001  -4.5514113839e-001  -2.0515269274e-004  -4.4969238358e-004
  7.6950000000e+010   4.4699946809e-005  -5.0171893078e-005   7.9167514861e-001  -4.4508672824e-001   7.8491627106e-001  -4.5510966496e-001  -2.0472594075e-004  -4.4920068189e-004
  7.6975000000e+010   4.3278070757e-005  -5.2201056388e-005   7.9165161770e-001  -4.4505057631e-001   7.8489158760e-001  -4.5507779362e-001  -2.0429504402e-004  -4.4870308949e-004
  7.7000000000e+010   4.1858801149e-005  -5.4216062913e-005   7.9162779133e-001  -4.4501397130e-001   7.8486659352e-001  -4.5504552459e-001  -2.0386005039e-004  -4.4819962219e-004
  7.7025000000e+010   4.0442177877e-005  -5.6216803799e-005   7.9160366961e-001  -4.4497691339e-001   7.8484128889e-001  -4.5501285809e-001  -2.0342100809e-004  -4.4769029597e-004
  7.7050000000e+010   3.9028240874e-005  -5.8203171263e-005   7.9157925263e-001  -4.4493940275e-001   7.8481567377e-001  -4.5497979432e-001  -2.0297796581e-004  -4.4717512702e-004
  7.7075000000e+010   3.7617030114e-005  -6.0175058600e-005   7.9155454047e-001  -4.4490143955e-001   7.8478974825e-001  -4.5494633352e-001  -2.0253097263e-004  -4.4665413173e-004
  7.7100000000e+010   3.6208585607e-005  -6.2132360186e-005   7.9152953324e-001  -4.4486302398e-001   7.8476351240e-001  -4.5491247590e-001  -2.0208007804e-004  -4.4612732669e-004
  7.7125000000e+010   3.4802947401e-005  -6.4074971490e-005   7.9150423103e-001  -4.4482415621e-001   7.8473696627e-001  -4.5487822169e-001  -2.0162533193e-004  -4.4559472869e-004
  7.7150000000e+010   3.3400155574e-005  -6.6002789081e-005   7.9147863393e-001  -4.4478483642e-001   7.8471010996e-001  -4.5484357112e-001  -2.0116678461e-004  -4.4505635471e-004
  7.7175000000e+010   3.2000250240e-005  -6.7915710633e-005   7.9145274204e-001  -4.4474506480e-001   7.8468294354e-001  -4.5480852443e-001  -2.0070448673e-004  -4.4451222195e-004
  7.7200000000e+010   3.0603271538e-005  -6.9813634933e-005   7.9142655547e-001  -4.4470484153e-001   7.8465546707e-001  -4.5477308184e-001  -2.0023848937e-004  -4.4396234778e-004
  7.7225000000e+010   2.9209259637e-005  -7.1696461888e-005   7.9140007431e-001  -4.4466416681e-001   7.8462768064e-001  -4.5473724360e-001  -1.9976884396e-004  -4.4340674980e-004
  7.7250000000e+010   2.7818254730e-005  -7.3564092534e-005   7.9137329866e-001  -4.4462304082e-001   7.8459958433e-001  -4.5470100993e-001  -1.9929560229e-004  -4.4284544579e-004
  7.7275000000e+010   2.6430297034e-005  -7.5416429040e-005   7.9134622863e-001  -4.4458146375e-001   7.8457117820e-001  -4.5466438109e-001  -1.9881881652e-004  -4.4227845372e-004
  7.7300000000e+010   2.5045426786e-005  -7.7253374715e-005   7.9131886432e-001  -4.4453943580e-001   7.8454246235e-001  -4.5462735732e-001  -1.9833853918e-004  -4.4170579179e-004
  7.7325000000e+010   2.3663684242e-005  -7.9074834018e-005   7.9129120583e-001  -4.4449695717e-001   7.8451343685e-001  -4.5458993887e-001  -1.9785482312e-004  -4.4112747838e-004
  7.7350000000e+010   2.2285109675e-005  -8.0880712561e-005   7.9126325328e-001  -4.4445402806e-001   7.8448410179e-001  -4.5455212598e-001  -1.9736772154e-004  -4.4054353206e-004
  7.7375000000e+010   2.0909743372e-005  -8.2670917119e-005   7.9123500676e-001  -4.4441064866e-001   7.8445445724e-001  -4.5451391891e-001  -1.9687728797e-004  -4.3995397161e-004
  7.7400000000e+010   1.9537625631e-005  -8.4445355631e-005   7.9120646639e-001  -4.4436681918e-001   7.8442450328e-001  -4.5447531792e-001  -1.9638357628e-004  -4.3935881601e-004
  7.7425000000e+010   1.8168796762e-005  -8.6203937212e-005   7.9117763227e-001  -4.4432253982e-001   7.8439424001e-001  -4.5443632325e-001  -1.9588664063e-004  -4.3875808444e-004
  7.7450000000e+010   1.6803297083e-005  -8.7946572160e-005   7.9114850452e-001  -4.4427781079e-001   7.8436366750e-001  -4.5439693518e-001  -1.9538653551e-004  -4.3815179627e-004
  7.7475000000e+010   1.5441166915e-005  -8.9673171954e-005   7.9111908325e-001  -4.4423263231e-001   7.8433278585e-001  -4.5435715396e-001  -1.9488331572e-004  -4.3753997107e-004
  7.7500000000e+010   1.4082446584e-005  -9.1383649271e-005   7.9108936857e-001  -4.4418700458e-001   7.8430159513e-001  -4.5431697986e-001  -1.9437703632e-004  -4.3692262862e-004
  7.7525000000e+010   1.2727176419e-005  -9.3077917983e-005   7.9105936059e-001  -4.4414092781e-001   7.8427009544e-001  -4.5427641314e-001  -1.9386775271e-004  -4.3629978888e-004
  7.7550000000e+010   1.1375396744e-005  -9.4755893169e-005   7.9102905943e-001  -4.4409440222e-001   7.8423828686e-001  -4.5423545409e-001  -1.9335552052e-004  -4.3567147202e-004
  7.7575000000e+010   1.0027147883e-005  -9.6417491119e-005   7.9099846521e-001  -4.4404742803e-001   7.8420616948e-001  -4.5419410297e-001  -1.9284039569e-004  -4.3503769841e-004
  7.7600000000e+010   8.6824701521e-006  -9.8062629337e-005   7.9096757803e-001  -4.4400000547e-001   7.8417374340e-001  -4.5415236005e-001  -1.9232243441e-004  -4.3439848861e-004
  7.7625000000e+010   7.3414038612e-006  -9.9691226552e-005   7.9093639803e-001  -4.4395213474e-001   7.8414100870e-001  -4.5411022562e-001  -1.9180169312e-004  -4.3375386338e-004
  7.7650000000e+010   6.0039893091e-006  -1.0130320272e-004   7.9090492532e-001  -4.4390381608e-001   7.8410796547e-001  -4.5406769995e-001  -1.9127822853e-004  -4.3310384368e-004
  7.7675000000e+010   4.6702667825e-006  -1.0289847903e-004   7.9087316003e-001  -4.4385504970e-001   7.8407461381e-001  -4.5402478334e-001  -1.9075209758e-004  -4.3244845067e-004
  7.7700000000e+010   3.3402765530e-006  -1.0447697791e-004   7.9084110226e-001  -4.4380583585e-001   7.8404095382e-001  -4.5398147606e-001  -1.9022335745e-004  -4.3178770569e-004
