# Hz S RI R 50.000000
! Metas.Vna.Tools, 2.4.7724.19584
! Metas.Vna.Data, 2.4.7724.19560
! Created: UTC 2021.04.29 12:40:11
! FREQ                re:S1,1             im:S1,1             re:S2,1             im:S2,1             re:S1,2             im:S1,2             re:S2,2             im:S2,2          
  7.5000000000e+010   1.8292642822e-004  -7.4545749267e-004   9.1897609309e-001  -3.1690819143e-001   9.0792087929e-001  -3.4707742860e-001  -3.4280656177e-004  -1.8646682355e-004
  7.5025000000e+010   1.8037963907e-004  -7.4409850231e-004   9.1897586601e-001  -3.1690789406e-001   9.0792067469e-001  -3.4707712391e-001  -3.4279455517e-004  -1.8646627734e-004
  7.5050000000e+010   1.7782899559e-004  -7.4271939234e-004   9.1897541186e-001  -3.1690729934e-001   9.0792026548e-001  -3.4707651453e-001  -3.4277054303e-004  -1.8646518481e-004
  7.5075000000e+010   1.7527462226e-004  -7.4132023712e-004   9.1897473062e-001  -3.1690640725e-001   9.0791965167e-001  -3.4707560046e-001  -3.4273452752e-004  -1.8646354572e-004
  7.5100000000e+010   1.7271664377e-004  -7.3990111158e-004   9.1897382231e-001  -3.1690521781e-001   9.0791883325e-001  -3.4707438171e-001  -3.4268651187e-004  -1.8646135975e-004
  7.5125000000e+010   1.7015518497e-004  -7.3846209124e-004   9.1897268693e-001  -3.1690373102e-001   9.0791781023e-001  -3.4707285829e-001  -3.4262650039e-004  -1.8645862643e-004
  7.5150000000e+010   1.6759037092e-004  -7.3700325214e-004   9.1897132448e-001  -3.1690194688e-001   9.0791658262e-001  -3.4707103020e-001  -3.4255449847e-004  -1.8645534520e-004
  7.5175000000e+010   1.6502232684e-004  -7.3552467092e-004   9.1896973497e-001  -3.1689986541e-001   9.0791515041e-001  -3.4706889747e-001  -3.4247051256e-004  -1.8645151538e-004
  7.5200000000e+010   1.6245117811e-004  -7.3402642474e-004   9.1896791841e-001  -3.1689748661e-001   9.0791351360e-001  -3.4706646010e-001  -3.4237455022e-004  -1.8644713617e-004
  7.5225000000e+010   1.5987705028e-004  -7.3250859133e-004   9.1896587479e-001  -3.1689481049e-001   9.0791167221e-001  -3.4706371810e-001  -3.4226662006e-004  -1.8644220666e-004
  7.5250000000e+010   1.5730006905e-004  -7.3097124896e-004   9.1896360413e-001  -3.1689183707e-001   9.0790962623e-001  -3.4706067151e-001  -3.4214673176e-004  -1.8643672584e-004
  7.5275000000e+010   1.5472036026e-004  -7.2941447645e-004   9.1896110643e-001  -3.1688856635e-001   9.0790737567e-001  -3.4705732034e-001  -3.4201489608e-004  -1.8643069257e-004
  7.5300000000e+010   1.5213804990e-004  -7.2783835318e-004   9.1895838171e-001  -3.1688499836e-001   9.0790492053e-001  -3.4705366460e-001  -3.4187112486e-004  -1.8642410561e-004
  7.5325000000e+010   1.4955326407e-004  -7.2624295903e-004   9.1895542997e-001  -3.1688113310e-001   9.0790226082e-001  -3.4704970433e-001  -3.4171543100e-004  -1.8641696360e-004
  7.5350000000e+010   1.4696612900e-004  -7.2462837446e-004   9.1895225122e-001  -3.1687697060e-001   9.0789939654e-001  -3.4704543955e-001  -3.4154782847e-004  -1.8640926508e-004
  7.5375000000e+010   1.4437677104e-004  -7.2299468044e-004   9.1894884548e-001  -3.1687251087e-001   9.0789632770e-001  -3.4704087029e-001  -3.4136833232e-004  -1.8640100845e-004
  7.5400000000e+010   1.4178531664e-004  -7.2134195849e-004   9.1894521275e-001  -3.1686775393e-001   9.0789305431e-001  -3.4703599658e-001  -3.4117695864e-004  -1.8639219204e-004
  7.5425000000e+010   1.3919189234e-004  -7.1967029063e-004   9.1894135305e-001  -3.1686269980e-001   9.0788957637e-001  -3.4703081845e-001  -3.4097372461e-004  -1.8638281403e-004
  7.5450000000e+010   1.3659662479e-004  -7.1797975944e-004   9.1893726640e-001  -3.1685734851e-001   9.0788589389e-001  -3.4702533593e-001  -3.4075864847e-004  -1.8637287253e-004
  7.5475000000e+010   1.3399964071e-004  -7.1627044801e-004   9.1893295280e-001  -3.1685170007e-001   9.0788200688e-001  -3.4701954907e-001  -3.4053174951e-004  -1.8636236549e-004
  7.5500000000e+010   1.3140106690e-004  -7.1454243995e-004   9.1892841227e-001  -3.1684575452e-001   9.0787791534e-001  -3.4701345790e-001  -3.4029304808e-004  -1.8635129080e-004
  7.5525000000e+010   1.2880103023e-004  -7.1279581938e-004   9.1892364483e-001  -3.1683951187e-001   9.0787361929e-001  -3.4700706245e-001  -3.4004256559e-004  -1.8633964620e-004
  7.5550000000e+010   1.2619965763e-004  -7.1103067095e-004   9.1891865049e-001  -3.1683297216e-001   9.0786911873e-001  -3.4700036278e-001  -3.3978032451e-004  -1.8632742936e-004
  7.5575000000e+010   1.2359707607e-004  -7.0924707981e-004   9.1891342928e-001  -3.1682613541e-001   9.0786441368e-001  -3.4699335893e-001  -3.3950634836e-004  -1.8631463780e-004
  7.5600000000e+010   1.2099341259e-004  -7.0744513164e-004   9.1890798121e-001  -3.1681900165e-001   9.0785950413e-001  -3.4698605093e-001  -3.3922066169e-004  -1.8630126897e-004
  7.5625000000e+010   1.1838879425e-004  -7.0562491259e-004   9.1890230630e-001  -3.1681157092e-001   9.0785439011e-001  -3.4697843885e-001  -3.3892329013e-004  -1.8628732019e-004
  7.5650000000e+010   1.1578334815e-004  -7.0378650936e-004   9.1889640456e-001  -3.1680384324e-001   9.0784907162e-001  -3.4697052273e-001  -3.3861426032e-004  -1.8627278868e-004
  7.5675000000e+010   1.1317720141e-004  -7.0193000911e-004   9.1889027603e-001  -3.1679581865e-001   9.0784354867e-001  -3.4696230263e-001  -3.3829359998e-004  -1.8625767155e-004
  7.5700000000e+010   1.1057048115e-004  -7.0005549953e-004   9.1888392071e-001  -3.1678749719e-001   9.0783782128e-001  -3.4695377859e-001  -3.3796133784e-004  -1.8624196581e-004
  7.5725000000e+010   1.0796331452e-004  -6.9816306878e-004   9.1887733865e-001  -3.1677887889e-001   9.0783188946e-001  -3.4694495067e-001  -3.3761750367e-004  -1.8622566837e-004
  7.5750000000e+010   1.0535582867e-004  -6.9625280553e-004   9.1887052984e-001  -3.1676996378e-001   9.0782575321e-001  -3.4693581894e-001  -3.3726212828e-004  -1.8620877603e-004
  7.5775000000e+010   1.0274815071e-004  -6.9432479893e-004   9.1886349433e-001  -3.1676075192e-001   9.0781941256e-001  -3.4692638345e-001  -3.3689524351e-004  -1.8619128547e-004
  7.5800000000e+010   1.0014040778e-004  -6.9237913862e-004   9.1885623214e-001  -3.1675124333e-001   9.0781286752e-001  -3.4691664427e-001  -3.3651688222e-004  -1.8617319329e-004
  7.5825000000e+010   9.7532726967e-005  -6.9041591473e-004   9.1884874328e-001  -3.1674143805e-001   9.0780611809e-001  -3.4690660146e-001  -3.3612707830e-004  -1.8615449599e-004
  7.5850000000e+010   9.4925235330e-005  -6.8843521786e-004   9.1884102779e-001  -3.1673133614e-001   9.0779916429e-001  -3.4689625508e-001  -3.3572586664e-004  -1.8613518994e-004
  7.5875000000e+010   9.2318059898e-005  -6.8643713909e-004   9.1883308570e-001  -3.1672093763e-001   9.0779200615e-001  -3.4688560520e-001  -3.3531328318e-004  -1.8611527145e-004
  7.5900000000e+010   8.9711327651e-005  -6.8442177000e-004   9.1882491703e-001  -3.1671024258e-001   9.0778464366e-001  -3.4687465190e-001  -3.3488936484e-004  -1.8609473669e-004
  7.5925000000e+010   8.7105165515e-005  -6.8238920260e-004   9.1881652180e-001  -3.1669925102e-001   9.0777707686e-001  -3.4686339525e-001  -3.3445414956e-004  -1.8607358176e-004
  7.5950000000e+010   8.4499700355e-005  -6.8033952940e-004   9.1880790006e-001  -3.1668796300e-001   9.0776930575e-001  -3.4685183532e-001  -3.3400767629e-004  -1.8605180265e-004
  7.5975000000e+010   8.1895058968e-005  -6.7827284338e-004   9.1879905183e-001  -3.1667637857e-001   9.0776133034e-001  -3.4683997218e-001  -3.3354998497e-004  -1.8602939525e-004
  7.6000000000e+010   7.9291368075e-005  -6.7618923796e-004   9.1878997714e-001  -3.1666449779e-001   9.0775315067e-001  -3.4682780592e-001  -3.3308111654e-004  -1.8600635535e-004
  7.6025000000e+010   7.6688754314e-005  -6.7408880704e-004   9.1878067603e-001  -3.1665232071e-001   9.0774476674e-001  -3.4681533661e-001  -3.3260111294e-004  -1.8598267866e-004
  7.6050000000e+010   7.4087344228e-005  -6.7197164497e-004   9.1877114852e-001  -3.1663984737e-001   9.0773617856e-001  -3.4680256435e-001  -3.3211001708e-004  -1.8595836079e-004
  7.6075000000e+010   7.1487264266e-005  -6.6983784656e-004   9.1876139464e-001  -3.1662707783e-001   9.0772738617e-001  -3.4678948920e-001  -3.3160787286e-004  -1.8593339724e-004
  7.6100000000e+010   6.8888640767e-005  -6.6768750708e-004   9.1875141445e-001  -3.1661401215e-001   9.0771838958e-001  -3.4677611127e-001  -3.3109472516e-004  -1.8590778345e-004
  7.6125000000e+010   6.6291599957e-005  -6.6552072223e-004   9.1874120796e-001  -3.1660065039e-001   9.0770918880e-001  -3.4676243063e-001  -3.3057061984e-004  -1.8588151472e-004
  7.6150000000e+010   6.3696267943e-005  -6.6333758817e-004   9.1873077521e-001  -3.1658699260e-001   9.0769978385e-001  -3.4674844738e-001  -3.3003560371e-004  -1.8585458630e-004
  7.6175000000e+010   6.1102770698e-005  -6.6113820151e-004   9.1872011625e-001  -3.1657303884e-001   9.0769017476e-001  -3.4673416161e-001  -3.2948972457e-004  -1.8582699334e-004
  7.6200000000e+010   5.8511234063e-005  -6.5892265929e-004   9.1870923110e-001  -3.1655878917e-001   9.0768036155e-001  -3.4671957341e-001  -3.2893303116e-004  -1.8579873090e-004
  7.6225000000e+010   5.5921783733e-005  -6.5669105899e-004   9.1869811981e-001  -3.1654424366e-001   9.0767034423e-001  -3.4670468289e-001  -3.2836557317e-004  -1.8576979394e-004
  7.6250000000e+010   5.3334545251e-005  -6.5444349854e-004   9.1868678242e-001  -3.1652940236e-001   9.0766012283e-001  -3.4668949013e-001  -3.2778740125e-004  -1.8574017734e-004
  7.6275000000e+010   5.0749644002e-005  -6.5218007627e-004   9.1867521896e-001  -3.1651426535e-001   9.0764969736e-001  -3.4667399524e-001  -3.2719856700e-004  -1.8570987590e-004
  7.6300000000e+010   4.8167205205e-005  -6.4990089098e-004   9.1866342948e-001  -3.1649883268e-001   9.0763906786e-001  -3.4665819832e-001  -3.2659912293e-004  -1.8567888434e-004
  7.6325000000e+010   4.5587353903e-005  -6.4760604186e-004   9.1865141402e-001  -3.1648310443e-001   9.0762823433e-001  -3.4664209947e-001  -3.2598912252e-004  -1.8564719729e-004
  7.6350000000e+010   4.3010214959e-005  -6.4529562856e-004   9.1863917261e-001  -3.1646708067e-001   9.0761719682e-001  -3.4662569881e-001  -3.2536862013e-004  -1.8561480928e-004
  7.6375000000e+010   4.0435913048e-005  -6.4296975112e-004   9.1862670531e-001  -3.1645076145e-001   9.0760595532e-001  -3.4660899644e-001  -3.2473767110e-004  -1.8558171479e-004
  7.6400000000e+010   3.7864572647e-005  -6.4062851001e-004   9.1861401216e-001  -3.1643414686e-001   9.0759450988e-001  -3.4659199246e-001  -3.2409633162e-004  -1.8554790820e-004
  7.6425000000e+010   3.5296318030e-005  -6.3827200613e-004   9.1860109319e-001  -3.1641723697e-001   9.0758286052e-001  -3.4657468700e-001  -3.2344465885e-004  -1.8551338381e-004
  7.6450000000e+010   3.2731273261e-005  -6.3590034077e-004   9.1858794847e-001  -3.1640003185e-001   9.0757100726e-001  -3.4655708016e-001  -3.2278271081e-004  -1.8547813586e-004
  7.6475000000e+010   3.0169562183e-005  -6.3351361564e-004   9.1857457802e-001  -3.1638253157e-001   9.0755895012e-001  -3.4653917207e-001  -3.2211054644e-004  -1.8544215850e-004
  7.6500000000e+010   2.7611308417e-005  -6.3111193286e-004   9.1856098191e-001  -3.1636473621e-001   9.0754668913e-001  -3.4652096283e-001  -3.2142822556e-004  -1.8540544580e-004
  7.6525000000e+010   2.5056635349e-005  -6.2869539494e-004   9.1854716017e-001  -3.1634664585e-001   9.0753422431e-001  -3.4650245258e-001  -3.2073580889e-004  -1.8536799177e-004
  7.6550000000e+010   2.2505666122e-005  -6.2626410482e-004   9.1853311286e-001  -3.1632826057e-001   9.0752155570e-001  -3.4648364143e-001  -3.2003335800e-004  -1.8532979034e-004
  7.6575000000e+010   1.9958523637e-005  -6.2381816580e-004   9.1851884003e-001  -3.1630958044e-001   9.0750868332e-001  -3.4646452950e-001  -3.1932093536e-004  -1.8529083537e-004
  7.6600000000e+010   1.7415330534e-005  -6.2135768160e-004   9.1850434172e-001  -3.1629060555e-001   9.0749560719e-001  -3.4644511692e-001  -3.1859860430e-004  -1.8525112064e-004
  7.6625000000e+010   1.4876209196e-005  -6.1888275633e-004   9.1848961799e-001  -3.1627133598e-001   9.0748232734e-001  -3.4642540383e-001  -3.1786642900e-004  -1.8521063989e-004
  7.6650000000e+010   1.2341281732e-005  -6.1639349449e-004   9.1847466889e-001  -3.1625177182e-001   9.0746884381e-001  -3.4640539035e-001  -3.1712447450e-004  -1.8516938676e-004
  7.6675000000e+010   9.8106699775e-006  -6.1389000096e-004   9.1845949447e-001  -3.1623191314e-001   9.0745515662e-001  -3.4638507660e-001  -3.1637280668e-004  -1.8512735485e-004
  7.6700000000e+010   7.2844954828e-006  -6.1137238100e-004   9.1844409479e-001  -3.1621176005e-001   9.0744126579e-001  -3.4636446274e-001  -3.1561149226e-004  -1.8508453767e-004
  7.6725000000e+010   4.7628795071e-006  -6.0884074027e-004   9.1842846989e-001  -3.1619131261e-001   9.0742717136e-001  -3.4634354888e-001  -3.1484059879e-004  -1.8504092869e-004
  7.6750000000e+010   2.2459430113e-006  -6.0629518479e-004   9.1841261984e-001  -3.1617057093e-001   9.0741287336e-001  -3.4632233518e-001  -3.1406019466e-004  -1.8499652130e-004
  7.6775000000e+010  -2.6619334908e-007  -6.0373582097e-004   9.1839654468e-001  -3.1614953509e-001   9.0739837182e-001  -3.4630082176e-001  -3.1327034905e-004  -1.8495130886e-004
  7.6800000000e+010  -2.7734092310e-006  -6.0116275557e-004   9.1838024449e-001  -3.1612820518e-001   9.0738366677e-001  -3.4627900877e-001  -3.1247113197e-004  -1.8490528464e-004
  7.6825000000e+010  -5.2755846111e-006  -5.9857609573e-004   9.1836371931e-001  -3.1610658130e-001   9.0736875824e-001  -3.4625689636e-001  -3.1166261422e-004  -1.8485844186e-004
  7.6850000000e+010  -7.7725997929e-006  -5.9597594898e-004   9.1834696920e-001  -3.1608466355e-001   9.0735364625e-001  -3.4623448467e-001  -3.1084486742e-004  -1.8481077370e-004
  7.6875000000e+010  -1.0264335414e-005  -5.9336242317e-004   9.1832999422e-001  -3.1606245201e-001   9.0733833086e-001  -3.4621177385e-001  -3.1001796395e-004  -1.8476227326e-004
  7.6900000000e+010  -1.2750672451e-005  -5.9073562655e-004   9.1831279444e-001  -3.1603994678e-001   9.0732281207e-001  -3.4618876405e-001  -3.0918197698e-004  -1.8471293361e-004
  7.6925000000e+010  -1.5231492231e-005  -5.8809566770e-004   9.1829536990e-001  -3.1601714796e-001   9.0730708994e-001  -3.4616545541e-001  -3.0833698045e-004  -1.8466274777e-004
  7.6950000000e+010  -1.7706676435e-005  -5.8544265558e-004   9.1827772068e-001  -3.1599405566e-001   9.0729116449e-001  -3.4614184810e-001  -3.0748304907e-004  -1.8461170870e-004
  7.6975000000e+010  -2.0176107104e-005  -5.8277669947e-004   9.1825984684e-001  -3.1597066997e-001   9.0727503575e-001  -3.4611794226e-001  -3.0662025831e-004  -1.8455980930e-004
  7.7000000000e+010  -2.2639666650e-005  -5.8009790902e-004   9.1824174843e-001  -3.1594699098e-001   9.0725870376e-001  -3.4609373806e-001  -3.0574868438e-004  -1.8450704245e-004
  7.7025000000e+010  -2.5097237859e-005  -5.7740639423e-004   9.1822342553e-001  -3.1592301882e-001   9.0724216856e-001  -3.4606923566e-001  -3.0486840423e-004  -1.8445340098e-004
  7.7050000000e+010  -2.7548703901e-005  -5.7470226543e-004   9.1820487819e-001  -3.1589875357e-001   9.0722543018e-001  -3.4604443521e-001  -3.0397949555e-004  -1.8439887765e-004
  7.7075000000e+010  -2.9993948334e-005  -5.7198563330e-004   9.1818610649e-001  -3.1587419535e-001   9.0720848866e-001  -3.4601933688e-001  -3.0308203675e-004  -1.8434346523e-004
  7.7100000000e+010  -3.2432855112e-005  -5.6925660884e-004   9.1816711048e-001  -3.1584934427e-001   9.0719134402e-001  -3.4599394084e-001  -3.0217610697e-004  -1.8428715639e-004
  7.7125000000e+010  -3.4865308594e-005  -5.6651530342e-004   9.1814789024e-001  -3.1582420042e-001   9.0717399632e-001  -3.4596824724e-001  -3.0126178603e-004  -1.8422994382e-004
  7.7150000000e+010  -3.7291193546e-005  -5.6376182870e-004   9.1812844584e-001  -3.1579876393e-001   9.0715644558e-001  -3.4594225627e-001  -3.0033915448e-004  -1.8417182012e-004
  7.7175000000e+010  -3.9710395152e-005  -5.6099629669e-004   9.1810877734e-001  -3.1577303490e-001   9.0713869184e-001  -3.4591596809e-001  -2.9940829353e-004  -1.8411277791e-004
  7.7200000000e+010  -4.2122799018e-005  -5.5821881973e-004   9.1808888481e-001  -3.1574701344e-001   9.0712073515e-001  -3.4588938287e-001  -2.9846928511e-004  -1.8405280972e-004
  7.7225000000e+010  -4.4528291182e-005  -5.5542951047e-004   9.1806876832e-001  -3.1572069966e-001   9.0710257553e-001  -3.4586250080e-001  -2.9752221179e-004  -1.8399190811e-004
  7.7250000000e+010  -4.6926758116e-005  -5.5262848188e-004   9.1804842795e-001  -3.1569409369e-001   9.0708421303e-001  -3.4583532204e-001  -2.9656715683e-004  -1.8393006555e-004
  7.7275000000e+010  -4.9318086736e-005  -5.4981584726e-004   9.1802786376e-001  -3.1566719564e-001   9.0706564769e-001  -3.4580784677e-001  -2.9560420413e-004  -1.8386727453e-004
  7.7300000000e+010  -5.1702164409e-005  -5.4699172021e-004   9.1800707583e-001  -3.1564000562e-001   9.0704687955e-001  -3.4578007518e-001  -2.9463343824e-004  -1.8380352749e-004
  7.7325000000e+010  -5.4078878955e-005  -5.4415621465e-004   9.1798606423e-001  -3.1561252376e-001   9.0702790864e-001  -3.4575200745e-001  -2.9365494435e-004  -1.8373881685e-004
  7.7350000000e+010  -5.6448118660e-005  -5.4130944480e-004   9.1796482904e-001  -3.1558475016e-001   9.0700873501e-001  -3.4572364377e-001  -2.9266880829e-004  -1.8367313501e-004
  7.7375000000e+010  -5.8809772277e-005  -5.3845152519e-004   9.1794337033e-001  -3.1555668496e-001   9.0698935870e-001  -3.4569498431e-001  -2.9167511651e-004  -1.8360647436e-004
  7.7400000000e+010  -6.1163729037e-005  -5.3558257065e-004   9.1792168818e-001  -3.1552832828e-001   9.0696977976e-001  -3.4566602927e-001  -2.9067395605e-004  -1.8353882725e-004
  7.7425000000e+010  -6.3509878650e-005  -5.3270269630e-004   9.1789978266e-001  -3.1549968024e-001   9.0694999821e-001  -3.4563677884e-001  -2.8966541457e-004  -1.8347018603e-004
  7.7450000000e+010  -6.5848111317e-005  -5.2981201758e-004   9.1787765385e-001  -3.1547074096e-001   9.0693001411e-001  -3.4560723321e-001  -2.8864958032e-004  -1.8340054302e-004
  7.7475000000e+010  -6.8178317732e-005  -5.2691065020e-004   9.1785530184e-001  -3.1544151058e-001   9.0690982750e-001  -3.4557739257e-001  -2.8762654214e-004  -1.8332989055e-004
  7.7500000000e+010  -7.0500389092e-005  -5.2399871018e-004   9.1783272669e-001  -3.1541198921e-001   9.0688943843e-001  -3.4554725713e-001  -2.8659638943e-004  -1.8325822092e-004
  7.7525000000e+010  -7.2814217100e-005  -5.2107631379e-004   9.1780992849e-001  -3.1538217699e-001   9.0686884693e-001  -3.4551682707e-001  -2.8555921217e-004  -1.8318552642e-004
  7.7550000000e+010  -7.5119693974e-005  -5.1814357763e-004   9.1778690733e-001  -3.1535207404e-001   9.0684805305e-001  -3.4548610261e-001  -2.8451510088e-004  -1.8311179935e-004
  7.7575000000e+010  -7.7416712450e-005  -5.1520061856e-004   9.1776366327e-001  -3.1532168051e-001   9.0682705683e-001  -3.4545508393e-001  -2.8346414665e-004  -1.8303703199e-004
  7.7600000000e+010  -7.9705165791e-005  -5.1224755371e-004   9.1774019641e-001  -3.1529099651e-001   9.0680585833e-001  -3.4542377125e-001  -2.8240644107e-004  -1.8296121662e-004
  7.7625000000e+010  -8.1984947793e-005  -5.0928450049e-004   9.1771650682e-001  -3.1526002219e-001   9.0678445758e-001  -3.4539216477e-001  -2.8134207629e-004  -1.8288434552e-004
  7.7650000000e+010  -8.4255952789e-005  -5.0631157660e-004   9.1769259460e-001  -3.1522875768e-001   9.0676285464e-001  -3.4536026470e-001  -2.8027114496e-004  -1.8280641096e-004
  7.7675000000e+010  -8.6518075657e-005  -5.0332889998e-004   9.1766845982e-001  -3.1519720312e-001   9.0674104955e-001  -3.4532807124e-001  -2.7919374024e-004  -1.8272740524e-004
  7.7700000000e+010  -8.8771211826e-005  -5.0033658885e-004   9.1764410258e-001  -3.1516535864e-001   9.0671904236e-001  -3.4529558461e-001  -2.7810995579e-004  -1.8264732063e-004
