# Hz S RI R 50.000000
! Metas.Vna.Tools, 2.4.7724.19584
! Metas.Vna.Data, 2.4.7724.19560
! Created: UTC 2021.04.29 12:40:11
! FREQ                re:S1,1             im:S1,1             re:S2,1             im:S2,1             re:S1,2             im:S1,2             re:S2,2             im:S2,2          
  7.5000000000e+010   1.4236252852e-005  -7.0405579998e-004   9.8409963283e-001  -1.7473417836e-001   9.8210024875e-001  -1.8826066913e-001  -4.3820349496e-004   3.9521588244e-005
  7.5025000000e+010   1.1725972718e-005  -7.0263408965e-004   9.8409952998e-001  -1.7473404832e-001   9.8210017208e-001  -1.8826049925e-001  -4.3818671167e-004   3.9516267893e-005
  7.5050000000e+010   9.2128852776e-006  -7.0119968977e-004   9.8409932428e-001  -1.7473378825e-001   9.8210001873e-001  -1.8826015948e-001  -4.3815314647e-004   3.9505627654e-005
  7.5075000000e+010   6.6971545430e-006  -6.9975262583e-004   9.8409901574e-001  -1.7473339813e-001   9.8209978872e-001  -1.8825964984e-001  -4.3810280211e-004   3.9489668453e-005
  7.5100000000e+010   4.1789444159e-006  -6.9829292368e-004   9.8409860434e-001  -1.7473287797e-001   9.8209948203e-001  -1.8825897033e-001  -4.3803568275e-004   3.9468391678e-005
  7.5125000000e+010   1.6584186784e-006  -6.9682060948e-004   9.8409809010e-001  -1.7473222778e-001   9.8209909866e-001  -1.8825812094e-001  -4.3795179391e-004   3.9441799178e-005
  7.5150000000e+010  -8.6425901746e-007  -6.9533570977e-004   9.8409747302e-001  -1.7473144754e-001   9.8209863862e-001  -1.8825710170e-001  -4.3785114248e-004   3.9409893268e-005
  7.5175000000e+010  -3.3889251588e-006  -6.9383825140e-004   9.8409675309e-001  -1.7473053727e-001   9.8209810190e-001  -1.8825591260e-001  -4.3773373677e-004   3.9372676721e-005
  7.5200000000e+010  -5.9154163823e-006  -6.9232826159e-004   9.8409593032e-001  -1.7472949697e-001   9.8209748851e-001  -1.8825455366e-001  -4.3759958642e-004   3.9330152775e-005
  7.5225000000e+010  -8.4435694826e-006  -6.9080576789e-004   9.8409500471e-001  -1.7472832663e-001   9.8209679844e-001  -1.8825302489e-001  -4.3744870247e-004   3.9282325127e-005
  7.5250000000e+010  -1.0973221424e-005  -6.8927079820e-004   9.8409397627e-001  -1.7472702626e-001   9.8209603169e-001  -1.8825132630e-001  -4.3728109735e-004   3.9229197936e-005
  7.5275000000e+010  -1.3504209346e-005  -6.8772338077e-004   9.8409284498e-001  -1.7472559585e-001   9.8209518826e-001  -1.8824945790e-001  -4.3709678483e-004   3.9170775821e-005
  7.5300000000e+010  -1.6036370581e-005  -6.8616354418e-004   9.8409161086e-001  -1.7472403542e-001   9.8209426814e-001  -1.8824741972e-001  -4.3689578010e-004   3.9107063863e-005
  7.5325000000e+010  -1.8569542652e-005  -6.8459131740e-004   9.8409027392e-001  -1.7472234496e-001   9.8209327135e-001  -1.8824521176e-001  -4.3667809969e-004   3.9038067600e-005
  7.5350000000e+010  -2.1103563293e-005  -6.8300672969e-004   9.8408883414e-001  -1.7472052447e-001   9.8209219786e-001  -1.8824283405e-001  -4.3644376150e-004   3.8963793030e-005
  7.5375000000e+010  -2.3638270454e-005  -6.8140981072e-004   9.8408729154e-001  -1.7471857395e-001   9.8209104769e-001  -1.8824028660e-001  -4.3619278482e-004   3.8884246610e-005
  7.5400000000e+010  -2.6173502308e-005  -6.7980059048e-004   9.8408564612e-001  -1.7471649341e-001   9.8208982083e-001  -1.8823756944e-001  -4.3592519029e-004   3.8799435254e-005
  7.5425000000e+010  -2.8709097265e-005  -6.7817909930e-004   9.8408389788e-001  -1.7471428285e-001   9.8208851727e-001  -1.8823468259e-001  -4.3564099993e-004   3.8709366333e-005
  7.5450000000e+010  -3.1244893979e-005  -6.7654536789e-004   9.8408204683e-001  -1.7471194227e-001   9.8208713702e-001  -1.8823162607e-001  -4.3534023711e-004   3.8614047674e-005
  7.5475000000e+010  -3.3780731358e-005  -6.7489942731e-004   9.8408009296e-001  -1.7470947168e-001   9.8208568007e-001  -1.8822839991e-001  -4.3502292657e-004   3.8513487559e-005
  7.5500000000e+010  -3.6316448574e-005  -6.7324130895e-004   9.8407803630e-001  -1.7470687107e-001   9.8208414642e-001  -1.8822500414e-001  -4.3468909441e-004   3.8407694725e-005
  7.5525000000e+010  -3.8851885070e-005  -6.7157104459e-004   9.8407587683e-001  -1.7470414046e-001   9.8208253606e-001  -1.8822143877e-001  -4.3433876809e-004   3.8296678363e-005
  7.5550000000e+010  -4.1386880571e-005  -6.6988866633e-004   9.8407361457e-001  -1.7470127983e-001   9.8208084900e-001  -1.8821770385e-001  -4.3397197641e-004   3.8180448116e-005
  7.5575000000e+010  -4.3921275095e-005  -6.6819420667e-004   9.8407124951e-001  -1.7469828920e-001   9.8207908522e-001  -1.8821379941e-001  -4.3358874953e-004   3.8059014078e-005
  7.5600000000e+010  -4.6454908958e-005  -6.6648769843e-004   9.8406878168e-001  -1.7469516857e-001   9.8207724473e-001  -1.8820972546e-001  -4.3318911897e-004   3.7932386794e-005
  7.5625000000e+010  -4.8987622787e-005  -6.6476917481e-004   9.8406621106e-001  -1.7469191794e-001   9.8207532753e-001  -1.8820548206e-001  -4.3277311757e-004   3.7800577258e-005
  7.5650000000e+010  -5.1519257528e-005  -6.6303866936e-004   9.8406353767e-001  -1.7468853732e-001   9.8207333360e-001  -1.8820106923e-001  -4.3234077955e-004   3.7663596914e-005
  7.5675000000e+010  -5.4049654452e-005  -6.6129621600e-004   9.8406076151e-001  -1.7468502670e-001   9.8207126295e-001  -1.8819648702e-001  -4.3189214042e-004   3.7521457651e-005
  7.5700000000e+010  -5.6578655172e-005  -6.5954184900e-004   9.8405788258e-001  -1.7468138610e-001   9.8206911556e-001  -1.8819173545e-001  -4.3142723708e-004   3.7374171804e-005
  7.5725000000e+010  -5.9106101642e-005  -6.5777560300e-004   9.8405490091e-001  -1.7467761552e-001   9.8206689145e-001  -1.8818681457e-001  -4.3094610772e-004   3.7221752153e-005
  7.5750000000e+010  -6.1631836174e-005  -6.5599751302e-004   9.8405181648e-001  -1.7467371495e-001   9.8206459059e-001  -1.8818172441e-001  -4.3044879188e-004   3.7064211921e-005
  7.5775000000e+010  -6.4155701444e-005  -6.5420761441e-004   9.8404862931e-001  -1.7466968442e-001   9.8206221300e-001  -1.8817646503e-001  -4.2993533043e-004   3.6901564773e-005
  7.5800000000e+010  -6.6677540500e-005  -6.5240594291e-004   9.8404533941e-001  -1.7466552391e-001   9.8205975865e-001  -1.8817103647e-001  -4.2940576555e-004   3.6733824814e-005
  7.5825000000e+010  -6.9197196772e-005  -6.5059253461e-004   9.8404194678e-001  -1.7466123343e-001   9.8205722755e-001  -1.8816543876e-001  -4.2886014073e-004   3.6561006587e-005
  7.5850000000e+010  -7.1714514082e-005  -6.4876742599e-004   9.8403845143e-001  -1.7465681299e-001   9.8205461970e-001  -1.8815967196e-001  -4.2829850081e-004   3.6383125073e-005
  7.5875000000e+010  -7.4229336651e-005  -6.4693065388e-004   9.8403485337e-001  -1.7465226260e-001   9.8205193508e-001  -1.8815373611e-001  -4.2772089190e-004   3.6200195690e-005
  7.5900000000e+010  -7.6741509107e-005  -6.4508225548e-004   9.8403115260e-001  -1.7464758225e-001   9.8204917370e-001  -1.8814763126e-001  -4.2712736143e-004   3.6012234288e-005
  7.5925000000e+010  -7.9250876499e-005  -6.4322226836e-004   9.8402734914e-001  -1.7464277196e-001   9.8204633554e-001  -1.8814135747e-001  -4.2651795813e-004   3.5819257150e-005
  7.5950000000e+010  -8.1757284298e-005  -6.4135073047e-004   9.8402344300e-001  -1.7463783172e-001   9.8204342061e-001  -1.8813491478e-001  -4.2589273204e-004   3.5621280990e-005
  7.5975000000e+010  -8.4260578413e-005  -6.3946768013e-004   9.8401943417e-001  -1.7463276155e-001   9.8204042889e-001  -1.8812830325e-001  -4.2525173448e-004   3.5418322951e-005
  7.6000000000e+010  -8.6760605194e-005  -6.3757315601e-004   9.8401532268e-001  -1.7462756145e-001   9.8203736038e-001  -1.8812152293e-001  -4.2459501804e-004   3.5210400602e-005
  7.6025000000e+010  -8.9257211444e-005  -6.3566719719e-004   9.8401110852e-001  -1.7462223142e-001   9.8203421508e-001  -1.8811457388e-001  -4.2392263662e-004   3.4997531940e-005
  7.6050000000e+010  -9.1750244427e-005  -6.3374984309e-004   9.8400679172e-001  -1.7461677147e-001   9.8203099298e-001  -1.8810745615e-001  -4.2323464540e-004   3.4779735381e-005
  7.6075000000e+010  -9.4239551876e-005  -6.3182113352e-004   9.8400237227e-001  -1.7461118161e-001   9.8202769406e-001  -1.8810016981e-001  -4.2253110079e-004   3.4557029767e-005
  7.6100000000e+010  -9.6724981999e-005  -6.2988110868e-004   9.8399785019e-001  -1.7460546184e-001   9.8202431834e-001  -1.8809271492e-001  -4.2181206052e-004   3.4329434357e-005
  7.6125000000e+010  -9.9206383495e-005  -6.2792980911e-004   9.8399322549e-001  -1.7459961217e-001   9.8202086579e-001  -1.8808509153e-001  -4.2107758354e-004   3.4096968827e-005
  7.6150000000e+010  -1.0168360555e-004  -6.2596727576e-004   9.8398849819e-001  -1.7459363260e-001   9.8201733641e-001  -1.8807729971e-001  -4.2032773008e-004   3.3859653269e-005
  7.6175000000e+010  -1.0415649787e-004  -6.2399354995e-004   9.8398366828e-001  -1.7458752315e-001   9.8201373020e-001  -1.8806933952e-001  -4.1956256161e-004   3.3617508189e-005
  7.6200000000e+010  -1.0662491064e-004  -6.2200867338e-004   9.8397873578e-001  -1.7458128381e-001   9.8201004715e-001  -1.8806121104e-001  -4.1878214084e-004   3.3370554502e-005
  7.6225000000e+010  -1.0908869460e-004  -6.2001268811e-004   9.8397370071e-001  -1.7457491460e-001   9.8200628725e-001  -1.8805291432e-001  -4.1798653174e-004   3.3118813535e-005
  7.6250000000e+010  -1.1154770100e-004  -6.1800563661e-004   9.8396856307e-001  -1.7456841552e-001   9.8200245050e-001  -1.8804444944e-001  -4.1717579949e-004   3.2862307019e-005
  7.6275000000e+010  -1.1400178162e-004  -6.1598756171e-004   9.8396332287e-001  -1.7456178658e-001   9.8199853688e-001  -1.8803581646e-001  -4.1635001050e-004   3.2601057089e-005
  7.6300000000e+010  -1.1645078879e-004  -6.1395850664e-004   9.8395798013e-001  -1.7455502779e-001   9.8199454639e-001  -1.8802701546e-001  -4.1550923241e-004   3.2335086284e-005
  7.6325000000e+010  -1.1889457541e-004  -6.1191851499e-004   9.8395253486e-001  -1.7454813915e-001   9.8199047903e-001  -1.8801804651e-001  -4.1465353406e-004   3.2064417541e-005
  7.6350000000e+010  -1.2133299490e-004  -6.0986763076e-004   9.8394698707e-001  -1.7454112067e-001   9.8198633478e-001  -1.8800890968e-001  -4.1378298552e-004   3.1789074195e-005
  7.6375000000e+010  -1.2376590129e-004  -6.0780589832e-004   9.8394133678e-001  -1.7453397236e-001   9.8198211363e-001  -1.8799960505e-001  -4.1289765804e-004   3.1509079976e-005
  7.6400000000e+010  -1.2619314915e-004  -6.0573336242e-004   9.8393558399e-001  -1.7452669422e-001   9.8197781559e-001  -1.8799013270e-001  -4.1199762407e-004   3.1224459004e-005
  7.6425000000e+010  -1.2861459367e-004  -6.0365006820e-004   9.8392972872e-001  -1.7451928627e-001   9.8197344063e-001  -1.8798049269e-001  -4.1108295726e-004   3.0935235791e-005
  7.6450000000e+010  -1.3103009060e-004  -6.0155606121e-004   9.8392377098e-001  -1.7451174852e-001   9.8196898876e-001  -1.8797068513e-001  -4.1015373241e-004   3.0641435235e-005
  7.6475000000e+010  -1.3343949631e-004  -5.9945138735e-004   9.8391771079e-001  -1.7450408096e-001   9.8196445996e-001  -1.8796071008e-001  -4.0921002553e-004   3.0343082619e-005
  7.6500000000e+010  -1.3584266777e-004  -5.9733609294e-004   9.8391154816e-001  -1.7449628361e-001   9.8195985422e-001  -1.8795056762e-001  -4.0825191378e-004   3.0040203607e-005
  7.6525000000e+010  -1.3823946255e-004  -5.9521022466e-004   9.8390528311e-001  -1.7448835649e-001   9.8195517154e-001  -1.8794025784e-001  -4.0727947547e-004   2.9732824243e-005
  7.6550000000e+010  -1.4062973887e-004  -5.9307382961e-004   9.8389891564e-001  -1.7448029958e-001   9.8195041191e-001  -1.8792978083e-001  -4.0629279009e-004   2.9420970945e-005
  7.6575000000e+010  -1.4301335556e-004  -5.9092695526e-004   9.8389244577e-001  -1.7447211292e-001   9.8194557532e-001  -1.8791913668e-001  -4.0529193824e-004   2.9104670508e-005
  7.6600000000e+010  -1.4539017210e-004  -5.8876964947e-004   9.8388587352e-001  -1.7446379650e-001   9.8194066175e-001  -1.8790832546e-001  -4.0427700168e-004   2.8783950095e-005
  7.6625000000e+010  -1.4776004862e-004  -5.8660196051e-004   9.8387919890e-001  -1.7445535033e-001   9.8193567121e-001  -1.8789734727e-001  -4.0324806329e-004   2.8458837237e-005
  7.6650000000e+010  -1.5012284587e-004  -5.8442393703e-004   9.8387242193e-001  -1.7444677443e-001   9.8193060368e-001  -1.8788620220e-001  -4.0220520709e-004   2.8129359831e-005
  7.6675000000e+010  -1.5247842529e-004  -5.8223562807e-004   9.8386554262e-001  -1.7443806880e-001   9.8192545915e-001  -1.8787489034e-001  -4.0114851818e-004   2.7795546135e-005
  7.6700000000e+010  -1.5482664899e-004  -5.8003708306e-004   9.8385856099e-001  -1.7442923346e-001   9.8192023761e-001  -1.8786341178e-001  -4.0007808280e-004   2.7457424766e-005
  7.6725000000e+010  -1.5716737974e-004  -5.7782835186e-004   9.8385147706e-001  -1.7442026840e-001   9.8191493905e-001  -1.8785176663e-001  -3.9899398828e-004   2.7115024698e-005
  7.6750000000e+010  -1.5950048098e-004  -5.7560948467e-004   9.8384429083e-001  -1.7441117365e-001   9.8190956346e-001  -1.8783995497e-001  -3.9789632302e-004   2.6768375256e-005
  7.6775000000e+010  -1.6182581688e-004  -5.7338053213e-004   9.8383700233e-001  -1.7440194922e-001   9.8190411084e-001  -1.8782797690e-001  -3.9678517651e-004   2.6417506116e-005
  7.6800000000e+010  -1.6414325227e-004  -5.7114154526e-004   9.8382961157e-001  -1.7439259510e-001   9.8189858117e-001  -1.8781583252e-001  -3.9566063934e-004   2.6062447299e-005
  7.6825000000e+010  -1.6645265269e-004  -5.6889257548e-004   9.8382211857e-001  -1.7438311132e-001   9.8189297445e-001  -1.8780352194e-001  -3.9452280313e-004   2.5703229173e-005
  7.6850000000e+010  -1.6875388439e-004  -5.6663367459e-004   9.8381452335e-001  -1.7437349789e-001   9.8188729065e-001  -1.8779104525e-001  -3.9337176058e-004   2.5339882441e-005
  7.6875000000e+010  -1.7104681436e-004  -5.6436489482e-004   9.8380682593e-001  -1.7436375481e-001   9.8188152977e-001  -1.8777840255e-001  -3.9220760541e-004   2.4972438147e-005
  7.6900000000e+010  -1.7333131028e-004  -5.6208628877e-004   9.8379902631e-001  -1.7435388209e-001   9.8187569181e-001  -1.8776559396e-001  -3.9103043241e-004   2.4600927667e-005
  7.6925000000e+010  -1.7560724058e-004  -5.5979790946e-004   9.8379112452e-001  -1.7434387976e-001   9.8186977675e-001  -1.8775261957e-001  -3.8984033738e-004   2.4225382708e-005
  7.6950000000e+010  -1.7787447442e-004  -5.5749981030e-004   9.8378312058e-001  -1.7433374781e-001   9.8186378457e-001  -1.8773947949e-001  -3.8863741715e-004   2.3845835302e-005
  7.6975000000e+010  -1.8013288171e-004  -5.5519204510e-004   9.8377501451e-001  -1.7432348626e-001   9.8185771528e-001  -1.8772617383e-001  -3.8742176957e-004   2.3462317808e-005
  7.7000000000e+010  -1.8238233311e-004  -5.5287466808e-004   9.8376680632e-001  -1.7431309513e-001   9.8185156885e-001  -1.8771270270e-001  -3.8619349346e-004   2.3074862901e-005
  7.7025000000e+010  -1.8462270004e-004  -5.5054773384e-004   9.8375849603e-001  -1.7430257442e-001   9.8184534527e-001  -1.8769906622e-001  -3.8495268867e-004   2.2683503577e-005
  7.7050000000e+010  -1.8685385467e-004  -5.4821129740e-004   9.8375008366e-001  -1.7429192415e-001   9.8183904455e-001  -1.8768526449e-001  -3.8369945601e-004   2.2288273140e-005
  7.7075000000e+010  -1.8907566995e-004  -5.4586541417e-004   9.8374156924e-001  -1.7428114432e-001   9.8183266665e-001  -1.8767129762e-001  -3.8243389728e-004   2.1889205209e-005
  7.7100000000e+010  -1.9128801962e-004  -5.4351013999e-004   9.8373295277e-001  -1.7427023496e-001   9.8182621158e-001  -1.8765716574e-001  -3.8115611525e-004   2.1486333705e-005
  7.7125000000e+010  -1.9349077817e-004  -5.4114553107e-004   9.8372423429e-001  -1.7425919607e-001   9.8181967932e-001  -1.8764286895e-001  -3.7986621362e-004   2.1079692853e-005
  7.7150000000e+010  -1.9568382092e-004  -5.3877164404e-004   9.8371541380e-001  -1.7424802766e-001   9.8181306985e-001  -1.8762840738e-001  -3.7856429705e-004   2.0669317177e-005
  7.7175000000e+010  -1.9786702396e-004  -5.3638853593e-004   9.8370649134e-001  -1.7423672975e-001   9.8180638318e-001  -1.8761378114e-001  -3.7725047115e-004   2.0255241495e-005
  7.7200000000e+010  -2.0004026418e-004  -5.3399626418e-004   9.8369746691e-001  -1.7422530236e-001   9.8179961927e-001  -1.8759899036e-001  -3.7592484244e-004   1.9837500918e-005
  7.7225000000e+010  -2.0220341929e-004  -5.3159488662e-004   9.8368834055e-001  -1.7421374549e-001   9.8179277813e-001  -1.8758403516e-001  -3.7458751835e-004   1.9416130843e-005
  7.7250000000e+010  -2.0435636781e-004  -5.2918446150e-004   9.8367911227e-001  -1.7420205916e-001   9.8178585975e-001  -1.8756891566e-001  -3.7323860724e-004   1.8991166952e-005
  7.7275000000e+010  -2.0649898908e-004  -5.2676504747e-004   9.8366978210e-001  -1.7419024338e-001   9.8177886410e-001  -1.8755363198e-001  -3.7187821835e-004   1.8562645207e-005
  7.7300000000e+010  -2.0863116327e-004  -5.2433670358e-004   9.8366035004e-001  -1.7417829817e-001   9.8177179117e-001  -1.8753818425e-001  -3.7050646180e-004   1.8130601846e-005
  7.7325000000e+010  -2.1075277136e-004  -5.2189948931e-004   9.8365081614e-001  -1.7416622353e-001   9.8176464096e-001  -1.8752257260e-001  -3.6912344859e-004   1.7695073379e-005
  7.7350000000e+010  -2.1286369520e-004  -5.1945346450e-004   9.8364118040e-001  -1.7415401949e-001   9.8175741345e-001  -1.8750679715e-001  -3.6772929061e-004   1.7256096586e-005
  7.7375000000e+010  -2.1496381747e-004  -5.1699868944e-004   9.8363144286e-001  -1.7414168606e-001   9.8175010863e-001  -1.8749085804e-001  -3.6632410056e-004   1.6813708509e-005
  7.7400000000e+010  -2.1705302169e-004  -5.1453522482e-004   9.8362160353e-001  -1.7412922325e-001   9.8174272649e-001  -1.8747475539e-001  -3.6490799203e-004   1.6367946454e-005
  7.7425000000e+010  -2.1913119225e-004  -5.1206313171e-004   9.8361166243e-001  -1.7411663108e-001   9.8173526700e-001  -1.8745848934e-001  -3.6348107940e-004   1.5918847982e-005
  7.7450000000e+010  -2.2119821438e-004  -5.0958247161e-004   9.8360161960e-001  -1.7410390956e-001   9.8172773017e-001  -1.8744206003e-001  -3.6204347791e-004   1.5466450905e-005
  7.7475000000e+010  -2.2325397419e-004  -5.0709330642e-004   9.8359147504e-001  -1.7409105870e-001   9.8172011597e-001  -1.8742546758e-001  -3.6059530358e-004   1.5010793286e-005
  7.7500000000e+010  -2.2529835867e-004  -5.0459569846e-004   9.8358122879e-001  -1.7407807853e-001   9.8171242440e-001  -1.8740871213e-001  -3.5913667326e-004   1.4551913433e-005
  7.7525000000e+010  -2.2733125567e-004  -5.0208971043e-004   9.8357088087e-001  -1.7406496906e-001   9.8170465544e-001  -1.8739179382e-001  -3.5766770458e-004   1.4089849892e-005
  7.7550000000e+010  -2.2935255393e-004  -4.9957540548e-004   9.8356043131e-001  -1.7405173030e-001   9.8169680907e-001  -1.8737471280e-001  -3.5618851593e-004   1.3624641447e-005
  7.7575000000e+010  -2.3136214307e-004  -4.9705284711e-004   9.8354988012e-001  -1.7403836227e-001   9.8168888529e-001  -1.8735746919e-001  -3.5469922650e-004   1.3156327115e-005
  7.7600000000e+010  -2.3335991360e-004  -4.9452209929e-004   9.8353922733e-001  -1.7402486498e-001   9.8168088408e-001  -1.8734006314e-001  -3.5319995621e-004   1.2684946139e-005
  7.7625000000e+010  -2.3534575695e-004  -4.9198322635e-004   9.8352847297e-001  -1.7401123846e-001   9.8167280542e-001  -1.8732249480e-001  -3.5169082575e-004   1.2210537988e-005
  7.7650000000e+010  -2.3731956542e-004  -4.8943629305e-004   9.8351761706e-001  -1.7399748271e-001   9.8166464930e-001  -1.8730476431e-001  -3.5017195652e-004   1.1733142348e-005
  7.7675000000e+010  -2.3928123224e-004  -4.8688136456e-004   9.8350665963e-001  -1.7398359775e-001   9.8165641572e-001  -1.8728687181e-001  -3.4864347065e-004   1.1252799124e-005
  7.7700000000e+010  -2.4123065154e-004  -4.8431850645e-004   9.8349560070e-001  -1.7396958361e-001   9.8164810465e-001  -1.8726881745e-001  -3.4710549100e-004   1.0769548429e-005
