# Hz S RI R 50.000000
! Metas.Vna.Tools, 2.4.7724.19584
! Metas.Vna.Data, 2.4.7724.19560
! Created: UTC 2021.04.29 12:40:11
! FREQ                re:S1,1             im:S1,1             re:S2,1             im:S2,1             re:S1,2             im:S1,2             re:S2,2             im:S2,2          
  7.5000000000e+010   2.4249327554e-005  -6.7826726968e-004   9.9291963675e-001  -9.3211384294e-003   9.9352313631e-001  -9.8008601796e-003  -2.4144754663e-004   1.5870735015e-004
  7.5025000000e+010   2.2663355650e-005  -6.7671748049e-004   9.9291968989e-001  -9.3211647408e-003   9.9352320134e-001  -9.8008914726e-003  -2.4143414313e-004   1.5869892660e-004
  7.5050000000e+010   2.1068698789e-005  -6.7516149170e-004   9.9291979617e-001  -9.3212173623e-003   9.9352333142e-001  -9.8009540596e-003  -2.4140733741e-004   1.5868208012e-004
  7.5075000000e+010   1.9465498647e-005  -6.7359928426e-004   9.9291995560e-001  -9.3212962912e-003   9.9352352653e-001  -9.8010479425e-003  -2.4136713204e-004   1.5865681200e-004
  7.5100000000e+010   1.7853897152e-005  -6.7203083914e-004   9.9292016817e-001  -9.3214015236e-003   9.9352378667e-001  -9.8011731241e-003  -2.4131353085e-004   1.5862312414e-004
  7.5125000000e+010   1.6234036478e-005  -6.7045613736e-004   9.9292043387e-001  -9.3215330540e-003   9.9352411185e-001  -9.8013296083e-003  -2.4124653899e-004   1.5858101911e-004
  7.5150000000e+010   1.4606059033e-005  -6.6887516000e-004   9.9292075271e-001  -9.3216908758e-003   9.9352450205e-001  -9.8015173999e-003  -2.4116616284e-004   1.5853050009e-004
  7.5175000000e+010   1.2970107451e-005  -6.6728788817e-004   9.9292112467e-001  -9.3218749810e-003   9.9352495727e-001  -9.8017365046e-003  -2.4107241011e-004   1.5847157090e-004
  7.5200000000e+010   1.1326324584e-005  -6.6569430305e-004   9.9292154977e-001  -9.3220853603e-003   9.9352547751e-001  -9.8019869292e-003  -2.4096528976e-004   1.5840423600e-004
  7.5225000000e+010   9.6748534908e-006  -6.6409438589e-004   9.9292202798e-001  -9.3223220031e-003   9.9352606276e-001  -9.8022686813e-003  -2.4084481203e-004   1.5832850049e-004
  7.5250000000e+010   8.0158374298e-006  -6.6248811802e-004   9.9292255930e-001  -9.3225848973e-003   9.9352671301e-001  -9.8025817696e-003  -2.4071098844e-004   1.5824437011e-004
  7.5275000000e+010   6.3494198479e-006  -6.6087548083e-004   9.9292314373e-001  -9.3228740295e-003   9.9352742825e-001  -9.8029262037e-003  -2.4056383180e-004   1.5815185123e-004
  7.5300000000e+010   4.6757443719e-006  -6.5925645581e-004   9.9292378126e-001  -9.3231893853e-003   9.9352820848e-001  -9.8033019941e-003  -2.4040335617e-004   1.5805095084e-004
  7.5325000000e+010   2.9949548002e-006  -6.5763102453e-004   9.9292447189e-001  -9.3235309484e-003   9.9352905368e-001  -9.8037091522e-003  -2.4022957690e-004   1.5794167658e-004
  7.5350000000e+010   1.3071950925e-006  -6.5599916868e-004   9.9292521559e-001  -9.3238987017e-003   9.9352996386e-001  -9.8041476907e-003  -2.4004251062e-004   1.5782403673e-004
  7.5375000000e+010  -3.8739063851e-007  -6.5436087003e-004   9.9292601238e-001  -9.3242926265e-003   9.9353093898e-001  -9.8046176228e-003  -2.3984217522e-004   1.5769804018e-004
  7.5400000000e+010  -2.0886581370e-006  -6.5271611048e-004   9.9292686222e-001  -9.3247127028e-003   9.9353197905e-001  -9.8051189630e-003  -2.3962858984e-004   1.5756369648e-004
  7.5425000000e+010  -3.7964630125e-006  -6.5106487204e-004   9.9292776512e-001  -9.3251589093e-003   9.9353308405e-001  -9.8056517265e-003  -2.3940177493e-004   1.5742101578e-004
  7.5450000000e+010  -5.5106607497e-006  -6.4940713684e-004   9.9292872107e-001  -9.3256312233e-003   9.9353425396e-001  -9.8062159298e-003  -2.3916175216e-004   1.5727000888e-004
  7.5475000000e+010  -7.2311067168e-006  -6.4774288716e-004   9.9292973004e-001  -9.3261296210e-003   9.9353548878e-001  -9.8068115900e-003  -2.3890854450e-004   1.5711068721e-004
  7.5500000000e+010  -8.9576561753e-006  -6.4607210539e-004   9.9293079203e-001  -9.3266540769e-003   9.9353678849e-001  -9.8074387253e-003  -2.3864217615e-004   1.5694306281e-004
  7.5525000000e+010  -1.0690164289e-005  -6.4439477410e-004   9.9293190703e-001  -9.3272045644e-003   9.9353815306e-001  -9.8080973549e-003  -2.3836267259e-004   1.5676714836e-004
  7.5550000000e+010  -1.2428486132e-005  -6.4271087596e-004   9.9293307502e-001  -9.3277810557e-003   9.9353958249e-001  -9.8087874988e-003  -2.3807006056e-004   1.5658295717e-004
  7.5575000000e+010  -1.4172476700e-005  -6.4102039386e-004   9.9293429599e-001  -9.3283835214e-003   9.9354107676e-001  -9.8095091782e-003  -2.3776436802e-004   1.5639050317e-004
  7.5600000000e+010  -1.5921990917e-005  -6.3932331079e-004   9.9293556992e-001  -9.3290119310e-003   9.9354263585e-001  -9.8102624150e-003  -2.3744562422e-004   1.5618980090e-004
  7.5625000000e+010  -1.7676883646e-005  -6.3761960995e-004   9.9293689679e-001  -9.3296662525e-003   9.9354425973e-001  -9.8110472323e-003  -2.3711385962e-004   1.5598086553e-004
  7.5650000000e+010  -1.9437009697e-005  -6.3590927471e-004   9.9293827660e-001  -9.3303464526e-003   9.9354594840e-001  -9.8118636538e-003  -2.3676910597e-004   1.5576371286e-004
  7.5675000000e+010  -2.1202223836e-005  -6.3419228861e-004   9.9293970932e-001  -9.3310524968e-003   9.9354770182e-001  -9.8127117046e-003  -2.3641139622e-004   1.5553835930e-004
  7.5700000000e+010  -2.2972380796e-005  -6.3246863539e-004   9.9294119493e-001  -9.3317843493e-003   9.9354951999e-001  -9.8135914103e-003  -2.3604076458e-004   1.5530482188e-004
  7.5725000000e+010  -2.4747335283e-005  -6.3073829897e-004   9.9294273343e-001  -9.3325419727e-003   9.9355140287e-001  -9.8145027978e-003  -2.3565724649e-004   1.5506311823e-004
  7.5750000000e+010  -2.6526941987e-005  -6.2900126350e-004   9.9294432478e-001  -9.3333253285e-003   9.9355335044e-001  -9.8154458948e-003  -2.3526087861e-004   1.5481326662e-004
  7.5775000000e+010  -2.8311055589e-005  -6.2725751331e-004   9.9294596897e-001  -9.3341343769e-003   9.9355536268e-001  -9.8164207299e-003  -2.3485169886e-004   1.5455528592e-004
  7.5800000000e+010  -3.0099530773e-005  -6.2550703296e-004   9.9294766597e-001  -9.3349690767e-003   9.9355743956e-001  -9.8174273327e-003  -2.3442974635e-004   1.5428919560e-004
  7.5825000000e+010  -3.1892222233e-005  -6.2374980723e-004   9.9294941578e-001  -9.3358293855e-003   9.9355958107e-001  -9.8184657339e-003  -2.3399506142e-004   1.5401501575e-004
  7.5850000000e+010  -3.3688984681e-005  -6.2198582110e-004   9.9295121836e-001  -9.3367152593e-003   9.9356178716e-001  -9.8195359648e-003  -2.3354768565e-004   1.5373276708e-004
  7.5875000000e+010  -3.5489672857e-005  -6.2021505983e-004   9.9295307369e-001  -9.3376266531e-003   9.9356405783e-001  -9.8206380579e-003  -2.3308766179e-004   1.5344247087e-004
  7.5900000000e+010  -3.7294141538e-005  -6.1843750888e-004   9.9295498175e-001  -9.3385635204e-003   9.9356639303e-001  -9.8217720466e-003  -2.3261503384e-004   1.5314414903e-004
  7.5925000000e+010  -3.9102245548e-005  -6.1665315398e-004   9.9295694252e-001  -9.3395258135e-003   9.9356879274e-001  -9.8229379653e-003  -2.3212984698e-004   1.5283782406e-004
  7.5950000000e+010  -4.0913839763e-005  -6.1486198109e-004   9.9295895597e-001  -9.3405134833e-003   9.9357125693e-001  -9.8241358492e-003  -2.3163214760e-004   1.5252351907e-004
  7.5975000000e+010  -4.2728779123e-005  -6.1306397645e-004   9.9296102209e-001  -9.3415264794e-003   9.9357378557e-001  -9.8253657345e-003  -2.3112198328e-004   1.5220125776e-004
  7.6000000000e+010  -4.4546918642e-005  -6.1125912655e-004   9.9296314083e-001  -9.3425647502e-003   9.9357637863e-001  -9.8266276583e-003  -2.3059940278e-004   1.5187106442e-004
  7.6025000000e+010  -4.6368113411e-005  -6.0944741816e-004   9.9296531218e-001  -9.3436282426e-003   9.9357903608e-001  -9.8279216588e-003  -2.3006445607e-004   1.5153296392e-004
  7.6050000000e+010  -4.8192218613e-005  -6.0762883831e-004   9.9296753611e-001  -9.3447169023e-003   9.9358175788e-001  -9.8292477749e-003  -2.2951719428e-004   1.5118698176e-004
  7.6075000000e+010  -5.0019089529e-005  -6.0580337434e-004   9.9296981259e-001  -9.3458306738e-003   9.9358454401e-001  -9.8306060466e-003  -2.2895766974e-004   1.5083314399e-004
  7.6100000000e+010  -5.1848581547e-005  -6.0397101384e-004   9.9297214159e-001  -9.3469695000e-003   9.9358739442e-001  -9.8319965149e-003  -2.2838593592e-004   1.5047147725e-004
  7.6125000000e+010  -5.3680550168e-005  -6.0213174474e-004   9.9297452309e-001  -9.3481333228e-003   9.9359030909e-001  -9.8334192215e-003  -2.2780204748e-004   1.5010200878e-004
  7.6150000000e+010  -5.5514851020e-005  -6.0028555524e-004   9.9297695706e-001  -9.3493220826e-003   9.9359328798e-001  -9.8348742092e-003  -2.2720606023e-004   1.4972476639e-004
  7.6175000000e+010  -5.7351339863e-005  -5.9843243386e-004   9.9297944346e-001  -9.3505357186e-003   9.9359633104e-001  -9.8363615216e-003  -2.2659803113e-004   1.4933977847e-004
  7.6200000000e+010  -5.9189872597e-005  -5.9657236942e-004   9.9298198227e-001  -9.3517741688e-003   9.9359943825e-001  -9.8378812035e-003  -2.2597801831e-004   1.4894707397e-004
  7.6225000000e+010  -6.1030305272e-005  -5.9470535107e-004   9.9298457345e-001  -9.3530373696e-003   9.9360260957e-001  -9.8394333003e-003  -2.2534608101e-004   1.4854668243e-004
  7.6250000000e+010  -6.2872494098e-005  -5.9283136829e-004   9.9298721698e-001  -9.3543252563e-003   9.9360584496e-001  -9.8410178586e-003  -2.2470227965e-004   1.4813863395e-004
  7.6275000000e+010  -6.4716295451e-005  -5.9095041088e-004   9.9298991281e-001  -9.3556377629e-003   9.9360914437e-001  -9.8426349257e-003  -2.2404667574e-004   1.4772295921e-004
  7.6300000000e+010  -6.6561565881e-005  -5.8906246898e-004   9.9299266092e-001  -9.3569748221e-003   9.9361250777e-001  -9.8442845499e-003  -2.2337933195e-004   1.4729968943e-004
  7.6325000000e+010  -6.8408162123e-005  -5.8716753307e-004   9.9299546127e-001  -9.3583363653e-003   9.9361593512e-001  -9.8459667805e-003  -2.2270031205e-004   1.4686885641e-004
  7.6350000000e+010  -7.0255941104e-005  -5.8526559399e-004   9.9299831383e-001  -9.3597223227e-003   9.9361942637e-001  -9.8476816678e-003  -2.2200968093e-004   1.4643049251e-004
  7.6375000000e+010  -7.2104759951e-005  -5.8335664293e-004   9.9300121856e-001  -9.3611326229e-003   9.9362298149e-001  -9.8494292626e-003  -2.2130750459e-004   1.4598463062e-004
  7.6400000000e+010  -7.3954476001e-005  -5.8144067142e-004   9.9300417543e-001  -9.3625671936e-003   9.9362660043e-001  -9.8512096172e-003  -2.2059385012e-004   1.4553130421e-004
  7.6425000000e+010  -7.5804946807e-005  -5.7951767139e-004   9.9300718440e-001  -9.3640259609e-003   9.9363028314e-001  -9.8530227844e-003  -2.1986878573e-004   1.4507054728e-004
  7.6450000000e+010  -7.7656030148e-005  -5.7758763512e-004   9.9301024543e-001  -9.3655088499e-003   9.9363402958e-001  -9.8548688180e-003  -2.1913238067e-004   1.4460239439e-004
  7.6475000000e+010  -7.9507584037e-005  -5.7565055527e-004   9.9301335849e-001  -9.3670157842e-003   9.9363783970e-001  -9.8567477729e-003  -2.1838470533e-004   1.4412688063e-004
  7.6500000000e+010  -8.1359466727e-005  -5.7370642489e-004   9.9301652353e-001  -9.3685466862e-003   9.9364171347e-001  -9.8586597046e-003  -2.1762583114e-004   1.4364404163e-004
  7.6525000000e+010  -8.3211536724e-005  -5.7175523741e-004   9.9301974052e-001  -9.3701014770e-003   9.9364565082e-001  -9.8606046699e-003  -2.1685583059e-004   1.4315391356e-004
  7.6550000000e+010  -8.5063652791e-005  -5.6979698666e-004   9.9302300943e-001  -9.3716800764e-003   9.9364965172e-001  -9.8625827261e-003  -2.1607477725e-004   1.4265653312e-004
  7.6575000000e+010  -8.6915673957e-005  -5.6783166688e-004   9.9302633020e-001  -9.3732824031e-003   9.9365371611e-001  -9.8645939316e-003  -2.1528274574e-004   1.4215193755e-004
  7.6600000000e+010  -8.8767459527e-005  -5.6585927268e-004   9.9302970280e-001  -9.3749083743e-003   9.9365784395e-001  -9.8666383458e-003  -2.1447981172e-004   1.4164016459e-004
  7.6625000000e+010  -9.0618869086e-005  -5.6387979913e-004   9.9303312718e-001  -9.3765579060e-003   9.9366203518e-001  -9.8687160290e-003  -2.1366605188e-004   1.4112125252e-004
  7.6650000000e+010  -9.2469762513e-005  -5.6189324169e-004   9.9303660331e-001  -9.3782309129e-003   9.9366628975e-001  -9.8708270421e-003  -2.1284154396e-004   1.4059524015e-004
  7.6675000000e+010  -9.4319999983e-005  -5.5989959623e-004   9.9304013114e-001  -9.3799273086e-003   9.9367060762e-001  -9.8729714473e-003  -2.1200636672e-004   1.4006216677e-004
  7.6700000000e+010  -9.6169441978e-005  -5.5789885908e-004   9.9304371062e-001  -9.3816470053e-003   9.9367498872e-001  -9.8751493074e-003  -2.1116059991e-004   1.3952207222e-004
  7.6725000000e+010  -9.8017949297e-005  -5.5589102697e-004   9.9304734172e-001  -9.3833899139e-003   9.9367943301e-001  -9.8773606862e-003  -2.1030432433e-004   1.3897499681e-004
  7.6750000000e+010  -9.9865383058e-005  -5.5387609710e-004   9.9305102439e-001  -9.3851559441e-003   9.9368394043e-001  -9.8796056485e-003  -2.0943762174e-004   1.3842098138e-004
  7.6775000000e+010  -1.0171160471e-004  -5.5185406708e-004   9.9305475858e-001  -9.3869450043e-003   9.9368851093e-001  -9.8818842599e-003  -2.0856057491e-004   1.3786006726e-004
  7.6800000000e+010  -1.0355647604e-004  -5.4982493499e-004   9.9305854425e-001  -9.3887570017e-003   9.9369314445e-001  -9.8841965869e-003  -2.0767326760e-004   1.3729229628e-004
  7.6825000000e+010  -1.0539985919e-004  -5.4778869937e-004   9.9306238135e-001  -9.3905918422e-003   9.9369784094e-001  -9.8865426968e-003  -2.0677578453e-004   1.3671771076e-004
  7.6850000000e+010  -1.0724161664e-004  -5.4574535919e-004   9.9306626984e-001  -9.3924494305e-003   9.9370260033e-001  -9.8889226580e-003  -2.0586821140e-004   1.3613635350e-004
  7.6875000000e+010  -1.0908161124e-004  -5.4369491392e-004   9.9307020966e-001  -9.3943296701e-003   9.9370742257e-001  -9.8913365395e-003  -2.0495063487e-004   1.3554826779e-004
  7.6900000000e+010  -1.1091970620e-004  -5.4163736348e-004   9.9307420077e-001  -9.3962324630e-003   9.9371230760e-001  -9.8937844115e-003  -2.0402314253e-004   1.3495349741e-004
  7.6925000000e+010  -1.1275576513e-004  -5.3957270826e-004   9.9307824312e-001  -9.3981577101e-003   9.9371725536e-001  -9.8962663449e-003  -2.0308582293e-004   1.3435208660e-004
  7.6950000000e+010  -1.1458965200e-004  -5.3750094914e-004   9.9308233665e-001  -9.4001053113e-003   9.9372226580e-001  -9.8987824114e-003  -2.0213876556e-004   1.3374408009e-004
  7.6975000000e+010  -1.1642123118e-004  -5.3542208748e-004   9.9308648133e-001  -9.4020751648e-003   9.9372733884e-001  -9.9013326838e-003  -2.0118206082e-004   1.3312952305e-004
  7.7000000000e+010  -1.1825036744e-004  -5.3333612512e-004   9.9309067709e-001  -9.4040671680e-003   9.9373247443e-001  -9.9039172357e-003  -2.0021580002e-004   1.3250846114e-004
  7.7025000000e+010  -1.2007692595e-004  -5.3124306442e-004   9.9309492389e-001  -9.4060812167e-003   9.9373767251e-001  -9.9065361414e-003  -1.9924007540e-004   1.3188094047e-004
  7.7050000000e+010  -1.2190077232e-004  -5.2914290822e-004   9.9309922167e-001  -9.4081172057e-003   9.9374293301e-001  -9.9091894763e-003  -1.9825498007e-004   1.3124700759e-004
  7.7075000000e+010  -1.2372177254e-004  -5.2703565986e-004   9.9310357038e-001  -9.4101750284e-003   9.9374825588e-001  -9.9118773165e-003  -1.9726060806e-004   1.3060670953e-004
  7.7100000000e+010  -1.2553979307e-004  -5.2492132320e-004   9.9310796997e-001  -9.4122545772e-003   9.9375364103e-001  -9.9145997392e-003  -1.9625705424e-004   1.2996009375e-004
  7.7125000000e+010  -1.2735470077e-004  -5.2279990261e-004   9.9311242038e-001  -9.4143557430e-003   9.9375908841e-001  -9.9173568221e-003  -1.9524441439e-004   1.2930720814e-004
  7.7150000000e+010  -1.2916636298e-004  -5.2067140297e-004   9.9311692157e-001  -9.4164784158e-003   9.9376459796e-001  -9.9201486442e-003  -1.9422278512e-004   1.2864810105e-004
  7.7175000000e+010  -1.3097464745e-004  -5.1853582970e-004   9.9312147346e-001  -9.4186224840e-003   9.9377016960e-001  -9.9229752850e-003  -1.9319226391e-004   1.2798282125e-004
  7.7200000000e+010  -1.3277942243e-004  -5.1639318872e-004   9.9312607602e-001  -9.4207878350e-003   9.9377580327e-001  -9.9258368250e-003  -1.9215294908e-004   1.2731141793e-004
  7.7225000000e+010  -1.3458055660e-004  -5.1424348652e-004   9.9313072917e-001  -9.4229743551e-003   9.9378149890e-001  -9.9287333456e-003  -1.9110493976e-004   1.2663394073e-004
  7.7250000000e+010  -1.3637791914e-004  -5.1208673009e-004   9.9313543287e-001  -9.4251819290e-003   9.9378725642e-001  -9.9316649289e-003  -1.9004833594e-004   1.2595043969e-004
  7.7275000000e+010  -1.3817137968e-004  -5.0992292697e-004   9.9314018706e-001  -9.4274104407e-003   9.9379307576e-001  -9.9346316582e-003  -1.8898323838e-004   1.2526096526e-004
  7.7300000000e+010  -1.3996080837e-004  -5.0775208526e-004   9.9314499167e-001  -9.4296597725e-003   9.9379895685e-001  -9.9376336171e-003  -1.8790974868e-004   1.2456556830e-004
  7.7325000000e+010  -1.4174607583e-004  -5.0557421360e-004   9.9314984665e-001  -9.4319298059e-003   9.9380489962e-001  -9.9406708906e-003  -1.8682796921e-004   1.2386430010e-004
  7.7350000000e+010  -1.4352705317e-004  -5.0338932117e-004   9.9315475194e-001  -9.4342204208e-003   9.9381090399e-001  -9.9437435642e-003  -1.8573800313e-004   1.2315721232e-004
  7.7375000000e+010  -1.4530361205e-004  -5.0119741773e-004   9.9315970748e-001  -9.4365314963e-003   9.9381696990e-001  -9.9468517243e-003  -1.8463995438e-004   1.2244435703e-004
  7.7400000000e+010  -1.4707562459e-004  -4.9899851359e-004   9.9316471321e-001  -9.4388629100e-003   9.9382309727e-001  -9.9499954582e-003  -1.8353392764e-004   1.2172578668e-004
  7.7425000000e+010  -1.4884296348e-004  -4.9679261962e-004   9.9316976907e-001  -9.4412145384e-003   9.9382928602e-001  -9.9531748541e-003  -1.8242002836e-004   1.2100155413e-004
  7.7450000000e+010  -1.5060550191e-004  -4.9457974727e-004   9.9317487499e-001  -9.4435862570e-003   9.9383553609e-001  -9.9563900008e-003  -1.8129836273e-004   1.2027171259e-004
  7.7475000000e+010  -1.5236311359e-004  -4.9235990857e-004   9.9318003092e-001  -9.4459779397e-003   9.9384184738e-001  -9.9596409882e-003  -1.8016903767e-004   1.1953631566e-004
  7.7500000000e+010  -1.5411567282e-004  -4.9013311611e-004   9.9318523678e-001  -9.4483894596e-003   9.9384821984e-001  -9.9629279069e-003  -1.7903216082e-004   1.1879541731e-004
  7.7525000000e+010  -1.5586305439e-004  -4.8789938307e-004   9.9319049252e-001  -9.4508206885e-003   9.9385465338e-001  -9.9662508484e-003  -1.7788784052e-004   1.1804907187e-004
  7.7550000000e+010  -1.5760513369e-004  -4.8565872322e-004   9.9319579807e-001  -9.4532714969e-003   9.9386114791e-001  -9.9696099048e-003  -1.7673618583e-004   1.1729733405e-004
  7.7575000000e+010  -1.5934178664e-004  -4.8341115092e-004   9.9320115337e-001  -9.4557417542e-003   9.9386770338e-001  -9.9730051693e-003  -1.7557730648e-004   1.1654025890e-004
  7.7600000000e+010  -1.6107288974e-004  -4.8115668111e-004   9.9320655834e-001  -9.4582313287e-003   9.9387431968e-001  -9.9764367357e-003  -1.7441131288e-004   1.1577790180e-004
  7.7625000000e+010  -1.6279832006e-004  -4.7889532934e-004   9.9321201293e-001  -9.4607400875e-003   9.9388099676e-001  -9.9799046989e-003  -1.7323831612e-004   1.1501031852e-004
  7.7650000000e+010  -1.6451795526e-004  -4.7662711175e-004   9.9321751707e-001  -9.4632678964e-003   9.9388773451e-001  -9.9834091543e-003  -1.7205842794e-004   1.1423756513e-004
  7.7675000000e+010  -1.6623167358e-004  -4.7435204510e-004   9.9322307069e-001  -9.4658146201e-003   9.9389453287e-001  -9.9869501982e-003  -1.7087176071e-004   1.1345969807e-004
  7.7700000000e+010  -1.6793935383e-004  -4.7207014675e-004   9.9322867372e-001  -9.4683801223e-003   9.9390139174e-001  -9.9905279279e-003  -1.6967842746e-004   1.1267677407e-004
