# Hz S RI R 50.000000
! Metas.Vna.Tools, 2.4.7724.19584
! Metas.Vna.Data, 2.4.7724.19560
! Created: UTC 2021.04.29 12:40:11
! FREQ                re:S1,1             im:S1,1             re:S2,1             im:S2,1             re:S1,2             im:S1,2             re:S2,2             im:S2,2          
  7.5000000000e+010  -5.0613646656e-004  -6.4838231417e-004   9.4687189220e-001   1.6782002691e-001   9.4780924167e-001   1.7119762849e-001   3.1745079957e-004   3.8796497129e-004
  7.5025000000e+010  -5.0613154617e-004  -6.4836084451e-004   9.4687202582e-001   1.6781987512e-001   9.4780938613e-001   1.7119742770e-001   3.1745005701e-004   3.8794915303e-004
  7.5050000000e+010  -5.0612170526e-004  -6.4831790609e-004   9.4687229306e-001   1.6781957153e-001   9.4780967506e-001   1.7119702612e-001   3.1744857136e-004   3.8791751745e-004
  7.5075000000e+010  -5.0610694356e-004  -6.4825350070e-004   9.4687269392e-001   1.6781911616e-001   9.4781010844e-001   1.7119642375e-001   3.1744634149e-004   3.8787006644e-004
  7.5100000000e+010  -5.0608726066e-004  -6.4816763102e-004   9.4687322839e-001   1.6781850899e-001   9.4781068628e-001   1.7119562059e-001   3.1744336576e-004   3.8780680280e-004
  7.5125000000e+010  -5.0606265604e-004  -6.4806030066e-004   9.4687389648e-001   1.6781775005e-001   9.4781140857e-001   1.7119461665e-001   3.1743964195e-004   3.8772773031e-004
  7.5150000000e+010  -5.0603312904e-004  -6.4793151409e-004   9.4687469817e-001   1.6781683933e-001   9.4781227532e-001   1.7119341193e-001   3.1743516732e-004   3.8763285366e-004
  7.5175000000e+010  -5.0599867884e-004  -6.4778127669e-004   9.4687563348e-001   1.6781577684e-001   9.4781328651e-001   1.7119200643e-001   3.1742993854e-004   3.8752217850e-004
  7.5200000000e+010  -5.0595930452e-004  -6.4760959475e-004   9.4687670239e-001   1.6781456260e-001   9.4781444216e-001   1.7119040016e-001   3.1742395176e-004   3.8739571141e-004
  7.5225000000e+010  -5.0591500502e-004  -6.4741647542e-004   9.4687790489e-001   1.6781319661e-001   9.4781574224e-001   1.7118859312e-001   3.1741720258e-004   3.8725345990e-004
  7.5250000000e+010  -5.0586577913e-004  -6.4720192679e-004   9.4687924099e-001   1.6781167889e-001   9.4781718675e-001   1.7118658531e-001   3.1740968603e-004   3.8709543243e-004
  7.5275000000e+010  -5.0581162553e-004  -6.4696595782e-004   9.4688071068e-001   1.6781000945e-001   9.4781877570e-001   1.7118437675e-001   3.1740139660e-004   3.8692163839e-004
  7.5300000000e+010  -5.0575254276e-004  -6.4670857836e-004   9.4688231394e-001   1.6780818830e-001   9.4782050906e-001   1.7118196744e-001   3.1739232824e-004   3.8673208812e-004
  7.5325000000e+010  -5.0568852921e-004  -6.4642979917e-004   9.4688405078e-001   1.6780621546e-001   9.4782238684e-001   1.7117935738e-001   3.1738247436e-004   3.8652679289e-004
  7.5350000000e+010  -5.0561958318e-004  -6.4612963190e-004   9.4688592119e-001   1.6780409095e-001   9.4782440903e-001   1.7117654658e-001   3.1737182779e-004   3.8630576489e-004
  7.5375000000e+010  -5.0554570280e-004  -6.4580808909e-004   9.4688792515e-001   1.6780181478e-001   9.4782657562e-001   1.7117353506e-001   3.1736038085e-004   3.8606901727e-004
  7.5400000000e+010  -5.0546688609e-004  -6.4546518418e-004   9.4689006266e-001   1.6779938698e-001   9.4782888660e-001   1.7117032282e-001   3.1734812531e-004   3.8581656409e-004
  7.5425000000e+010  -5.0538313092e-004  -6.4510093150e-004   9.4689233371e-001   1.6779680756e-001   9.4783134196e-001   1.7116690987e-001   3.1733505239e-004   3.8554842035e-004
  7.5450000000e+010  -5.0529443506e-004  -6.4471534626e-004   9.4689473828e-001   1.6779407656e-001   9.4783394169e-001   1.7116329622e-001   3.1732115276e-004   3.8526460201e-004
  7.5475000000e+010  -5.0520079612e-004  -6.4430844460e-004   9.4689727637e-001   1.6779119399e-001   9.4783668578e-001   1.7115948188e-001   3.1730641658e-004   3.8496512591e-004
  7.5500000000e+010  -5.0510221161e-004  -6.4388024350e-004   9.4689994797e-001   1.6778815988e-001   9.4783957422e-001   1.7115546687e-001   3.1729083343e-004   3.8465000986e-004
  7.5525000000e+010  -5.0499867888e-004  -6.4343076087e-004   9.4690275307e-001   1.6778497425e-001   9.4784260699e-001   1.7115125119e-001   3.1727439240e-004   3.8431927258e-004
  7.5550000000e+010  -5.0489019518e-004  -6.4296001550e-004   9.4690569164e-001   1.6778163714e-001   9.4784578410e-001   1.7114683486e-001   3.1725708200e-004   3.8397293372e-004
  7.5575000000e+010  -5.0477675762e-004  -6.4246802706e-004   9.4690876368e-001   1.6777814856e-001   9.4784910551e-001   1.7114221788e-001   3.1723889024e-004   3.8361101386e-004
  7.5600000000e+010  -5.0465836317e-004  -6.4195481611e-004   9.4691196918e-001   1.6777450857e-001   9.4785257122e-001   1.7113740029e-001   3.1721980459e-004   3.8323353450e-004
  7.5625000000e+010  -5.0453500870e-004  -6.4142040412e-004   9.4691530811e-001   1.6777071717e-001   9.4785618121e-001   1.7113238208e-001   3.1719981197e-004   3.8284051806e-004
  7.5650000000e+010  -5.0440669094e-004  -6.4086481343e-004   9.4691878047e-001   1.6776677442e-001   9.4785993548e-001   1.7112716327e-001   3.1717889880e-004   3.8243198788e-004
  7.5675000000e+010  -5.0427340649e-004  -6.4028806725e-004   9.4692238624e-001   1.6776268034e-001   9.4786383399e-001   1.7112174388e-001   3.1715705095e-004   3.8200796823e-004
  7.5700000000e+010  -5.0413515184e-004  -6.3969018971e-004   9.4692612541e-001   1.6775843497e-001   9.4786787675e-001   1.7111612393e-001   3.1713425379e-004   3.8156848429e-004
  7.5725000000e+010  -5.0399192333e-004  -6.3907120581e-004   9.4692999795e-001   1.6775403834e-001   9.4787206372e-001   1.7111030343e-001   3.1711049216e-004   3.8111356216e-004
  7.5750000000e+010  -5.0384371722e-004  -6.3843114143e-004   9.4693400384e-001   1.6774949050e-001   9.4787639490e-001   1.7110428239e-001   3.1708575036e-004   3.8064322885e-004
  7.5775000000e+010  -5.0369052960e-004  -6.3777002333e-004   9.4693814308e-001   1.6774479149e-001   9.4788087027e-001   1.7109806085e-001   3.1706001219e-004   3.8015751229e-004
  7.5800000000e+010  -5.0353235647e-004  -6.3708787917e-004   9.4694241564e-001   1.6773994134e-001   9.4788548981e-001   1.7109163881e-001   3.1703326095e-004   3.7965644131e-004
  7.5825000000e+010  -5.0336919370e-004  -6.3638473747e-004   9.4694682151e-001   1.6773494010e-001   9.4789025349e-001   1.7108501629e-001   3.1700547940e-004   3.7914004565e-004
  7.5850000000e+010  -5.0320103703e-004  -6.3566062765e-004   9.4695136066e-001   1.6772978781e-001   9.4789516130e-001   1.7107819332e-001   3.1697664980e-004   3.7860835597e-004
  7.5875000000e+010  -5.0302788210e-004  -6.3491558000e-004   9.4695603307e-001   1.6772448451e-001   9.4790021322e-001   1.7107116991e-001   3.1694675391e-004   3.7806140381e-004
  7.5900000000e+010  -5.0284972441e-004  -6.3414962568e-004   9.4696083872e-001   1.6771903027e-001   9.4790540923e-001   1.7106394608e-001   3.1691577298e-004   3.7749922165e-004
  7.5925000000e+010  -5.0266655937e-004  -6.3336279674e-004   9.4696577759e-001   1.6771342511e-001   9.4791074931e-001   1.7105652187e-001   3.1688368775e-004   3.7692184282e-004
  7.5950000000e+010  -5.0247838223e-004  -6.3255512609e-004   9.4697084966e-001   1.6770766910e-001   9.4791623343e-001   1.7104889728e-001   3.1685047848e-004   3.7632930160e-004
  7.5975000000e+010  -5.0228518818e-004  -6.3172664755e-004   9.4697605491e-001   1.6770176227e-001   9.4792186158e-001   1.7104107234e-001   3.1681612491e-004   3.7572163312e-004
  7.6000000000e+010  -5.0208697224e-004  -6.3087739577e-004   9.4698139331e-001   1.6769570469e-001   9.4792763373e-001   1.7103304708e-001   3.1678060631e-004   3.7509887343e-004
  7.6025000000e+010  -5.0188372936e-004  -6.3000740630e-004   9.4698686484e-001   1.6768949641e-001   9.4793354985e-001   1.7102482152e-001   3.1674390144e-004   3.7446105947e-004
  7.6050000000e+010  -5.0167545434e-004  -6.2911671555e-004   9.4699246947e-001   1.6768313747e-001   9.4793960993e-001   1.7101639568e-001   3.1670598859e-004   3.7380822905e-004
  7.6075000000e+010  -5.0146214191e-004  -6.2820536080e-004   9.4699820717e-001   1.6767662795e-001   9.4794581393e-001   1.7100776958e-001   3.1666684555e-004   3.7314042089e-004
  7.6100000000e+010  -5.0124378665e-004  -6.2727338021e-004   9.4700407793e-001   1.6766996789e-001   9.4795216183e-001   1.7099894326e-001   3.1662644964e-004   3.7245767457e-004
  7.6125000000e+010  -5.0102038304e-004  -6.2632081279e-004   9.4701008172e-001   1.6766315734e-001   9.4795865361e-001   1.7098991675e-001   3.1658477771e-004   3.7176003056e-004
  7.6150000000e+010  -5.0079192548e-004  -6.2534769843e-004   9.4701621851e-001   1.6765619638e-001   9.4796528924e-001   1.7098069005e-001   3.1654180611e-004   3.7104753021e-004
  7.6175000000e+010  -5.0055840821e-004  -6.2435407788e-004   9.4702248827e-001   1.6764908507e-001   9.4797206869e-001   1.7097126322e-001   3.1649751075e-004   3.7032021574e-004
  7.6200000000e+010  -5.0031982542e-004  -6.2333999275e-004   9.4702889097e-001   1.6764182346e-001   9.4797899193e-001   1.7096163626e-001   3.1645186706e-004   3.6957813024e-004
  7.6225000000e+010  -5.0007617114e-004  -6.2230548552e-004   9.4703542658e-001   1.6763441161e-001   9.4798605894e-001   1.7095180922e-001   3.1640484999e-004   3.6882131767e-004
  7.6250000000e+010  -4.9982743935e-004  -6.2125059951e-004   9.4704209508e-001   1.6762684960e-001   9.4799326969e-001   1.7094178211e-001   3.1635643406e-004   3.6804982286e-004
  7.6275000000e+010  -4.9957362387e-004  -6.2017537891e-004   9.4704889644e-001   1.6761913749e-001   9.4800062414e-001   1.7093155498e-001   3.1630659333e-004   3.6726369150e-004
  7.6300000000e+010  -4.9931471847e-004  -6.1907986879e-004   9.4705583062e-001   1.6761127535e-001   9.4800812228e-001   1.7092112785e-001   3.1625530138e-004   3.6646297013e-004
  7.6325000000e+010  -4.9905071679e-004  -6.1796411504e-004   9.4706289760e-001   1.6760326324e-001   9.4801576405e-001   1.7091050075e-001   3.1620253137e-004   3.6564770616e-004
  7.6350000000e+010  -4.9878161237e-004  -6.1682816441e-004   9.4707009733e-001   1.6759510124e-001   9.4802354945e-001   1.7089967371e-001   3.1614825601e-004   3.6481794785e-004
  7.6375000000e+010  -4.9850739867e-004  -6.1567206453e-004   9.4707742980e-001   1.6758678942e-001   9.4803147842e-001   1.7088864677e-001   3.1609244757e-004   3.6397374430e-004
  7.6400000000e+010  -4.9822806904e-004  -6.1449586384e-004   9.4708489496e-001   1.6757832784e-001   9.4803955095e-001   1.7087741995e-001   3.1603507788e-004   3.6311514546e-004
  7.6425000000e+010  -4.9794361673e-004  -6.1329961166e-004   9.4709249279e-001   1.6756971660e-001   9.4804776699e-001   1.7086599330e-001   3.1597611835e-004   3.6224220213e-004
  7.6450000000e+010  -4.9765403490e-004  -6.1208335814e-004   9.4710022324e-001   1.6756095575e-001   9.4805612652e-001   1.7085436685e-001   3.1591553993e-004   3.6135496594e-004
  7.6475000000e+010  -4.9735931663e-004  -6.1084715429e-004   9.4710808629e-001   1.6755204538e-001   9.4806462949e-001   1.7084254063e-001   3.1585331320e-004   3.6045348937e-004
  7.6500000000e+010  -4.9705945490e-004  -6.0959105195e-004   9.4711608189e-001   1.6754298556e-001   9.4807327588e-001   1.7083051467e-001   3.1578940827e-004   3.5953782571e-004
  7.6525000000e+010  -4.9675444258e-004  -6.0831510380e-004   9.4712421002e-001   1.6753377638e-001   9.4808206565e-001   1.7081828901e-001   3.1572379487e-004   3.5860802909e-004
  7.6550000000e+010  -4.9644427248e-004  -6.0701936337e-004   9.4713247064e-001   1.6752441791e-001   9.4809099876e-001   1.7080586370e-001   3.1565644231e-004   3.5766415447e-004
  7.6575000000e+010  -4.9612893732e-004  -6.0570388501e-004   9.4714086370e-001   1.6751491024e-001   9.4810007518e-001   1.7079323876e-001   3.1558731948e-004   3.5670625763e-004
  7.6600000000e+010  -4.9580842971e-004  -6.0436872394e-004   9.4714938918e-001   1.6750525345e-001   9.4810929487e-001   1.7078041423e-001   3.1551639490e-004   3.5573439516e-004
  7.6625000000e+010  -4.9548274219e-004  -6.0301393618e-004   9.4715804703e-001   1.6749544762e-001   9.4811865779e-001   1.7076739016e-001   3.1544363668e-004   3.5474862446e-004
  7.6650000000e+010  -4.9515186724e-004  -6.0163957860e-004   9.4716683721e-001   1.6748549284e-001   9.4812816390e-001   1.7075416657e-001   3.1536901252e-004   3.5374900374e-004
  7.6675000000e+010  -4.9481579722e-004  -6.0024570888e-004   9.4717575969e-001   1.6747538920e-001   9.4813781316e-001   1.7074074352e-001   3.1529248977e-004   3.5273559204e-004
  7.6700000000e+010  -4.9447452444e-004  -5.9883238556e-004   9.4718481442e-001   1.6746513678e-001   9.4814760554e-001   1.7072712104e-001   3.1521403537e-004   3.5170844917e-004
  7.6725000000e+010  -4.9412804111e-004  -5.9739966797e-004   9.4719400137e-001   1.6745473568e-001   9.4815754100e-001   1.7071329917e-001   3.1513361590e-004   3.5066763575e-004
  7.6750000000e+010  -4.9377633937e-004  -5.9594761630e-004   9.4720332049e-001   1.6744418599e-001   9.4816761948e-001   1.7069927795e-001   3.1505119755e-004   3.4961321319e-004
  7.6775000000e+010  -4.9341941130e-004  -5.9447629152e-004   9.4721277174e-001   1.6743348779e-001   9.4817784096e-001   1.7068505743e-001   3.1496674618e-004   3.4854524369e-004
  7.6800000000e+010  -4.9305724889e-004  -5.9298575546e-004   9.4722235508e-001   1.6742264119e-001   9.4818820539e-001   1.7067063764e-001   3.1488022725e-004   3.4746379024e-004
  7.6825000000e+010  -4.9268984406e-004  -5.9147607074e-004   9.4723207046e-001   1.6741164627e-001   9.4819871272e-001   1.7065601864e-001   3.1479160589e-004   3.4636891660e-004
  7.6850000000e+010  -4.9231718866e-004  -5.8994730080e-004   9.4724191784e-001   1.6740050313e-001   9.4820936292e-001   1.7064120045e-001   3.1470084688e-004   3.4526068732e-004
  7.6875000000e+010  -4.9193927449e-004  -5.8839950990e-004   9.4725189718e-001   1.6738921188e-001   9.4822015594e-001   1.7062618314e-001   3.1460791462e-004   3.4413916770e-004
  7.6900000000e+010  -4.9155609326e-004  -5.8683276311e-004   9.4726200844e-001   1.6737777260e-001   9.4823109173e-001   1.7061096674e-001   3.1451277322e-004   3.4300442383e-004
  7.6925000000e+010  -4.9116763662e-004  -5.8524712631e-004   9.4727225155e-001   1.6736618540e-001   9.4824217026e-001   1.7059555130e-001   3.1441538643e-004   3.4185652254e-004
  7.6950000000e+010  -4.9077389616e-004  -5.8364266616e-004   9.4728262649e-001   1.6735445038e-001   9.4825339147e-001   1.7057993687e-001   3.1431571767e-004   3.4069553145e-004
  7.6975000000e+010  -4.9037486341e-004  -5.8201945015e-004   9.4729313321e-001   1.6734256765e-001   9.4826475532e-001   1.7056412349e-001   3.1421373004e-004   3.3952151889e-004
  7.7000000000e+010  -4.8997052984e-004  -5.8037754657e-004   9.4730377165e-001   1.6733053730e-001   9.4827626176e-001   1.7054811121e-001   3.1410938633e-004   3.3833455397e-004
  7.7025000000e+010  -4.8956088687e-004  -5.7871702450e-004   9.4731454177e-001   1.6731835944e-001   9.4828791074e-001   1.7053190008e-001   3.1400264901e-004   3.3713470654e-004
  7.7050000000e+010  -4.8914592584e-004  -5.7703795382e-004   9.4732544352e-001   1.6730603417e-001   9.4829970223e-001   1.7051549014e-001   3.1389348025e-004   3.3592204718e-004
  7.7075000000e+010  -4.8872563806e-004  -5.7534040520e-004   9.4733647685e-001   1.6729356162e-001   9.4831163616e-001   1.7049888145e-001   3.1378184191e-004   3.3469664721e-004
  7.7100000000e+010  -4.8830001478e-004  -5.7362445009e-004   9.4734764171e-001   1.6728094187e-001   9.4832371250e-001   1.7048207406e-001   3.1366769557e-004   3.3345857867e-004
  7.7125000000e+010  -4.8786904719e-004  -5.7189016076e-004   9.4735893805e-001   1.6726817506e-001   9.4833593118e-001   1.7046506801e-001   3.1355100251e-004   3.3220791435e-004
  7.7150000000e+010  -4.8743272644e-004  -5.7013761024e-004   9.4737036582e-001   1.6725526127e-001   9.4834829216e-001   1.7044786336e-001   3.1343172373e-004   3.3094472772e-004
  7.7175000000e+010  -4.8699104365e-004  -5.6836687235e-004   9.4738192498e-001   1.6724220064e-001   9.4836079539e-001   1.7043046016e-001   3.1330981997e-004   3.2966909301e-004
  7.7200000000e+010  -4.8654398985e-004  -5.6657802169e-004   9.4739361546e-001   1.6722899326e-001   9.4837344082e-001   1.7041285846e-001   3.1318525167e-004   3.2838108511e-004
  7.7225000000e+010  -4.8609155608e-004  -5.6477113363e-004   9.4740543721e-001   1.6721563927e-001   9.4838622840e-001   1.7039505832e-001   3.1305797902e-004   3.2708077965e-004
  7.7250000000e+010  -4.8563373330e-004  -5.6294628433e-004   9.4741739019e-001   1.6720213877e-001   9.4839915807e-001   1.7037705978e-001   3.1292796196e-004   3.2576825296e-004
  7.7275000000e+010  -4.8517051245e-004  -5.6110355072e-004   9.4742947433e-001   1.6718849188e-001   9.4841222977e-001   1.7035886291e-001   3.1279516017e-004   3.2444358203e-004
  7.7300000000e+010  -4.8470188443e-004  -5.5924301049e-004   9.4744168958e-001   1.6717469872e-001   9.4842544347e-001   1.7034046776e-001   3.1265953309e-004   3.2310684458e-004
  7.7325000000e+010  -4.8422784009e-004  -5.5736474210e-004   9.4745403590e-001   1.6716075941e-001   9.4843879909e-001   1.7032187437e-001   3.1252103991e-004   3.2175811899e-004
  7.7350000000e+010  -4.8374837028e-004  -5.5546882479e-004   9.4746651321e-001   1.6714667407e-001   9.4845229660e-001   1.7030308282e-001   3.1237963960e-004   3.2039748431e-004
  7.7375000000e+010  -4.8326346579e-004  -5.5355533853e-004   9.4747912148e-001   1.6713244283e-001   9.4846593592e-001   1.7028409315e-001   3.1223529088e-004   3.1902502029e-004
  7.7400000000e+010  -4.8277311739e-004  -5.5162436408e-004   9.4749186063e-001   1.6711806580e-001   9.4847971701e-001   1.7026490543e-001   3.1208795229e-004   3.1764080733e-004
  7.7425000000e+010  -4.8227731582e-004  -5.4967598293e-004   9.4750473061e-001   1.6710354312e-001   9.4849363980e-001   1.7024551971e-001   3.1193758212e-004   3.1624492648e-004
  7.7450000000e+010  -4.8177605181e-004  -5.4771027734e-004   9.4751773137e-001   1.6708887492e-001   9.4850770425e-001   1.7022593604e-001   3.1178413847e-004   3.1483745947e-004
  7.7475000000e+010  -4.8126931604e-004  -5.4572733032e-004   9.4753086284e-001   1.6707406131e-001   9.4852191029e-001   1.7020615450e-001   3.1162757923e-004   3.1341848868e-004
  7.7500000000e+010  -4.8075709920e-004  -5.4372722561e-004   9.4754412497e-001   1.6705910242e-001   9.4853625787e-001   1.7018617513e-001   3.1146786210e-004   3.1198809710e-004
  7.7525000000e+010  -4.8023939193e-004  -5.4171004771e-004   9.4755751770e-001   1.6704399840e-001   9.4855074692e-001   1.7016599801e-001   3.1130494461e-004   3.1054636841e-004
  7.7550000000e+010  -4.7971618489e-004  -5.3967588186e-004   9.4757104096e-001   1.6702874936e-001   9.4856537738e-001   1.7014562318e-001   3.1113878408e-004   3.0909338688e-004
  7.7575000000e+010  -4.7918746870e-004  -5.3762481402e-004   9.4758469470e-001   1.6701335545e-001   9.4858014920e-001   1.7012505072e-001   3.1096933768e-004   3.0762923743e-004
  7.7600000000e+010  -4.7865323397e-004  -5.3555693090e-004   9.4759847885e-001   1.6699781679e-001   9.4859506232e-001   1.7010428067e-001   3.1079656239e-004   3.0615400560e-004
  7.7625000000e+010  -4.7811347131e-004  -5.3347231995e-004   9.4761239336e-001   1.6698213353e-001   9.4861011666e-001   1.7008331312e-001   3.1062041506e-004   3.0466777754e-004
  7.7650000000e+010  -4.7756817130e-004  -5.3137106932e-004   9.4762643815e-001   1.6696630579e-001   9.4862531218e-001   1.7006214812e-001   3.1044085236e-004   3.0317064002e-004
  7.7675000000e+010  -4.7701732456e-004  -5.2925326791e-004   9.4764061317e-001   1.6695033371e-001   9.4864064881e-001   1.7004078573e-001   3.1025783082e-004   3.0166268041e-004
  7.7700000000e+010  -4.7646092165e-004  -5.2711900534e-004   9.4765491835e-001   1.6693421744e-001   9.4865612648e-001   1.7001922602e-001   3.1007130684e-004   3.0014398667e-004
