# Hz S RI R 50.000000
! Metas.Vna.Tools, 2.4.7724.19584
! Metas.Vna.Data, 2.4.7724.19560
! Created: UTC 2021.04.29 12:40:11
! FREQ                re:S1,1             im:S1,1             re:S2,1             im:S2,1             re:S1,2             im:S1,2             re:S2,2             im:S2,2          
  7.5000000000e+010  -5.3209649539e-004  -1.2489832912e-003   9.3955546479e-001   1.5840100521e-001   9.4143544635e-001   1.5378848387e-001  -4.5862473182e-004   2.5395344549e-004
  7.5025000000e+010  -5.3209245749e-004  -1.2489489598e-003   9.3955566782e-001   1.5840080835e-001   9.4143565734e-001   1.5378830394e-001  -4.5860603882e-004   2.5394159205e-004
  7.5050000000e+010  -5.3208438144e-004  -1.2488802986e-003   9.3955607387e-001   1.5840041464e-001   9.4143607933e-001   1.5378794408e-001  -4.5856865429e-004   2.5391788600e-004
  7.5075000000e+010  -5.3207226672e-004  -1.2487773104e-003   9.3955668293e-001   1.5839982409e-001   9.4143671230e-001   1.5378740429e-001  -4.5851258116e-004   2.5388232901e-004
  7.5100000000e+010  -5.3205611252e-004  -1.2486399995e-003   9.3955749502e-001   1.5839903668e-001   9.4143755627e-001   1.5378668457e-001  -4.5843782384e-004   2.5383492360e-004
  7.5125000000e+010  -5.3203591782e-004  -1.2484683718e-003   9.3955851012e-001   1.5839805244e-001   9.4143861121e-001   1.5378578493e-001  -4.5834438818e-004   2.5377567311e-004
  7.5150000000e+010  -5.3201168130e-004  -1.2482624344e-003   9.3955972822e-001   1.5839687136e-001   9.4143987712e-001   1.5378470537e-001  -4.5823228152e-004   2.5370458173e-004
  7.5175000000e+010  -5.3198340139e-004  -1.2480221960e-003   9.3956114931e-001   1.5839549346e-001   9.4144135400e-001   1.5378344589e-001  -4.5810151265e-004   2.5362165446e-004
  7.5200000000e+010  -5.3195107626e-004  -1.2477476668e-003   9.3956277340e-001   1.5839391876e-001   9.4144304183e-001   1.5378200652e-001  -4.5795209184e-004   2.5352689717e-004
  7.5225000000e+010  -5.3191470382e-004  -1.2474388583e-003   9.3956460046e-001   1.5839214725e-001   9.4144494060e-001   1.5378038724e-001  -4.5778403080e-004   2.5342031653e-004
  7.5250000000e+010  -5.3187428173e-004  -1.2470957835e-003   9.3956663049e-001   1.5839017896e-001   9.4144705030e-001   1.5377858807e-001  -4.5759734273e-004   2.5330192008e-004
  7.5275000000e+010  -5.3182980736e-004  -1.2467184568e-003   9.3956886347e-001   1.5838801390e-001   9.4144937092e-001   1.5377660901e-001  -4.5739204227e-004   2.5317171616e-004
  7.5300000000e+010  -5.3178127785e-004  -1.2463068942e-003   9.3957129939e-001   1.5838565210e-001   9.4145190243e-001   1.5377445009e-001  -4.5716814553e-004   2.5302971397e-004
  7.5325000000e+010  -5.3172869006e-004  -1.2458611130e-003   9.3957393823e-001   1.5838309356e-001   9.4145464483e-001   1.5377211130e-001  -4.5692567007e-004   2.5287592351e-004
  7.5350000000e+010  -5.3167204062e-004  -1.2453811319e-003   9.3957677998e-001   1.5838033831e-001   9.4145759808e-001   1.5376959267e-001  -4.5666463491e-004   2.5271035565e-004
  7.5375000000e+010  -5.3161132587e-004  -1.2448669712e-003   9.3957982461e-001   1.5837738637e-001   9.4146076218e-001   1.5376689420e-001  -4.5638506054e-004   2.5253302205e-004
  7.5400000000e+010  -5.3154654190e-004  -1.2443186525e-003   9.3958307211e-001   1.5837423776e-001   9.4146413710e-001   1.5376401590e-001  -4.5608696887e-004   2.5234393524e-004
  7.5425000000e+010  -5.3147768455e-004  -1.2437361989e-003   9.3958652245e-001   1.5837089252e-001   9.4146772282e-001   1.5376095780e-001  -4.5577038329e-004   2.5214310855e-004
  7.5450000000e+010  -5.3140474941e-004  -1.2431196349e-003   9.3959017562e-001   1.5836735066e-001   9.4147151931e-001   1.5375771990e-001  -4.5543532864e-004   2.5193055615e-004
  7.5475000000e+010  -5.3132773180e-004  -1.2424689866e-003   9.3959403159e-001   1.5836361222e-001   9.4147552654e-001   1.5375430222e-001  -4.5508183119e-004   2.5170629301e-004
  7.5500000000e+010  -5.3124662678e-004  -1.2417842812e-003   9.3959809033e-001   1.5835967723e-001   9.4147974450e-001   1.5375070479e-001  -4.5470991867e-004   2.5147033497e-004
  7.5525000000e+010  -5.3116142917e-004  -1.2410655477e-003   9.3960235182e-001   1.5835554571e-001   9.4148417314e-001   1.5374692761e-001  -4.5431962024e-004   2.5122269866e-004
  7.5550000000e+010  -5.3107213354e-004  -1.2403128163e-003   9.3960681603e-001   1.5835121771e-001   9.4148881245e-001   1.5374297071e-001  -4.5391096650e-004   2.5096340154e-004
  7.5575000000e+010  -5.3097873419e-004  -1.2395261187e-003   9.3961148293e-001   1.5834669325e-001   9.4149366238e-001   1.5373883411e-001  -4.5348398951e-004   2.5069246189e-004
  7.5600000000e+010  -5.3088122517e-004  -1.2387054881e-003   9.3961635250e-001   1.5834197237e-001   9.4149872290e-001   1.5373451782e-001  -4.5303872273e-004   2.5040989881e-004
  7.5625000000e+010  -5.3077960029e-004  -1.2378509589e-003   9.3962142469e-001   1.5833705511e-001   9.4150399399e-001   1.5373002187e-001  -4.5257520109e-004   2.5011573222e-004
  7.5650000000e+010  -5.3067385311e-004  -1.2369625672e-003   9.3962669949e-001   1.5833194151e-001   9.4150947560e-001   1.5372534629e-001  -4.5209346091e-004   2.4980998285e-004
  7.5675000000e+010  -5.3056397691e-004  -1.2360403505e-003   9.3963217684e-001   1.5832663162e-001   9.4151516769e-001   1.5372049109e-001  -4.5159353996e-004   2.4949267225e-004
  7.5700000000e+010  -5.3044996477e-004  -1.2350843475e-003   9.3963785672e-001   1.5832112546e-001   9.4152107023e-001   1.5371545630e-001  -4.5107547744e-004   2.4916382277e-004
  7.5725000000e+010  -5.3033180948e-004  -1.2340945985e-003   9.3964373910e-001   1.5831542310e-001   9.4152718318e-001   1.5371024194e-001  -4.5053931393e-004   2.4882345759e-004
  7.5750000000e+010  -5.3020950361e-004  -1.2330711452e-003   9.3964982392e-001   1.5830952457e-001   9.4153350649e-001   1.5370484805e-001  -4.4998509148e-004   2.4847160068e-004
  7.5775000000e+010  -5.3008303946e-004  -1.2320140307e-003   9.3965611116e-001   1.5830342992e-001   9.4154004012e-001   1.5369927465e-001  -4.4941285350e-004   2.4810827682e-004
  7.5800000000e+010  -5.2995240912e-004  -1.2309232995e-003   9.3966260077e-001   1.5829713920e-001   9.4154678403e-001   1.5369352176e-001  -4.4882264483e-004   2.4773351161e-004
  7.5825000000e+010  -5.2981760440e-004  -1.2297989976e-003   9.3966929272e-001   1.5829065246e-001   9.4155373817e-001   1.5368758941e-001  -4.4821451173e-004   2.4734733142e-004
  7.5850000000e+010  -5.2967861688e-004  -1.2286411724e-003   9.3967618695e-001   1.5828396975e-001   9.4156090249e-001   1.5368147765e-001  -4.4758850183e-004   2.4694976346e-004
  7.5875000000e+010  -5.2953543793e-004  -1.2274498725e-003   9.3968328342e-001   1.5827709114e-001   9.4156827694e-001   1.5367518649e-001  -4.4694466418e-004   2.4654083570e-004
  7.5900000000e+010  -5.2938805862e-004  -1.2262251481e-003   9.3969058209e-001   1.5827001666e-001   9.4157586148e-001   1.5366871596e-001  -4.4628304921e-004   2.4612057693e-004
  7.5925000000e+010  -5.2923646984e-004  -1.2249670509e-003   9.3969808290e-001   1.5826274638e-001   9.4158365605e-001   1.5366206611e-001  -4.4560370873e-004   2.4568901673e-004
  7.5950000000e+010  -5.2908066220e-004  -1.2236756339e-003   9.3970578582e-001   1.5825528036e-001   9.4159166059e-001   1.5365523696e-001  -4.4490669595e-004   2.4524618545e-004
  7.5975000000e+010  -5.2892062610e-004  -1.2223509514e-003   9.3971369079e-001   1.5824761866e-001   9.4159987505e-001   1.5364822854e-001  -4.4419206544e-004   2.4479211424e-004
  7.6000000000e+010  -5.2875635170e-004  -1.2209930592e-003   9.3972179776e-001   1.5823976134e-001   9.4160829938e-001   1.5364104090e-001  -4.4345987317e-004   2.4432683506e-004
  7.6025000000e+010  -5.2858782891e-004  -1.2196020146e-003   9.3973010668e-001   1.5823170846e-001   9.4161693352e-001   1.5363367407e-001  -4.4271017644e-004   2.4385038060e-004
  7.6050000000e+010  -5.2841504744e-004  -1.2181778761e-003   9.3973861749e-001   1.5822346009e-001   9.4162577741e-001   1.5362612809e-001  -4.4194303396e-004   2.4336278439e-004
  7.6075000000e+010  -5.2823799674e-004  -1.2167207037e-003   9.3974733014e-001   1.5821501630e-001   9.4163483098e-001   1.5361840299e-001  -4.4115850575e-004   2.4286408068e-004
  7.6100000000e+010  -5.2805666604e-004  -1.2152305589e-003   9.3975624457e-001   1.5820637714e-001   9.4164409418e-001   1.5361049881e-001  -4.4035665321e-004   2.4235430453e-004
  7.6125000000e+010  -5.2787104436e-004  -1.2137075042e-003   9.3976536072e-001   1.5819754270e-001   9.4165356694e-001   1.5360241560e-001  -4.3953753909e-004   2.4183349175e-004
  7.6150000000e+010  -5.2768112048e-004  -1.2121516041e-003   9.3977467854e-001   1.5818851303e-001   9.4166324920e-001   1.5359415339e-001  -4.3870122748e-004   2.4130167895e-004
  7.6175000000e+010  -5.2748688294e-004  -1.2105629239e-003   9.3978419797e-001   1.5817928823e-001   9.4167314089e-001   1.5358571222e-001  -4.3784778380e-004   2.4075890347e-004
  7.6200000000e+010  -5.2728832009e-004  -1.2089415306e-003   9.3979391893e-001   1.5816986835e-001   9.4168324194e-001   1.5357709214e-001  -4.3697727480e-004   2.4020520342e-004
  7.6225000000e+010  -5.2708542004e-004  -1.2072874925e-003   9.3980384138e-001   1.5816025348e-001   9.4169355229e-001   1.5356829319e-001  -4.3608976857e-004   2.3964061769e-004
  7.6250000000e+010  -5.2687817068e-004  -1.2056008793e-003   9.3981396525e-001   1.5815044369e-001   9.4170407186e-001   1.5355931542e-001  -4.3518533449e-004   2.3906518589e-004
  7.6275000000e+010  -5.2666655970e-004  -1.2038817620e-003   9.3982429046e-001   1.5814043906e-001   9.4171480058e-001   1.5355015886e-001  -4.3426404329e-004   2.3847894841e-004
  7.6300000000e+010  -5.2645057455e-004  -1.2021302131e-003   9.3983481696e-001   1.5813023967e-001   9.4172573838e-001   1.5354082358e-001  -4.3332596698e-004   2.3788194638e-004
  7.6325000000e+010  -5.2623020249e-004  -1.2003463064e-003   9.3984554468e-001   1.5811984560e-001   9.4173688518e-001   1.5353130960e-001  -4.3237117889e-004   2.3727422167e-004
  7.6350000000e+010  -5.2600543056e-004  -1.1985301170e-003   9.3985647354e-001   1.5810925694e-001   9.4174824090e-001   1.5352161699e-001  -4.3139975363e-004   2.3665581690e-004
  7.6375000000e+010  -5.2577624558e-004  -1.1966817214e-003   9.3986760347e-001   1.5809847378e-001   9.4175980547e-001   1.5351174578e-001  -4.3041176710e-004   2.3602677542e-004
  7.6400000000e+010  -5.2554263417e-004  -1.1948011976e-003   9.3987893441e-001   1.5808749619e-001   9.4177157882e-001   1.5350169604e-001  -4.2940729648e-004   2.3538714132e-004
  7.6425000000e+010  -5.2530458275e-004  -1.1928886247e-003   9.3989046628e-001   1.5807632427e-001   9.4178356085e-001   1.5349146780e-001  -4.2838642024e-004   2.3473695942e-004
  7.6450000000e+010  -5.2506207753e-004  -1.1909440833e-003   9.3990219901e-001   1.5806495810e-001   9.4179575149e-001   1.5348106113e-001  -4.2734921811e-004   2.3407627526e-004
  7.6475000000e+010  -5.2481510452e-004  -1.1889676554e-003   9.3991413251e-001   1.5805339778e-001   9.4180815064e-001   1.5347047606e-001  -4.2629577107e-004   2.3340513512e-004
  7.6500000000e+010  -5.2456364953e-004  -1.1869594242e-003   9.3992626672e-001   1.5804164341e-001   9.4182075824e-001   1.5345971267e-001  -4.2522616136e-004   2.3272358597e-004
  7.6525000000e+010  -5.2430769817e-004  -1.1849194744e-003   9.3993860155e-001   1.5802969507e-001   9.4183357419e-001   1.5344877099e-001  -4.2414047247e-004   2.3203167553e-004
  7.6550000000e+010  -5.2404723585e-004  -1.1828478919e-003   9.3995113693e-001   1.5801755286e-001   9.4184659840e-001   1.5343765109e-001  -4.2303878914e-004   2.3132945221e-004
  7.6575000000e+010  -5.2378224780e-004  -1.1807447640e-003   9.3996387277e-001   1.5800521687e-001   9.4185983079e-001   1.5342635303e-001  -4.2192119732e-004   2.3061696512e-004
  7.6600000000e+010  -5.2351271905e-004  -1.1786101793e-003   9.3997680899e-001   1.5799268722e-001   9.4187327125e-001   1.5341487685e-001  -4.2078778421e-004   2.2989426410e-004
  7.6625000000e+010  -5.2323863444e-004  -1.1764442278e-003   9.3998994551e-001   1.5797996399e-001   9.4188691971e-001   1.5340322261e-001  -4.1963863819e-004   2.2916139966e-004
  7.6650000000e+010  -5.2295997863e-004  -1.1742470008e-003   9.4000328224e-001   1.5796704730e-001   9.4190077607e-001   1.5339139039e-001  -4.1847384888e-004   2.2841842303e-004
  7.6675000000e+010  -5.2267673609e-004  -1.1720185908e-003   9.4001681909e-001   1.5795393724e-001   9.4191484023e-001   1.5337938022e-001  -4.1729350711e-004   2.2766538610e-004
  7.6700000000e+010  -5.2238889111e-004  -1.1697590918e-003   9.4003055599e-001   1.5794063392e-001   9.4192911210e-001   1.5336719218e-001  -4.1609770487e-004   2.2690234148e-004
  7.6725000000e+010  -5.2209642779e-004  -1.1674685990e-003   9.4004449283e-001   1.5792713744e-001   9.4194359158e-001   1.5335482632e-001  -4.1488653536e-004   2.2612934244e-004
  7.6750000000e+010  -5.2179933007e-004  -1.1651472089e-003   9.4005862954e-001   1.5791344792e-001   9.4195827856e-001   1.5334228272e-001  -4.1366009295e-004   2.2534644293e-004
  7.6775000000e+010  -5.2149758170e-004  -1.1627950193e-003   9.4007296601e-001   1.5789956546e-001   9.4197317296e-001   1.5332956142e-001  -4.1241847318e-004   2.2455369757e-004
  7.6800000000e+010  -5.2119116626e-004  -1.1604121294e-003   9.4008750216e-001   1.5788549018e-001   9.4198827466e-001   1.5331666250e-001  -4.1116177276e-004   2.2375116167e-004
  7.6825000000e+010  -5.2088006717e-004  -1.1579986396e-003   9.4010223789e-001   1.5787122219e-001   9.4200358357e-001   1.5330358602e-001  -4.0989008953e-004   2.2293889116e-004
  7.6850000000e+010  -5.2056426767e-004  -1.1555546517e-003   9.4011717310e-001   1.5785676160e-001   9.4201909957e-001   1.5329033204e-001  -4.0860352250e-004   2.2211694268e-004
  7.6875000000e+010  -5.2024375084e-004  -1.1530802686e-003   9.4013230771e-001   1.5784210853e-001   9.4203482257e-001   1.5327690064e-001  -4.0730217180e-004   2.2128537348e-004
  7.6900000000e+010  -5.1991849960e-004  -1.1505755947e-003   9.4014764160e-001   1.5782726309e-001   9.4205075245e-001   1.5326329187e-001  -4.0598613869e-004   2.2044424148e-004
  7.6925000000e+010  -5.1958849671e-004  -1.1480407355e-003   9.4016317470e-001   1.5781222541e-001   9.4206688911e-001   1.5324950581e-001  -4.0465552555e-004   2.1959360525e-004
  7.6950000000e+010  -5.1925372475e-004  -1.1454757978e-003   9.4017890688e-001   1.5779699561e-001   9.4208323244e-001   1.5323554253e-001  -4.0331043587e-004   2.1873352397e-004
  7.6975000000e+010  -5.1891416617e-004  -1.1428808899e-003   9.4019483805e-001   1.5778157381e-001   9.4209978232e-001   1.5322140210e-001  -4.0195097424e-004   2.1786405750e-004
  7.7000000000e+010  -5.1856980327e-004  -1.1402561210e-003   9.4021096812e-001   1.5776596012e-001   9.4211653864e-001   1.5320708458e-001  -4.0057724634e-004   2.1698526629e-004
  7.7025000000e+010  -5.1822061818e-004  -1.1376016018e-003   9.4022729696e-001   1.5775015469e-001   9.4213350129e-001   1.5319259006e-001  -3.9918935893e-004   2.1609721143e-004
  7.7050000000e+010  -5.1786659290e-004  -1.1349174443e-003   9.4024382449e-001   1.5773415762e-001   9.4215067014e-001   1.5317791860e-001  -3.9778741985e-004   2.1519995463e-004
  7.7075000000e+010  -5.1750770928e-004  -1.1322037615e-003   9.4026055059e-001   1.5771796906e-001   9.4216804509e-001   1.5316307028e-001  -3.9637153798e-004   2.1429355820e-004
  7.7100000000e+010  -5.1714394902e-004  -1.1294606679e-003   9.4027747515e-001   1.5770158914e-001   9.4218562601e-001   1.5314804516e-001  -3.9494182330e-004   2.1337808508e-004
  7.7125000000e+010  -5.1677529369e-004  -1.1266882792e-003   9.4029459806e-001   1.5768501797e-001   9.4220341279e-001   1.5313284334e-001  -3.9349838678e-004   2.1245359879e-004
  7.7150000000e+010  -5.1640172472e-004  -1.1238867122e-003   9.4031191922e-001   1.5766825570e-001   9.4222140530e-001   1.5311746488e-001  -3.9204134046e-004   2.1152016348e-004
  7.7175000000e+010  -5.1602322341e-004  -1.1210560850e-003   9.4032943852e-001   1.5765130246e-001   9.4223960342e-001   1.5310190985e-001  -3.9057079739e-004   2.1057784386e-004
  7.7200000000e+010  -5.1563977093e-004  -1.1181965170e-003   9.4034715583e-001   1.5763415838e-001   9.4225800702e-001   1.5308617835e-001  -3.8908687166e-004   2.0962670523e-004
  7.7225000000e+010  -5.1525134832e-004  -1.1153081288e-003   9.4036507104e-001   1.5761682361e-001   9.4227661598e-001   1.5307027045e-001  -3.8758967832e-004   2.0866681351e-004
  7.7250000000e+010  -5.1485793650e-004  -1.1123910421e-003   9.4038318405e-001   1.5759929828e-001   9.4229543018e-001   1.5305418622e-001  -3.8607933345e-004   2.0769823514e-004
  7.7275000000e+010  -5.1445951625e-004  -1.1094453799e-003   9.4040149472e-001   1.5758158253e-001   9.4231444947e-001   1.5303792576e-001  -3.8455595411e-004   2.0672103717e-004
  7.7300000000e+010  -5.1405606826e-004  -1.1064712666e-003   9.4042000296e-001   1.5756367650e-001   9.4233367374e-001   1.5302148913e-001  -3.8301965832e-004   2.0573528721e-004
  7.7325000000e+010  -5.1364757308e-004  -1.1034688274e-003   9.4043870862e-001   1.5754558034e-001   9.4235310285e-001   1.5300487643e-001  -3.8147056508e-004   2.0474105341e-004
  7.7350000000e+010  -5.1323401115e-004  -1.1004381890e-003   9.4045761160e-001   1.5752729419e-001   9.4237273667e-001   1.5298808773e-001  -3.7990879434e-004   2.0373840449e-004
  7.7375000000e+010  -5.1281536282e-004  -1.0973794791e-003   9.4047671177e-001   1.5750881820e-001   9.4239257507e-001   1.5297112312e-001  -3.7833446700e-004   2.0272740972e-004
  7.7400000000e+010  -5.1239160832e-004  -1.0942928269e-003   9.4049600901e-001   1.5749015252e-001   9.4241261790e-001   1.5295398270e-001  -3.7674770486e-004   2.0170813890e-004
  7.7425000000e+010  -5.1196272776e-004  -1.0911783624e-003   9.4051550320e-001   1.5747129729e-001   9.4243286504e-001   1.5293666653e-001  -3.7514863069e-004   2.0068066238e-004
  7.7450000000e+010  -5.1152870117e-004  -1.0880362171e-003   9.4053519420e-001   1.5745225267e-001   9.4245331634e-001   1.5291917471e-001  -3.7353736815e-004   1.9964505102e-004
  7.7475000000e+010  -5.1108950849e-004  -1.0848665234e-003   9.4055508190e-001   1.5743301880e-001   9.4247397167e-001   1.5290150733e-001  -3.7191404178e-004   1.9860137622e-004
  7.7500000000e+010  -5.1064512953e-004  -1.0816694150e-003   9.4057516616e-001   1.5741359585e-001   9.4249483088e-001   1.5288366448e-001  -3.7027877706e-004   1.9754970990e-004
  7.7525000000e+010  -5.1019554405e-004  -1.0784450268e-003   9.4059544685e-001   1.5739398396e-001   9.4251589383e-001   1.5286564624e-001  -3.6863170029e-004   1.9649012449e-004
  7.7550000000e+010  -5.0974073169e-004  -1.0751934948e-003   9.4061592385e-001   1.5737418330e-001   9.4253716038e-001   1.5284745271e-001  -3.6697293870e-004   1.9542269291e-004
  7.7575000000e+010  -5.0928067202e-004  -1.0719149562e-003   9.4063659702e-001   1.5735419402e-001   9.4255863038e-001   1.5282908398e-001  -3.6530262032e-004   1.9434748861e-004
  7.7600000000e+010  -5.0881534454e-004  -1.0686095491e-003   9.4065746622e-001   1.5733401628e-001   9.4258030369e-001   1.5281054014e-001  -3.6362087407e-004   1.9326458551e-004
  7.7625000000e+010  -5.0834472863e-004  -1.0652774132e-003   9.4067853133e-001   1.5731365024e-001   9.4260218015e-001   1.5279182128e-001  -3.6192782969e-004   1.9217405801e-004
  7.7650000000e+010  -5.0786880365e-004  -1.0619186889e-003   9.4069979221e-001   1.5729309607e-001   9.4262425963e-001   1.5277292750e-001  -3.6022361772e-004   1.9107598103e-004
  7.7675000000e+010  -5.0738754884e-004  -1.0585335180e-003   9.4072124872e-001   1.5727235393e-001   9.4264654196e-001   1.5275385889e-001  -3.5850836955e-004   1.8997042993e-004
  7.7700000000e+010  -5.0690094340e-004  -1.0551220432e-003   9.4074290072e-001   1.5725142399e-001   9.4266902700e-001   1.5273461555e-001  -3.5678221735e-004   1.8885748055e-004
