# Hz S RI R 50.000000
! Metas.Vna.Tools, 2.4.7724.19584
! Metas.Vna.Data, 2.4.7724.19560
! Created: UTC 2021.04.29 12:40:11
! FREQ                re:S1,1             im:S1,1             re:S2,1             im:S2,1             re:S1,2             im:S1,2             re:S2,2             im:S2,2          
  7.5000000000e+010  -3.7190711203e-004  -1.2901831373e-003   8.3355448169e-001   2.9489898441e-001   8.3439591470e-001   2.9545569907e-001  -5.9179902853e-004   3.9914839123e-004
  7.5025000000e+010  -3.7190669940e-004  -1.2901482243e-003   8.3355481755e-001   2.9489864210e-001   8.3439624959e-001   2.9545540383e-001  -5.9177748939e-004   3.9913302883e-004
  7.5050000000e+010  -3.7190587376e-004  -1.2900783999e-003   8.3355548925e-001   2.9489795749e-001   8.3439691935e-001   2.9545481333e-001  -5.9173441268e-004   3.9910230500e-004
  7.5075000000e+010  -3.7190463435e-004  -1.2899736668e-003   8.3355649679e-001   2.9489693058e-001   8.3439792400e-001   2.9545392760e-001  -5.9166980151e-004   3.9905622166e-004
  7.5100000000e+010  -3.7190298003e-004  -1.2898340294e-003   8.3355784018e-001   2.9489556138e-001   8.3439926352e-001   2.9545274662e-001  -5.9158366058e-004   3.9899478169e-004
  7.5125000000e+010  -3.7190090930e-004  -1.2896594935e-003   8.3355951940e-001   2.9489384990e-001   8.3440093791e-001   2.9545127041e-001  -5.9147599612e-004   3.9891798897e-004
  7.5150000000e+010  -3.7189842025e-004  -1.2894500664e-003   8.3356153444e-001   2.9489179615e-001   8.3440294716e-001   2.9544949898e-001  -5.9134681594e-004   3.9882584829e-004
  7.5175000000e+010  -3.7189551061e-004  -1.2892057566e-003   8.3356388529e-001   2.9488940015e-001   8.3440529125e-001   2.9544743233e-001  -5.9119612941e-004   3.9871836543e-004
  7.5200000000e+010  -3.7189217773e-004  -1.2889265743e-003   8.3356657193e-001   2.9488666192e-001   8.3440797017e-001   2.9544507047e-001  -5.9102394743e-004   3.9859554715e-004
  7.5225000000e+010  -3.7188841858e-004  -1.2886125311e-003   8.3356959436e-001   2.9488358147e-001   8.3441098390e-001   2.9544241342e-001  -5.9083028250e-004   3.9845740113e-004
  7.5250000000e+010  -3.7188422975e-004  -1.2882636399e-003   8.3357295254e-001   2.9488015883e-001   8.3441433244e-001   2.9543946118e-001  -5.9061514865e-004   3.9830393603e-004
  7.5275000000e+010  -3.7187960746e-004  -1.2878799152e-003   8.3357664646e-001   2.9487639403e-001   8.3441801575e-001   2.9543621377e-001  -5.9037856147e-004   3.9813516149e-004
  7.5300000000e+010  -3.7187454755e-004  -1.2874613729e-003   8.3358067610e-001   2.9487228709e-001   8.3442203383e-001   2.9543267122e-001  -5.9012053810e-004   3.9795108808e-004
  7.5325000000e+010  -3.7186904548e-004  -1.2870080302e-003   8.3358504144e-001   2.9486783805e-001   8.3442638663e-001   2.9542883352e-001  -5.8984109725e-004   3.9775172734e-004
  7.5350000000e+010  -3.7186309633e-004  -1.2865199061e-003   8.3358974244e-001   2.9486304693e-001   8.3443107415e-001   2.9542470071e-001  -5.8954025916e-004   3.9753709176e-004
  7.5375000000e+010  -3.7185669482e-004  -1.2859970205e-003   8.3359477908e-001   2.9485791378e-001   8.3443609635e-001   2.9542027280e-001  -5.8921804564e-004   3.9730719481e-004
  7.5400000000e+010  -3.7184983528e-004  -1.2854393952e-003   8.3360015133e-001   2.9485243864e-001   8.3444145321e-001   2.9541554981e-001  -5.8887448003e-004   3.9706205089e-004
  7.5425000000e+010  -3.7184251168e-004  -1.2848470534e-003   8.3360585915e-001   2.9484662154e-001   8.3444714469e-001   2.9541053178e-001  -5.8850958722e-004   3.9680167536e-004
  7.5450000000e+010  -3.7183471759e-004  -1.2842200194e-003   8.3361190252e-001   2.9484046254e-001   8.3445317076e-001   2.9540521871e-001  -5.8812339365e-004   3.9652608455e-004
  7.5475000000e+010  -3.7182644623e-004  -1.2835583192e-003   8.3361828139e-001   2.9483396166e-001   8.3445953139e-001   2.9539961064e-001  -5.8771592729e-004   3.9623529572e-004
  7.5500000000e+010  -3.7181769045e-004  -1.2828619803e-003   8.3362499573e-001   2.9482711898e-001   8.3446622653e-001   2.9539370759e-001  -5.8728721767e-004   3.9592932709e-004
  7.5525000000e+010  -3.7180844272e-004  -1.2821310314e-003   8.3363204549e-001   2.9481993453e-001   8.3447325616e-001   2.9538750960e-001  -5.8683729584e-004   3.9560819784e-004
  7.5550000000e+010  -3.7179869512e-004  -1.2813655028e-003   8.3363943064e-001   2.9481240837e-001   8.3448062023e-001   2.9538101669e-001  -5.8636619438e-004   3.9527192808e-004
  7.5575000000e+010  -3.7178843940e-004  -1.2805654261e-003   8.3364715112e-001   2.9480454056e-001   8.3448831869e-001   2.9537422890e-001  -5.8587394742e-004   3.9492053888e-004
  7.5600000000e+010  -3.7177766690e-004  -1.2797308346e-003   8.3365520690e-001   2.9479633116e-001   8.3449635151e-001   2.9536714625e-001  -5.8536059059e-004   3.9455405225e-004
  7.5625000000e+010  -3.7176636863e-004  -1.2788617627e-003   8.3366359792e-001   2.9478778024e-001   8.3450471864e-001   2.9535976878e-001  -5.8482616108e-004   3.9417249114e-004
  7.5650000000e+010  -3.7175453520e-004  -1.2779582465e-003   8.3367232413e-001   2.9477888784e-001   8.3451342003e-001   2.9535209653e-001  -5.8427069759e-004   3.9377587946e-004
  7.5675000000e+010  -3.7174215686e-004  -1.2770203232e-003   8.3368138548e-001   2.9476965405e-001   8.3452245563e-001   2.9534412953e-001  -5.8369424032e-004   3.9336424202e-004
  7.5700000000e+010  -3.7172922352e-004  -1.2760480318e-003   8.3369078191e-001   2.9476007893e-001   8.3453182538e-001   2.9533586783e-001  -5.8309683100e-004   3.9293760462e-004
  7.5725000000e+010  -3.7171572469e-004  -1.2750414125e-003   8.3370051338e-001   2.9475016256e-001   8.3454152924e-001   2.9532731146e-001  -5.8247851289e-004   3.9249599395e-004
  7.5750000000e+010  -3.7170164954e-004  -1.2740005069e-003   8.3371057981e-001   2.9473990500e-001   8.3455156715e-001   2.9531846046e-001  -5.8183933073e-004   3.9203943766e-004
  7.5775000000e+010  -3.7168698687e-004  -1.2729253582e-003   8.3372098115e-001   2.9472930634e-001   8.3456193905e-001   2.9530931488e-001  -5.8117933079e-004   3.9156796433e-004
  7.5800000000e+010  -3.7167172511e-004  -1.2718160108e-003   8.3373171734e-001   2.9471836667e-001   8.3457264488e-001   2.9529987476e-001  -5.8049856081e-004   3.9108160346e-004
  7.5825000000e+010  -3.7165585235e-004  -1.2706725107e-003   8.3374278831e-001   2.9470708605e-001   8.3458368458e-001   2.9529014015e-001  -5.7979707006e-004   3.9058038548e-004
  7.5850000000e+010  -3.7163935630e-004  -1.2694949052e-003   8.3375419399e-001   2.9469546457e-001   8.3459505809e-001   2.9528011109e-001  -5.7907490929e-004   3.9006434175e-004
  7.5875000000e+010  -3.7162222433e-004  -1.2682832430e-003   8.3376593432e-001   2.9468350233e-001   8.3460676533e-001   2.9526978763e-001  -5.7833213074e-004   3.8953350456e-004
  7.5900000000e+010  -3.7160444344e-004  -1.2670375744e-003   8.3377800922e-001   2.9467119942e-001   8.3461880625e-001   2.9525916983e-001  -5.7756878812e-004   3.8898790710e-004
  7.5925000000e+010  -3.7158600028e-004  -1.2657579508e-003   8.3379041862e-001   2.9465855592e-001   8.3463118078e-001   2.9524825773e-001  -5.7678493665e-004   3.8842758349e-004
  7.5950000000e+010  -3.7156688115e-004  -1.2644444254e-003   8.3380316245e-001   2.9464557194e-001   8.3464388883e-001   2.9523705139e-001  -5.7598063300e-004   3.8785256877e-004
  7.5975000000e+010  -3.7154707199e-004  -1.2630970523e-003   8.3381624062e-001   2.9463224756e-001   8.3465693035e-001   2.9522555085e-001  -5.7515593533e-004   3.8726289889e-004
  7.6000000000e+010  -3.7152655840e-004  -1.2617158875e-003   8.3382965307e-001   2.9461858290e-001   8.3467030525e-001   2.9521375619e-001  -5.7431090324e-004   3.8665861070e-004
  7.6025000000e+010  -3.7150532562e-004  -1.2603009881e-003   8.3384339971e-001   2.9460457805e-001   8.3468401346e-001   2.9520166745e-001  -5.7344559783e-004   3.8603974197e-004
  7.6050000000e+010  -3.7148335854e-004  -1.2588524127e-003   8.3385748045e-001   2.9459023313e-001   8.3469805490e-001   2.9518928469e-001  -5.7256008162e-004   3.8540633137e-004
  7.6075000000e+010  -3.7146064173e-004  -1.2573702213e-003   8.3387189521e-001   2.9457554823e-001   8.3471242949e-001   2.9517660797e-001  -5.7165441860e-004   3.8475841847e-004
  7.6100000000e+010  -3.7143715937e-004  -1.2558544753e-003   8.3388664391e-001   2.9456052347e-001   8.3472713715e-001   2.9516363735e-001  -5.7072867419e-004   3.8409604373e-004
  7.6125000000e+010  -3.7141289534e-004  -1.2543052373e-003   8.3390172645e-001   2.9454515897e-001   8.3474217778e-001   2.9515037291e-001  -5.6978291528e-004   3.8341924853e-004
  7.6150000000e+010  -3.7138783316e-004  -1.2527225716e-003   8.3391714275e-001   2.9452945484e-001   8.3475755131e-001   2.9513681469e-001  -5.6881721016e-004   3.8272807513e-004
  7.6175000000e+010  -3.7136195599e-004  -1.2511065438e-003   8.3393289271e-001   2.9451341120e-001   8.3477325765e-001   2.9512296277e-001  -5.6783162857e-004   3.8202256665e-004
  7.6200000000e+010  -3.7133524670e-004  -1.2494572206e-003   8.3394897623e-001   2.9449702817e-001   8.3478929671e-001   2.9510881721e-001  -5.6682624167e-004   3.8130276716e-004
  7.6225000000e+010  -3.7130768778e-004  -1.2477746705e-003   8.3396539322e-001   2.9448030587e-001   8.3480566839e-001   2.9509437808e-001  -5.6580112203e-004   3.8056872154e-004
  7.6250000000e+010  -3.7127926141e-004  -1.2460589630e-003   8.3398214358e-001   2.9446324444e-001   8.3482237260e-001   2.9507964546e-001  -5.6475634364e-004   3.7982047561e-004
  7.6275000000e+010  -3.7124994942e-004  -1.2443101694e-003   8.3399922721e-001   2.9444584399e-001   8.3483940925e-001   2.9506461940e-001  -5.6369198189e-004   3.7905807603e-004
  7.6300000000e+010  -3.7121973332e-004  -1.2425283619e-003   8.3401664400e-001   2.9442810466e-001   8.3485677823e-001   2.9504930000e-001  -5.6260811357e-004   3.7828157034e-004
  7.6325000000e+010  -3.7118859429e-004  -1.2407136143e-003   8.3403439386e-001   2.9441002659e-001   8.3487447945e-001   2.9503368731e-001  -5.6150481687e-004   3.7749100696e-004
  7.6350000000e+010  -3.7115651318e-004  -1.2388660020e-003   8.3405247666e-001   2.9439160991e-001   8.3489251281e-001   2.9501778142e-001  -5.6038217134e-004   3.7668643516e-004
  7.6375000000e+010  -3.7112347053e-004  -1.2369856013e-003   8.3407089231e-001   2.9437285477e-001   8.3491087819e-001   2.9500158240e-001  -5.5924025794e-004   3.7586790508e-004
  7.6400000000e+010  -3.7108944652e-004  -1.2350724901e-003   8.3408964069e-001   2.9435376129e-001   8.3492957551e-001   2.9498509033e-001  -5.5807915899e-004   3.7503546772e-004
  7.6425000000e+010  -3.7105442105e-004  -1.2331267478e-003   8.3410872169e-001   2.9433432963e-001   8.3494860464e-001   2.9496830529e-001  -5.5689895818e-004   3.7418917492e-004
  7.6450000000e+010  -3.7101837368e-004  -1.2311484548e-003   8.3412813520e-001   2.9431455994e-001   8.3496796548e-001   2.9495122736e-001  -5.5569974054e-004   3.7332907939e-004
  7.6475000000e+010  -3.7098128366e-004  -1.2291376932e-003   8.3414788109e-001   2.9429445236e-001   8.3498765792e-001   2.9493385663e-001  -5.5448159249e-004   3.7245523467e-004
  7.6500000000e+010  -3.7094312991e-004  -1.2270945463e-003   8.3416795925e-001   2.9427400704e-001   8.3500768184e-001   2.9491619318e-001  -5.5324460175e-004   3.7156769514e-004
  7.6525000000e+010  -3.7090389106e-004  -1.2250190986e-003   8.3418836956e-001   2.9425322415e-001   8.3502803714e-001   2.9489823709e-001  -5.5198885741e-004   3.7066651604e-004
  7.6550000000e+010  -3.7086354541e-004  -1.2229114362e-003   8.3420911189e-001   2.9423210382e-001   8.3504872369e-001   2.9487998845e-001  -5.5071444987e-004   3.6975175343e-004
  7.6575000000e+010  -3.7082207097e-004  -1.2207716464e-003   8.3423018611e-001   2.9421064624e-001   8.3506974137e-001   2.9486144735e-001  -5.4942147087e-004   3.6882346418e-004
  7.6600000000e+010  -3.7077944542e-004  -1.2185998178e-003   8.3425159211e-001   2.9418885155e-001   8.3509109007e-001   2.9484261388e-001  -5.4811001345e-004   3.6788170601e-004
  7.6625000000e+010  -3.7073564617e-004  -1.2163960404e-003   8.3427332975e-001   2.9416671993e-001   8.3511276966e-001   2.9482348813e-001  -5.4678017197e-004   3.6692653746e-004
  7.6650000000e+010  -3.7069065029e-004  -1.2141604056e-003   8.3429539890e-001   2.9414425153e-001   8.3513478002e-001   2.9480407019e-001  -5.4543204207e-004   3.6595801788e-004
  7.6675000000e+010  -3.7064443459e-004  -1.2118930060e-003   8.3431779943e-001   2.9412144654e-001   8.3515712101e-001   2.9478436016e-001  -5.4406572071e-004   3.6497620743e-004
  7.6700000000e+010  -3.7059697555e-004  -1.2095939355e-003   8.3434053120e-001   2.9409830511e-001   8.3517979252e-001   2.9476435813e-001  -5.4268130610e-004   3.6398116709e-004
  7.6725000000e+010  -3.7054824937e-004  -1.2072632894e-003   8.3436359407e-001   2.9407482743e-001   8.3520279441e-001   2.9474406420e-001  -5.4127889775e-004   3.6297295861e-004
  7.6750000000e+010  -3.7049823196e-004  -1.2049011643e-003   8.3438698791e-001   2.9405101367e-001   8.3522612655e-001   2.9472347847e-001  -5.3985859643e-004   3.6195164458e-004
  7.6775000000e+010  -3.7044689895e-004  -1.2025076581e-003   8.3441071258e-001   2.9402686402e-001   8.3524978881e-001   2.9470260103e-001  -5.3842050416e-004   3.6091728836e-004
  7.6800000000e+010  -3.7039422565e-004  -1.2000828700e-003   8.3443476792e-001   2.9400237865e-001   8.3527378105e-001   2.9468143200e-001  -5.3696472423e-004   3.5986995411e-004
  7.6825000000e+010  -3.7034018712e-004  -1.1976269004e-003   8.3445915381e-001   2.9397755775e-001   8.3529810313e-001   2.9465997146e-001  -5.3549136114e-004   3.5880970676e-004
  7.6850000000e+010  -3.7028475813e-004  -1.1951398513e-003   8.3448387008e-001   2.9395240151e-001   8.3532275491e-001   2.9463821953e-001  -5.3400052066e-004   3.5773661202e-004
  7.6875000000e+010  -3.7022791316e-004  -1.1926218255e-003   8.3450891659e-001   2.9392691011e-001   8.3534773626e-001   2.9461617631e-001  -5.3249230974e-004   3.5665073639e-004
  7.6900000000e+010  -3.7016962643e-004  -1.1900729276e-003   8.3453429319e-001   2.9390108375e-001   8.3537304702e-001   2.9459384190e-001  -5.3096683660e-004   3.5555214713e-004
  7.6925000000e+010  -3.7010987187e-004  -1.1874932632e-003   8.3455999973e-001   2.9387492263e-001   8.3539868706e-001   2.9457121642e-001  -5.2942421062e-004   3.5444091226e-004
  7.6950000000e+010  -3.7004862314e-004  -1.1848829392e-003   8.3458603605e-001   2.9384842693e-001   8.3542465622e-001   2.9454829997e-001  -5.2786454239e-004   3.5331710057e-004
  7.6975000000e+010  -3.6998585365e-004  -1.1822420639e-003   8.3461240200e-001   2.9382159687e-001   8.3545095436e-001   2.9452509267e-001  -5.2628794369e-004   3.5218078159e-004
  7.7000000000e+010  -3.6992153652e-004  -1.1795707467e-003   8.3463909741e-001   2.9379443264e-001   8.3547758132e-001   2.9450159463e-001  -5.2469452750e-004   3.5103202561e-004
  7.7025000000e+010  -3.6985564463e-004  -1.1768690984e-003   8.3466612212e-001   2.9376693445e-001   8.3550453696e-001   2.9447780596e-001  -5.2308440792e-004   3.4987090366e-004
  7.7050000000e+010  -3.6978815059e-004  -1.1741372310e-003   8.3469347598e-001   2.9373910250e-001   8.3553182112e-001   2.9445372677e-001  -5.2145770026e-004   3.4869748750e-004
  7.7075000000e+010  -3.6971902675e-004  -1.1713752578e-003   8.3472115881e-001   2.9371093701e-001   8.3555943364e-001   2.9442935719e-001  -5.1981452095e-004   3.4751184963e-004
  7.7100000000e+010  -3.6964824520e-004  -1.1685832932e-003   8.3474917045e-001   2.9368243818e-001   8.3558737436e-001   2.9440469733e-001  -5.1815498758e-004   3.4631406329e-004
  7.7125000000e+010  -3.6957577780e-004  -1.1657614532e-003   8.3477751073e-001   2.9365360623e-001   8.3561564312e-001   2.9437974731e-001  -5.1647921884e-004   3.4510420241e-004
  7.7150000000e+010  -3.6950159614e-004  -1.1629098547e-003   8.3480617948e-001   2.9362444139e-001   8.3564423977e-001   2.9435450725e-001  -5.1478733457e-004   3.4388234166e-004
  7.7175000000e+010  -3.6942567158e-004  -1.1600286159e-003   8.3483517653e-001   2.9359494386e-001   8.3567316413e-001   2.9432897728e-001  -5.1307945571e-004   3.4264855643e-004
  7.7200000000e+010  -3.6934797523e-004  -1.1571178564e-003   8.3486450170e-001   2.9356511387e-001   8.3570241605e-001   2.9430315751e-001  -5.1135570431e-004   3.4140292278e-004
  7.7225000000e+010  -3.6926847796e-004  -1.1541776969e-003   8.3489415482e-001   2.9353495165e-001   8.3573199535e-001   2.9427704807e-001  -5.0961620350e-004   3.4014551750e-004
  7.7250000000e+010  -3.6918715040e-004  -1.1512082593e-003   8.3492413571e-001   2.9350445741e-001   8.3576190186e-001   2.9425064910e-001  -5.0786107748e-004   3.3887641806e-004
  7.7275000000e+010  -3.6910396295e-004  -1.1482096668e-003   8.3495444418e-001   2.9347363141e-001   8.3579213541e-001   2.9422396071e-001  -5.0609045156e-004   3.3759570262e-004
  7.7300000000e+010  -3.6901888580e-004  -1.1451820439e-003   8.3498508005e-001   2.9344247385e-001   8.3582269583e-001   2.9419698303e-001  -5.0430445206e-004   3.3630345003e-004
  7.7325000000e+010  -3.6893188887e-004  -1.1421255160e-003   8.3501604315e-001   2.9341098498e-001   8.3585358295e-001   2.9416971621e-001  -5.0250320638e-004   3.3499973980e-004
  7.7350000000e+010  -3.6884294190e-004  -1.1390402101e-003   8.3504733327e-001   2.9337916504e-001   8.3588479658e-001   2.9414216036e-001  -5.0068684296e-004   3.3368465212e-004
  7.7375000000e+010  -3.6875201438e-004  -1.1359262541e-003   8.3507895024e-001   2.9334701426e-001   8.3591633655e-001   2.9411431562e-001  -4.9885549125e-004   3.3235826784e-004
  7.7400000000e+010  -3.6865907559e-004  -1.1327837772e-003   8.3511089387e-001   2.9331453289e-001   8.3594820268e-001   2.9408618213e-001  -4.9700928174e-004   3.3102066847e-004
  7.7425000000e+010  -3.6856409461e-004  -1.1296129098e-003   8.3514316396e-001   2.9328172117e-001   8.3598039478e-001   2.9405776003e-001  -4.9514834590e-004   3.2967193618e-004
  7.7450000000e+010  -3.6846704028e-004  -1.1264137835e-003   8.3517576031e-001   2.9324857935e-001   8.3601291267e-001   2.9402904944e-001  -4.9327281621e-004   3.2831215377e-004
  7.7475000000e+010  -3.6836788126e-004  -1.1231865310e-003   8.3520868273e-001   2.9321510767e-001   8.3604575616e-001   2.9400005052e-001  -4.9138282615e-004   3.2694140468e-004
  7.7500000000e+010  -3.6826658599e-004  -1.1199312863e-003   8.3524193103e-001   2.9318130640e-001   8.3607892507e-001   2.9397076339e-001  -4.8947851014e-004   3.2555977301e-004
  7.7525000000e+010  -3.6816312271e-004  -1.1166481845e-003   8.3527550500e-001   2.9314717577e-001   8.3611241921e-001   2.9394118821e-001  -4.8756000359e-004   3.2416734345e-004
  7.7550000000e+010  -3.6805745947e-004  -1.1133373619e-003   8.3530940444e-001   2.9311271606e-001   8.3614623837e-001   2.9391132511e-001  -4.8562744285e-004   3.2276420133e-004
  7.7575000000e+010  -3.6794956412e-004  -1.1099989558e-003   8.3534362915e-001   2.9307792751e-001   8.3618038238e-001   2.9388117425e-001  -4.8368096521e-004   3.2135043259e-004
  7.7600000000e+010  -3.6783940432e-004  -1.1066331048e-003   8.3537817891e-001   2.9304281040e-001   8.3621485103e-001   2.9385073576e-001  -4.8172070889e-004   3.1992612380e-004
  7.7625000000e+010  -3.6772694753e-004  -1.1032399487e-003   8.3541305353e-001   2.9300736497e-001   8.3624964412e-001   2.9382000979e-001  -4.7974681303e-004   3.1849136208e-004
  7.7650000000e+010  -3.6761216105e-004  -1.0998196284e-003   8.3544825279e-001   2.9297159151e-001   8.3628476146e-001   2.9378899650e-001  -4.7775941768e-004   3.1704623519e-004
  7.7675000000e+010  -3.6749501198e-004  -1.0963722857e-003   8.3548377649e-001   2.9293549028e-001   8.3632020285e-001   2.9375769603e-001  -4.7575866375e-004   3.1559083147e-004
  7.7700000000e+010  -3.6737546725e-004  -1.0928980640e-003   8.3551962439e-001   2.9289906154e-001   8.3635596807e-001   2.9372610853e-001  -4.7374469309e-004   3.1412523983e-004
