# Hz S RI R 50.000000
! Metas.Vna.Tools, 2.4.7724.19584
! Metas.Vna.Data, 2.4.7724.19560
! Created: UTC 2021.04.29 12:40:11
! FREQ                re:S1,1             im:S1,1             re:S2,1             im:S2,1             re:S1,2             im:S1,2             re:S2,2             im:S2,2          
  7.5000000000e+010  -2.3929937646e-004  -1.2613265815e-003   6.8648831482e-001   3.8919108188e-001   6.7945034878e-001   4.0765997191e-001  -1.3965020486e-003  -2.6150101371e-004
  7.5025000000e+010  -2.3930183334e-004  -1.2612926404e-003   6.8648874270e-001   3.8919067781e-001   6.7945078528e-001   4.0765955107e-001  -1.3941284321e-003  -2.5551281655e-004
  7.5050000000e+010  -2.3930674665e-004  -1.2612247596e-003   6.8648959845e-001   3.8918986966e-001   6.7945165828e-001   4.0765870939e-001  -1.3917263946e-003  -2.4954677878e-004
  7.5075000000e+010  -2.3931411544e-004  -1.2611229420e-003   6.8649088207e-001   3.8918865744e-001   6.7945296778e-001   4.0765744688e-001  -1.3892960268e-003  -2.4360311790e-004
  7.5100000000e+010  -2.3932393832e-004  -1.2609871917e-003   6.8649259354e-001   3.8918704117e-001   6.7945471377e-001   4.0765576354e-001  -1.3868374206e-003  -2.3768204974e-004
  7.5125000000e+010  -2.3933621342e-004  -1.2608175144e-003   6.8649473287e-001   3.8918502086e-001   6.7945689623e-001   4.0765365937e-001  -1.3843506695e-003  -2.3178378841e-004
  7.5150000000e+010  -2.3935093842e-004  -1.2606139170e-003   6.8649730003e-001   3.8918259653e-001   6.7945951517e-001   4.0765113439e-001  -1.3818358685e-003  -2.2590854631e-004
  7.5175000000e+010  -2.3936811052e-004  -1.2603764081e-003   6.8650029500e-001   3.8917976819e-001   6.7946257057e-001   4.0764818860e-001  -1.3792931139e-003  -2.2005653408e-004
  7.5200000000e+010  -2.3938772647e-004  -1.2601049975e-003   6.8650371778e-001   3.8917653587e-001   6.7946606241e-001   4.0764482201e-001  -1.3767225034e-003  -2.1422796064e-004
  7.5225000000e+010  -2.3940978253e-004  -1.2597996964e-003   6.8650756832e-001   3.8917289960e-001   6.7946999067e-001   4.0764103463e-001  -1.3741241364e-003  -2.0842303314e-004
  7.5250000000e+010  -2.3943427451e-004  -1.2594605175e-003   6.8651184662e-001   3.8916885942e-001   6.7947435535e-001   4.0763682647e-001  -1.3714981133e-003  -2.0264195697e-004
  7.5275000000e+010  -2.3946119777e-004  -1.2590874747e-003   6.8651655264e-001   3.8916441535e-001   6.7947915640e-001   4.0763219755e-001  -1.3688445363e-003  -1.9688493573e-004
  7.5300000000e+010  -2.3949054718e-004  -1.2586805836e-003   6.8652168635e-001   3.8915956743e-001   6.7948439383e-001   4.0762714789e-001  -1.3661635089e-003  -1.9115217125e-004
  7.5325000000e+010  -2.3952231717e-004  -1.2582398611e-003   6.8652724771e-001   3.8915431571e-001   6.7949006759e-001   4.0762167750e-001  -1.3634551359e-003  -1.8544386352e-004
  7.5350000000e+010  -2.3955650168e-004  -1.2577653253e-003   6.8653323669e-001   3.8914866023e-001   6.7949617766e-001   4.0761578639e-001  -1.3607195236e-003  -1.7976021076e-004
  7.5375000000e+010  -2.3959309422e-004  -1.2572569960e-003   6.8653965326e-001   3.8914260104e-001   6.7950272401e-001   4.0760947460e-001  -1.3579567797e-003  -1.7410140935e-004
  7.5400000000e+010  -2.3963208781e-004  -1.2567148941e-003   6.8654649736e-001   3.8913613819e-001   6.7950970661e-001   4.0760274213e-001  -1.3551670132e-003  -1.6846765384e-004
  7.5425000000e+010  -2.3967347502e-004  -1.2561390422e-003   6.8655376895e-001   3.8912927174e-001   6.7951712542e-001   4.0759558902e-001  -1.3523503347e-003  -1.6285913692e-004
  7.5450000000e+010  -2.3971724797e-004  -1.2555294641e-003   6.8656146799e-001   3.8912200175e-001   6.7952498042e-001   4.0758801528e-001  -1.3495068559e-003  -1.5727604945e-004
  7.5475000000e+010  -2.3976339829e-004  -1.2548861850e-003   6.8656959442e-001   3.8911432828e-001   6.7953327155e-001   4.0758002094e-001  -1.3466366900e-003  -1.5171858042e-004
  7.5500000000e+010  -2.3981191719e-004  -1.2542092316e-003   6.8657814819e-001   3.8910625140e-001   6.7954199879e-001   4.0757160603e-001  -1.3437399518e-003  -1.4618691694e-004
  7.5525000000e+010  -2.3986279538e-004  -1.2534986320e-003   6.8658712924e-001   3.8909777117e-001   6.7955116209e-001   4.0756277058e-001  -1.3408167571e-003  -1.4068124423e-004
  7.5550000000e+010  -2.3991602315e-004  -1.2527544155e-003   6.8659653752e-001   3.8908888767e-001   6.7956076141e-001   4.0755351461e-001  -1.3378672232e-003  -1.3520174565e-004
  7.5575000000e+010  -2.3997159031e-004  -1.2519766131e-003   6.8660637297e-001   3.8907960098e-001   6.7957079669e-001   4.0754383816e-001  -1.3348914688e-003  -1.2974860262e-004
  7.5600000000e+010  -2.4002948621e-004  -1.2511652569e-003   6.8661663551e-001   3.8906991117e-001   6.7958126789e-001   4.0753374125e-001  -1.3318896139e-003  -1.2432199466e-004
  7.5625000000e+010  -2.4008969977e-004  -1.2503203805e-003   6.8662732508e-001   3.8905981833e-001   6.7959217497e-001   4.0752322393e-001  -1.3288617800e-003  -1.1892209939e-004
  7.5650000000e+010  -2.4015221942e-004  -1.2494420190e-003   6.8663844161e-001   3.8904932255e-001   6.7960351786e-001   4.0751228622e-001  -1.3258080896e-003  -1.1354909247e-004
  7.5675000000e+010  -2.4021703317e-004  -1.2485302087e-003   6.8664998502e-001   3.8903842392e-001   6.7961529652e-001   4.0750092817e-001  -1.3227286668e-003  -1.0820314765e-004
  7.5700000000e+010  -2.4028412856e-004  -1.2475849875e-003   6.8666195525e-001   3.8902712253e-001   6.7962751088e-001   4.0748914981e-001  -1.3196236370e-003  -1.0288443671e-004
  7.5725000000e+010  -2.4035349268e-004  -1.2466063943e-003   6.8667435220e-001   3.8901541848e-001   6.7964016088e-001   4.0747695118e-001  -1.3164931268e-003  -9.7593129493e-005
  7.5750000000e+010  -2.4042511217e-004  -1.2455944699e-003   6.8668717581e-001   3.8900331187e-001   6.7965324648e-001   4.0746433232e-001  -1.3133372642e-003  -9.2329393859e-005
  7.5775000000e+010  -2.4049897322e-004  -1.2445492562e-003   6.8670042598e-001   3.8899080281e-001   6.7966676760e-001   4.0745129327e-001  -1.3101561784e-003  -8.7093395712e-005
  7.5800000000e+010  -2.4057506157e-004  -1.2434707963e-003   6.8671410263e-001   3.8897789140e-001   6.7968072417e-001   4.0743783408e-001  -1.3069500001e-003  -8.1885298970e-005
  7.5825000000e+010  -2.4065336252e-004  -1.2423591351e-003   6.8672820566e-001   3.8896457775e-001   6.7969511614e-001   4.0742395479e-001  -1.3037188612e-003  -7.6705265564e-005
  7.5850000000e+010  -2.4073386093e-004  -1.2412143185e-003   6.8674273499e-001   3.8895086198e-001   6.7970994342e-001   4.0740965545e-001  -1.3004628947e-003  -7.1553455431e-005
  7.5875000000e+010  -2.4081654119e-004  -1.2400363940e-003   6.8675769052e-001   3.8893674421e-001   6.7972520596e-001   4.0739493611e-001  -1.2971822351e-003  -6.6430026500e-005
  7.5900000000e+010  -2.4090138726e-004  -1.2388254104e-003   6.8677307215e-001   3.8892222456e-001   6.7974090367e-001   4.0737979681e-001  -1.2938770180e-003  -6.1335134696e-005
  7.5925000000e+010  -2.4098838268e-004  -1.2375814179e-003   6.8678887978e-001   3.8890730315e-001   6.7975703648e-001   4.0736423760e-001  -1.2905473806e-003  -5.6268933923e-005
  7.5950000000e+010  -2.4107751051e-004  -1.2363044681e-003   6.8680511330e-001   3.8889198012e-001   6.7977360431e-001   4.0734825855e-001  -1.2871934609e-003  -5.1231576058e-005
  7.5975000000e+010  -2.4116875340e-004  -1.2349946137e-003   6.8682177261e-001   3.8887625559e-001   6.7979060709e-001   4.0733185969e-001  -1.2838153984e-003  -4.6223210950e-005
  7.6000000000e+010  -2.4126209355e-004  -1.2336519091e-003   6.8683885759e-001   3.8886012970e-001   6.7980804472e-001   4.0731504109e-001  -1.2804133338e-003  -4.1243986408e-005
  7.6025000000e+010  -2.4135751272e-004  -1.2322764099e-003   6.8685636814e-001   3.8884360260e-001   6.7982591713e-001   4.0729780280e-001  -1.2769874091e-003  -3.6294048195e-005
  7.6050000000e+010  -2.4145499225e-004  -1.2308681732e-003   6.8687430414e-001   3.8882667441e-001   6.7984422423e-001   4.0728014487e-001  -1.2735377675e-003  -3.1373540024e-005
  7.6075000000e+010  -2.4155451303e-004  -1.2294272572e-003   6.8689266547e-001   3.8880934530e-001   6.7986296594e-001   4.0726206738e-001  -1.2700645532e-003  -2.6482603548e-005
  7.6100000000e+010  -2.4165605553e-004  -1.2279537217e-003   6.8691145202e-001   3.8879161540e-001   6.7988214215e-001   4.0724357038e-001  -1.2665679120e-003  -2.1621378358e-005
  7.6125000000e+010  -2.4175959979e-004  -1.2264476277e-003   6.8693066365e-001   3.8877348487e-001   6.7990175278e-001   4.0722465392e-001  -1.2630479906e-003  -1.6790001974e-005
  7.6150000000e+010  -2.4186512541e-004  -1.2249090376e-003   6.8695030024e-001   3.8875495388e-001   6.7992179773e-001   4.0720531808e-001  -1.2595049369e-003  -1.1988609839e-005
  7.6175000000e+010  -2.4197261158e-004  -1.2233380153e-003   6.8697036165e-001   3.8873602257e-001   6.7994227691e-001   4.0718556291e-001  -1.2559389002e-003  -7.2173353154e-006
  7.6200000000e+010  -2.4208203704e-004  -1.2217346257e-003   6.8699084777e-001   3.8871669111e-001   6.7996319022e-001   4.0716538849e-001  -1.2523500309e-003  -2.4763096798e-006
  7.6225000000e+010  -2.4219338014e-004  -1.2200989353e-003   6.8701175845e-001   3.8869695966e-001   6.7998453756e-001   4.0714479488e-001  -1.2487384804e-003   2.2343378853e-006
  7.6250000000e+010  -2.4230661878e-004  -1.2184310119e-003   6.8703309356e-001   3.8867682841e-001   6.8000631882e-001   4.0712378215e-001  -1.2451044015e-003   6.9144802946e-006
  7.6275000000e+010  -2.4242173045e-004  -1.2167309247e-003   6.8705485295e-001   3.8865629751e-001   6.8002853390e-001   4.0710235037e-001  -1.2414479479e-003   1.1563992565e-005
  7.6300000000e+010  -2.4253869223e-004  -1.2149987440e-003   6.8707703649e-001   3.8863536715e-001   6.8005118269e-001   4.0708049962e-001  -1.2377692748e-003   1.6182751822e-005
  7.6325000000e+010  -2.4265748077e-004  -1.2132345417e-003   6.8709964402e-001   3.8861403751e-001   6.8007426508e-001   4.0705822995e-001  -1.2340685381e-003   2.0770637301e-005
  7.6350000000e+010  -2.4277807232e-004  -1.2114383908e-003   6.8712267539e-001   3.8859230878e-001   6.8009778097e-001   4.0703554146e-001  -1.2303458953e-003   2.5327530357e-005
  7.6375000000e+010  -2.4290044271e-004  -1.2096103658e-003   6.8714613047e-001   3.8857018113e-001   6.8012173023e-001   4.0701243421e-001  -1.2266015047e-003   2.9853314463e-005
  7.6400000000e+010  -2.4302456735e-004  -1.2077505425e-003   6.8717000908e-001   3.8854765476e-001   6.8014611275e-001   4.0698890829e-001  -1.2228355257e-003   3.4347875219e-005
  7.6425000000e+010  -2.4315042127e-004  -1.2058589979e-003   6.8719431107e-001   3.8852472987e-001   6.8017092842e-001   4.0696496376e-001  -1.2190481190e-003   3.8811100355e-005
  7.6450000000e+010  -2.4327797907e-004  -1.2039358105e-003   6.8721903629e-001   3.8850140664e-001   6.8019617711e-001   4.0694060072e-001  -1.2152394463e-003   4.3242879733e-005
  7.6475000000e+010  -2.4340721495e-004  -1.2019810598e-003   6.8724418457e-001   3.8847768529e-001   6.8022185871e-001   4.0691581924e-001  -1.2114096704e-003   4.7643105351e-005
  7.6500000000e+010  -2.4353810272e-004  -1.1999948270e-003   6.8726975575e-001   3.8845356602e-001   6.8024797308e-001   4.0689061941e-001  -1.2075589551e-003   5.2011671350e-005
  7.6525000000e+010  -2.4367061577e-004  -1.1979771944e-003   6.8729574965e-001   3.8842904903e-001   6.8027452011e-001   4.0686500130e-001  -1.2036874653e-003   5.6348474012e-005
  7.6550000000e+010  -2.4380472711e-004  -1.1959282456e-003   6.8732216611e-001   3.8840413453e-001   6.8030149966e-001   4.0683896501e-001  -1.1997953672e-003   6.0653411770e-005
  7.6575000000e+010  -2.4394040936e-004  -1.1938480654e-003   6.8734900495e-001   3.8837882275e-001   6.8032891160e-001   4.0681251063e-001  -1.1958828276e-003   6.4926385201e-005
  7.6600000000e+010  -2.4407763472e-004  -1.1917367402e-003   6.8737626599e-001   3.8835311389e-001   6.8035675581e-001   4.0678563824e-001  -1.1919500147e-003   6.9167297042e-005
  7.6625000000e+010  -2.4421637503e-004  -1.1895943575e-003   6.8740394906e-001   3.8832700818e-001   6.8038503214e-001   4.0675834792e-001  -1.1879970976e-003   7.3376052180e-005
  7.6650000000e+010  -2.4435660172e-004  -1.1874210059e-003   6.8743205397e-001   3.8830050585e-001   6.8041374047e-001   4.0673063978e-001  -1.1840242465e-003   7.7552557665e-005
  7.6675000000e+010  -2.4449828585e-004  -1.1852167757e-003   6.8746058054e-001   3.8827360712e-001   6.8044288064e-001   4.0670251391e-001  -1.1800316324e-003   8.1696722704e-005
  7.6700000000e+010  -2.4464139808e-004  -1.1829817582e-003   6.8748952859e-001   3.8824631222e-001   6.8047245253e-001   4.0667397040e-001  -1.1760194277e-003   8.5808458669e-005
  7.6725000000e+010  -2.4478590870e-004  -1.1807160461e-003   6.8751889791e-001   3.8821862139e-001   6.8050245599e-001   4.0664500934e-001  -1.1719878053e-003   8.9887679097e-005
  7.6750000000e+010  -2.4493178763e-004  -1.1784197332e-003   6.8754868832e-001   3.8819053487e-001   6.8053289087e-001   4.0661563084e-001  -1.1679369395e-003   9.3934299691e-005
  7.6775000000e+010  -2.4507900439e-004  -1.1760929148e-003   6.8757889962e-001   3.8816205289e-001   6.8056375703e-001   4.0658583499e-001  -1.1638670054e-003   9.7948238325e-005
  7.6800000000e+010  -2.4522752815e-004  -1.1737356872e-003   6.8760953161e-001   3.8813317571e-001   6.8059505431e-001   4.0655562189e-001  -1.1597781791e-003   1.0192941504e-004
  7.6825000000e+010  -2.4537732769e-004  -1.1713481483e-003   6.8764058409e-001   3.8810390357e-001   6.8062678257e-001   4.0652499164e-001  -1.1556706376e-003   1.0587775205e-004
  7.6850000000e+010  -2.4552837144e-004  -1.1689303971e-003   6.8767205686e-001   3.8807423672e-001   6.8065894166e-001   4.0649394435e-001  -1.1515445588e-003   1.0979317375e-004
  7.6875000000e+010  -2.4568062745e-004  -1.1664825336e-003   6.8770394971e-001   3.8804417542e-001   6.8069153142e-001   4.0646248012e-001  -1.1474001217e-003   1.1367560670e-004
  7.6900000000e+010  -2.4583406342e-004  -1.1640046595e-003   6.8773626243e-001   3.8801371993e-001   6.8072455168e-001   4.0643059905e-001  -1.1432375063e-003   1.1752497963e-004
  7.6925000000e+010  -2.4598864667e-004  -1.1614968775e-003   6.8776899481e-001   3.8798287051e-001   6.8075800230e-001   4.0639830125e-001  -1.1390568931e-003   1.2134122346e-004
  7.6950000000e+010  -2.4614434418e-004  -1.1589592915e-003   6.8780214662e-001   3.8795162742e-001   6.8079188311e-001   4.0636558684e-001  -1.1348584639e-003   1.2512427127e-004
  7.6975000000e+010  -2.4630112257e-004  -1.1563920067e-003   6.8783571767e-001   3.8791999093e-001   6.8082619394e-001   4.0633245592e-001  -1.1306424012e-003   1.2887405834e-004
  7.7000000000e+010  -2.4645894810e-004  -1.1537951296e-003   6.8786970771e-001   3.8788796132e-001   6.8086093464e-001   4.0629890860e-001  -1.1264088886e-003   1.3259052211e-004
  7.7025000000e+010  -2.4661778670e-004  -1.1511687679e-003   6.8790411654e-001   3.8785553886e-001   6.8089610503e-001   4.0626494499e-001  -1.1221581103e-003   1.3627360219e-004
  7.7050000000e+010  -2.4677760393e-004  -1.1485130305e-003   6.8793894392e-001   3.8782272382e-001   6.8093170494e-001   4.0623056522e-001  -1.1178902515e-003   1.3992324040e-004
  7.7075000000e+010  -2.4693836503e-004  -1.1458280274e-003   6.8797418962e-001   3.8778951650e-001   6.8096773420e-001   4.0619576939e-001  -1.1136054983e-003   1.4353938070e-004
  7.7100000000e+010  -2.4710003488e-004  -1.1431138701e-003   6.8800985342e-001   3.8775591717e-001   6.8100419264e-001   4.0616055762e-001  -1.1093040375e-003   1.4712196925e-004
  7.7125000000e+010  -2.4726257802e-004  -1.1403706710e-003   6.8804593508e-001   3.8772192613e-001   6.8104108009e-001   4.0612493003e-001  -1.1049860570e-003   1.5067095437e-004
  7.7150000000e+010  -2.4742595868e-004  -1.1375985440e-003   6.8808243436e-001   3.8768754366e-001   6.8107839635e-001   4.0608888674e-001  -1.1006517451e-003   1.5418628658e-004
  7.7175000000e+010  -2.4759014074e-004  -1.1347976039e-003   6.8811935102e-001   3.8765277006e-001   6.8111614126e-001   4.0605242787e-001  -1.0963012914e-003   1.5766791855e-004
  7.7200000000e+010  -2.4775508775e-004  -1.1319679670e-003   6.8815668482e-001   3.8761760563e-001   6.8115431463e-001   4.0601555354e-001  -1.0919348859e-003   1.6111580514e-004
  7.7225000000e+010  -2.4792076294e-004  -1.1291097506e-003   6.8819443551e-001   3.8758205067e-001   6.8119291627e-001   4.0597826389e-001  -1.0875527196e-003   1.6452990337e-004
  7.7250000000e+010  -2.4808712921e-004  -1.1262230732e-003   6.8823260285e-001   3.8754610549e-001   6.8123194601e-001   4.0594055902e-001  -1.0831549842e-003   1.6791017244e-004
  7.7275000000e+010  -2.4825414916e-004  -1.1233080545e-003   6.8827118659e-001   3.8750977039e-001   6.8127140365e-001   4.0590243908e-001  -1.0787418723e-003   1.7125657372e-004
  7.7300000000e+010  -2.4842178504e-004  -1.1203648155e-003   6.8831018646e-001   3.8747304569e-001   6.8131128900e-001   4.0586390419e-001  -1.0743135770e-003   1.7456907075e-004
  7.7325000000e+010  -2.4858999882e-004  -1.1173934782e-003   6.8834960223e-001   3.8743593170e-001   6.8135160186e-001   4.0582495447e-001  -1.0698702925e-003   1.7784762922e-004
  7.7350000000e+010  -2.4875875214e-004  -1.1143941659e-003   6.8838943362e-001   3.8739842874e-001   6.8139234205e-001   4.0578559007e-001  -1.0654122133e-003   1.8109221701e-004
  7.7375000000e+010  -2.4892800634e-004  -1.1113670029e-003   6.8842968038e-001   3.8736053713e-001   6.8143350937e-001   4.0574581111e-001  -1.0609395351e-003   1.8430280415e-004
  7.7400000000e+010  -2.4909772246e-004  -1.1083121149e-003   6.8847034224e-001   3.8732225720e-001   6.8147510362e-001   4.0570561773e-001  -1.0564524539e-003   1.8747936282e-004
  7.7425000000e+010  -2.4926786123e-004  -1.1052296285e-003   6.8851141893e-001   3.8728358927e-001   6.8151712459e-001   4.0566501006e-001  -1.0519511667e-003   1.9062186737e-004
  7.7450000000e+010  -2.4943838309e-004  -1.1021196717e-003   6.8855291019e-001   3.8724453368e-001   6.8155957208e-001   4.0562398824e-001  -1.0474358710e-003   1.9373029430e-004
  7.7475000000e+010  -2.4960924818e-004  -1.0989823733e-003   6.8859481574e-001   3.8720509076e-001   6.8160244590e-001   4.0558255241e-001  -1.0429067650e-003   1.9680462228e-004
  7.7500000000e+010  -2.4978041635e-004  -1.0958178637e-003   6.8863713531e-001   3.8716526085e-001   6.8164574583e-001   4.0554070270e-001  -1.0383640477e-003   1.9984483210e-004
  7.7525000000e+010  -2.4995184718e-004  -1.0926262740e-003   6.8867986862e-001   3.8712504429e-001   6.8168947166e-001   4.0549843927e-001  -1.0338079187e-003   2.0285090672e-004
  7.7550000000e+010  -2.5012349994e-004  -1.0894077366e-003   6.8872301539e-001   3.8708444143e-001   6.8173362318e-001   4.0545576225e-001  -1.0292385782e-003   2.0582283122e-004
  7.7575000000e+010  -2.5029533364e-004  -1.0861623852e-003   6.8876657534e-001   3.8704345260e-001   6.8177820018e-001   4.0541267178e-001  -1.0246562269e-003   2.0876059285e-004
  7.7600000000e+010  -2.5046730700e-004  -1.0828903542e-003   6.8881054818e-001   3.8700207817e-001   6.8182320245e-001   4.0536916802e-001  -1.0200610665e-003   2.1166418098e-004
  7.7625000000e+010  -2.5063937847e-004  -1.0795917796e-003   6.8885493362e-001   3.8696031849e-001   6.8186862975e-001   4.0532525110e-001  -1.0154532989e-003   2.1453358710e-004
  7.7650000000e+010  -2.5081150624e-004  -1.0762667981e-003   6.8889973137e-001   3.8691817391e-001   6.8191448189e-001   4.0528092119e-001  -1.0108331269e-003   2.1736880486e-004
  7.7675000000e+010  -2.5098364822e-004  -1.0729155478e-003   6.8894494114e-001   3.8687564480e-001   6.8196075863e-001   4.0523617842e-001  -1.0062007537e-003   2.2016983000e-004
  7.7700000000e+010  -2.5115576206e-004  -1.0695381676e-003   6.8899056263e-001   3.8683273151e-001   6.8200745975e-001   4.0519102295e-001  -1.0015563832e-003   2.2293666041e-004
