# Hz S RI R 50.000000
! Metas.Vna.Tools, 2.4.7724.19584
! Metas.Vna.Data, 2.4.7724.19560
! Created: UTC 2021.04.29 12:40:11
! FREQ                re:S1,1             im:S1,1             re:S2,1             im:S2,1             re:S1,2             im:S1,2             re:S2,2             im:S2,2          
  7.5000000000e+010  -1.4822420733e-004  -1.1753446772e-003   5.1302246199e-001   4.3194471570e-001   4.9891420221e-001   4.5189969661e-001  -1.4294171498e-003   1.5219504606e-003
  7.5025000000e+010  -1.4822857617e-004  -1.1753126835e-003   5.1302292103e-001   4.3194431801e-001   4.9891469442e-001   4.5189923505e-001  -1.4272805884e-003   1.5228638045e-003
  7.5050000000e+010  -1.4823731333e-004  -1.1752486974e-003   5.1302383912e-001   4.3194352263e-001   4.9891567885e-001   4.5189831193e-001  -1.4251179947e-003   1.5237332085e-003
  7.5075000000e+010  -1.4825041774e-004  -1.1751527216e-003   5.1302521625e-001   4.3194232956e-001   4.9891715548e-001   4.5189692726e-001  -1.4229293842e-003   1.5245586582e-003
  7.5100000000e+010  -1.4826788782e-004  -1.1750247601e-003   5.1302705240e-001   4.3194073882e-001   4.9891912431e-001   4.5189508103e-001  -1.4207147742e-003   1.5253401415e-003
  7.5125000000e+010  -1.4828972146e-004  -1.1748648184e-003   5.1302934758e-001   4.3193875041e-001   4.9892158533e-001   4.5189277327e-001  -1.4184741834e-003   1.5260776483e-003
  7.5150000000e+010  -1.4831591600e-004  -1.1746729030e-003   5.1303210176e-001   4.3193636436e-001   4.9892453854e-001   4.5189000398e-001  -1.4162076322e-003   1.5267711703e-003
  7.5175000000e+010  -1.4834646827e-004  -1.1744490222e-003   5.1303531492e-001   4.3193358069e-001   4.9892798391e-001   4.5188677316e-001  -1.4139151428e-003   1.5274207012e-003
  7.5200000000e+010  -1.4838137456e-004  -1.1741931853e-003   5.1303898705e-001   4.3193039940e-001   4.9893192144e-001   4.5188308084e-001  -1.4115967388e-003   1.5280262370e-003
  7.5225000000e+010  -1.4842063066e-004  -1.1739054030e-003   5.1304311813e-001   4.3192682054e-001   4.9893635110e-001   4.5187892703e-001  -1.4092524459e-003   1.5285877755e-003
  7.5250000000e+010  -1.4846423179e-004  -1.1735856875e-003   5.1304770812e-001   4.3192284413e-001   4.9894127287e-001   4.5187431174e-001  -1.4068822909e-003   1.5291053164e-003
  7.5275000000e+010  -1.4851217267e-004  -1.1732340521e-003   5.1305275700e-001   4.3191847019e-001   4.9894668674e-001   4.5186923499e-001  -1.4044863025e-003   1.5295788616e-003
  7.5300000000e+010  -1.4856444749e-004  -1.1728505117e-003   5.1305826475e-001   4.3191369877e-001   4.9895259268e-001   4.5186369682e-001  -1.4020645113e-003   1.5300084149e-003
  7.5325000000e+010  -1.4862104991e-004  -1.1724350823e-003   5.1306423131e-001   4.3190852991e-001   4.9895899066e-001   4.5185769722e-001  -1.3996169491e-003   1.5303939821e-003
  7.5350000000e+010  -1.4868197306e-004  -1.1719877814e-003   5.1307065667e-001   4.3190296363e-001   4.9896588066e-001   4.5185123625e-001  -1.3971436495e-003   1.5307355710e-003
  7.5375000000e+010  -1.4874720954e-004  -1.1715086278e-003   5.1307754077e-001   4.3189700000e-001   4.9897326264e-001   4.5184431391e-001  -1.3946446480e-003   1.5310331914e-003
  7.5400000000e+010  -1.4881675145e-004  -1.1709976417e-003   5.1308488358e-001   4.3189063904e-001   4.9898113658e-001   4.5183693024e-001  -1.3921199813e-003   1.5312868550e-003
  7.5425000000e+010  -1.4889059033e-004  -1.1704548444e-003   5.1309268505e-001   4.3188388083e-001   4.9898950243e-001   4.5182908526e-001  -1.3895696881e-003   1.5314965757e-003
  7.5450000000e+010  -1.4896871723e-004  -1.1698802588e-003   5.1310094513e-001   4.3187672540e-001   4.9899836016e-001   4.5182077902e-001  -1.3869938085e-003   1.5316623691e-003
  7.5475000000e+010  -1.4905112265e-004  -1.1692739090e-003   5.1310966377e-001   4.3186917281e-001   4.9900770973e-001   4.5181201154e-001  -1.3843923843e-003   1.5317842529e-003
  7.5500000000e+010  -1.4913779658e-004  -1.1686358206e-003   5.1311884092e-001   4.3186122313e-001   4.9901755111e-001   4.5180278287e-001  -1.3817654591e-003   1.5318622469e-003
  7.5525000000e+010  -1.4922872849e-004  -1.1679660202e-003   5.1312847652e-001   4.3185287642e-001   4.9902788423e-001   4.5179309303e-001  -1.3791130778e-003   1.5318963728e-003
  7.5550000000e+010  -1.4932390733e-004  -1.1672645361e-003   5.1313857052e-001   4.3184413275e-001   4.9903870907e-001   4.5178294207e-001  -1.3764352873e-003   1.5318866541e-003
  7.5575000000e+010  -1.4942332151e-004  -1.1665313976e-003   5.1314912284e-001   4.3183499217e-001   4.9905002558e-001   4.5177233003e-001  -1.3737321357e-003   1.5318331164e-003
  7.5600000000e+010  -1.4952695895e-004  -1.1657666357e-003   5.1316013342e-001   4.3182545477e-001   4.9906183369e-001   4.5176125695e-001  -1.3710036730e-003   1.5317357874e-003
  7.5625000000e+010  -1.4963480704e-004  -1.1649702824e-003   5.1317160220e-001   4.3181552062e-001   4.9907413336e-001   4.5174972289e-001  -1.3682499509e-003   1.5315946966e-003
  7.5650000000e+010  -1.4974685264e-004  -1.1641423712e-003   5.1318352910e-001   4.3180518981e-001   4.9908692454e-001   4.5173772788e-001  -1.3654710224e-003   1.5314098754e-003
  7.5675000000e+010  -1.4986308210e-004  -1.1632829368e-003   5.1319591406e-001   4.3179446240e-001   4.9910020717e-001   4.5172527198e-001  -1.3626669422e-003   1.5311813572e-003
  7.5700000000e+010  -1.4998348128e-004  -1.1623920154e-003   5.1320875699e-001   4.3178333849e-001   4.9911398119e-001   4.5171235523e-001  -1.3598377669e-003   1.5309091776e-003
  7.5725000000e+010  -1.5010803549e-004  -1.1614696443e-003   5.1322205781e-001   4.3177181816e-001   4.9912824654e-001   4.5169897770e-001  -1.3569835542e-003   1.5305933738e-003
  7.5750000000e+010  -1.5023672954e-004  -1.1605158624e-003   5.1323581645e-001   4.3175990151e-001   4.9914300315e-001   4.5168513943e-001  -1.3541043639e-003   1.5302339850e-003
  7.5775000000e+010  -1.5036954774e-004  -1.1595307097e-003   5.1325003281e-001   4.3174758863e-001   4.9915825097e-001   4.5167084049e-001  -1.3512002570e-003   1.5298310526e-003
  7.5800000000e+010  -1.5050647387e-004  -1.1585142276e-003   5.1326470681e-001   4.3173487962e-001   4.9917398992e-001   4.5165608092e-001  -1.3482712963e-003   1.5293846197e-003
  7.5825000000e+010  -1.5064749121e-004  -1.1574664587e-003   5.1327983837e-001   4.3172177458e-001   4.9919021993e-001   4.5164086080e-001  -1.3453175461e-003   1.5288947313e-003
  7.5850000000e+010  -1.5079258253e-004  -1.1563874471e-003   5.1329542738e-001   4.3170827360e-001   4.9920694094e-001   4.5162518019e-001  -1.3423390722e-003   1.5283614345e-003
  7.5875000000e+010  -1.5094173009e-004  -1.1552772382e-003   5.1331147374e-001   4.3169437681e-001   4.9922415286e-001   4.5160903914e-001  -1.3393359423e-003   1.5277847782e-003
  7.5900000000e+010  -1.5109491566e-004  -1.1541358784e-003   5.1332797737e-001   4.3168008430e-001   4.9924185562e-001   4.5159243774e-001  -1.3363082252e-003   1.5271648133e-003
  7.5925000000e+010  -1.5125212049e-004  -1.1529634159e-003   5.1334493816e-001   4.3166539620e-001   4.9926004915e-001   4.5157537603e-001  -1.3332559917e-003   1.5265015925e-003
  7.5950000000e+010  -1.5141332532e-004  -1.1517598998e-003   5.1336235600e-001   4.3165031261e-001   4.9927873336e-001   4.5155785410e-001  -1.3301793138e-003   1.5257951706e-003
  7.5975000000e+010  -1.5157851041e-004  -1.1505253806e-003   5.1338023079e-001   4.3163483366e-001   4.9929790817e-001   4.5153987202e-001  -1.3270782653e-003   1.5250456041e-003
  7.6000000000e+010  -1.5174765550e-004  -1.1492599103e-003   5.1339856241e-001   4.3161895947e-001   4.9931757349e-001   4.5152142986e-001  -1.3239529215e-003   1.5242529515e-003
  7.6025000000e+010  -1.5192073985e-004  -1.1479635420e-003   5.1341735076e-001   4.3160269017e-001   4.9933772925e-001   4.5150252770e-001  -1.3208033591e-003   1.5234172732e-003
  7.6050000000e+010  -1.5209774221e-004  -1.1466363302e-003   5.1343659571e-001   4.3158602588e-001   4.9935837534e-001   4.5148316561e-001  -1.3176296566e-003   1.5225386316e-003
  7.6075000000e+010  -1.5227864084e-004  -1.1452783305e-003   5.1345629715e-001   4.3156896673e-001   4.9937951168e-001   4.5146334368e-001  -1.3144318938e-003   1.5216170907e-003
  7.6100000000e+010  -1.5246341350e-004  -1.1438896001e-003   5.1347645496e-001   4.3155151287e-001   4.9940113817e-001   4.5144306198e-001  -1.3112101520e-003   1.5206527167e-003
  7.6125000000e+010  -1.5265203747e-004  -1.1424701972e-003   5.1349706900e-001   4.3153366442e-001   4.9942325472e-001   4.5142232060e-001  -1.3079645144e-003   1.5196455775e-003
  7.6150000000e+010  -1.5284448953e-004  -1.1410201815e-003   5.1351813916e-001   4.3151542153e-001   4.9944586123e-001   4.5140111963e-001  -1.3046950652e-003   1.5185957428e-003
  7.6175000000e+010  -1.5304074597e-004  -1.1395396139e-003   5.1353966531e-001   4.3149678435e-001   4.9946895760e-001   4.5137945915e-001  -1.3014018905e-003   1.5175032844e-003
  7.6200000000e+010  -1.5324078260e-004  -1.1380285566e-003   5.1356164730e-001   4.3147775302e-001   4.9949254373e-001   4.5135733926e-001  -1.2980850777e-003   1.5163682759e-003
  7.6225000000e+010  -1.5344457474e-004  -1.1364870730e-003   5.1358408502e-001   4.3145832769e-001   4.9951661951e-001   4.5133476003e-001  -1.2947447158e-003   1.5151907925e-003
  7.6250000000e+010  -1.5365209724e-004  -1.1349152279e-003   5.1360697830e-001   4.3143850852e-001   4.9954118484e-001   4.5131172158e-001  -1.2913808952e-003   1.5139709116e-003
  7.6275000000e+010  -1.5386332446e-004  -1.1333130873e-003   5.1363032703e-001   4.3141829566e-001   4.9956623960e-001   4.5128822398e-001  -1.2879937079e-003   1.5127087124e-003
  7.6300000000e+010  -1.5407823026e-004  -1.1316807185e-003   5.1365413104e-001   4.3139768927e-001   4.9959178369e-001   4.5126426734e-001  -1.2845832473e-003   1.5114042756e-003
  7.6325000000e+010  -1.5429678806e-004  -1.1300181900e-003   5.1367839020e-001   4.3137668952e-001   4.9961781700e-001   4.5123985176e-001  -1.2811496083e-003   1.5100576842e-003
  7.6350000000e+010  -1.5451897078e-004  -1.1283255717e-003   5.1370310436e-001   4.3135529656e-001   4.9964433940e-001   4.5121497734e-001  -1.2776928873e-003   1.5086690226e-003
  7.6375000000e+010  -1.5474475088e-004  -1.1266029347e-003   5.1372827336e-001   4.3133351058e-001   4.9967135079e-001   4.5118964417e-001  -1.2742131820e-003   1.5072383775e-003
  7.6400000000e+010  -1.5497410034e-004  -1.1248503513e-003   5.1375389704e-001   4.3131133174e-001   4.9969885103e-001   4.5116385237e-001  -1.2707105918e-003   1.5057658370e-003
  7.6425000000e+010  -1.5520699068e-004  -1.1230678951e-003   5.1377997525e-001   4.3128876022e-001   4.9972684002e-001   4.5113760205e-001  -1.2671852174e-003   1.5042514911e-003
  7.6450000000e+010  -1.5544339293e-004  -1.1212556410e-003   5.1380650783e-001   4.3126579619e-001   4.9975531762e-001   4.5111089330e-001  -1.2636371609e-003   1.5026954319e-003
  7.6475000000e+010  -1.5568327769e-004  -1.1194136651e-003   5.1383349462e-001   4.3124243984e-001   4.9978428371e-001   4.5108372624e-001  -1.2600665259e-003   1.5010977530e-003
  7.6500000000e+010  -1.5592661508e-004  -1.1175420447e-003   5.1386093544e-001   4.3121869135e-001   4.9981373816e-001   4.5105610098e-001  -1.2564734174e-003   1.4994585498e-003
  7.6525000000e+010  -1.5617337475e-004  -1.1156408585e-003   5.1388883013e-001   4.3119455091e-001   4.9984368084e-001   4.5102801763e-001  -1.2528579419e-003   1.4977779197e-003
  7.6550000000e+010  -1.5642352592e-004  -1.1137101863e-003   5.1391717851e-001   4.3117001871e-001   4.9987411162e-001   4.5099947632e-001  -1.2492202071e-003   1.4960559616e-003
  7.6575000000e+010  -1.5667703732e-004  -1.1117501092e-003   5.1394598042e-001   4.3114509494e-001   4.9990503036e-001   4.5097047715e-001  -1.2455603225e-003   1.4942927765e-003
  7.6600000000e+010  -1.5693387725e-004  -1.1097607094e-003   5.1397523567e-001   4.3111977981e-001   4.9993643693e-001   4.5094102026e-001  -1.2418783985e-003   1.4924884669e-003
  7.6625000000e+010  -1.5719401356e-004  -1.1077420706e-003   5.1400494408e-001   4.3109407350e-001   4.9996833119e-001   4.5091110575e-001  -1.2381745471e-003   1.4906431373e-003
  7.6650000000e+010  -1.5745741364e-004  -1.1056942776e-003   5.1403510547e-001   4.3106797623e-001   5.0000071298e-001   4.5088073376e-001  -1.2344488819e-003   1.4887568937e-003
  7.6675000000e+010  -1.5772404444e-004  -1.1036174162e-003   5.1406571966e-001   4.3104148820e-001   5.0003358219e-001   4.5084990440e-001  -1.2307015176e-003   1.4868298440e-003
  7.6700000000e+010  -1.5799387248e-004  -1.1015115738e-003   5.1409678645e-001   4.3101460961e-001   5.0006693864e-001   4.5081861781e-001  -1.2269325702e-003   1.4848620979e-003
  7.6725000000e+010  -1.5826686380e-004  -1.0993768387e-003   5.1412830565e-001   4.3098734069e-001   5.0010078221e-001   4.5078687412e-001  -1.2231421574e-003   1.4828537667e-003
  7.6750000000e+010  -1.5854298405e-004  -1.0972133006e-003   5.1416027707e-001   4.3095968164e-001   5.0013511273e-001   4.5075467345e-001  -1.2193303979e-003   1.4808049636e-003
  7.6775000000e+010  -1.5882219842e-004  -1.0950210504e-003   5.1419270052e-001   4.3093163269e-001   5.0016993006e-001   4.5072201594e-001  -1.2154974118e-003   1.4787158033e-003
  7.6800000000e+010  -1.5910447166e-004  -1.0928001801e-003   5.1422557578e-001   4.3090319405e-001   5.0020523404e-001   4.5068890172e-001  -1.2116433208e-003   1.4765864025e-003
  7.6825000000e+010  -1.5938976811e-004  -1.0905507830e-003   5.1425890267e-001   4.3087436596e-001   5.0024102452e-001   4.5065533093e-001  -1.2077682476e-003   1.4744168793e-003
  7.6850000000e+010  -1.5967805166e-004  -1.0882729535e-003   5.1429268096e-001   4.3084514863e-001   5.0027730133e-001   4.5062130371e-001  -1.2038723164e-003   1.4722073538e-003
  7.6875000000e+010  -1.5996928580e-004  -1.0859667873e-003   5.1432691046e-001   4.3081554229e-001   5.0031406432e-001   4.5058682020e-001  -1.1999556526e-003   1.4699579476e-003
  7.6900000000e+010  -1.6026343357e-004  -1.0836323812e-003   5.1436159096e-001   4.3078554719e-001   5.0035131332e-001   4.5055188055e-001  -1.1960183829e-003   1.4676687840e-003
  7.6925000000e+010  -1.6056045763e-004  -1.0812698332e-003   5.1439672224e-001   4.3075516356e-001   5.0038904817e-001   4.5051648488e-001  -1.1920606354e-003   1.4653399881e-003
  7.6950000000e+010  -1.6086032018e-004  -1.0788792426e-003   5.1443230408e-001   4.3072439163e-001   5.0042726870e-001   4.5048063336e-001  -1.1880825393e-003   1.4629716866e-003
  7.6975000000e+010  -1.6116298303e-004  -1.0764607097e-003   5.1446833626e-001   4.3069323166e-001   5.0046597474e-001   4.5044432613e-001  -1.1840842252e-003   1.4605640079e-003
  7.7000000000e+010  -1.6146840757e-004  -1.0740143361e-003   5.1450481857e-001   4.3066168388e-001   5.0050516612e-001   4.5040756334e-001  -1.1800658250e-003   1.4581170821e-003
  7.7025000000e+010  -1.6177655481e-004  -1.0715402245e-003   5.1454175077e-001   4.3062974854e-001   5.0054484266e-001   4.5037034514e-001  -1.1760274717e-003   1.4556310407e-003
  7.7050000000e+010  -1.6208738531e-004  -1.0690384787e-003   5.1457913264e-001   4.3059742590e-001   5.0058500419e-001   4.5033267169e-001  -1.1719692996e-003   1.4531060172e-003
  7.7075000000e+010  -1.6240085927e-004  -1.0665092039e-003   5.1461696396e-001   4.3056471621e-001   5.0062565054e-001   4.5029454314e-001  -1.1678914443e-003   1.4505421465e-003
  7.7100000000e+010  -1.6271693646e-004  -1.0639525062e-003   5.1465524447e-001   4.3053161973e-001   5.0066678151e-001   4.5025595964e-001  -1.1637940425e-003   1.4479395653e-003
  7.7125000000e+010  -1.6303557627e-004  -1.0613684929e-003   5.1469397396e-001   4.3049813672e-001   5.0070839693e-001   4.5021692137e-001  -1.1596772323e-003   1.4452984118e-003
  7.7150000000e+010  -1.6335673771e-004  -1.0587572726e-003   5.1473315218e-001   4.3046426744e-001   5.0075049662e-001   4.5017742847e-001  -1.1555411527e-003   1.4426188259e-003
  7.7175000000e+010  -1.6368037936e-004  -1.0561189548e-003   5.1477277889e-001   4.3043001216e-001   5.0079308038e-001   4.5013748112e-001  -1.1513859442e-003   1.4399009489e-003
  7.7200000000e+010  -1.6400645946e-004  -1.0534536504e-003   5.1481285385e-001   4.3039537116e-001   5.0083614804e-001   4.5009707948e-001  -1.1472117483e-003   1.4371449240e-003
  7.7225000000e+010  -1.6433493584e-004  -1.0507614712e-003   5.1485337681e-001   4.3036034469e-001   5.0087969938e-001   4.5005622371e-001  -1.1430187078e-003   1.4343508958e-003
  7.7250000000e+010  -1.6466576596e-004  -1.0480425303e-003   5.1489434751e-001   4.3032493304e-001   5.0092373424e-001   4.5001491398e-001  -1.1388069665e-003   1.4315190105e-003
  7.7275000000e+010  -1.6499890689e-004  -1.0452969418e-003   5.1493576572e-001   4.3028913649e-001   5.0096825240e-001   4.4997315047e-001  -1.1345766694e-003   1.4286494160e-003
  7.7300000000e+010  -1.6533431535e-004  -1.0425248210e-003   5.1497763116e-001   4.3025295532e-001   5.0101325367e-001   4.4993093334e-001  -1.1303279628e-003   1.4257422615e-003
  7.7325000000e+010  -1.6567194767e-004  -1.0397262842e-003   5.1501994360e-001   4.3021638981e-001   5.0105873785e-001   4.4988826278e-001  -1.1260609940e-003   1.4227976982e-003
  7.7350000000e+010  -1.6601175982e-004  -1.0369014490e-003   5.1506270275e-001   4.3017944026e-001   5.0110470474e-001   4.4984513896e-001  -1.1217759113e-003   1.4198158784e-003
  7.7375000000e+010  -1.6635370742e-004  -1.0340504339e-003   5.1510590837e-001   4.3014210694e-001   5.0115115413e-001   4.4980156205e-001  -1.1174728645e-003   1.4167969561e-003
  7.7400000000e+010  -1.6669774569e-004  -1.0311733586e-003   5.1514956018e-001   4.3010439017e-001   5.0119808583e-001   4.4975753224e-001  -1.1131520040e-003   1.4137410870e-003
  7.7425000000e+010  -1.6704382955e-004  -1.0282703439e-003   5.1519365791e-001   4.3006629022e-001   5.0124549961e-001   4.4971304970e-001  -1.1088134816e-003   1.4106484281e-003
  7.7450000000e+010  -1.6739191351e-004  -1.0253415116e-003   5.1523820130e-001   4.3002780741e-001   5.0129339527e-001   4.4966811464e-001  -1.1044574502e-003   1.4075191380e-003
  7.7475000000e+010  -1.6774195178e-004  -1.0223869847e-003   5.1528319008e-001   4.2998894203e-001   5.0134177260e-001   4.4962272722e-001  -1.1000840637e-003   1.4043533768e-003
  7.7500000000e+010  -1.6809389819e-004  -1.0194068873e-003   5.1532862395e-001   4.2994969439e-001   5.0139063139e-001   4.4957688763e-001  -1.0956934769e-003   1.4011513062e-003
  7.7525000000e+010  -1.6844770624e-004  -1.0164013443e-003   5.1537450265e-001   4.2991006480e-001   5.0143997141e-001   4.4953059608e-001  -1.0912858460e-003   1.3979130892e-003
  7.7550000000e+010  -1.6880332910e-004  -1.0133704820e-003   5.1542082589e-001   4.2987005357e-001   5.0148979244e-001   4.4948385274e-001  -1.0868613278e-003   1.3946388905e-003
  7.7575000000e+010  -1.6916071958e-004  -1.0103144275e-003   5.1546759339e-001   4.2982966102e-001   5.0154009427e-001   4.4943665782e-001  -1.0824200805e-003   1.3913288760e-003
  7.7600000000e+010  -1.6951983018e-004  -1.0072333092e-003   5.1551480486e-001   4.2978888746e-001   5.0159087667e-001   4.4938901150e-001  -1.0779622632e-003   1.3879832133e-003
  7.7625000000e+010  -1.6988061306e-004  -1.0041272564e-003   5.1556246000e-001   4.2974773321e-001   5.0164213942e-001   4.4934091399e-001  -1.0734880359e-003   1.3846020715e-003
  7.7650000000e+010  -1.7024302006e-004  -1.0009963995e-003   5.1561055853e-001   4.2970619860e-001   5.0169388228e-001   4.4929236548e-001  -1.0689975597e-003   1.3811856208e-003
  7.7675000000e+010  -1.7060700271e-004  -9.9784086974e-004   5.1565910015e-001   4.2966428395e-001   5.0174610504e-001   4.4924336617e-001  -1.0644909966e-003   1.3777340332e-003
  7.7700000000e+010  -1.7097251220e-004  -9.9466079970e-004   5.1570808456e-001   4.2962198959e-001   5.0179880745e-001   4.4919391628e-001  -1.0599685097e-003   1.3742474819e-003
