# Hz S RI R 50.000000
! Metas.Vna.Tools, 2.4.7724.19584
! Metas.Vna.Data, 2.4.7724.19560
! Created: UTC 2021.04.29 12:40:11
! FREQ                re:S1,1             im:S1,1             re:S2,1             im:S2,1             re:S1,2             im:S1,2             re:S2,2             im:S2,2          
  7.5000000000e+010  -1.2986314651e-004  -1.1136913178e-003   3.3336752203e-001   4.2872608948e-001   3.1939475376e-001   4.4267612122e-001   2.2784427685e-004   1.7212408653e-003
  7.5025000000e+010  -1.2986762685e-004  -1.1136608627e-003   3.3336799269e-001   4.2872566823e-001   3.1939524778e-001   4.4267570929e-001   2.2662632177e-004   1.7217444061e-003
  7.5050000000e+010  -1.2987658698e-004  -1.1135999538e-003   3.3336893402e-001   4.2872482572e-001   3.1939623581e-001   4.4267488542e-001   2.2540336587e-004   1.7221860214e-003
  7.5075000000e+010  -1.2989002576e-004  -1.1135085938e-003   3.3337034600e-001   4.2872356198e-001   3.1939771786e-001   4.4267364962e-001   2.2417545997e-004   1.7225658761e-003
  7.5100000000e+010  -1.2990794152e-004  -1.1133867864e-003   3.3337222863e-001   4.2872187700e-001   3.1939969391e-001   4.4267200191e-001   2.2294265536e-004   1.7228841374e-003
  7.5125000000e+010  -1.2993033201e-004  -1.1132345370e-003   3.3337458190e-001   4.2871977079e-001   3.1940216396e-001   4.4266994227e-001   2.2170500375e-004   1.7231409749e-003
  7.5150000000e+010  -1.2995719443e-004  -1.1130518520e-003   3.3337740579e-001   4.2871724338e-001   3.1940512799e-001   4.4266747074e-001   2.2046255733e-004   1.7233365604e-003
  7.5175000000e+010  -1.2998852541e-004  -1.1128387392e-003   3.3338070029e-001   4.2871429478e-001   3.1940858599e-001   4.4266458731e-001   2.1921536870e-004   1.7234710678e-003
  7.5200000000e+010  -1.3002432103e-004  -1.1125952077e-003   3.3338446539e-001   4.2871092501e-001   3.1941253795e-001   4.4266129201e-001   2.1796349091e-004   1.7235446735e-003
  7.5225000000e+010  -1.3006457681e-004  -1.1123212680e-003   3.3338870105e-001   4.2870713410e-001   3.1941698384e-001   4.4265758485e-001   2.1670697744e-004   1.7235575560e-003
  7.5250000000e+010  -1.3010928770e-004  -1.1120169318e-003   3.3339340725e-001   4.2870292207e-001   3.1942192365e-001   4.4265346585e-001   2.1544588217e-004   1.7235098958e-003
  7.5275000000e+010  -1.3015844810e-004  -1.1116822120e-003   3.3339858397e-001   4.2869828896e-001   3.1942735735e-001   4.4264893503e-001   2.1418025943e-004   1.7234018760e-003
  7.5300000000e+010  -1.3021205185e-004  -1.1113171229e-003   3.3340423118e-001   4.2869323479e-001   3.1943328492e-001   4.4264399241e-001   2.1291016394e-004   1.7232336815e-003
  7.5325000000e+010  -1.3027009222e-004  -1.1109216802e-003   3.3341034885e-001   4.2868775961e-001   3.1943970633e-001   4.4263863802e-001   2.1163565082e-004   1.7230054996e-003
  7.5350000000e+010  -1.3033256195e-004  -1.1104959007e-003   3.3341693694e-001   4.2868186345e-001   3.1944662154e-001   4.4263287189e-001   2.1035677561e-004   1.7227175196e-003
  7.5375000000e+010  -1.3039945320e-004  -1.1100398027e-003   3.3342399541e-001   4.2867554635e-001   3.1945403054e-001   4.4262669405e-001   2.0907359424e-004   1.7223699331e-003
  7.5400000000e+010  -1.3047075758e-004  -1.1095534056e-003   3.3343152423e-001   4.2866880837e-001   3.1946193328e-001   4.4262010452e-001   2.0778616300e-004   1.7219629337e-003
  7.5425000000e+010  -1.3054646614e-004  -1.1090367302e-003   3.3343952334e-001   4.2866164954e-001   3.1947032973e-001   4.4261310334e-001   2.0649453860e-004   1.7214967171e-003
  7.5450000000e+010  -1.3062656938e-004  -1.1084897986e-003   3.3344799272e-001   4.2865406993e-001   3.1947921984e-001   4.4260569055e-001   2.0519877811e-004   1.7209714813e-003
  7.5475000000e+010  -1.3071105726e-004  -1.1079126342e-003   3.3345693230e-001   4.2864606958e-001   3.1948860358e-001   4.4259786618e-001   2.0389893896e-004   1.7203874260e-003
  7.5500000000e+010  -1.3079991916e-004  -1.1073052616e-003   3.3346634204e-001   4.2863764855e-001   3.1949848090e-001   4.4258963028e-001   2.0259507896e-004   1.7197447534e-003
  7.5525000000e+010  -1.3089314392e-004  -1.1066677067e-003   3.3347622189e-001   4.2862880690e-001   3.1950885176e-001   4.4258098288e-001   2.0128725628e-004   1.7190436674e-003
  7.5550000000e+010  -1.3099071983e-004  -1.1059999968e-003   3.3348657178e-001   4.2861954470e-001   3.1951971611e-001   4.4257192403e-001   1.9997552943e-004   1.7182843742e-003
  7.5575000000e+010  -1.3109263463e-004  -1.1053021604e-003   3.3349739166e-001   4.2860986202e-001   3.1953107390e-001   4.4256245378e-001   1.9865995727e-004   1.7174670818e-003
  7.5600000000e+010  -1.3119887551e-004  -1.1045742274e-003   3.3350868147e-001   4.2859975892e-001   3.1954292507e-001   4.4255257218e-001   1.9734059902e-004   1.7165920005e-003
  7.5625000000e+010  -1.3130942910e-004  -1.1038162288e-003   3.3352044114e-001   4.2858923547e-001   3.1955526957e-001   4.4254227927e-001   1.9601751420e-004   1.7156593422e-003
  7.5650000000e+010  -1.3142428151e-004  -1.1030281970e-003   3.3353267061e-001   4.2857829176e-001   3.1956810735e-001   4.4253157510e-001   1.9469076268e-004   1.7146693212e-003
  7.5675000000e+010  -1.3154341827e-004  -1.1022101657e-003   3.3354536981e-001   4.2856692785e-001   3.1958143834e-001   4.4252045974e-001   1.9336040466e-004   1.7136221534e-003
  7.5700000000e+010  -1.3166682439e-004  -1.1013621698e-003   3.3355853866e-001   4.2855514384e-001   3.1959526248e-001   4.4250893324e-001   1.9202650065e-004   1.7125180570e-003
  7.5725000000e+010  -1.3179448432e-004  -1.1004842456e-003   3.3357217710e-001   4.2854293980e-001   3.1960957971e-001   4.4249699566e-001   1.9068911145e-004   1.7113572518e-003
  7.5750000000e+010  -1.3192638199e-004  -1.0995764305e-003   3.3358628504e-001   4.2853031582e-001   3.1962438996e-001   4.4248464705e-001   1.8934829820e-004   1.7101399598e-003
  7.5775000000e+010  -1.3206250075e-004  -1.0986387634e-003   3.3360086240e-001   4.2851727201e-001   3.1963969316e-001   4.4247188748e-001   1.8800412232e-004   1.7088664047e-003
  7.5800000000e+010  -1.3220282345e-004  -1.0976712842e-003   3.3361590911e-001   4.2850380843e-001   3.1965548924e-001   4.4245871702e-001   1.8665664551e-004   1.7075368123e-003
  7.5825000000e+010  -1.3234733237e-004  -1.0966740344e-003   3.3363142507e-001   4.2848992521e-001   3.1967177813e-001   4.4244513574e-001   1.8530592978e-004   1.7061514100e-003
  7.5850000000e+010  -1.3249600929e-004  -1.0956470564e-003   3.3364741020e-001   4.2847562243e-001   3.1968855975e-001   4.4243114369e-001   1.8395203742e-004   1.7047104273e-003
  7.5875000000e+010  -1.3264883541e-004  -1.0945903942e-003   3.3366386441e-001   4.2846090019e-001   3.1970583403e-001   4.4241674096e-001   1.8259503096e-004   1.7032140956e-003
  7.5900000000e+010  -1.3280579142e-004  -1.0935040930e-003   3.3368078760e-001   4.2844575862e-001   3.1972360088e-001   4.4240192762e-001   1.8123497324e-004   1.7016626478e-003
  7.5925000000e+010  -1.3296685748e-004  -1.0923881990e-003   3.3369817967e-001   4.2843019780e-001   3.1974186022e-001   4.4238670374e-001   1.7987192734e-004   1.7000563189e-003
  7.5950000000e+010  -1.3313201321e-004  -1.0912427600e-003   3.3371604054e-001   4.2841421785e-001   3.1976061197e-001   4.4237106940e-001   1.7850595660e-004   1.6983953456e-003
  7.5975000000e+010  -1.3330123771e-004  -1.0900678249e-003   3.3373437010e-001   4.2839781890e-001   3.1977985604e-001   4.4235502469e-001   1.7713712460e-004   1.6966799664e-003
  7.6000000000e+010  -1.3347450954e-004  -1.0888634438e-003   3.3375316824e-001   4.2838100105e-001   3.1979959234e-001   4.4233856967e-001   1.7576549518e-004   1.6949104216e-003
  7.6025000000e+010  -1.3365180674e-004  -1.0876296683e-003   3.3377243486e-001   4.2836376443e-001   3.1981982077e-001   4.4232170444e-001   1.7439113241e-004   1.6930869533e-003
  7.6050000000e+010  -1.3383310683e-004  -1.0863665509e-003   3.3379216985e-001   4.2834610916e-001   3.1984054125e-001   4.4230442908e-001   1.7301410059e-004   1.6912098051e-003
  7.6075000000e+010  -1.3401838679e-004  -1.0850741456e-003   3.3381237309e-001   4.2832803537e-001   3.1986175368e-001   4.4228674368e-001   1.7163446423e-004   1.6892792226e-003
  7.6100000000e+010  -1.3420762312e-004  -1.0837525077e-003   3.3383304448e-001   4.2830954319e-001   3.1988345796e-001   4.4226864833e-001   1.7025228808e-004   1.6872954530e-003
  7.6125000000e+010  -1.3440079175e-004  -1.0824016935e-003   3.3385418389e-001   4.2829063275e-001   3.1990565398e-001   4.4225014312e-001   1.6886763710e-004   1.6852587451e-003
  7.6150000000e+010  -1.3459786812e-004  -1.0810217608e-003   3.3387579120e-001   4.2827130418e-001   3.1992834165e-001   4.4223122815e-001   1.6748057645e-004   1.6831693495e-003
  7.6175000000e+010  -1.3479882716e-004  -1.0796127684e-003   3.3389786630e-001   4.2825155763e-001   3.1995152087e-001   4.4221190352e-001   1.6609117148e-004   1.6810275185e-003
  7.6200000000e+010  -1.3500364329e-004  -1.0781747766e-003   3.3392040906e-001   4.2823139324e-001   3.1997519151e-001   4.4219216931e-001   1.6469948774e-004   1.6788335058e-003
  7.6225000000e+010  -1.3521229039e-004  -1.0767078466e-003   3.3394341935e-001   4.2821081115e-001   3.1999935348e-001   4.4217202564e-001   1.6330559098e-004   1.6765875670e-003
  7.6250000000e+010  -1.3542474186e-004  -1.0752120412e-003   3.3396689703e-001   4.2818981151e-001   3.2002400665e-001   4.4215147260e-001   1.6190954711e-004   1.6742899592e-003
  7.6275000000e+010  -1.3564097058e-004  -1.0736874243e-003   3.3399084198e-001   4.2816839447e-001   3.2004915092e-001   4.4213051030e-001   1.6051142223e-004   1.6719409410e-003
  7.6300000000e+010  -1.3586094894e-004  -1.0721340608e-003   3.3401525407e-001   4.2814656018e-001   3.2007478618e-001   4.4210913884e-001   1.5911128259e-004   1.6695407728e-003
  7.6325000000e+010  -1.3608464881e-004  -1.0705520172e-003   3.3404013314e-001   4.2812430881e-001   3.2010091229e-001   4.4208735834e-001   1.5770919463e-004   1.6670897164e-003
  7.6350000000e+010  -1.3631204158e-004  -1.0689413609e-003   3.3406547907e-001   4.2810164050e-001   3.2012752913e-001   4.4206516891e-001   1.5630522492e-004   1.6645880350e-003
  7.6375000000e+010  -1.3654309812e-004  -1.0673021607e-003   3.3409129171e-001   4.2807855543e-001   3.2015463660e-001   4.4204257066e-001   1.5489944019e-004   1.6620359937e-003
  7.6400000000e+010  -1.3677778882e-004  -1.0656344867e-003   3.3411757090e-001   4.2805505376e-001   3.2018223455e-001   4.4201956370e-001   1.5349190732e-004   1.6594338589e-003
  7.6425000000e+010  -1.3701608358e-004  -1.0639384099e-003   3.3414431651e-001   4.2803113566e-001   3.2021032286e-001   4.4199614816e-001   1.5208269329e-004   1.6567818984e-003
  7.6450000000e+010  -1.3725795180e-004  -1.0622140028e-003   3.3417152838e-001   4.2800680129e-001   3.2023890140e-001   4.4197232414e-001   1.5067186527e-004   1.6540803816e-003
  7.6475000000e+010  -1.3750336239e-004  -1.0604613389e-003   3.3419920636e-001   4.2798205084e-001   3.2026797004e-001   4.4194809178e-001   1.4925949050e-004   1.6513295795e-003
  7.6500000000e+010  -1.3775228380e-004  -1.0586804932e-003   3.3422735028e-001   4.2795688448e-001   3.2029752864e-001   4.4192345119e-001   1.4784563636e-004   1.6485297643e-003
  7.6525000000e+010  -1.3800468396e-004  -1.0568715415e-003   3.3425596000e-001   4.2793130240e-001   3.2032757707e-001   4.4189840251e-001   1.4643037036e-004   1.6456812096e-003
  7.6550000000e+010  -1.3826053035e-004  -1.0550345611e-003   3.3428503534e-001   4.2790530476e-001   3.2035811518e-001   4.4187294585e-001   1.4501376007e-004   1.6427841908e-003
  7.6575000000e+010  -1.3851978995e-004  -1.0531696304e-003   3.3431457615e-001   4.2787889178e-001   3.2038914283e-001   4.4184708135e-001   1.4359587320e-004   1.6398389842e-003
  7.6600000000e+010  -1.3878242929e-004  -1.0512768290e-003   3.3434458226e-001   4.2785206362e-001   3.2042065988e-001   4.4182080915e-001   1.4217677753e-004   1.6368458678e-003
  7.6625000000e+010  -1.3904841442e-004  -1.0493562376e-003   3.3437505349e-001   4.2782482049e-001   3.2045266619e-001   4.4179412937e-001   1.4075654094e-004   1.6338051209e-003
  7.6650000000e+010  -1.3931771090e-004  -1.0474079382e-003   3.3440598968e-001   4.2779716257e-001   3.2048516159e-001   4.4176704215e-001   1.3933523138e-004   1.6307170241e-003
  7.6675000000e+010  -1.3959028384e-004  -1.0454320139e-003   3.3443739064e-001   4.2776909008e-001   3.2051814595e-001   4.4173954762e-001   1.3791291687e-004   1.6275818593e-003
  7.6700000000e+010  -1.3986609790e-004  -1.0434285491e-003   3.3446925620e-001   4.2774060320e-001   3.2055161911e-001   4.4171164594e-001   1.3648966551e-004   1.6243999098e-003
  7.6725000000e+010  -1.4014511726e-004  -1.0413976292e-003   3.3450158619e-001   4.2771170215e-001   3.2058558091e-001   4.4168333724e-001   1.3506554545e-004   1.6211714601e-003
  7.6750000000e+010  -1.4042730564e-004  -1.0393393408e-003   3.3453438041e-001   4.2768238713e-001   3.2062003120e-001   4.4165462167e-001   1.3364062490e-004   1.6178967961e-003
  7.6775000000e+010  -1.4071262632e-004  -1.0372537718e-003   3.3456763868e-001   4.2765265835e-001   3.2065496981e-001   4.4162549936e-001   1.3221497212e-004   1.6145762048e-003
  7.6800000000e+010  -1.4100104213e-004  -1.0351410112e-003   3.3460136082e-001   4.2762251602e-001   3.2069039659e-001   4.4159597048e-001   1.3078865540e-004   1.6112099745e-003
  7.6825000000e+010  -1.4129251542e-004  -1.0330011490e-003   3.3463554663e-001   4.2759196036e-001   3.2072631136e-001   4.4156603516e-001   1.2936174310e-004   1.6077983949e-003
  7.6850000000e+010  -1.4158700814e-004  -1.0308342765e-003   3.3467019591e-001   4.2756099159e-001   3.2076271396e-001   4.4153569357e-001   1.2793430356e-004   1.6043417566e-003
  7.6875000000e+010  -1.4188448175e-004  -1.0286404862e-003   3.3470530848e-001   4.2752960993e-001   3.2079960423e-001   4.4150494586e-001   1.2650640519e-004   1.6008403516e-003
  7.6900000000e+010  -1.4218489732e-004  -1.0264198716e-003   3.3474088413e-001   4.2749781561e-001   3.2083698199e-001   4.4147379219e-001   1.2507811638e-004   1.5972944730e-003
  7.6925000000e+010  -1.4248821544e-004  -1.0241725275e-003   3.3477692267e-001   4.2746560885e-001   3.2087484706e-001   4.4144223270e-001   1.2364950555e-004   1.5937044151e-003
  7.6950000000e+010  -1.4279439629e-004  -1.0218985497e-003   3.3481342388e-001   4.2743298988e-001   3.2091319928e-001   4.4141026757e-001   1.2222064113e-004   1.5900704734e-003
  7.6975000000e+010  -1.4310339961e-004  -1.0195980351e-003   3.3485038756e-001   4.2739995895e-001   3.2095203845e-001   4.4137789696e-001   1.2079159154e-004   1.5863929443e-003
  7.7000000000e+010  -1.4341518473e-004  -1.0172710819e-003   3.3488781351e-001   4.2736651627e-001   3.2099136441e-001   4.4134512103e-001   1.1936242519e-004   1.5826721254e-003
  7.7025000000e+010  -1.4372971054e-004  -1.0149177892e-003   3.3492570150e-001   4.2733266210e-001   3.2103117697e-001   4.4131193995e-001   1.1793321048e-004   1.5789083156e-003
  7.7050000000e+010  -1.4404693551e-004  -1.0125382575e-003   3.3496405133e-001   4.2729839668e-001   3.2107147594e-001   4.4127835388e-001   1.1650401579e-004   1.5751018145e-003
  7.7075000000e+010  -1.4436681770e-004  -1.0101325881e-003   3.3500286278e-001   4.2726372025e-001   3.2111226114e-001   4.4124436301e-001   1.1507490947e-004   1.5712529231e-003
  7.7100000000e+010  -1.4468931476e-004  -1.0077008837e-003   3.3504213562e-001   4.2722863306e-001   3.2115353237e-001   4.4120996750e-001   1.1364595985e-004   1.5673619433e-003
  7.7125000000e+010  -1.4501438392e-004  -1.0052432479e-003   3.3508186965e-001   4.2719313535e-001   3.2119528945e-001   4.4117516753e-001   1.1221723522e-004   1.5634291778e-003
  7.7150000000e+010  -1.4534198202e-004  -1.0027597854e-003   3.3512206462e-001   4.2715722740e-001   3.2123753218e-001   4.4113996327e-001   1.1078880380e-004   1.5594549306e-003
  7.7175000000e+010  -1.4567206547e-004  -1.0002506022e-003   3.3516272032e-001   4.2712090944e-001   3.2128026036e-001   4.4110435490e-001   1.0936073380e-004   1.5554395066e-003
  7.7200000000e+010  -1.4600459031e-004  -9.9771580516e-004   3.3520383651e-001   4.2708418175e-001   3.2132347380e-001   4.4106834262e-001   1.0793309334e-004   1.5513832117e-003
  7.7225000000e+010  -1.4633951216e-004  -9.9515550234e-004   3.3524541297e-001   4.2704704459e-001   3.2136717229e-001   4.4103192659e-001   1.0650595049e-004   1.5472863525e-003
  7.7250000000e+010  -1.4667678627e-004  -9.9256980286e-004   3.3528744945e-001   4.2700949821e-001   3.2141135563e-001   4.4099510701e-001   1.0507937325e-004   1.5431492368e-003
  7.7275000000e+010  -1.4701636749e-004  -9.8995881690e-004   3.3532994571e-001   4.2697154289e-001   3.2145602362e-001   4.4095788406e-001   1.0365342956e-004   1.5389721733e-003
  7.7300000000e+010  -1.4735821028e-004  -9.8732265575e-004   3.3537290153e-001   4.2693317890e-001   3.2150117604e-001   4.4092025793e-001   1.0222818725e-004   1.5347554715e-003
  7.7325000000e+010  -1.4770226873e-004  -9.8466143172e-004   3.3541631665e-001   4.2689440652e-001   3.2154681269e-001   4.4088222882e-001   1.0080371410e-004   1.5304994416e-003
  7.7350000000e+010  -1.4804849655e-004  -9.8197525821e-004   3.3546019083e-001   4.2685522602e-001   3.2159293336e-001   4.4084379691e-001   9.9380077757e-005   1.5262043951e-003
  7.7375000000e+010  -1.4839684707e-004  -9.7926424967e-004   3.3550452382e-001   4.2681563768e-001   3.2163953783e-001   4.4080496241e-001   9.7957345800e-005   1.5218706440e-003
  7.7400000000e+010  -1.4874727325e-004  -9.7652852159e-004   3.3554931536e-001   4.2677564179e-001   3.2168662588e-001   4.4076572552e-001   9.6535585691e-005   1.5174985012e-003
  7.7425000000e+010  -1.4909972771e-004  -9.7376819052e-004   3.3559456522e-001   4.2673523863e-001   3.2173419729e-001   4.4072608642e-001   9.5114864785e-005   1.5130882805e-003
  7.7450000000e+010  -1.4945416267e-004  -9.7098337404e-004   3.3564027313e-001   4.2669442849e-001   3.2178225185e-001   4.4068604533e-001   9.3695250319e-005   1.5086402963e-003
  7.7475000000e+010  -1.4981053001e-004  -9.6817419078e-004   3.3568643882e-001   4.2665321166e-001   3.2183078933e-001   4.4064560244e-001   9.2276809409e-005   1.5041548639e-003
  7.7500000000e+010  -1.5016878127e-004  -9.6534076038e-004   3.3573306205e-001   4.2661158843e-001   3.2187980950e-001   4.4060475797e-001   9.0859609042e-005   1.4996322993e-003
  7.7525000000e+010  -1.5052886761e-004  -9.6248320352e-004   3.3578014255e-001   4.2656955911e-001   3.2192931214e-001   4.4056351212e-001   8.9443716073e-005   1.4950729194e-003
  7.7550000000e+010  -1.5089073986e-004  -9.5960164190e-004   3.3582768004e-001   4.2652712400e-001   3.2197929701e-001   4.4052186510e-001   8.8029197216e-005   1.4904770416e-003
  7.7575000000e+010  -1.5125434851e-004  -9.5669619821e-004   3.3587567427e-001   4.2648428339e-001   3.2202976388e-001   4.4047981713e-001   8.6616119039e-005   1.4858449841e-003
  7.7600000000e+010  -1.5161964371e-004  -9.5376699619e-004   3.3592412496e-001   4.2644103759e-001   3.2208071252e-001   4.4043736841e-001   8.5204547962e-005   1.4811770657e-003
  7.7625000000e+010  -1.5198657528e-004  -9.5081416054e-004   3.3597303183e-001   4.2639738692e-001   3.2213214269e-001   4.4039451917e-001   8.3794550243e-005   1.4764736060e-003
  7.7650000000e+010  -1.5235509269e-004  -9.4783781699e-004   3.3602239462e-001   4.2635333168e-001   3.2218405416e-001   4.4035126963e-001   8.2386191981e-005   1.4717349252e-003
  7.7675000000e+010  -1.5272514511e-004  -9.4483809224e-004   3.3607221304e-001   4.2630887218e-001   3.2223644667e-001   4.4030762000e-001   8.0979539108e-005   1.4669613440e-003
  7.7700000000e+010  -1.5309668138e-004  -9.4181511398e-004   3.3612248680e-001   4.2626400875e-001   3.2228931999e-001   4.4026357050e-001   7.9574657378e-005   1.4621531839e-003
