# Hz S RI R 50.000000
! Metas.Vna.Tools, 2.4.7724.19584
! Metas.Vna.Data, 2.4.7724.19560
! Created: UTC 2021.04.29 12:40:11
! FREQ                re:S1,1             im:S1,1             re:S2,1             im:S2,1             re:S1,2             im:S1,2             re:S2,2             im:S2,2          
  7.5000000000e+010  -1.2465892824e-004  -1.1214926853e-003   1.6733998656e-001   3.7051932040e-001   1.5763050739e-001   3.7754472150e-001  -5.4059491813e-004   1.7273627977e-003
  7.5025000000e+010  -1.2466350983e-004  -1.1214621823e-003   1.6734043595e-001   3.7051895648e-001   1.5763096125e-001   3.7754437174e-001  -5.4247204359e-004   1.7258481065e-003
  7.5050000000e+010  -1.2467267243e-004  -1.1214011777e-003   1.6734133474e-001   3.7051822862e-001   1.5763186896e-001   3.7754367224e-001  -5.4431724419e-004   1.7242795999e-003
  7.5075000000e+010  -1.2468641494e-004  -1.1213096740e-003   1.6734268291e-001   3.7051713685e-001   1.5763323053e-001   3.7754262299e-001  -5.4613058690e-004   1.7226574904e-003
  7.5100000000e+010  -1.2470473567e-004  -1.1211876751e-003   1.6734448046e-001   3.7051568116e-001   1.5763504595e-001   3.7754122400e-001  -5.4791213976e-004   1.7209819928e-003
  7.5125000000e+010  -1.2472763238e-004  -1.1210351863e-003   1.6734672738e-001   3.7051386157e-001   1.5763731520e-001   3.7753947528e-001  -5.4966197192e-004   1.7192533236e-003
  7.5150000000e+010  -1.2475510226e-004  -1.1208522140e-003   1.6734942365e-001   3.7051167808e-001   1.5764003828e-001   3.7753737683e-001  -5.5138015356e-004   1.7174717016e-003
  7.5175000000e+010  -1.2478714196e-004  -1.1206387659e-003   1.6735256926e-001   3.7050913072e-001   1.5764321517e-001   3.7753492867e-001  -5.5306675595e-004   1.7156373476e-003
  7.5200000000e+010  -1.2482374756e-004  -1.1203948512e-003   1.6735616419e-001   3.7050621951e-001   1.5764684586e-001   3.7753213081e-001  -5.5472185142e-004   1.7137504844e-003
  7.5225000000e+010  -1.2486491457e-004  -1.1201204804e-003   1.6736020841e-001   3.7050294445e-001   1.5765093032e-001   3.7752898326e-001  -5.5634551334e-004   1.7118113367e-003
  7.5250000000e+010  -1.2491063795e-004  -1.1198156649e-003   1.6736470190e-001   3.7049930558e-001   1.5765546855e-001   3.7752548605e-001  -5.5793781615e-004   1.7098201314e-003
  7.5275000000e+010  -1.2496091211e-004  -1.1194804179e-003   1.6736964464e-001   3.7049530292e-001   1.5766046051e-001   3.7752163918e-001  -5.5949883532e-004   1.7077770973e-003
  7.5300000000e+010  -1.2501573090e-004  -1.1191147536e-003   1.6737503659e-001   3.7049093650e-001   1.5766590618e-001   3.7751744269e-001  -5.6102864738e-004   1.7056824649e-003
  7.5325000000e+010  -1.2507508759e-004  -1.1187186875e-003   1.6738087773e-001   3.7048620634e-001   1.5767180554e-001   3.7751289659e-001  -5.6252732986e-004   1.7035364671e-003
  7.5350000000e+010  -1.2513897492e-004  -1.1182922365e-003   1.6738716800e-001   3.7048111249e-001   1.5767815855e-001   3.7750800090e-001  -5.6399496135e-004   1.7013393384e-003
  7.5375000000e+010  -1.2520738507e-004  -1.1178354188e-003   1.6739390739e-001   3.7047565497e-001   1.5768496519e-001   3.7750275566e-001  -5.6543162146e-004   1.6990913152e-003
  7.5400000000e+010  -1.2528030964e-004  -1.1173482538e-003   1.6740109584e-001   3.7046983382e-001   1.5769222541e-001   3.7749716089e-001  -5.6683739081e-004   1.6967926360e-003
  7.5425000000e+010  -1.2535773970e-004  -1.1168307623e-003   1.6740873331e-001   3.7046364909e-001   1.5769993919e-001   3.7749121662e-001  -5.6821235103e-004   1.6944435409e-003
  7.5450000000e+010  -1.2543966577e-004  -1.1162829662e-003   1.6741681976e-001   3.7045710081e-001   1.5770810649e-001   3.7748492288e-001  -5.6955658478e-004   1.6920442720e-003
  7.5475000000e+010  -1.2552607779e-004  -1.1157048890e-003   1.6742535514e-001   3.7045018904e-001   1.5771672726e-001   3.7747827970e-001  -5.7087017569e-004   1.6895950733e-003
  7.5500000000e+010  -1.2561696516e-004  -1.1150965551e-003   1.6743433939e-001   3.7044291381e-001   1.5772580146e-001   3.7747128713e-001  -5.7215320841e-004   1.6870961905e-003
  7.5525000000e+010  -1.2571231674e-004  -1.1144579905e-003   1.6744377246e-001   3.7043527518e-001   1.5773532905e-001   3.7746394519e-001  -5.7340576857e-004   1.6845478712e-003
  7.5550000000e+010  -1.2581212083e-004  -1.1137892223e-003   1.6745365429e-001   3.7042727321e-001   1.5774530999e-001   3.7745625393e-001  -5.7462794280e-004   1.6819503646e-003
  7.5575000000e+010  -1.2591636517e-004  -1.1130902791e-003   1.6746398483e-001   3.7041890794e-001   1.5775574421e-001   3.7744821338e-001  -5.7581981868e-004   1.6793039218e-003
  7.5600000000e+010  -1.2602503695e-004  -1.1123611906e-003   1.6747476401e-001   3.7041017944e-001   1.5776663168e-001   3.7743982360e-001  -5.7698148481e-004   1.6766087956e-003
  7.5625000000e+010  -1.2613812284e-004  -1.1116019877e-003   1.6748599175e-001   3.7040108776e-001   1.5777797233e-001   3.7743108462e-001  -5.7811303070e-004   1.6738652407e-003
  7.5650000000e+010  -1.2625560894e-004  -1.1108127029e-003   1.6749766801e-001   3.7039163297e-001   1.5778976611e-001   3.7742199649e-001  -5.7921454687e-004   1.6710735132e-003
  7.5675000000e+010  -1.2637748080e-004  -1.1099933697e-003   1.6750979270e-001   3.7038181513e-001   1.5780201296e-001   3.7741255926e-001  -5.8028612478e-004   1.6682338711e-003
  7.5700000000e+010  -1.2650372344e-004  -1.1091440229e-003   1.6752236574e-001   3.7037163432e-001   1.5781471282e-001   3.7740277298e-001  -5.8132785683e-004   1.6653465740e-003
  7.5725000000e+010  -1.2663432133e-004  -1.1082646987e-003   1.6753538708e-001   3.7036109059e-001   1.5782786563e-001   3.7739263770e-001  -5.8233983638e-004   1.6624118832e-003
  7.5750000000e+010  -1.2676925839e-004  -1.1073554346e-003   1.6754885661e-001   3.7035018403e-001   1.5784147133e-001   3.7738215348e-001  -5.8332215772e-004   1.6594300617e-003
  7.5775000000e+010  -1.2690851802e-004  -1.1064162692e-003   1.6756277427e-001   3.7033891471e-001   1.5785552984e-001   3.7737132036e-001  -5.8427491607e-004   1.6564013739e-003
  7.5800000000e+010  -1.2705208305e-004  -1.1054472425e-003   1.6757713997e-001   3.7032728271e-001   1.5787004109e-001   3.7736013842e-001  -5.8519820758e-004   1.6533260860e-003
  7.5825000000e+010  -1.2719993579e-004  -1.1044483958e-003   1.6759195362e-001   3.7031528811e-001   1.5788500502e-001   3.7734860770e-001  -5.8609212931e-004   1.6502044656e-003
  7.5850000000e+010  -1.2735205803e-004  -1.1034197714e-003   1.6760721513e-001   3.7030293098e-001   1.5790042155e-001   3.7733672827e-001  -5.8695677926e-004   1.6470367822e-003
  7.5875000000e+010  -1.2750843098e-004  -1.1023614132e-003   1.6762292441e-001   3.7029021142e-001   1.5791629060e-001   3.7732450019e-001  -5.8779225631e-004   1.6438233064e-003
  7.5900000000e+010  -1.2766903537e-004  -1.1012733663e-003   1.6763908135e-001   3.7027712952e-001   1.5793261210e-001   3.7731192352e-001  -5.8859866026e-004   1.6405643107e-003
  7.5925000000e+010  -1.2783385134e-004  -1.1001556769e-003   1.6765568587e-001   3.7026368536e-001   1.5794938597e-001   3.7729899834e-001  -5.8937609178e-004   1.6372600688e-003
  7.5950000000e+010  -1.2800285855e-004  -1.0990083926e-003   1.6767273787e-001   3.7024987903e-001   1.5796661211e-001   3.7728572471e-001  -5.9012465246e-004   1.6339108561e-003
  7.5975000000e+010  -1.2817603610e-004  -1.0978315621e-003   1.6769023723e-001   3.7023571064e-001   1.5798429046e-001   3.7727210270e-001  -5.9084444474e-004   1.6305169495e-003
  7.6000000000e+010  -1.2835336258e-004  -1.0966252356e-003   1.6770818385e-001   3.7022118028e-001   1.5800242091e-001   3.7725813239e-001  -5.9153557197e-004   1.6270786271e-003
  7.6025000000e+010  -1.2853481604e-004  -1.0953894644e-003   1.6772657763e-001   3.7020628804e-001   1.5802100338e-001   3.7724381385e-001  -5.9219813834e-004   1.6235961687e-003
  7.6050000000e+010  -1.2872037401e-004  -1.0941243010e-003   1.6774541845e-001   3.7019103404e-001   1.5804003778e-001   3.7722914714e-001  -5.9283224891e-004   1.6200698554e-003
  7.6075000000e+010  -1.2891001350e-004  -1.0928297993e-003   1.6776470619e-001   3.7017541838e-001   1.5805952401e-001   3.7721413237e-001  -5.9343800962e-004   1.6164999696e-003
  7.6100000000e+010  -1.2910371101e-004  -1.0915060143e-003   1.6778444074e-001   3.7015944116e-001   1.5807946197e-001   3.7719876959e-001  -5.9401552722e-004   1.6128867952e-003
  7.6125000000e+010  -1.2930144250e-004  -1.0901530024e-003   1.6780462198e-001   3.7014310250e-001   1.5809985158e-001   3.7718305889e-001  -5.9456490933e-004   1.6092306175e-003
  7.6150000000e+010  -1.2950318344e-004  -1.0887708210e-003   1.6782524979e-001   3.7012640251e-001   1.5812069272e-001   3.7716700036e-001  -5.9508626439e-004   1.6055317230e-003
  7.6175000000e+010  -1.2970890875e-004  -1.0873595291e-003   1.6784632404e-001   3.7010934130e-001   1.5814198530e-001   3.7715059409e-001  -5.9557970169e-004   1.6017903995e-003
  7.6200000000e+010  -1.2991859287e-004  -1.0859191865e-003   1.6786784459e-001   3.7009191900e-001   1.5816372920e-001   3.7713384015e-001  -5.9604533133e-004   1.5980069363e-003
  7.6225000000e+010  -1.3013220971e-004  -1.0844498547e-003   1.6788981133e-001   3.7007413571e-001   1.5818592433e-001   3.7711673864e-001  -5.9648326422e-004   1.5941816237e-003
  7.6250000000e+010  -1.3034973268e-004  -1.0829515960e-003   1.6791222412e-001   3.7005599157e-001   1.5820857057e-001   3.7709928965e-001  -5.9689361209e-004   1.5903147536e-003
  7.6275000000e+010  -1.3057113470e-004  -1.0814244742e-003   1.6793508282e-001   3.7003748670e-001   1.5823166780e-001   3.7708149326e-001  -5.9727648747e-004   1.5864066188e-003
  7.6300000000e+010  -1.3079638814e-004  -1.0798685543e-003   1.6795838729e-001   3.7001862123e-001   1.5825521593e-001   3.7706334959e-001  -5.9763200368e-004   1.5824575135e-003
  7.6325000000e+010  -1.3102546492e-004  -1.0782839023e-003   1.6798213739e-001   3.6999939528e-001   1.5827921482e-001   3.7704485871e-001  -5.9796027484e-004   1.5784677330e-003
  7.6350000000e+010  -1.3125833643e-004  -1.0766705857e-003   1.6800633298e-001   3.6997980900e-001   1.5830366436e-001   3.7702602074e-001  -5.9826141584e-004   1.5744375740e-003
  7.6375000000e+010  -1.3149497356e-004  -1.0750286731e-003   1.6803097390e-001   3.6995986251e-001   1.5832856442e-001   3.7700683576e-001  -5.9853554235e-004   1.5703673340e-003
  7.6400000000e+010  -1.3173534673e-004  -1.0733582344e-003   1.6805606002e-001   3.6993955595e-001   1.5835391490e-001   3.7698730388e-001  -5.9878277081e-004   1.5662573121e-003
  7.6425000000e+010  -1.3197942584e-004  -1.0716593404e-003   1.6808159117e-001   3.6991888946e-001   1.5837971565e-001   3.7696742521e-001  -5.9900321841e-004   1.5621078081e-003
  7.6450000000e+010  -1.3222718031e-004  -1.0699320636e-003   1.6810756720e-001   3.6989786319e-001   1.5840596656e-001   3.7694719985e-001  -5.9919700312e-004   1.5579191230e-003
  7.6475000000e+010  -1.3247857909e-004  -1.0681764772e-003   1.6813398795e-001   3.6987647728e-001   1.5843266748e-001   3.7692662791e-001  -5.9936424362e-004   1.5536915592e-003
  7.6500000000e+010  -1.3273359062e-004  -1.0663926560e-003   1.6816085327e-001   3.6985473188e-001   1.5845981830e-001   3.7690570949e-001  -5.9950505936e-004   1.5494254197e-003
  7.6525000000e+010  -1.3299218287e-004  -1.0645806757e-003   1.6818816298e-001   3.6983262713e-001   1.5848741887e-001   3.7688444471e-001  -5.9961957050e-004   1.5451210089e-003
  7.6550000000e+010  -1.3325432332e-004  -1.0627406135e-003   1.6821591693e-001   3.6981016320e-001   1.5851546907e-001   3.7686283368e-001  -5.9970789795e-004   1.5407786320e-003
  7.6575000000e+010  -1.3351997899e-004  -1.0608725475e-003   1.6824411494e-001   3.6978734022e-001   1.5854396874e-001   3.7684087651e-001  -5.9977016331e-004   1.5363985953e-003
  7.6600000000e+010  -1.3378911640e-004  -1.0589765570e-003   1.6827275684e-001   3.6976415837e-001   1.5857291775e-001   3.7681857333e-001  -5.9980648891e-004   1.5319812061e-003
  7.6625000000e+010  -1.3406170163e-004  -1.0570527229e-003   1.6830184246e-001   3.6974061781e-001   1.5860231596e-001   3.7679592424e-001  -5.9981699777e-004   1.5275267726e-003
  7.6650000000e+010  -1.3433770025e-004  -1.0551011267e-003   1.6833137163e-001   3.6971671868e-001   1.5863216322e-001   3.7677292938e-001  -5.9980181363e-004   1.5230356041e-003
  7.6675000000e+010  -1.3461707741e-004  -1.0531218514e-003   1.6836134415e-001   3.6969246116e-001   1.5866245938e-001   3.7674958885e-001  -5.9976106090e-004   1.5185080106e-003
  7.6700000000e+010  -1.3489979776e-004  -1.0511149811e-003   1.6839175985e-001   3.6966784542e-001   1.5869320430e-001   3.7672590280e-001  -5.9969486466e-004   1.5139443031e-003
  7.6725000000e+010  -1.3518582550e-004  -1.0490806012e-003   1.6842261855e-001   3.6964287163e-001   1.5872439782e-001   3.7670187133e-001  -5.9960335069e-004   1.5093447935e-003
  7.6750000000e+010  -1.3547512438e-004  -1.0470187981e-003   1.6845392006e-001   3.6961753995e-001   1.5875603978e-001   3.7667749458e-001  -5.9948664542e-004   1.5047097947e-003
  7.6775000000e+010  -1.3576765769e-004  -1.0449296593e-003   1.6848566418e-001   3.6959185056e-001   1.5878813003e-001   3.7665277267e-001  -5.9934487595e-004   1.5000396201e-003
  7.6800000000e+010  -1.3606338825e-004  -1.0428132737e-003   1.6851785073e-001   3.6956580364e-001   1.5882066841e-001   3.7662770575e-001  -5.9917817002e-004   1.4953345843e-003
  7.6825000000e+010  -1.3636227847e-004  -1.0406697312e-003   1.6855047950e-001   3.6953939937e-001   1.5885365477e-001   3.7660229394e-001  -5.9898665602e-004   1.4905950025e-003
  7.6850000000e+010  -1.3666429028e-004  -1.0384991228e-003   1.6858355031e-001   3.6951263793e-001   1.5888708893e-001   3.7657653737e-001  -5.9877046299e-004   1.4858211907e-003
  7.6875000000e+010  -1.3696938518e-004  -1.0363015408e-003   1.6861706294e-001   3.6948551950e-001   1.5892097073e-001   3.7655043619e-001  -5.9852972057e-004   1.4810134657e-003
  7.6900000000e+010  -1.3727752422e-004  -1.0340770785e-003   1.6865101720e-001   3.6945804427e-001   1.5895530000e-001   3.7652399052e-001  -5.9826455905e-004   1.4761721450e-003
  7.6925000000e+010  -1.3758866803e-004  -1.0318258304e-003   1.6868541288e-001   3.6943021243e-001   1.5899007658e-001   3.7649720052e-001  -5.9797510932e-004   1.4712975469e-003
  7.6950000000e+010  -1.3790277680e-004  -1.0295478921e-003   1.6872024977e-001   3.6940202418e-001   1.5902530029e-001   3.7647006632e-001  -5.9766150288e-004   1.4663899904e-003
  7.6975000000e+010  -1.3821981028e-004  -1.0272433604e-003   1.6875552766e-001   3.6937347970e-001   1.5906097096e-001   3.7644258807e-001  -5.9732387182e-004   1.4614497951e-003
  7.7000000000e+010  -1.3853972781e-004  -1.0249123331e-003   1.6879124633e-001   3.6934457919e-001   1.5909708841e-001   3.7641476591e-001  -5.9696234884e-004   1.4564772814e-003
  7.7025000000e+010  -1.3886248828e-004  -1.0225549093e-003   1.6882740557e-001   3.6931532285e-001   1.5913365246e-001   3.7638659999e-001  -5.9657706720e-004   1.4514727702e-003
  7.7050000000e+010  -1.3918805020e-004  -1.0201711891e-003   1.6886400516e-001   3.6928571088e-001   1.5917066293e-001   3.7635809046e-001  -5.9616816076e-004   1.4464365831e-003
  7.7075000000e+010  -1.3951637161e-004  -1.0177612736e-003   1.6890104487e-001   3.6925574349e-001   1.5920811964e-001   3.7632923747e-001  -5.9573576394e-004   1.4413690423e-003
  7.7100000000e+010  -1.3984741019e-004  -1.0153252652e-003   1.6893852448e-001   3.6922542088e-001   1.5924602240e-001   3.7630004118e-001  -5.9528001171e-004   1.4362704706e-003
  7.7125000000e+010  -1.4018112316e-004  -1.0128632674e-003   1.6897644376e-001   3.6919474326e-001   1.5928437103e-001   3.7627050173e-001  -5.9480103959e-004   1.4311411913e-003
  7.7150000000e+010  -1.4051746738e-004  -1.0103753846e-003   1.6901480249e-001   3.6916371085e-001   1.5932316533e-001   3.7624061929e-001  -5.9429898368e-004   1.4259815285e-003
  7.7175000000e+010  -1.4085639928e-004  -1.0078617226e-003   1.6905360043e-001   3.6913232384e-001   1.5936240511e-001   3.7621039401e-001  -5.9377398057e-004   1.4207918064e-003
  7.7200000000e+010  -1.4119787488e-004  -1.0053223878e-003   1.6909283734e-001   3.6910058247e-001   1.5940209019e-001   3.7617982606e-001  -5.9322616741e-004   1.4155723500e-003
  7.7225000000e+010  -1.4154184983e-004  -1.0027574883e-003   1.6913251298e-001   3.6906848695e-001   1.5944222035e-001   3.7614891559e-001  -5.9265568186e-004   1.4103234848e-003
  7.7250000000e+010  -1.4188827937e-004  -1.0001671328e-003   1.6917262712e-001   3.6903603749e-001   1.5948279541e-001   3.7611766277e-001  -5.9206266211e-004   1.4050455366e-003
  7.7275000000e+010  -1.4223711835e-004  -9.9755143129e-004   1.6921317952e-001   3.6900323433e-001   1.5952381516e-001   3.7608606777e-001  -5.9144724682e-004   1.3997388317e-003
  7.7300000000e+010  -1.4258832126e-004  -9.9491049474e-004   1.6925416991e-001   3.6897007769e-001   1.5956527940e-001   3.7605413074e-001  -5.9080957519e-004   1.3944036970e-003
  7.7325000000e+010  -1.4294184217e-004  -9.9224443525e-004   1.6929559807e-001   3.6893656779e-001   1.5960718793e-001   3.7602185187e-001  -5.9014978687e-004   1.3890404596e-003
  7.7350000000e+010  -1.4329763479e-004  -9.8955336595e-004   1.6933746373e-001   3.6890270487e-001   1.5964954053e-001   3.7598923133e-001  -5.8946802204e-004   1.3836494471e-003
  7.7375000000e+010  -1.4365565247e-004  -9.8683740100e-004   1.6937976663e-001   3.6886848916e-001   1.5969233701e-001   3.7595626927e-001  -5.8876442130e-004   1.3782309874e-003
  7.7400000000e+010  -1.4401584816e-004  -9.8409665565e-004   1.6942250654e-001   3.6883392089e-001   1.5973557713e-001   3.7592296589e-001  -5.8803912576e-004   1.3727854087e-003
  7.7425000000e+010  -1.4437817448e-004  -9.8133124617e-004   1.6946568318e-001   3.6879900030e-001   1.5977926070e-001   3.7588932136e-001  -5.8729227696e-004   1.3673130398e-003
  7.7450000000e+010  -1.4474258364e-004  -9.7854128986e-004   1.6950929629e-001   3.6876372764e-001   1.5982338750e-001   3.7585533585e-001  -5.8652401690e-004   1.3618142094e-003
  7.7475000000e+010  -1.4510902753e-004  -9.7572690507e-004   1.6955334561e-001   3.6872810313e-001   1.5986795730e-001   3.7582100954e-001  -5.8573448803e-004   1.3562892468e-003
  7.7500000000e+010  -1.4547745767e-004  -9.7288821117e-004   1.6959783087e-001   3.6869212704e-001   1.5991296989e-001   3.7578634263e-001  -5.8492383323e-004   1.3507384815e-003
  7.7525000000e+010  -1.4584782523e-004  -9.7002532856e-004   1.6964275180e-001   3.6865579960e-001   1.5995842504e-001   3.7575133528e-001  -5.8409219580e-004   1.3451622431e-003
  7.7550000000e+010  -1.4622008103e-004  -9.6713837864e-004   1.6968810813e-001   3.6861912107e-001   1.6000432253e-001   3.7571598769e-001  -5.8323971945e-004   1.3395608617e-003
  7.7575000000e+010  -1.4659417555e-004  -9.6422748384e-004   1.6973389958e-001   3.6858209169e-001   1.6005066213e-001   3.7568030004e-001  -5.8236654833e-004   1.3339346674e-003
  7.7600000000e+010  -1.4697005894e-004  -9.6129276758e-004   1.6978012588e-001   3.6854471172e-001   1.6009744361e-001   3.7564427253e-001  -5.8147282697e-004   1.3282839906e-003
  7.7625000000e+010  -1.4734768100e-004  -9.5833435428e-004   1.6982678675e-001   3.6850698142e-001   1.6014466675e-001   3.7560790533e-001  -5.8055870029e-004   1.3226091618e-003
  7.7650000000e+010  -1.4772699119e-004  -9.5535236937e-004   1.6987388190e-001   3.6846890105e-001   1.6019233130e-001   3.7557119866e-001  -5.7962431361e-004   1.3169105116e-003
  7.7675000000e+010  -1.4810793868e-004  -9.5234693927e-004   1.6992141104e-001   3.6843047086e-001   1.6024043703e-001   3.7553415269e-001  -5.7866981262e-004   1.3111883709e-003
  7.7700000000e+010  -1.4849047228e-004  -9.4931819135e-004   1.6996937390e-001   3.6839169113e-001   1.6028898370e-001   3.7549676764e-001  -5.7769534339e-004   1.3054430707e-003
