# Hz S RI R 50.000000
! Metas.Vna.Tools, 2.4.7724.19584
! Metas.Vna.Data, 2.4.7724.19560
! Created: UTC 2021.04.29 12:40:11
! FREQ                re:S1,1             im:S1,1             re:S2,1             im:S2,1             re:S1,2             im:S1,2             re:S2,2             im:S2,2          
  7.5000000000e+010  -9.7569234466e-005  -9.7350176710e-004   2.6462816279e-002   2.3091921656e-001   1.9947239544e-002   2.3337653079e-001  -1.2660448422e-004   1.1660328410e-003
  7.5025000000e+010  -9.7574226342e-005  -9.7347438491e-004   2.6463144688e-002   2.3091898401e-001   1.9947573970e-002   2.3337630332e-001  -1.2146843410e-004   1.1598164476e-003
  7.5050000000e+010  -9.7584209489e-005  -9.7341962167e-004   2.6463801504e-002   2.3091851891e-001   1.9948242819e-002   2.3337584839e-001  -1.1635267952e-004   1.1536082318e-003
  7.5075000000e+010  -9.7599182699e-005  -9.7333747968e-004   2.6464786724e-002   2.3091782126e-001   1.9949246088e-002   2.3337516600e-001  -1.1125736127e-004   1.1474083618e-003
  7.5100000000e+010  -9.7619144160e-005  -9.7322796238e-004   2.6466100341e-002   2.3091689108e-001   1.9950583774e-002   2.3337425615e-001  -1.0618261896e-004   1.1412170044e-003
  7.5125000000e+010  -9.7644091454e-005  -9.7309107434e-004   2.6467742349e-002   2.3091572836e-001   1.9952255870e-002   2.3337311885e-001  -1.0112859103e-004   1.1350343250e-003
  7.5150000000e+010  -9.7674021561e-005  -9.7292682129e-004   2.6469712739e-002   2.3091433312e-001   1.9954262368e-002   2.3337175411e-001  -9.6095414719e-005   1.1288604878e-003
  7.5175000000e+010  -9.7708930857e-005  -9.7273521012e-004   2.6472011500e-002   2.3091270536e-001   1.9956603260e-002   2.3337016193e-001  -9.1083226104e-005   1.1226956552e-003
  7.5200000000e+010  -9.7748815116e-005  -9.7251624883e-004   2.6474638619e-002   2.3091084511e-001   1.9959278534e-002   2.3336834233e-001  -8.6092160050e-005   1.1165399885e-003
  7.5225000000e+010  -9.7793669507e-005  -9.7226994659e-004   2.6477594081e-002   2.3090875237e-001   1.9962288180e-002   2.3336629532e-001  -8.1122350228e-005   1.1103936476e-003
  7.5250000000e+010  -9.7843488597e-005  -9.7199631370e-004   2.6480877871e-002   2.3090642716e-001   1.9965632182e-002   2.3336402091e-001  -7.6173929096e-005   1.1042567909e-003
  7.5275000000e+010  -9.7898266352e-005  -9.7169536162e-004   2.6484489970e-002   2.3090386950e-001   1.9969310526e-002   2.3336151912e-001  -7.1247027902e-005   1.0981295753e-003
  7.5300000000e+010  -9.7957996137e-005  -9.7136710294e-004   2.6488430359e-002   2.3090107941e-001   1.9973323196e-002   2.3335878996e-001  -6.6341776669e-005   1.0920121563e-003
  7.5325000000e+010  -9.8022670713e-005  -9.7101155140e-004   2.6492699015e-002   2.3089805691e-001   1.9977670172e-002   2.3335583346e-001  -6.1458304196e-005   1.0859046883e-003
  7.5350000000e+010  -9.8092282245e-005  -9.7062872187e-004   2.6497295915e-002   2.3089480203e-001   1.9982351436e-002   2.3335264963e-001  -5.6596738047e-005   1.0798073239e-003
  7.5375000000e+010  -9.8166822295e-005  -9.7021863037e-004   2.6502221033e-002   2.3089131479e-001   1.9987366967e-002   2.3334923849e-001  -5.1757204549e-005   1.0737202144e-003
  7.5400000000e+010  -9.8246281828e-005  -9.6978129407e-004   2.6507474344e-002   2.3088759521e-001   1.9992716740e-002   2.3334560007e-001  -4.6939828782e-005   1.0676435097e-003
  7.5425000000e+010  -9.8330651209e-005  -9.6931673126e-004   2.6513055817e-002   2.3088364334e-001   1.9998400733e-002   2.3334173440e-001  -4.2144734575e-005   1.0615773583e-003
  7.5450000000e+010  -9.8419920208e-005  -9.6882496139e-004   2.6518965421e-002   2.3087945919e-001   2.0004418920e-002   2.3333764149e-001  -3.7372044504e-005   1.0555219073e-003
  7.5475000000e+010  -9.8514077996e-005  -9.6830600503e-004   2.6525203125e-002   2.3087504280e-001   2.0010771272e-002   2.3333332138e-001  -3.2621879876e-005   1.0494773021e-003
  7.5500000000e+010  -9.8613113150e-005  -9.6775988390e-004   2.6531768894e-002   2.3087039421e-001   2.0017457763e-002   2.3332877409e-001  -2.7894360738e-005   1.0434436871e-003
  7.5525000000e+010  -9.8717013653e-005  -9.6718662085e-004   2.6538662691e-002   2.3086551345e-001   2.0024478360e-002   2.3332399966e-001  -2.3189605857e-005   1.0374212050e-003
  7.5550000000e+010  -9.8825766892e-005  -9.6658623988e-004   2.6545884479e-002   2.3086040056e-001   2.0031833033e-002   2.3331899811e-001  -1.8507732725e-005   1.0314099971e-003
  7.5575000000e+010  -9.8939359664e-005  -9.6595876611e-004   2.6553434218e-002   2.3085505558e-001   2.0039521748e-002   2.3331376949e-001  -1.3848857549e-005   1.0254102032e-003
  7.5600000000e+010  -9.9057778172e-005  -9.6530422579e-004   2.6561311865e-002   2.3084947856e-001   2.0047544470e-002   2.3330831382e-001  -9.2130952468e-006   1.0194219619e-003
  7.5625000000e+010  -9.9181008033e-005  -9.6462264631e-004   2.6569517379e-002   2.3084366953e-001   2.0055901163e-002   2.3330263114e-001  -4.6005594419e-006   1.0134454101e-003
  7.5650000000e+010  -9.9309034269e-005  -9.6391405620e-004   2.6578050712e-002   2.3083762854e-001   2.0064591789e-002   2.3329672150e-001  -1.1362458956e-008   1.0074806834e-003
  7.5675000000e+010  -9.9441841320e-005  -9.6317848511e-004   2.6586911819e-002   2.3083135565e-001   2.0073616308e-002   2.3329058493e-001   4.5543846821e-006   1.0015279160e-003
  7.5700000000e+010  -9.9579413036e-005  -9.6241596383e-004   2.6596100651e-002   2.3082485089e-001   2.0082974681e-002   2.3328422146e-001   9.0965722702e-006   9.9558724053e-004
  7.5725000000e+010  -9.9721732683e-005  -9.6162652425e-004   2.6605617156e-002   2.3081811432e-001   2.0092666864e-002   2.3327763116e-001   1.3615091908e-005   9.8965878833e-004
  7.5750000000e+010  -9.9868782943e-005  -9.6081019942e-004   2.6615461283e-002   2.3081114599e-001   2.0102692813e-002   2.3327081405e-001   1.8109836515e-005   9.8374268919e-004
  7.5775000000e+010  -1.0002054592e-004  -9.5996702351e-004   2.6625632976e-002   2.3080394596e-001   2.0113052484e-002   2.3326377019e-001   2.2580700337e-005   9.7783907151e-004
  7.5800000000e+010  -1.0017700312e-004  -9.5909703178e-004   2.6636132181e-002   2.3079651429e-001   2.0123745828e-002   2.3325649962e-001   2.7027578944e-005   9.7194806225e-004
  7.5825000000e+010  -1.0033813550e-004  -9.5820026066e-004   2.6646958839e-002   2.3078885102e-001   2.0134772799e-002   2.3324900239e-001   3.1450369238e-005   9.6606978692e-004
  7.5850000000e+010  -1.0050392342e-004  -9.5727674767e-004   2.6658112889e-002   2.3078095623e-001   2.0146133345e-002   2.3324127856e-001   3.5848969459e-005   9.6020436960e-004
  7.5875000000e+010  -1.0067434666e-004  -9.5632653146e-004   2.6669594272e-002   2.3077282997e-001   2.0157827415e-002   2.3323332816e-001   4.0223279183e-005   9.5435193293e-004
  7.5900000000e+010  -1.0084938443e-004  -9.5534965179e-004   2.6681402924e-002   2.3076447231e-001   2.0169854957e-002   2.3322515127e-001   4.4573199335e-005   9.4851259812e-004
  7.5925000000e+010  -1.0102901538e-004  -9.5434614954e-004   2.6693538778e-002   2.3075588332e-001   2.0182215915e-002   2.3321674793e-001   4.8898632184e-005   9.4268648494e-004
  7.5950000000e+010  -1.0121321758e-004  -9.5331606672e-004   2.6706001770e-002   2.3074706305e-001   2.0194910235e-002   2.3320811819e-001   5.3199481353e-005   9.3687371171e-004
  7.5975000000e+010  -1.0140196852e-004  -9.5225944643e-004   2.6718791829e-002   2.3073801159e-001   2.0207937857e-002   2.3319926213e-001   5.7475651819e-005   9.3107439535e-004
  7.6000000000e+010  -1.0159524514e-004  -9.5117633288e-004   2.6731908885e-002   2.3072872899e-001   2.0221298724e-002   2.3319017979e-001   6.1727049920e-005   9.2528865130e-004
  7.6025000000e+010  -1.0179302382e-004  -9.5006677142e-004   2.6745352866e-002   2.3071921534e-001   2.0234992775e-002   2.3318087123e-001   6.5953583355e-005   9.1951659360e-004
  7.6050000000e+010  -1.0199528035e-004  -9.4893080847e-004   2.6759123698e-002   2.3070947071e-001   2.0249019947e-002   2.3317133653e-001   7.0155161190e-005   9.1375833485e-004
  7.6075000000e+010  -1.0220198999e-004  -9.4776849157e-004   2.6773221305e-002   2.3069949517e-001   2.0263380177e-002   2.3316157574e-001   7.4331693861e-005   9.0801398622e-004
  7.6100000000e+010  -1.0241312742e-004  -9.4657986936e-004   2.6787645609e-002   2.3068928881e-001   2.0278073401e-002   2.3315158893e-001   7.8483093177e-005   9.0228365744e-004
  7.6125000000e+010  -1.0262866676e-004  -9.4536499160e-004   2.6802396531e-002   2.3067885169e-001   2.0293099551e-002   2.3314137617e-001   8.2609272322e-005   8.9656745683e-004
  7.6150000000e+010  -1.0284858161e-004  -9.4412390913e-004   2.6817473989e-002   2.3066818392e-001   2.0308458559e-002   2.3313093752e-001   8.6710145859e-005   8.9086549125e-004
  7.6175000000e+010  -1.0307284497e-004  -9.4285667388e-004   2.6832877900e-002   2.3065728556e-001   2.0324150356e-002   2.3312027306e-001   9.0785629734e-005   8.8517786618e-004
  7.6200000000e+010  -1.0330142934e-004  -9.4156333890e-004   2.6848608180e-002   2.3064615670e-001   2.0340174871e-002   2.3310938286e-001   9.4835641278e-005   8.7950468564e-004
  7.6225000000e+010  -1.0353430662e-004  -9.4024395831e-004   2.6864664741e-002   2.3063479744e-001   2.0356532030e-002   2.3309826699e-001   9.8860099209e-005   8.7384605224e-004
  7.6250000000e+010  -1.0377144820e-004  -9.3889858733e-004   2.6881047495e-002   2.3062320785e-001   2.0373221761e-002   2.3308692552e-001   1.0285892364e-004   8.6820206718e-004
  7.6275000000e+010  -1.0401282493e-004  -9.3752728227e-004   2.6897756351e-002   2.3061138804e-001   2.0390243987e-002   2.3307535853e-001   1.0683203606e-004   8.6257283023e-004
  7.6300000000e+010  -1.0425840710e-004  -9.3613010052e-004   2.6914791219e-002   2.3059933809e-001   2.0407598631e-002   2.3306356611e-001   1.1077935937e-004   8.5695843974e-004
  7.6325000000e+010  -1.0450816447e-004  -9.3470710056e-004   2.6932152003e-002   2.3058705810e-001   2.0425285614e-002   2.3305154832e-001   1.1470081788e-004   8.5135899266e-004
  7.6350000000e+010  -1.0476206627e-004  -9.3325834194e-004   2.6949838608e-002   2.3057454816e-001   2.0443304857e-002   2.3303930525e-001   1.1859633726e-004   8.4577458452e-004
  7.6375000000e+010  -1.0502008119e-004  -9.3178388531e-004   2.6967850936e-002   2.3056180838e-001   2.0461656277e-002   2.3302683698e-001   1.2246584463e-004   8.4020530945e-004
  7.6400000000e+010  -1.0528217739e-004  -9.3028379237e-004   2.6986188889e-002   2.3054883884e-001   2.0480339792e-002   2.3301414360e-001   1.2630926847e-004   8.3465126016e-004
  7.6425000000e+010  -1.0554832251e-004  -9.2875812591e-004   2.7004852365e-002   2.3053563966e-001   2.0499355316e-002   2.3300122519e-001   1.3012653870e-004   8.2911252796e-004
  7.6450000000e+010  -1.0581848366e-004  -9.2720694978e-004   2.7023841262e-002   2.3052221094e-001   2.0518702764e-002   2.3298808184e-001   1.3391758664e-004   8.2358920277e-004
  7.6475000000e+010  -1.0609262743e-004  -9.2563032891e-004   2.7043155474e-002   2.3050855278e-001   2.0538382047e-002   2.3297471363e-001   1.3768234499e-004   8.1808137309e-004
  7.6500000000e+010  -1.0637071989e-004  -9.2402832930e-004   2.7062794895e-002   2.3049466528e-001   2.0558393078e-002   2.3296112066e-001   1.4142074792e-004   8.1258912605e-004
  7.6525000000e+010  -1.0665272659e-004  -9.2240101799e-004   2.7082759417e-002   2.3048054857e-001   2.0578735764e-002   2.3294730301e-001   1.4513273095e-004   8.0711254737e-004
  7.6550000000e+010  -1.0693861259e-004  -9.2074846309e-004   2.7103048930e-002   2.3046620274e-001   2.0599410014e-002   2.3293326079e-001   1.4881823106e-004   8.0165172139e-004
  7.6575000000e+010  -1.0722834241e-004  -9.1907073378e-004   2.7123663322e-002   2.3045162792e-001   2.0620415733e-002   2.3291899407e-001   1.5247718663e-004   7.9620673105e-004
  7.6600000000e+010  -1.0752188007e-004  -9.1736790029e-004   2.7144602479e-002   2.3043682421e-001   2.0641752828e-002   2.3290450297e-001   1.5610953745e-004   7.9077765792e-004
  7.6625000000e+010  -1.0781918909e-004  -9.1564003387e-004   2.7165866287e-002   2.3042179173e-001   2.0663421200e-002   2.3288978758e-001   1.5971522473e-004   7.8536458220e-004
  7.6650000000e+010  -1.0812023250e-004  -9.1388720687e-004   2.7187454628e-002   2.3040653059e-001   2.0685420752e-002   2.3287484799e-001   1.6329419112e-004   7.7996758268e-004
  7.6675000000e+010  -1.0842497282e-004  -9.1210949265e-004   2.7209367382e-002   2.3039104093e-001   2.0707751384e-002   2.3285968430e-001   1.6684638067e-004   7.7458673681e-004
  7.6700000000e+010  -1.0873337207e-004  -9.1030696563e-004   2.7231604430e-002   2.3037532285e-001   2.0730412994e-002   2.3284429663e-001   1.7037173886e-004   7.6922212065e-004
  7.6725000000e+010  -1.0904539179e-004  -9.0847970124e-004   2.7254165649e-002   2.3035937649e-001   2.0753405480e-002   2.3282868507e-001   1.7387021257e-004   7.6387380891e-004
  7.6750000000e+010  -1.0936099303e-004  -9.0662777599e-004   2.7277050914e-002   2.3034320196e-001   2.0776728738e-002   2.3281284972e-001   1.7734175014e-004   7.5854187492e-004
  7.6775000000e+010  -1.0968013636e-004  -9.0475126739e-004   2.7300260099e-002   2.3032679940e-001   2.0800382662e-002   2.3279679069e-001   1.8078630131e-004   7.5322639068e-004
  7.6800000000e+010  -1.1000278184e-004  -9.0285025400e-004   2.7323793076e-002   2.3031016893e-001   2.0824367144e-002   2.3278050810e-001   1.8420381724e-004   7.4792742682e-004
  7.6825000000e+010  -1.1032888909e-004  -9.0092481538e-004   2.7347649717e-002   2.3029331068e-001   2.0848682076e-002   2.3276400204e-001   1.8759425053e-004   7.4264505261e-004
  7.6850000000e+010  -1.1065841724e-004  -8.9897503215e-004   2.7371829889e-002   2.3027622478e-001   2.0873327348e-002   2.3274727263e-001   1.9095755520e-004   7.3737933598e-004
  7.6875000000e+010  -1.1099132494e-004  -8.9700098591e-004   2.7396333458e-002   2.3025891137e-001   2.0898302847e-002   2.3273031999e-001   1.9429368668e-004   7.3213034354e-004
  7.6900000000e+010  -1.1132757039e-004  -8.9500275931e-004   2.7421160291e-002   2.3024137058e-001   2.0923608460e-002   2.3271314422e-001   1.9760260184e-004   7.2689814054e-004
  7.6925000000e+010  -1.1166711131e-004  -8.9298043600e-004   2.7446310251e-002   2.3022360255e-001   2.0949244073e-002   2.3269574545e-001   2.0088425897e-004   7.2168279090e-004
  7.6950000000e+010  -1.1200990496e-004  -8.9093410063e-004   2.7471783198e-002   2.3020560742e-001   2.0975209570e-002   2.3267812378e-001   2.0413861779e-004   7.1648435723e-004
  7.6975000000e+010  -1.1235590815e-004  -8.8886383888e-004   2.7497578993e-002   2.3018738533e-001   2.1001504831e-002   2.3266027934e-001   2.0736563943e-004   7.1130290079e-004
  7.7000000000e+010  -1.1270507724e-004  -8.8676973741e-004   2.7523697493e-002   2.3016893642e-001   2.1028129739e-002   2.3264221224e-001   2.1056528645e-004   7.0613848154e-004
  7.7025000000e+010  -1.1305736814e-004  -8.8465188388e-004   2.7550138555e-002   2.3015026083e-001   2.1055084173e-002   2.3262392261e-001   2.1373752285e-004   7.0099115811e-004
  7.7050000000e+010  -1.1341273631e-004  -8.8251036696e-004   2.7576902032e-002   2.3013135872e-001   2.1082368009e-002   2.3260541057e-001   2.1688231402e-004   6.9586098786e-004
  7.7075000000e+010  -1.1377113676e-004  -8.8034527630e-004   2.7603987778e-002   2.3011223023e-001   2.1109981124e-002   2.3258667625e-001   2.1999962681e-004   6.9074802678e-004
  7.7100000000e+010  -1.1413252407e-004  -8.7815670255e-004   2.7631395644e-002   2.3009287550e-001   2.1137923394e-002   2.3256771976e-001   2.2308942946e-004   6.8565232963e-004
  7.7125000000e+010  -1.1449685239e-004  -8.7594473733e-004   2.7659125478e-002   2.3007329470e-001   2.1166194691e-002   2.3254854124e-001   2.2615169165e-004   6.8057394983e-004
  7.7150000000e+010  -1.1486407544e-004  -8.7370947325e-004   2.7687177128e-002   2.3005348796e-001   2.1194794886e-002   2.3252914082e-001   2.2918638447e-004   6.7551293952e-004
  7.7175000000e+010  -1.1523414650e-004  -8.7145100388e-004   2.7715550438e-002   2.3003345546e-001   2.1223723851e-002   2.3250951862e-001   2.3219348044e-004   6.7046934957e-004
  7.7200000000e+010  -1.1560701845e-004  -8.6916942379e-004   2.7744245254e-002   2.3001319734e-001   2.1252981453e-002   2.3248967478e-001   2.3517295347e-004   6.6544322956e-004
  7.7225000000e+010  -1.1598264372e-004  -8.6686482850e-004   2.7773261417e-002   2.2999271376e-001   2.1282567560e-002   2.3246960942e-001   2.3812477893e-004   6.6043462780e-004
  7.7250000000e+010  -1.1636097436e-004  -8.6453731450e-004   2.7802598767e-002   2.2997200488e-001   2.1312482038e-002   2.3244932269e-001   2.4104893356e-004   6.5544359133e-004
  7.7275000000e+010  -1.1674196199e-004  -8.6218697924e-004   2.7832257143e-002   2.2995107086e-001   2.1342724750e-002   2.3242881473e-001   2.4394539555e-004   6.5047016592e-004
  7.7300000000e+010  -1.1712555782e-004  -8.5981392112e-004   2.7862236381e-002   2.2992991188e-001   2.1373295561e-002   2.3240808565e-001   2.4681414449e-004   6.4551439611e-004
  7.7325000000e+010  -1.1751171267e-004  -8.5741823950e-004   2.7892536317e-002   2.2990852808e-001   2.1404194329e-002   2.3238713562e-001   2.4965516136e-004   6.4057632516e-004
  7.7350000000e+010  -1.1790037696e-004  -8.5500003469e-004   2.7923156783e-002   2.2988691964e-001   2.1435420917e-002   2.3236596476e-001   2.5246842859e-004   6.3565599510e-004
  7.7375000000e+010  -1.1829150071e-004  -8.5255940795e-004   2.7954097611e-002   2.2986508673e-001   2.1466975181e-002   2.3234457322e-001   2.5525392998e-004   6.3075344672e-004
  7.7400000000e+010  -1.1868503356e-004  -8.5009646146e-004   2.7985358630e-002   2.2984302952e-001   2.1498856978e-002   2.3232296114e-001   2.5801165075e-004   6.2586871956e-004
  7.7425000000e+010  -1.1908092476e-004  -8.4761129835e-004   2.8016939670e-002   2.2982074817e-001   2.1531066165e-002   2.3230112867e-001   2.6074157753e-004   6.2100185196e-004
  7.7450000000e+010  -1.1947912317e-004  -8.4510402269e-004   2.8048840554e-002   2.2979824287e-001   2.1563602593e-002   2.3227907595e-001   2.6344369835e-004   6.1615288102e-004
  7.7475000000e+010  -1.1987957730e-004  -8.4257473945e-004   2.8081061109e-002   2.2977551379e-001   2.1596466116e-002   2.3225680312e-001   2.6611800261e-004   6.1132184262e-004
  7.7500000000e+010  -1.2028223525e-004  -8.4002355454e-004   2.8113601157e-002   2.2975256111e-001   2.1629656585e-002   2.3223431035e-001   2.6876448116e-004   6.0650877144e-004
  7.7525000000e+010  -1.2068704479e-004  -8.3745057481e-004   2.8146460519e-002   2.2972938499e-001   2.1663173848e-002   2.3221159778e-001   2.7138312619e-004   6.0171370097e-004
  7.7550000000e+010  -1.2109395330e-004  -8.3485590798e-004   2.8179639013e-002   2.2970598564e-001   2.1697017753e-002   2.3218866556e-001   2.7397393133e-004   5.9693666348e-004
  7.7575000000e+010  -1.2150290781e-004  -8.3223966271e-004   2.8213136458e-002   2.2968236322e-001   2.1731188147e-002   2.3216551385e-001   2.7653689156e-004   5.9217769004e-004
  7.7600000000e+010  -1.2191385501e-004  -8.2960194855e-004   2.8246952668e-002   2.2965851792e-001   2.1765684875e-002   2.3214214279e-001   2.7907200326e-004   5.8743681058e-004
  7.7625000000e+010  -1.2232674123e-004  -8.2694287597e-004   2.8281087458e-002   2.2963444993e-001   2.1800507779e-002   2.3211855255e-001   2.8157926421e-004   5.8271405381e-004
  7.7650000000e+010  -1.2274151244e-004  -8.2426255631e-004   2.8315540641e-002   2.2961015944e-001   2.1835656701e-002   2.3209474329e-001   2.8405867356e-004   5.7800944729e-004
  7.7675000000e+010  -1.2315811428e-004  -8.2156110182e-004   2.8350312026e-002   2.2958564663e-001   2.1871131483e-002   2.3207071515e-001   2.8651023183e-004   5.7332301740e-004
  7.7700000000e+010  -1.2357649208e-004  -8.1883862563e-004   2.8385401421e-002   2.2956091169e-001   2.1906931962e-002   2.3204646832e-001   2.8893394093e-004   5.6865478937e-004
