# Hz S RI R 50.000000
! Metas.Vna.Tools, 2.4.7724.19584
! Metas.Vna.Data, 2.4.7724.19560
! Created: UTC 2021.04.29 12:40:11
! FREQ                re:S1,1             im:S1,1             re:S2,1             im:S2,1             re:S1,2             im:S1,2             re:S2,2             im:S2,2          
  7.5000000000e+010  -9.2303462726e-005  -9.3804972399e-004  -3.5444148262e-002   9.3126865509e-002  -3.8405404036e-002   9.2848327061e-002   7.0503079498e-004   9.4810176498e-004
  7.5025000000e+010  -9.2308225224e-005  -9.3802311155e-004  -3.5443986330e-002   9.3126773569e-002  -3.8405238231e-002   9.2848237343e-002   7.0268123305e-004   9.5013076933e-004
  7.5050000000e+010  -9.2317749637e-005  -9.3796988777e-004  -3.5443662466e-002   9.3126589691e-002  -3.8404906622e-002   9.2848057908e-002   7.0031962005e-004   9.5211704314e-004
  7.5075000000e+010  -9.2332034803e-005  -9.3789005489e-004  -3.5443176671e-002   9.3126313876e-002  -3.8404409209e-002   9.2847788757e-002   6.9794612124e-004   9.5406061192e-004
  7.5100000000e+010  -9.2351078977e-005  -9.3778361624e-004  -3.5442528948e-002   9.3125946129e-002  -3.8403745994e-002   9.2847429895e-002   6.9556090153e-004   9.5596150304e-004
  7.5125000000e+010  -9.2374879832e-005  -9.3765057626e-004  -3.5441719296e-002   9.3125486452e-002  -3.8402916978e-002   9.2846981325e-002   6.9316412547e-004   9.5781974569e-004
  7.5150000000e+010  -9.2403434463e-005  -9.3749094053e-004  -3.5440747720e-002   9.3124934853e-002  -3.8401922163e-002   9.2846443053e-002   6.9075595725e-004   9.5963537092e-004
  7.5175000000e+010  -9.2436739380e-005  -9.3730471571e-004  -3.5439614222e-002   9.3124291337e-002  -3.8400761551e-002   9.2845815084e-002   6.8833656067e-004   9.6140841159e-004
  7.5200000000e+010  -9.2474790516e-005  -9.3709190960e-004  -3.5438318806e-002   9.3123555912e-002  -3.8399435145e-002   9.2845097427e-002   6.8590609912e-004   9.6313890242e-004
  7.5225000000e+010  -9.2517583222e-005  -9.3685253108e-004  -3.5436861475e-002   9.3122728587e-002  -3.8397942948e-002   9.2844290088e-002   6.8346473563e-004   9.6482687993e-004
  7.5250000000e+010  -9.2565112268e-005  -9.3658659017e-004  -3.5435242234e-002   9.3121809372e-002  -3.8396284964e-002   9.2843393078e-002   6.8101263279e-004   9.6647238249e-004
  7.5275000000e+010  -9.2617371848e-005  -9.3629409798e-004  -3.5433461088e-002   9.3120798277e-002  -3.8394461196e-002   9.2842406408e-002   6.7854995278e-004   9.6807545026e-004
  7.5300000000e+010  -9.2674355574e-005  -9.3597506674e-004  -3.5431518042e-002   9.3119695316e-002  -3.8392471649e-002   9.2841330088e-002   6.7607685735e-004   9.6963612524e-004
  7.5325000000e+010  -9.2736056480e-005  -9.3562950979e-004  -3.5429413103e-002   9.3118500500e-002  -3.8390316326e-002   9.2840164131e-002   6.7359350782e-004   9.7115445123e-004
  7.5350000000e+010  -9.2802467025e-005  -9.3525744157e-004  -3.5427146276e-002   9.3117213846e-002  -3.8387995235e-002   9.2838908550e-002   6.7110006504e-004   9.7263047382e-004
  7.5375000000e+010  -9.2873579088e-005  -9.3485887765e-004  -3.5424717568e-002   9.3115835367e-002  -3.8385508378e-002   9.2837563360e-002   6.6859668943e-004   9.7406424044e-004
  7.5400000000e+010  -9.2949383971e-005  -9.3443383467e-004  -3.5422126988e-002   9.3114365080e-002  -3.8382855764e-002   9.2836128577e-002   6.6608354093e-004   9.7545580028e-004
  7.5425000000e+010  -9.3029872405e-005  -9.3398233042e-004  -3.5419374542e-002   9.3112803003e-002  -3.8380037396e-002   9.2834604218e-002   6.6356077901e-004   9.7680520434e-004
  7.5450000000e+010  -9.3115034540e-005  -9.3350438377e-004  -3.5416460239e-002   9.3111149155e-002  -3.8377053283e-002   9.2832990299e-002   6.6102856265e-004   9.7811250540e-004
  7.5475000000e+010  -9.3204859956e-005  -9.3300001470e-004  -3.5413384088e-002   9.3109403556e-002  -3.8373903431e-002   9.2831286840e-002   6.5848705034e-004   9.7937775803e-004
  7.5500000000e+010  -9.3299337660e-005  -9.3246924430e-004  -3.5410146099e-002   9.3107566225e-002  -3.8370587847e-002   9.2829493860e-002   6.5593640007e-004   9.8060101857e-004
  7.5525000000e+010  -9.3398456083e-005  -9.3191209475e-004  -3.5406746281e-002   9.3105637186e-002  -3.8367106539e-002   9.2827611381e-002   6.5337676932e-004   9.8178234513e-004
  7.5550000000e+010  -9.3502203089e-005  -9.3132858935e-004  -3.5403184644e-002   9.3103616461e-002  -3.8363459515e-002   9.2825639424e-002   6.5080831505e-004   9.8292179760e-004
  7.5575000000e+010  -9.3610565970e-005  -9.3071875250e-004  -3.5399461200e-002   9.3101504075e-002  -3.8359646784e-002   9.2823578011e-002   6.4823119371e-004   9.8401943761e-004
  7.5600000000e+010  -9.3723531449e-005  -9.3008260970e-004  -3.5395575959e-002   9.3099300053e-002  -3.8355668354e-002   9.2821427167e-002   6.4564556117e-004   9.8507532856e-004
  7.5625000000e+010  -9.3841085680e-005  -9.2942018753e-004  -3.5391528934e-002   9.3097004421e-002  -3.8351524235e-002   9.2819186917e-002   6.4305157281e-004   9.8608953561e-004
  7.5650000000e+010  -9.3963214253e-005  -9.2873151369e-004  -3.5387320137e-002   9.3094617206e-002  -3.8347214436e-002   9.2816857287e-002   6.4044938343e-004   9.8706212563e-004
  7.5675000000e+010  -9.4089902189e-005  -9.2801661698e-004  -3.5382949580e-002   9.3092138438e-002  -3.8342738967e-002   9.2814438303e-002   6.3783914725e-004   9.8799316728e-004
  7.5700000000e+010  -9.4221133947e-005  -9.2727552729e-004  -3.5378417278e-002   9.3089568145e-002  -3.8338097840e-002   9.2811929994e-002   6.3522101798e-004   9.8888273090e-004
  7.5725000000e+010  -9.4356893422e-005  -9.2650827560e-004  -3.5373723243e-002   9.3086906359e-002  -3.8333291063e-002   9.2809332388e-002   6.3259514869e-004   9.8973088859e-004
  7.5750000000e+010  -9.4497163949e-005  -9.2571489399e-004  -3.5368867490e-002   9.3084153112e-002  -3.8328318650e-002   9.2806645517e-002   6.2996169191e-004   9.9053771415e-004
  7.5775000000e+010  -9.4641928300e-005  -9.2489541564e-004  -3.5363850034e-002   9.3081308436e-002  -3.8323180610e-002   9.2803869410e-002   6.2732079955e-004   9.9130328313e-004
  7.5800000000e+010  -9.4791168691e-005  -9.2404987480e-004  -3.5358670891e-002   9.3078372365e-002  -3.8317876957e-002   9.2801004101e-002   6.2467262295e-004   9.9202767274e-004
  7.5825000000e+010  -9.4944866780e-005  -9.2317830683e-004  -3.5353330075e-002   9.3075344935e-002  -3.8312407702e-002   9.2798049622e-002   6.2201731283e-004   9.9271096193e-004
  7.5850000000e+010  -9.5103003669e-005  -9.2228074816e-004  -3.5347827603e-002   9.3072226182e-002  -3.8306772859e-002   9.2795006007e-002   6.1935501927e-004   9.9335323134e-004
  7.5875000000e+010  -9.5265559905e-005  -9.2135723634e-004  -3.5342163492e-002   9.3069016142e-002  -3.8300972440e-002   9.2791873292e-002   6.1668589177e-004   9.9395456327e-004
  7.5900000000e+010  -9.5432515485e-005  -9.2040780998e-004  -3.5336337760e-002   9.3065714855e-002  -3.8295006459e-002   9.2788651514e-002   6.1401007918e-004   9.9451504174e-004
  7.5925000000e+010  -9.5603849854e-005  -9.1943250876e-004  -3.5330350423e-002   9.3062322360e-002  -3.8288874929e-002   9.2785340708e-002   6.1132772972e-004   9.9503475242e-004
  7.5950000000e+010  -9.5779541908e-005  -9.1843137348e-004  -3.5324201501e-002   9.3058838697e-002  -3.8282577866e-002   9.2781940915e-002   6.0863899095e-004   9.9551378266e-004
  7.5975000000e+010  -9.5959569997e-005  -9.1740444599e-004  -3.5317891011e-002   9.3055263909e-002  -3.8276115284e-002   9.2778452173e-002   6.0594400981e-004   9.9595222148e-004
  7.6000000000e+010  -9.6143911924e-005  -9.1635176923e-004  -3.5311418974e-002   9.3051598037e-002  -3.8269487197e-002   9.2774874522e-002   6.0324293255e-004   9.9635015954e-004
  7.6025000000e+010  -9.6332544951e-005  -9.1527338723e-004  -3.5304785408e-002   9.3047841126e-002  -3.8262693622e-002   9.2771208004e-002   6.0053590479e-004   9.9670768916e-004
  7.6050000000e+010  -9.6525445796e-005  -9.1416934507e-004  -3.5297990335e-002   9.3043993220e-002  -3.8255734573e-002   9.2767452661e-002   5.9782307144e-004   9.9702490428e-004
  7.6075000000e+010  -9.6722590639e-005  -9.1303968891e-004  -3.5291033775e-002   9.3040054366e-002  -3.8248610068e-002   9.2763608538e-002   5.9510457678e-004   9.9730190049e-004
  7.6100000000e+010  -9.6923955123e-005  -9.1188446601e-004  -3.5283915748e-002   9.3036024610e-002  -3.8241320123e-002   9.2759675678e-002   5.9238056437e-004   9.9753877502e-004
  7.6125000000e+010  -9.7129514356e-005  -9.1070372466e-004  -3.5276636278e-002   9.3031904002e-002  -3.8233864755e-002   9.2755654126e-002   5.8965117709e-004   9.9773562669e-004
  7.6150000000e+010  -9.7339242911e-005  -9.0949751424e-004  -3.5269195385e-002   9.3027692589e-002  -3.8226243981e-002   9.2751543930e-002   5.8691655712e-004   9.9789255595e-004
  7.6175000000e+010  -9.7553114831e-005  -9.0826588519e-004  -3.5261593093e-002   9.3023390423e-002  -3.8218457820e-002   9.2747345138e-002   5.8417684596e-004   9.9800966484e-004
  7.6200000000e+010  -9.7771103631e-005  -9.0700888901e-004  -3.5253829426e-002   9.3018997554e-002  -3.8210506289e-002   9.2743057797e-002   5.8143218437e-004   9.9808705701e-004
  7.6225000000e+010  -9.7993182298e-005  -9.0572657827e-004  -3.5245904405e-002   9.3014514036e-002  -3.8202389407e-002   9.2738681957e-002   5.7868271242e-004   9.9812483769e-004
  7.6250000000e+010  -9.8219323297e-005  -9.0441900660e-004  -3.5237818057e-002   9.3009939921e-002  -3.8194107192e-002   9.2734217669e-002   5.7592856944e-004   9.9812311369e-004
  7.6275000000e+010  -9.8449498569e-005  -9.0308622867e-004  -3.5229570405e-002   9.3005275265e-002  -3.8185659665e-002   9.2729664985e-002   5.7316989406e-004   9.9808199340e-004
  7.6300000000e+010  -9.8683679537e-005  -9.0172830023e-004  -3.5221161475e-002   9.3000520123e-002  -3.8177046846e-002   9.2725023957e-002   5.7040682414e-004   9.9800158677e-004
  7.6325000000e+010  -9.8921837105e-005  -9.0034527806e-004  -3.5212591292e-002   9.2995674552e-002  -3.8168268753e-002   9.2720294638e-002   5.6763949684e-004   9.9788200529e-004
  7.6350000000e+010  -9.9163941665e-005  -8.9893722001e-004  -3.5203859883e-002   9.2990738610e-002  -3.8159325408e-002   9.2715477085e-002   5.6486804856e-004   9.9772336202e-004
  7.6375000000e+010  -9.9409963096e-005  -8.9750418495e-004  -3.5194967275e-002   9.2985712356e-002  -3.8150216832e-002   9.2710571352e-002   5.6209261494e-004   9.9752577156e-004
  7.6400000000e+010  -9.9659870767e-005  -8.9604623283e-004  -3.5185913493e-002   9.2980595849e-002  -3.8140943046e-002   9.2705577496e-002   5.5931333089e-004   9.9728935002e-004
  7.6425000000e+010  -9.9913633541e-005  -8.9456342462e-004  -3.5176698567e-002   9.2975389151e-002  -3.8131504072e-002   9.2700495575e-002   5.5653033056e-004   9.9701421505e-004
  7.6450000000e+010  -1.0017121978e-004  -8.9305582234e-004  -3.5167322524e-002   9.2970092324e-002  -3.8121899931e-002   9.2695325647e-002   5.5374374731e-004   9.9670048582e-004
  7.6475000000e+010  -1.0043259733e-004  -8.9152348903e-004  -3.5157785394e-002   9.2964705432e-002  -3.8112130647e-002   9.2690067773e-002   5.5095371375e-004   9.9634828298e-004
  7.6500000000e+010  -1.0069773356e-004  -8.8996648880e-004  -3.5148087204e-002   9.2959228538e-002  -3.8102196243e-002   9.2684722013e-002   5.4816036171e-004   9.9595772871e-004
  7.6525000000e+010  -1.0096659533e-004  -8.8838488676e-004  -3.5138227986e-002   9.2953661708e-002  -3.8092096741e-002   9.2679288429e-002   5.4536382227e-004   9.9552894664e-004
  7.6550000000e+010  -1.0123914901e-004  -8.8677874906e-004  -3.5128207768e-002   9.2948005008e-002  -3.8081832165e-002   9.2673767084e-002   5.4256422567e-004   9.9506206192e-004
  7.6575000000e+010  -1.0151536048e-004  -8.8514814290e-004  -3.5118026582e-002   9.2942258506e-002  -3.8071402541e-002   9.2668158042e-002   5.3976170141e-004   9.9455720114e-004
  7.6600000000e+010  -1.0179519513e-004  -8.8349313646e-004  -3.5107684459e-002   9.2936422271e-002  -3.8060807891e-002   9.2662461367e-002   5.3695637818e-004   9.9401449236e-004
  7.6625000000e+010  -1.0207861787e-004  -8.8181379898e-004  -3.5097181431e-002   9.2930496372e-002  -3.8050048241e-002   9.2656677125e-002   5.3414838388e-004   9.9343406510e-004
  7.6650000000e+010  -1.0236559313e-004  -8.8011020070e-004  -3.5086517530e-002   9.2924480879e-002  -3.8039123616e-002   9.2650805384e-002   5.3133784559e-004   9.9281605031e-004
  7.6675000000e+010  -1.0265608485e-004  -8.7838241288e-004  -3.5075692788e-002   9.2918375865e-002  -3.8028034042e-002   9.2644846211e-002   5.2852488961e-004   9.9216058039e-004
  7.6700000000e+010  -1.0295005651e-004  -8.7663050780e-004  -3.5064707239e-002   9.2912181402e-002  -3.8016779546e-002   9.2638799674e-002   5.2570964141e-004   9.9146778915e-004
  7.6725000000e+010  -1.0324747111e-004  -8.7485455875e-004  -3.5053560916e-002   9.2905897565e-002  -3.8005360153e-002   9.2632665844e-002   5.2289222566e-004   9.9073781182e-004
  7.6750000000e+010  -1.0354829118e-004  -8.7305464000e-004  -3.5042253853e-002   9.2899524427e-002  -3.7993775890e-002   9.2626444791e-002   5.2007276622e-004   9.8997078504e-004
  7.6775000000e+010  -1.0385247879e-004  -8.7123082687e-004  -3.5030786086e-002   9.2893062066e-002  -3.7982026786e-002   9.2620136588e-002   5.1725138609e-004   9.8916684685e-004
  7.6800000000e+010  -1.0415999554e-004  -8.6938319565e-004  -3.5019157649e-002   9.2886510558e-002  -3.7970112867e-002   9.2613741307e-002   5.1442820750e-004   9.8832613666e-004
  7.6825000000e+010  -1.0447080258e-004  -8.6751182362e-004  -3.5007368578e-002   9.2879869981e-002  -3.7958034161e-002   9.2607259023e-002   5.1160335182e-004   9.8744879526e-004
  7.6850000000e+010  -1.0478486060e-004  -8.6561678909e-004  -3.4995418910e-002   9.2873140414e-002  -3.7945790698e-002   9.2600689809e-002   5.0877693958e-004   9.8653496484e-004
  7.6875000000e+010  -1.0510212983e-004  -8.6369817132e-004  -3.4983308681e-002   9.2866321938e-002  -3.7933382506e-002   9.2594033741e-002   5.0594909050e-004   9.8558478889e-004
  7.6900000000e+010  -1.0542257007e-004  -8.6175605060e-004  -3.4971037927e-002   9.2859414634e-002  -3.7920809614e-002   9.2587290898e-002   5.0311992344e-004   9.8459841231e-004
  7.6925000000e+010  -1.0574614066e-004  -8.5979050818e-004  -3.4958606688e-002   9.2852418584e-002  -3.7908072052e-002   9.2580461355e-002   5.0028955643e-004   9.8357598128e-004
  7.6950000000e+010  -1.0607280049e-004  -8.5780162628e-004  -3.4946015001e-002   9.2845333872e-002  -3.7895169851e-002   9.2573545193e-002   4.9745810667e-004   9.8251764335e-004
  7.6975000000e+010  -1.0640250804e-004  -8.5578948812e-004  -3.4933262904e-002   9.2838160581e-002  -3.7882103041e-002   9.2566542491e-002   4.9462569047e-004   9.8142354738e-004
  7.7000000000e+010  -1.0673522132e-004  -8.5375417790e-004  -3.4920350438e-002   9.2830898798e-002  -3.7868871652e-002   9.2559453330e-002   4.9179242334e-004   9.8029384351e-004
  7.7025000000e+010  -1.0707089794e-004  -8.5169578077e-004  -3.4907277641e-002   9.2823548608e-002  -3.7855475716e-002   9.2552277791e-002   4.8895841989e-004   9.7912868322e-004
  7.7050000000e+010  -1.0740949506e-004  -8.4961438286e-004  -3.4894044554e-002   9.2816110100e-002  -3.7841915266e-002   9.2545015957e-002   4.8612379391e-004   9.7792821924e-004
  7.7075000000e+010  -1.0775096943e-004  -8.4751007126e-004  -3.4880651218e-002   9.2808583362e-002  -3.7828190332e-002   9.2537667912e-002   4.8328865832e-004   9.7669260559e-004
  7.7100000000e+010  -1.0809527737e-004  -8.4538293403e-004  -3.4867097674e-002   9.2800968483e-002  -3.7814300948e-002   9.2530233742e-002   4.8045312517e-004   9.7542199757e-004
  7.7125000000e+010  -1.0844237478e-004  -8.4323306017e-004  -3.4853383964e-002   9.2793265554e-002  -3.7800247147e-002   9.2522713530e-002   4.7761730566e-004   9.7411655172e-004
  7.7150000000e+010  -1.0879221718e-004  -8.4106053965e-004  -3.4839510130e-002   9.2785474667e-002  -3.7786028962e-002   9.2515107365e-002   4.7478131012e-004   9.7277642582e-004
  7.7175000000e+010  -1.0914475963e-004  -8.3886546338e-004  -3.4825476214e-002   9.2777595914e-002  -3.7771646427e-002   9.2507415333e-002   4.7194524800e-004   9.7140177892e-004
  7.7200000000e+010  -1.0949995682e-004  -8.3664792321e-004  -3.4811282260e-002   9.2769629390e-002  -3.7757099575e-002   9.2499637524e-002   4.6910922790e-004   9.6999277124e-004
  7.7225000000e+010  -1.0985776303e-004  -8.3440801196e-004  -3.4796928312e-002   9.2761575189e-002  -3.7742388443e-002   9.2491774027e-002   4.6627335754e-004   9.6854956426e-004
  7.7250000000e+010  -1.1021813214e-004  -8.3214582335e-004  -3.4782414414e-002   9.2753433406e-002  -3.7727513064e-002   9.2483824933e-002   4.6343774377e-004   9.6707232064e-004
  7.7275000000e+010  -1.1058101765e-004  -8.2986145207e-004  -3.4767740610e-002   9.2745204139e-002  -3.7712473474e-002   9.2475790333e-002   4.6060249255e-004   9.6556120425e-004
  7.7300000000e+010  -1.1094637264e-004  -8.2755499372e-004  -3.4752906947e-002   9.2736887486e-002  -3.7697269710e-002   9.2467670319e-002   4.5776770897e-004   9.6401638012e-004
  7.7325000000e+010  -1.1131414984e-004  -8.2522654483e-004  -3.4737913470e-002   9.2728483545e-002  -3.7681901806e-002   9.2459464986e-002   4.5493349726e-004   9.6243801445e-004
  7.7350000000e+010  -1.1168430158e-004  -8.2287620285e-004  -3.4722760224e-002   9.2719992416e-002  -3.7666369801e-002   9.2451174427e-002   4.5209996076e-004   9.6082627463e-004
  7.7375000000e+010  -1.1205677982e-004  -8.2050406615e-004  -3.4707447258e-002   9.2711414200e-002  -3.7650673731e-002   9.2442798739e-002   4.4926720190e-004   9.5918132917e-004
  7.7400000000e+010  -1.1243153614e-004  -8.1811023403e-004  -3.4691974618e-002   9.2702749000e-002  -3.7634813633e-002   9.2434338017e-002   4.4643532227e-004   9.5750334772e-004
  7.7425000000e+010  -1.1280852175e-004  -8.1569480668e-004  -3.4676342352e-002   9.2693996917e-002  -3.7618789546e-002   9.2425792360e-002   4.4360442255e-004   9.5579250108e-004
  7.7450000000e+010  -1.1318768750e-004  -8.1325788521e-004  -3.4660550509e-002   9.2685158057e-002  -3.7602601508e-002   9.2417161864e-002   4.4077460254e-004   9.5404896112e-004
  7.7475000000e+010  -1.1356898389e-004  -8.1079957163e-004  -3.4644599137e-002   9.2676232523e-002  -3.7586249558e-002   9.2408446630e-002   4.3794596116e-004   9.5227290087e-004
  7.7500000000e+010  -1.1395236104e-004  -8.0831996883e-004  -3.4628488286e-002   9.2667220423e-002  -3.7569733734e-002   9.2399646758e-002   4.3511859645e-004   9.5046449441e-004
  7.7525000000e+010  -1.1433776875e-004  -8.0581918062e-004  -3.4612218006e-002   9.2658121862e-002  -3.7553054077e-002   9.2390762348e-002   4.3229260554e-004   9.4862391691e-004
  7.7550000000e+010  -1.1472515643e-004  -8.0329731168e-004  -3.4595788346e-002   9.2648936950e-002  -3.7536210627e-002   9.2381793504e-002   4.2946808469e-004   9.4675134463e-004
  7.7575000000e+010  -1.1511447320e-004  -8.0075446759e-004  -3.4579199359e-002   9.2639665795e-002  -3.7519203424e-002   9.2372740329e-002   4.2664512925e-004   9.4484695487e-004
  7.7600000000e+010  -1.1550566779e-004  -7.9819075481e-004  -3.4562451094e-002   9.2630308506e-002  -3.7502032508e-002   9.2363602925e-002   4.2382383372e-004   9.4291092598e-004
  7.7625000000e+010  -1.1589868862e-004  -7.9560628067e-004  -3.4545543606e-002   9.2620865196e-002  -3.7484697922e-002   9.2354381399e-002   4.2100429167e-004   9.4094343735e-004
  7.7650000000e+010  -1.1629348380e-004  -7.9300115337e-004  -3.4528476944e-002   9.2611335977e-002  -3.7467199706e-002   9.2345075856e-002   4.1818659581e-004   9.3894466940e-004
  7.7675000000e+010  -1.1669000107e-004  -7.9037548197e-004  -3.4511251164e-002   9.2601720960e-002  -3.7449537904e-002   9.2335686404e-002   4.1537083793e-004   9.3691480354e-004
  7.7700000000e+010  -1.1708818788e-004  -7.8772937643e-004  -3.4493866318e-002   9.2592020261e-002  -3.7431712557e-002   9.2326213149e-002   4.1255710895e-004   9.3485402220e-004
