# Hz S RI R 50.000000
! Metas.Vna.Tools, 2.4.7724.19584
! Metas.Vna.Data, 2.4.7724.19560
! Created: UTC 2021.04.29 12:40:11
! FREQ                re:S1,1             im:S1,1             re:S2,1             im:S2,1             re:S1,2             im:S1,2             re:S2,2             im:S2,2          
  7.5000000000e+010  -1.2690128852e-004  -8.8196876277e-004  -4.8032590350e-002  -6.6754674322e-002  -4.6467874579e-002  -6.8257852090e-002   9.2354797781e-004   4.9287435027e-004
  7.5025000000e+010  -1.2690494244e-004  -8.8194325621e-004  -4.8032536230e-002  -6.6754627475e-002  -4.6467821442e-002  -6.8257804509e-002   9.2321600514e-004   4.9537849901e-004
  7.5050000000e+010  -1.2691224977e-004  -8.8189224415e-004  -4.8032427993e-002  -6.6754533783e-002  -4.6467715168e-002  -6.8257709347e-002   9.2285555360e-004   4.9785583589e-004
  7.5075000000e+010  -1.2692320946e-004  -8.8181572869e-004  -4.8032265637e-002  -6.6754393243e-002  -4.6467555757e-002  -6.8257566603e-002   9.2246676432e-004   5.0030631506e-004
  7.5100000000e+010  -1.2693781998e-004  -8.8171371298e-004  -4.8032049163e-002  -6.6754205855e-002  -4.6467343212e-002  -6.8257376276e-002   9.2204977883e-004   5.0272989200e-004
  7.5125000000e+010  -1.2695607926e-004  -8.8158620126e-004  -4.8031778574e-002  -6.6753971618e-002  -4.6467077533e-002  -6.8257138365e-002   9.2160473900e-004   5.0512652355e-004
  7.5150000000e+010  -1.2697798471e-004  -8.8143319877e-004  -4.8031453869e-002  -6.6753690531e-002  -4.6466758723e-002  -6.8256852867e-002   9.2113178705e-004   5.0749616784e-004
  7.5175000000e+010  -1.2700353324e-004  -8.8125471184e-004  -4.8031075052e-002  -6.6753362591e-002  -4.6466386784e-002  -6.8256519782e-002   9.2063106555e-004   5.0983878441e-004
  7.5200000000e+010  -1.2703272122e-004  -8.8105074784e-004  -4.8030642125e-002  -6.6752987797e-002  -4.6465961718e-002  -6.8256139106e-002   9.2010271739e-004   5.1215433408e-004
  7.5225000000e+010  -1.2706554454e-004  -8.8082131518e-004  -4.8030155088e-002  -6.6752566147e-002  -4.6465483530e-002  -6.8255710837e-002   9.1954688578e-004   5.1444277905e-004
  7.5250000000e+010  -1.2710199855e-004  -8.8056642336e-004  -4.8029613946e-002  -6.6752097638e-002  -4.6464952221e-002  -6.8255234971e-002   9.1896371425e-004   5.1670408286e-004
  7.5275000000e+010  -1.2714207810e-004  -8.8028608288e-004  -4.8029018702e-002  -6.6751582267e-002  -4.6464367797e-002  -6.8254711505e-002   9.1835334660e-004   5.1893821039e-004
  7.5300000000e+010  -1.2718577749e-004  -8.7998030534e-004  -4.8028369357e-002  -6.6751020031e-002  -4.6463730261e-002  -6.8254140435e-002   9.1771592696e-004   5.2114512787e-004
  7.5325000000e+010  -1.2723309056e-004  -8.7964910335e-004  -4.8027665917e-002  -6.6750410926e-002  -4.6463039619e-002  -6.8253521757e-002   9.1705159972e-004   5.2332480289e-004
  7.5350000000e+010  -1.2728401061e-004  -8.7929249059e-004  -4.8026908385e-002  -6.6749754949e-002  -4.6462295875e-002  -6.8252855467e-002   9.1636050953e-004   5.2547720437e-004
  7.5375000000e+010  -1.2733853041e-004  -8.7891048180e-004  -4.8026096764e-002  -6.6749052097e-002  -4.6461499034e-002  -6.8252141559e-002   9.1564280131e-004   5.2760230260e-004
  7.5400000000e+010  -1.2739664225e-004  -8.7850309274e-004  -4.8025231061e-002  -6.6748302364e-002  -4.6460649104e-002  -6.8251380029e-002   9.1489862024e-004   5.2970006921e-004
  7.5425000000e+010  -1.2745833789e-004  -8.7807034024e-004  -4.8024311278e-002  -6.6747505746e-002  -4.6459746089e-002  -6.8250570870e-002   9.1412811174e-004   5.3177047718e-004
  7.5450000000e+010  -1.2752360859e-004  -8.7761224218e-004  -4.8023337422e-002  -6.6746662238e-002  -4.6458789997e-002  -6.8249714078e-002   9.1333142144e-004   5.3381350084e-004
  7.5475000000e+010  -1.2759244509e-004  -8.7712881747e-004  -4.8022309497e-002  -6.6745771836e-002  -4.6457780835e-002  -6.8248809645e-002   9.1250869522e-004   5.3582911589e-004
  7.5500000000e+010  -1.2766483763e-004  -8.7662008609e-004  -4.8021227510e-002  -6.6744834533e-002  -4.6456718610e-002  -6.8247857565e-002   9.1166007915e-004   5.3781729938e-004
  7.5525000000e+010  -1.2774077594e-004  -8.7608606903e-004  -4.8020091466e-002  -6.6743850325e-002  -4.6455603330e-002  -6.8246857831e-002   9.1078571953e-004   5.3977802968e-004
  7.5550000000e+010  -1.2782024924e-004  -8.7552678836e-004  -4.8018901371e-002  -6.6742819205e-002  -4.6454435003e-002  -6.8245810436e-002   9.0988576283e-004   5.4171128655e-004
  7.5575000000e+010  -1.2790324624e-004  -8.7494226718e-004  -4.8017657233e-002  -6.6741741167e-002  -4.6453213638e-002  -6.8244715373e-002   9.0896035573e-004   5.4361705109e-004
  7.5600000000e+010  -1.2798975515e-004  -8.7433252963e-004  -4.8016359057e-002  -6.6740616204e-002  -4.6451939243e-002  -6.8243572632e-002   9.0800964506e-004   5.4549530576e-004
  7.5625000000e+010  -1.2807976369e-004  -8.7369760090e-004  -4.8015006851e-002  -6.6739444310e-002  -4.6450611829e-002  -6.8242382206e-002   9.0703377783e-004   5.4734603437e-004
  7.5650000000e+010  -1.2817325905e-004  -8.7303750720e-004  -4.8013600622e-002  -6.6738225477e-002  -4.6449231405e-002  -6.8241144087e-002   9.0603290121e-004   5.4916922206e-004
  7.5675000000e+010  -1.2827022793e-004  -8.7235227582e-004  -4.8012140378e-002  -6.6736959699e-002  -4.6447797981e-002  -6.8239858264e-002   9.0500716253e-004   5.5096485535e-004
  7.5700000000e+010  -1.2837065655e-004  -8.7164193505e-004  -4.8010626127e-002  -6.6735646967e-002  -4.6446311568e-002  -6.8238524729e-002   9.0395670922e-004   5.5273292212e-004
  7.5725000000e+010  -1.2847453059e-004  -8.7090651423e-004  -4.8009057878e-002  -6.6734287275e-002  -4.6444772176e-002  -6.8237143473e-002   9.0288168889e-004   5.5447341156e-004
  7.5750000000e+010  -1.2858183526e-004  -8.7014604375e-004  -4.8007435638e-002  -6.6732880612e-002  -4.6443179818e-002  -6.8235714484e-002   9.0178224925e-004   5.5618631426e-004
  7.5775000000e+010  -1.2869255527e-004  -8.6936055502e-004  -4.8005759418e-002  -6.6731426972e-002  -4.6441534504e-002  -6.8234237753e-002   9.0065853811e-004   5.5787162212e-004
  7.5800000000e+010  -1.2880667482e-004  -8.6855008050e-004  -4.8004029225e-002  -6.6729926344e-002  -4.6439836247e-002  -6.8232713269e-002   8.9951070342e-004   5.5952932840e-004
  7.5825000000e+010  -1.2892417765e-004  -8.6771465365e-004  -4.8002245070e-002  -6.6728378722e-002  -4.6438085060e-002  -6.8231141021e-002   8.9833889318e-004   5.6115942773e-004
  7.5850000000e+010  -1.2904504696e-004  -8.6685430901e-004  -4.8000406962e-002  -6.6726784094e-002  -4.6436280954e-002  -6.8229520998e-002   8.9714325553e-004   5.6276191605e-004
  7.5875000000e+010  -1.2916926550e-004  -8.6596908211e-004  -4.7998514911e-002  -6.6725142451e-002  -4.6434423945e-002  -6.8227853187e-002   8.9592393864e-004   5.6433679068e-004
  7.5900000000e+010  -1.2929681550e-004  -8.6505900954e-004  -4.7996568928e-002  -6.6723453784e-002  -4.6432514045e-002  -6.8226137576e-002   8.9468109078e-004   5.6588405027e-004
  7.5925000000e+010  -1.2942767872e-004  -8.6412412888e-004  -4.7994569024e-002  -6.6721718082e-002  -4.6430551268e-002  -6.8224374154e-002   8.9341486028e-004   5.6740369481e-004
  7.5950000000e+010  -1.2956183643e-004  -8.6316447878e-004  -4.7992515209e-002  -6.6719935335e-002  -4.6428535629e-002  -6.8222562907e-002   8.9212539551e-004   5.6889572563e-004
  7.5975000000e+010  -1.2969926942e-004  -8.6218009888e-004  -4.7990407494e-002  -6.6718105532e-002  -4.6426467143e-002  -6.8220703823e-002   8.9081284490e-004   5.7036014541e-004
  7.6000000000e+010  -1.2983995799e-004  -8.6117102987e-004  -4.7988245892e-002  -6.6716228663e-002  -4.6424345824e-002  -6.8218796887e-002   8.8947735691e-004   5.7179695818e-004
  7.6025000000e+010  -1.2998388195e-004  -8.6013731343e-004  -4.7986030413e-002  -6.6714304715e-002  -4.6422171689e-002  -6.8216842086e-002   8.8811908002e-004   5.7320616927e-004
  7.6050000000e+010  -1.3013102064e-004  -8.5907899229e-004  -4.7983761071e-002  -6.6712333678e-002  -4.6419944754e-002  -6.8214839406e-002   8.8673816275e-004   5.7458778538e-004
  7.6075000000e+010  -1.3028135294e-004  -8.5799611018e-004  -4.7981437877e-002  -6.6710315540e-002  -4.6417665035e-002  -6.8212788832e-002   8.8533475362e-004   5.7594181453e-004
  7.6100000000e+010  -1.3043485722e-004  -8.5688871187e-004  -4.7979060844e-002  -6.6708250288e-002  -4.6415332549e-002  -6.8210690351e-002   8.8390900116e-004   5.7726826608e-004
  7.6125000000e+010  -1.3059151140e-004  -8.5575684311e-004  -4.7976629986e-002  -6.6706137911e-002  -4.6412947312e-002  -6.8208543945e-002   8.8246105389e-004   5.7856715071e-004
  7.6150000000e+010  -1.3075129292e-004  -8.5460055069e-004  -4.7974145316e-002  -6.6703978395e-002  -4.6410509343e-002  -6.8206349601e-002   8.8099106032e-004   5.7983848042e-004
  7.6175000000e+010  -1.3091417874e-004  -8.5341988240e-004  -4.7971606847e-002  -6.6701771729e-002  -4.6408018660e-002  -6.8204107302e-002   8.7949916895e-004   5.8108226857e-004
  7.6200000000e+010  -1.3108014538e-004  -8.5221488705e-004  -4.7969014593e-002  -6.6699517898e-002  -4.6405475280e-002  -6.8201817032e-002   8.7798552825e-004   5.8229852979e-004
  7.6225000000e+010  -1.3124916887e-004  -8.5098561444e-004  -4.7966368568e-002  -6.6697216889e-002  -4.6402879223e-002  -6.8199478774e-002   8.7645028664e-004   5.8348728009e-004
  7.6250000000e+010  -1.3142122479e-004  -8.4973211539e-004  -4.7963668787e-002  -6.6694868688e-002  -4.6400230508e-002  -6.8197092512e-002   8.7489359252e-004   5.8464853675e-004
  7.6275000000e+010  -1.3159628824e-004  -8.4845444173e-004  -4.7960915265e-002  -6.6692473282e-002  -4.6397529154e-002  -6.8194658229e-002   8.7331559422e-004   5.8578231839e-004
  7.6300000000e+010  -1.3177433388e-004  -8.4715264627e-004  -4.7958108017e-002  -6.6690030657e-002  -4.6394775181e-002  -6.8192175908e-002   8.7171644003e-004   5.8688864493e-004
  7.6325000000e+010  -1.3195533590e-004  -8.4582678283e-004  -4.7955247057e-002  -6.6687540797e-002  -4.6391968609e-002  -6.8189645529e-002   8.7009627817e-004   5.8796753762e-004
  7.6350000000e+010  -1.3213926805e-004  -8.4447690624e-004  -4.7952332403e-002  -6.6685003689e-002  -4.6389109459e-002  -6.8187067076e-002   8.6845525679e-004   5.8901901900e-004
  7.6375000000e+010  -1.3232610361e-004  -8.4310307230e-004  -4.7949364070e-002  -6.6682419316e-002  -4.6386197753e-002  -6.8184440530e-002   8.6679352394e-004   5.9004311291e-004
  7.6400000000e+010  -1.3251581542e-004  -8.4170533783e-004  -4.7946342073e-002  -6.6679787664e-002  -4.6383233510e-002  -6.8181765871e-002   8.6511122761e-004   5.9103984452e-004
  7.6425000000e+010  -1.3270837588e-004  -8.4028376063e-004  -4.7943266430e-002  -6.6677108718e-002  -4.6380216755e-002  -6.8179043082e-002   8.6340851569e-004   5.9200924026e-004
  7.6450000000e+010  -1.3290375692e-004  -8.3883839947e-004  -4.7940137158e-002  -6.6674382460e-002  -4.6377147507e-002  -6.8176272142e-002   8.6168553596e-004   5.9295132788e-004
  7.6475000000e+010  -1.3310193005e-004  -8.3736931415e-004  -4.7936954273e-002  -6.6671608876e-002  -4.6374025791e-002  -6.8173453032e-002   8.5994243609e-004   5.9386613643e-004
  7.6500000000e+010  -1.3330286634e-004  -8.3587656542e-004  -4.7933717793e-002  -6.6668787949e-002  -4.6370851629e-002  -6.8170585731e-002   8.5817936366e-004   5.9475369621e-004
  7.6525000000e+010  -1.3350653640e-004  -8.3436021501e-004  -4.7930427736e-002  -6.6665919662e-002  -4.6367625044e-002  -6.8167670219e-002   8.5639646609e-004   5.9561403885e-004
  7.6550000000e+010  -1.3371291043e-004  -8.3282032565e-004  -4.7927084120e-002  -6.6663003998e-002  -4.6364346061e-002  -6.8164706477e-002   8.5459389070e-004   5.9644719723e-004
  7.6575000000e+010  -1.3392195819e-004  -8.3125696103e-004  -4.7923686963e-002  -6.6660040940e-002  -4.6361014702e-002  -6.8161694481e-002   8.5277178466e-004   5.9725320552e-004
  7.6600000000e+010  -1.3413364900e-004  -8.2967018584e-004  -4.7920236284e-002  -6.6657030471e-002  -4.6357630994e-002  -6.8158634211e-002   8.5093029501e-004   5.9803209917e-004
  7.6625000000e+010  -1.3434795177e-004  -8.2806006570e-004  -4.7916732101e-002  -6.6653972574e-002  -4.6354194960e-002  -6.8155525646e-002   8.4906956864e-004   5.9878391488e-004
  7.6650000000e+010  -1.3456483497e-004  -8.2642666725e-004  -4.7913174435e-002  -6.6650867229e-002  -4.6350706626e-002  -6.8152368763e-002   8.4718975226e-004   5.9950869065e-004
  7.6675000000e+010  -1.3478426666e-004  -8.2477005805e-004  -4.7909563303e-002  -6.6647714419e-002  -4.6347166018e-002  -6.8149163540e-002   8.4529099245e-004   6.0020646571e-004
  7.6700000000e+010  -1.3500621447e-004  -8.2309030665e-004  -4.7905898727e-002  -6.6644514126e-002  -4.6343573161e-002  -6.8145909954e-002   8.4337343560e-004   6.0087728056e-004
  7.6725000000e+010  -1.3523064563e-004  -8.2138748257e-004  -4.7902180726e-002  -6.6641266331e-002  -4.6339928083e-002  -6.8142607983e-002   8.4143722794e-004   6.0152117696e-004
  7.6750000000e+010  -1.3545752694e-004  -8.1966165626e-004  -4.7898409320e-002  -6.6637971014e-002  -4.6336230809e-002  -6.8139257603e-002   8.3948251551e-004   6.0213819791e-004
  7.6775000000e+010  -1.3568682481e-004  -8.1791289915e-004  -4.7894584531e-002  -6.6634628157e-002  -4.6332481367e-002  -6.8135858790e-002   8.3750944416e-004   6.0272838767e-004
  7.6800000000e+010  -1.3591850523e-004  -8.1614128362e-004  -4.7890706378e-002  -6.6631237741e-002  -4.6328679785e-002  -6.8132411520e-002   8.3551815956e-004   6.0329179173e-004
  7.6825000000e+010  -1.3615253378e-004  -8.1434688299e-004  -4.7886774884e-002  -6.6627799744e-002  -4.6324826091e-002  -6.8128915770e-002   8.3350880717e-004   6.0382845682e-004
  7.6850000000e+010  -1.3638887565e-004  -8.1252977154e-004  -4.7882790070e-002  -6.6624314148e-002  -4.6320920312e-002  -6.8125371514e-002   8.3148153223e-004   6.0433843091e-004
  7.6875000000e+010  -1.3662749564e-004  -8.1069002449e-004  -4.7878751958e-002  -6.6620780932e-002  -4.6316962478e-002  -6.8121778728e-002   8.2943647981e-004   6.0482176317e-004
  7.6900000000e+010  -1.3686835813e-004  -8.0882771800e-004  -4.7874660570e-002  -6.6617200076e-002  -4.6312952617e-002  -6.8118137387e-002   8.2737379472e-004   6.0527850403e-004
  7.6925000000e+010  -1.3711142714e-004  -8.0694292917e-004  -4.7870515928e-002  -6.6613571559e-002  -4.6308890760e-002  -6.8114447464e-002   8.2529362157e-004   6.0570870513e-004
  7.6950000000e+010  -1.3735666628e-004  -8.0503573603e-004  -4.7866318055e-002  -6.6609895360e-002  -4.6304776936e-002  -6.8110708935e-002   8.2319610474e-004   6.0611241929e-004
  7.6975000000e+010  -1.3760403879e-004  -8.0310621757e-004  -4.7862066973e-002  -6.6606171458e-002  -4.6300611174e-002  -6.8106921774e-002   8.2108138836e-004   6.0648970059e-004
  7.7000000000e+010  -1.3785350750e-004  -8.0115445367e-004  -4.7857762707e-002  -6.6602399831e-002  -4.6296393507e-002  -6.8103085953e-002   8.1894961633e-004   6.0684060427e-004
  7.7025000000e+010  -1.3810503491e-004  -7.9918052517e-004  -4.7853405280e-002  -6.6598580457e-002  -4.6292123964e-002  -6.8099201446e-002   8.1680093231e-004   6.0716518680e-004
  7.7050000000e+010  -1.3835858309e-004  -7.9718451382e-004  -4.7848994716e-002  -6.6594713315e-002  -4.6287802577e-002  -6.8095268226e-002   8.1463547971e-004   6.0746350582e-004
  7.7075000000e+010  -1.3861411379e-004  -7.9516650229e-004  -4.7844531038e-002  -6.6590798382e-002  -4.6283429378e-002  -6.8091286266e-002   8.1245340166e-004   6.0773562018e-004
  7.7100000000e+010  -1.3887158835e-004  -7.9312657417e-004  -4.7840014272e-002  -6.6586835636e-002  -4.6279004399e-002  -6.8087255539e-002   8.1025484106e-004   6.0798158988e-004
  7.7125000000e+010  -1.3913096777e-004  -7.9106481396e-004  -4.7835444441e-002  -6.6582825054e-002  -4.6274527673e-002  -6.8083176015e-002   8.0803994052e-004   6.0820147614e-004
  7.7150000000e+010  -1.3939221269e-004  -7.8898130707e-004  -4.7830821572e-002  -6.6578766614e-002  -4.6269999232e-002  -6.8079047667e-002   8.0580884239e-004   6.0839534132e-004
  7.7175000000e+010  -1.3965528337e-004  -7.8687613983e-004  -4.7826145688e-002  -6.6574660291e-002  -4.6265419109e-002  -6.8074870467e-002   8.0356168873e-004   6.0856324896e-004
  7.7200000000e+010  -1.3992013974e-004  -7.8474939947e-004  -4.7821416817e-002  -6.6570506063e-002  -4.6260787338e-002  -6.8070644385e-002   8.0129862134e-004   6.0870526376e-004
  7.7225000000e+010  -1.4018674137e-004  -7.8260117411e-004  -4.7816634984e-002  -6.6566303906e-002  -4.6256103953e-002  -6.8066369392e-002   7.9901978172e-004   6.0882145156e-004
  7.7250000000e+010  -1.4045504748e-004  -7.8043155277e-004  -4.7811800214e-002  -6.6562053796e-002  -4.6251368989e-002  -6.8062045460e-002   7.9672531106e-004   6.0891187937e-004
  7.7275000000e+010  -1.4072501696e-004  -7.7824062537e-004  -4.7806912535e-002  -6.6557755708e-002  -4.6246582480e-002  -6.8057672558e-002   7.9441535028e-004   6.0897661534e-004
  7.7300000000e+010  -1.4099660833e-004  -7.7602848273e-004  -4.7801971973e-002  -6.6553409619e-002  -4.6241744461e-002  -6.8053250656e-002   7.9209003999e-004   6.0901572874e-004
  7.7325000000e+010  -1.4126977982e-004  -7.7379521653e-004  -4.7796978555e-002  -6.6549015504e-002  -4.6236854968e-002  -6.8048779724e-002   7.8974952049e-004   6.0902929000e-004
  7.7350000000e+010  -1.4154448928e-004  -7.7154091935e-004  -4.7791932309e-002  -6.6544573338e-002  -4.6231914037e-002  -6.8044259732e-002   7.8739393177e-004   6.0901737064e-004
  7.7375000000e+010  -1.4182069428e-004  -7.6926568466e-004  -4.7786833262e-002  -6.6540083095e-002  -4.6226921704e-002  -6.8039690648e-002   7.8502341351e-004   6.0898004334e-004
  7.7400000000e+010  -1.4209835201e-004  -7.6696960679e-004  -4.7781681442e-002  -6.6535544752e-002  -4.6221878005e-002  -6.8035072441e-002   7.8263810507e-004   6.0891738185e-004
  7.7425000000e+010  -1.4237741940e-004  -7.6465278094e-004  -4.7776476877e-002  -6.6530958281e-002  -4.6216782977e-002  -6.8030405081e-002   7.8023814547e-004   6.0882946107e-004
  7.7450000000e+010  -1.4265785301e-004  -7.6231530319e-004  -4.7771219596e-002  -6.6526323657e-002  -4.6211636658e-002  -6.8025688534e-002   7.7782367343e-004   6.0871635696e-004
  7.7475000000e+010  -1.4293960912e-004  -7.5995727048e-004  -4.7765909627e-002  -6.6521640854e-002  -4.6206439086e-002  -6.8020922769e-002   7.7539482731e-004   6.0857814660e-004
  7.7500000000e+010  -1.4322264369e-004  -7.5757878061e-004  -4.7760547000e-002  -6.6516909847e-002  -4.6201190298e-002  -6.8016107755e-002   7.7295174515e-004   6.0841490816e-004
  7.7525000000e+010  -1.4350691237e-004  -7.5517993224e-004  -4.7755131744e-002  -6.6512130608e-002  -4.6195890333e-002  -6.8011243457e-002   7.7049456464e-004   6.0822672087e-004
  7.7550000000e+010  -1.4379237053e-004  -7.5276082488e-004  -4.7749663889e-002  -6.6507303110e-002  -4.6190539230e-002  -6.8006329844e-002   7.6802342313e-004   6.0801366505e-004
  7.7575000000e+010  -1.4407897322e-004  -7.5032155889e-004  -4.7744143464e-002  -6.6502427328e-002  -4.6185137028e-002  -6.8001366881e-002   7.6553845763e-004   6.0777582209e-004
  7.7600000000e+010  -1.4436667520e-004  -7.4786223549e-004  -4.7738570499e-002  -6.6497503233e-002  -4.6179683766e-002  -6.7996354537e-002   7.6303980477e-004   6.0751327443e-004
  7.7625000000e+010  -1.4465543095e-004  -7.4538295671e-004  -4.7732945026e-002  -6.6492530799e-002  -4.6174179485e-002  -6.7991292776e-002   7.6052760086e-004   6.0722610556e-004
  7.7650000000e+010  -1.4494519466e-004  -7.4288382545e-004  -4.7727267074e-002  -6.6487509998e-002  -4.6168624225e-002  -6.7986181566e-002   7.5800198182e-004   6.0691440005e-004
  7.7675000000e+010  -1.4523592025e-004  -7.4036494543e-004  -4.7721536676e-002  -6.6482440801e-002  -4.6163018026e-002  -6.7981020871e-002   7.5546308322e-004   6.0657824346e-004
  7.7700000000e+010  -1.4552756134e-004  -7.3782642119e-004  -4.7715753862e-002  -6.6477323182e-002  -4.6157360930e-002  -6.7975810657e-002   7.5291104026e-004   6.0621772242e-004
