# Hz S RI R 50.000000
! Metas.Vna.Tools, 2.4.7724.19584
! Metas.Vna.Data, 2.4.7724.19560
! Created: UTC 2021.04.29 12:40:11
! FREQ                re:S1,1             im:S1,1             re:S2,1             im:S2,1             re:S1,2             im:S1,2             re:S2,2             im:S2,2          
  7.5000000000e+010  -1.7609961010e-004  -8.4396672495e-004   4.3116027866e-003  -2.3489002308e-001   9.1240939001e-003  -2.3598168221e-001   8.5966998621e-004  -4.2507192926e-005
  7.5025000000e+010  -1.7610194238e-004  -8.4394170983e-004   4.3115346118e-003  -2.3488980497e-001   9.1240183465e-003  -2.3598146448e-001   8.6153378307e-004  -4.0605133508e-005
  7.5050000000e+010  -1.7610660651e-004  -8.4389168063e-004   4.3113982627e-003  -2.3488936874e-001   9.1238672393e-003  -2.3598102903e-001   8.6336080839e-004  -3.8706173516e-005
  7.5075000000e+010  -1.7611360160e-004  -8.4381663942e-004   4.3111937399e-003  -2.3488871441e-001   9.1236405787e-003  -2.3598037584e-001   8.6515112537e-004  -3.6810413863e-005
  7.5100000000e+010  -1.7612292636e-004  -8.4371658930e-004   4.3109210447e-003  -2.3488784196e-001   9.1233383647e-003  -2.3597950494e-001   8.6690479832e-004  -3.4917955022e-005
  7.5125000000e+010  -1.7613457903e-004  -8.4359153441e-004   4.3105801787e-003  -2.3488675141e-001   9.1229605976e-003  -2.3597841631e-001   8.6862189261e-004  -3.3028897026e-005
  7.5150000000e+010  -1.7614855743e-004  -8.4344147992e-004   4.3101711437e-003  -2.3488544276e-001   9.1225072777e-003  -2.3597710996e-001   8.7030247471e-004  -3.1143339455e-005
  7.5175000000e+010  -1.7616485895e-004  -8.4326643204e-004   4.3096939423e-003  -2.3488391602e-001   9.1219784052e-003  -2.3597558590e-001   8.7194661215e-004  -2.9261381431e-005
  7.5200000000e+010  -1.7618348054e-004  -8.4306639802e-004   4.3091485771e-003  -2.3488217118e-001   9.1213739805e-003  -2.3597384413e-001   8.7355437353e-004  -2.7383121615e-005
  7.5225000000e+010  -1.7620441869e-004  -8.4284138612e-004   4.3085350512e-003  -2.3488020825e-001   9.1206940039e-003  -2.3597188465e-001   8.7512582853e-004  -2.5508658199e-005
  7.5250000000e+010  -1.7622766950e-004  -8.4259140566e-004   4.3078533683e-003  -2.3487802724e-001   9.1199384760e-003  -2.3596970748e-001   8.7666104785e-004  -2.3638088897e-005
  7.5275000000e+010  -1.7625322859e-004  -8.4231646698e-004   4.3071035322e-003  -2.3487562817e-001   9.1191073972e-003  -2.3596731262e-001   8.7816010328e-004  -2.1771510946e-005
  7.5300000000e+010  -1.7628109119e-004  -8.4201658145e-004   4.3062855473e-003  -2.3487301102e-001   9.1182007681e-003  -2.3596470007e-001   8.7962306761e-004  -1.9909021092e-005
  7.5325000000e+010  -1.7631125206e-004  -8.4169176148e-004   4.3053994184e-003  -2.3487017582e-001   9.1172185893e-003  -2.3596186985e-001   8.8105001470e-004  -1.8050715590e-005
  7.5350000000e+010  -1.7634370553e-004  -8.4134202050e-004   4.3044451504e-003  -2.3486712258e-001   9.1161608614e-003  -2.3595882197e-001   8.8244101942e-004  -1.6196690195e-005
  7.5375000000e+010  -1.7637844553e-004  -8.4096737300e-004   4.3034227489e-003  -2.3486385130e-001   9.1150275851e-003  -2.3595555642e-001   8.8379615766e-004  -1.4347040156e-005
  7.5400000000e+010  -1.7641546551e-004  -8.4056783447e-004   4.3023322199e-003  -2.3486036199e-001   9.1138187612e-003  -2.3595207324e-001   8.8511550633e-004  -1.2501860214e-005
  7.5425000000e+010  -1.7645475853e-004  -8.4014342143e-004   4.3011735696e-003  -2.3485665467e-001   9.1125343905e-003  -2.3594837241e-001   8.8639914336e-004  -1.0661244591e-005
  7.5450000000e+010  -1.7649631720e-004  -8.3969415145e-004   4.2999468046e-003  -2.3485272935e-001   9.1111744738e-003  -2.3594445397e-001   8.8764714767e-004  -8.8252869891e-006
  7.5475000000e+010  -1.7654013369e-004  -8.3922004313e-004   4.2986519322e-003  -2.3484858604e-001   9.1097390121e-003  -2.3594031791e-001   8.8885959917e-004  -6.9940805813e-006
  7.5500000000e+010  -1.7658619977e-004  -8.3872111607e-004   4.2972889596e-003  -2.3484422476e-001   9.1082280062e-003  -2.3593596425e-001   8.9003657877e-004  -5.1677180080e-006
  7.5525000000e+010  -1.7663450674e-004  -8.3819739092e-004   4.2958578949e-003  -2.3483964552e-001   9.1066414572e-003  -2.3593139302e-001   8.9117816835e-004  -3.3462913710e-006
  7.5550000000e+010  -1.7668504551e-004  -8.3764888935e-004   4.2943587463e-003  -2.3483484834e-001   9.1049793662e-003  -2.3592660421e-001   8.9228445079e-004  -1.5298922282e-006
  7.5575000000e+010  -1.7673780654e-004  -8.3707563406e-004   4.2927915224e-003  -2.3482983322e-001   9.1032417342e-003  -2.3592159785e-001   8.9335550991e-004   2.8138841198e-007
  7.5600000000e+010  -1.7679277987e-004  -8.3647764878e-004   4.2911562322e-003  -2.3482460020e-001   9.1014285625e-003  -2.3591637395e-001   8.9439143050e-004   2.0874600958e-006
  7.5625000000e+010  -1.7684995513e-004  -8.3585495824e-004   4.2894528853e-003  -2.3481914928e-001   9.0995398521e-003  -2.3591093253e-001   8.9539229832e-004   3.8882329293e-006
  7.5650000000e+010  -1.7690932148e-004  -8.3520758823e-004   4.2876814913e-003  -2.3481348049e-001   9.0975756045e-003  -2.3590527360e-001   8.9635820005e-004   5.6836175837e-006
  7.5675000000e+010  -1.7697086772e-004  -8.3453556552e-004   4.2858420606e-003  -2.3480759384e-001   9.0955358208e-003  -2.3589939719e-001   8.9728922335e-004   7.4735253004e-006
  7.5700000000e+010  -1.7703458217e-004  -8.3383891794e-004   4.2839346037e-003  -2.3480148936e-001   9.0934205025e-003  -2.3589330331e-001   8.9818545677e-004   9.2578678955e-006
  7.5725000000e+010  -1.7710045276e-004  -8.3311767432e-004   4.2819591317e-003  -2.3479516705e-001   9.0912296510e-003  -2.3588699198e-001   8.9904698982e-004   1.1036557766e-005
  7.5750000000e+010  -1.7716846699e-004  -8.3237186451e-004   4.2799156560e-003  -2.3478862696e-001   9.0889632677e-003  -2.3588046322e-001   8.9987391292e-004   1.2809507894e-005
  7.5775000000e+010  -1.7723861195e-004  -8.3160151938e-004   4.2778041883e-003  -2.3478186909e-001   9.0866213542e-003  -2.3587371705e-001   9.0066631740e-004   1.4576631851e-005
  7.5800000000e+010  -1.7731087430e-004  -8.3080667082e-004   4.2756247408e-003  -2.3477489347e-001   9.0842039121e-003  -2.3586675350e-001   9.0142429550e-004   1.6337843803e-005
  7.5825000000e+010  -1.7738524029e-004  -8.2998735173e-004   4.2733773261e-003  -2.3476770012e-001   9.0817109429e-003  -2.3585957259e-001   9.0214794037e-004   1.8093058517e-005
  7.5850000000e+010  -1.7746169574e-004  -8.2914359603e-004   4.2710619572e-003  -2.3476028907e-001   9.0791424484e-003  -2.3585217433e-001   9.0283734603e-004   1.9842191363e-005
  7.5875000000e+010  -1.7754022608e-004  -8.2827543865e-004   4.2686786474e-003  -2.3475266035e-001   9.0764984303e-003  -2.3584455875e-001   9.0349260740e-004   2.1585158321e-005
  7.5900000000e+010  -1.7762081632e-004  -8.2738291554e-004   4.2662274104e-003  -2.3474481397e-001   9.0737788903e-003  -2.3583672588e-001   9.0411382029e-004   2.3321875981e-005
  7.5925000000e+010  -1.7770345104e-004  -8.2646606364e-004   4.2637082605e-003  -2.3473674996e-001   9.0709838304e-003  -2.3582867575e-001   9.0470108136e-004   2.5052261556e-005
  7.5950000000e+010  -1.7778811442e-004  -8.2552492091e-004   4.2611212120e-003  -2.3472846836e-001   9.0681132524e-003  -2.3582040836e-001   9.0525448815e-004   2.6776232877e-005
  7.5975000000e+010  -1.7787479025e-004  -8.2455952634e-004   4.2584662801e-003  -2.3471996919e-001   9.0651671583e-003  -2.3581192376e-001   9.0577413905e-004   2.8493708404e-005
  7.6000000000e+010  -1.7796346188e-004  -8.2356991989e-004   4.2557434799e-003  -2.3471125247e-001   9.0621455500e-003  -2.3580322197e-001   9.0626013331e-004   3.0204607227e-005
  7.6025000000e+010  -1.7805411229e-004  -8.2255614254e-004   4.2529528272e-003  -2.3470231824e-001   9.0590484297e-003  -2.3579430302e-001   9.0671257101e-004   3.1908849071e-005
  7.6050000000e+010  -1.7814672402e-004  -8.2151823628e-004   4.2500943380e-003  -2.3469316652e-001   9.0558757994e-003  -2.3578516693e-001   9.0713155308e-004   3.3606354300e-005
  7.6075000000e+010  -1.7824127923e-004  -8.2045624410e-004   4.2471680289e-003  -2.3468379736e-001   9.0526276614e-003  -2.3577581374e-001   9.0751718127e-004   3.5297043924e-005
  7.6100000000e+010  -1.7833775967e-004  -8.1937020997e-004   4.2441739167e-003  -2.3467421077e-001   9.0493040177e-003  -2.3576624347e-001   9.0786955816e-004   3.6980839597e-005
  7.6125000000e+010  -1.7843614670e-004  -8.1826017889e-004   4.2411120187e-003  -2.3466440679e-001   9.0459048709e-003  -2.3575645616e-001   9.0818878714e-004   3.8657663627e-005
  7.6150000000e+010  -1.7853642127e-004  -8.1712619683e-004   4.2379823526e-003  -2.3465438546e-001   9.0424302231e-003  -2.3574645183e-001   9.0847497242e-004   4.0327438975e-005
  7.6175000000e+010  -1.7863856395e-004  -8.1596831077e-004   4.2347849364e-003  -2.3464414680e-001   9.0388800767e-003  -2.3573623052e-001   9.0872821899e-004   4.1990089264e-005
  7.6200000000e+010  -1.7874255489e-004  -8.1478656868e-004   4.2315197885e-003  -2.3463369086e-001   9.0352544343e-003  -2.3572579226e-001   9.0894863267e-004   4.3645538778e-005
  7.6225000000e+010  -1.7884837388e-004  -8.1358101951e-004   4.2281869278e-003  -2.3462301766e-001   9.0315532982e-003  -2.3571513709e-001   9.0913632002e-004   4.5293712468e-005
  7.6250000000e+010  -1.7895600030e-004  -8.1235171322e-004   4.2247863735e-003  -2.3461212725e-001   9.0277766712e-003  -2.3570426503e-001   9.0929138843e-004   4.6934535957e-005
  7.6275000000e+010  -1.7906541313e-004  -8.1109870075e-004   4.2213181451e-003  -2.3460101965e-001   9.0239245557e-003  -2.3569317612e-001   9.0941394601e-004   4.8567935538e-005
  7.6300000000e+010  -1.7917659100e-004  -8.0982203401e-004   4.2177822628e-003  -2.3458969492e-001   9.0199969546e-003  -2.3568187040e-001   9.0950410170e-004   5.0193838185e-005
  7.6325000000e+010  -1.7928951212e-004  -8.0852176591e-004   4.2141787468e-003  -2.3457815307e-001   9.0159938704e-003  -2.3567034790e-001   9.0956196513e-004   5.1812171553e-005
  7.6350000000e+010  -1.7940415433e-004  -8.0719795035e-004   4.2105076180e-003  -2.3456639417e-001   9.0119153061e-003  -2.3565860866e-001   9.0958764674e-004   5.3422863979e-005
  7.6375000000e+010  -1.7952049510e-004  -8.0585064218e-004   4.2067688975e-003  -2.3455441823e-001   9.0077612645e-003  -2.3564665272e-001   9.0958125768e-004   5.5025844488e-005
  7.6400000000e+010  -1.7963851151e-004  -8.0447989726e-004   4.2029626069e-003  -2.3454222531e-001   9.0035317485e-003  -2.3563448012e-001   9.0954290984e-004   5.6621042799e-005
  7.6425000000e+010  -1.7975818025e-004  -8.0308577241e-004   4.1990887681e-003  -2.3452981544e-001   8.9992267610e-003  -2.3562209088e-001   9.0947271587e-004   5.8208389320e-005
  7.6450000000e+010  -1.7987947768e-004  -8.0166832542e-004   4.1951474035e-003  -2.3451718867e-001   8.9948463051e-003  -2.3560948506e-001   9.0937078910e-004   5.9787815159e-005
  7.6475000000e+010  -1.8000237973e-004  -8.0022761505e-004   4.1911385357e-003  -2.3450434504e-001   8.9903903839e-003  -2.3559666270e-001   9.0923724362e-004   6.1359252126e-005
  7.6500000000e+010  -1.8012686201e-004  -7.9876370105e-004   4.1870621879e-003  -2.3449128459e-001   8.9858590006e-003  -2.3558362383e-001   9.0907219418e-004   6.2922632730e-005
  7.6525000000e+010  -1.8025289973e-004  -7.9727664411e-004   4.1829183836e-003  -2.3447800737e-001   8.9812521584e-003  -2.3557036849e-001   9.0887575629e-004   6.4477890189e-005
  7.6550000000e+010  -1.8038046775e-004  -7.9576650591e-004   4.1787071467e-003  -2.3446451342e-001   8.9765698605e-003  -2.3555689673e-001   9.0864804610e-004   6.6024958429e-005
  7.6575000000e+010  -1.8050954056e-004  -7.9423334906e-004   4.1744285013e-003  -2.3445080278e-001   8.9718121102e-003  -2.3554320859e-001   9.0838918048e-004   6.7563772087e-005
  7.6600000000e+010  -1.8064009229e-004  -7.9267723717e-004   4.1700824723e-003  -2.3443687550e-001   8.9669789111e-003  -2.3552930412e-001   9.0809927697e-004   6.9094266517e-005
  7.6625000000e+010  -1.8077209673e-004  -7.9109823477e-004   4.1656690846e-003  -2.3442273164e-001   8.9620702665e-003  -2.3551518336e-001   9.0777845379e-004   7.0616377788e-005
  7.6650000000e+010  -1.8090552727e-004  -7.8949640736e-004   4.1611883637e-003  -2.3440837123e-001   8.9570861800e-003  -2.3550084635e-001   9.0742682982e-004   7.2130042688e-005
  7.6675000000e+010  -1.8104035700e-004  -7.8787182141e-004   4.1566403353e-003  -2.3439379433e-001   8.9520266552e-003  -2.3548629314e-001   9.0704452460e-004   7.3635198729e-005
  7.6700000000e+010  -1.8117655862e-004  -7.8622454430e-004   4.1520250258e-003  -2.3437900098e-001   8.9468916957e-003  -2.3547152377e-001   9.0663165833e-004   7.5131784147e-005
  7.6725000000e+010  -1.8131410450e-004  -7.8455464441e-004   4.1473424616e-003  -2.3436399123e-001   8.9416813053e-003  -2.3545653830e-001   9.0618835184e-004   7.6619737905e-005
  7.6750000000e+010  -1.8145296666e-004  -7.8286219101e-004   4.1425926699e-003  -2.3434876514e-001   8.9363954877e-003  -2.3544133677e-001   9.0571472660e-004   7.8098999694e-005
  7.6775000000e+010  -1.8159311676e-004  -7.8114725436e-004   4.1377756779e-003  -2.3433332276e-001   8.9310342467e-003  -2.3542591923e-001   9.0521090474e-004   7.9569509940e-005
  7.6800000000e+010  -1.8173452616e-004  -7.7940990562e-004   4.1328915134e-003  -2.3431766413e-001   8.9255975864e-003  -2.3541028573e-001   9.0467700897e-004   8.1031209799e-005
  7.6825000000e+010  -1.8187716583e-004  -7.7765021692e-004   4.1279402045e-003  -2.3430178932e-001   8.9200855106e-003  -2.3539443631e-001   9.0411316264e-004   8.2484041166e-005
  7.6850000000e+010  -1.8202100645e-004  -7.7586826130e-004   4.1229217798e-003  -2.3428569837e-001   8.9144980235e-003  -2.3537837104e-001   9.0351948972e-004   8.3927946671e-005
  7.6875000000e+010  -1.8216601834e-004  -7.7406411275e-004   4.1178362681e-003  -2.3426939134e-001   8.9088351291e-003  -2.3536208995e-001   9.0289611475e-004   8.5362869685e-005
  7.6900000000e+010  -1.8231217149e-004  -7.7223784617e-004   4.1126836989e-003  -2.3425286828e-001   8.9030968316e-003  -2.3534559311e-001   9.0224316290e-004   8.6788754322e-005
  7.6925000000e+010  -1.8245943559e-004  -7.7038953741e-004   4.1074641016e-003  -2.3423612925e-001   8.8972831352e-003  -2.3532888056e-001   9.0156075990e-004   8.8205545439e-005
  7.6950000000e+010  -1.8260777997e-004  -7.6851926321e-004   4.1021775065e-003  -2.3421917431e-001   8.8913940444e-003  -2.3531195237e-001   9.0084903208e-004   8.9613188637e-005
  7.6975000000e+010  -1.8275717366e-004  -7.6662710126e-004   4.0968239440e-003  -2.3420200351e-001   8.8854295634e-003  -2.3529480857e-001   9.0010810633e-004   9.1011630266e-005
  7.7000000000e+010  -1.8290758537e-004  -7.6471313015e-004   4.0914034448e-003  -2.3418461691e-001   8.8793896967e-003  -2.3527744923e-001   8.9933811013e-004   9.2400817424e-005
  7.7025000000e+010  -1.8305898348e-004  -7.6277742941e-004   4.0859160403e-003  -2.3416701458e-001   8.8732744489e-003  -2.3525987441e-001   8.9853917149e-004   9.3780697959e-005
  7.7050000000e+010  -1.8321133608e-004  -7.6082007944e-004   4.0803617620e-003  -2.3414919656e-001   8.8670838245e-003  -2.3524208416e-001   8.9771141900e-004   9.5151220471e-005
  7.7075000000e+010  -1.8336461092e-004  -7.5884116157e-004   4.0747406419e-003  -2.3413116292e-001   8.8608178282e-003  -2.3522407853e-001   8.9685498177e-004   9.6512334314e-005
  7.7100000000e+010  -1.8351877547e-004  -7.5684075805e-004   4.0690527123e-003  -2.3411291373e-001   8.8544764647e-003  -2.3520585759e-001   8.9596998947e-004   9.7863989595e-005
  7.7125000000e+010  -1.8367379688e-004  -7.5481895201e-004   4.0632980061e-003  -2.3409444903e-001   8.8480597389e-003  -2.3518742139e-001   8.9505657230e-004   9.9206137179e-005
  7.7150000000e+010  -1.8382964201e-004  -7.5277582749e-004   4.0574765563e-003  -2.3407576890e-001   8.8415676557e-003  -2.3516876999e-001   8.9411486096e-004   1.0053872869e-004
  7.7175000000e+010  -1.8398627742e-004  -7.5071146942e-004   4.0515883965e-003  -2.3405687340e-001   8.8350002199e-003  -2.3514990345e-001   8.9314498671e-004   1.0186171650e-004
  7.7200000000e+010  -1.8414366936e-004  -7.4862596361e-004   4.0456335606e-003  -2.3403776260e-001   8.8283574366e-003  -2.3513082183e-001   8.9214708128e-004   1.0317505375e-004
  7.7225000000e+010  -1.8430178380e-004  -7.4651939680e-004   4.0396120828e-003  -2.3401843654e-001   8.8216393109e-003  -2.3511152520e-001   8.9112127693e-004   1.0447869434e-004
  7.7250000000e+010  -1.8446058643e-004  -7.4439185657e-004   4.0335239978e-003  -2.3399889532e-001   8.8148458480e-003  -2.3509201361e-001   8.9006770641e-004   1.0577259294e-004
  7.7275000000e+010  -1.8462004265e-004  -7.4224343141e-004   4.0273693407e-003  -2.3397913897e-001   8.8079770532e-003  -2.3507228713e-001   8.8898650295e-004   1.0705670496e-004
  7.7300000000e+010  -1.8478011756e-004  -7.4007421067e-004   4.0211481468e-003  -2.3395916759e-001   8.8010329317e-003  -2.3505234582e-001   8.8787780029e-004   1.0833098659e-004
  7.7325000000e+010  -1.8494077599e-004  -7.3788428461e-004   4.0148604521e-003  -2.3393898123e-001   8.7940134890e-003  -2.3503218975e-001   8.8674173261e-004   1.0959539478e-004
  7.7350000000e+010  -1.8510198252e-004  -7.3567374432e-004   4.0085062926e-003  -2.3391857996e-001   8.7869187305e-003  -2.3501181897e-001   8.8557843459e-004   1.1084988725e-004
  7.7375000000e+010  -1.8526370142e-004  -7.3344268179e-004   4.0020857049e-003  -2.3389796385e-001   8.7797486618e-003  -2.3499123356e-001   8.8438804136e-004   1.1209442247e-004
  7.7400000000e+010  -1.8542589672e-004  -7.3119118986e-004   3.9955987261e-003  -2.3387713297e-001   8.7725032886e-003  -2.3497043359e-001   8.8317068850e-004   1.1332895970e-004
  7.7425000000e+010  -1.8558853216e-004  -7.2891936223e-004   3.9890453933e-003  -2.3385608739e-001   8.7651826164e-003  -2.3494941911e-001   8.8192651205e-004   1.1455345894e-004
  7.7450000000e+010  -1.8575157123e-004  -7.2662729348e-004   3.9824257444e-003  -2.3383482718e-001   8.7577866512e-003  -2.3492819019e-001   8.8065564848e-004   1.1576788097e-004
  7.7475000000e+010  -1.8591497716e-004  -7.2431507902e-004   3.9757398174e-003  -2.3381335242e-001   8.7503153988e-003  -2.3490674691e-001   8.7935823470e-004   1.1697218734e-004
  7.7500000000e+010  -1.8607871293e-004  -7.2198281513e-004   3.9689876508e-003  -2.3379166318e-001   8.7427688652e-003  -2.3488508933e-001   8.7803440807e-004   1.1816634036e-004
  7.7525000000e+010  -1.8624274126e-004  -7.1963059892e-004   3.9621692834e-003  -2.3376975952e-001   8.7351470563e-003  -2.3486321753e-001   8.7668430633e-004   1.1935030312e-004
  7.7550000000e+010  -1.8640702462e-004  -7.1725852835e-004   3.9552847544e-003  -2.3374764154e-001   8.7274499784e-003  -2.3484113157e-001   8.7530806767e-004   1.2052403946e-004
  7.7575000000e+010  -1.8657152524e-004  -7.1486670223e-004   3.9483341035e-003  -2.3372530929e-001   8.7196776375e-003  -2.3481883152e-001   8.7390583066e-004   1.2168751399e-004
  7.7600000000e+010  -1.8673620511e-004  -7.1245522020e-004   3.9413173706e-003  -2.3370276286e-001   8.7118300400e-003  -2.3479631746e-001   8.7247773431e-004   1.2284069212e-004
  7.7625000000e+010  -1.8690102598e-004  -7.1002418274e-004   3.9342345960e-003  -2.3368000233e-001   8.7039071922e-003  -2.3477358946e-001   8.7102391797e-004   1.2398353997e-004
  7.7650000000e+010  -1.8706594935e-004  -7.0757369113e-004   3.9270858206e-003  -2.3365702776e-001   8.6959091005e-003  -2.3475064759e-001   8.6954452144e-004   1.2511602449e-004
  7.7675000000e+010  -1.8723093652e-004  -7.0510384751e-004   3.9198710854e-003  -2.3363383924e-001   8.6878357716e-003  -2.3472749192e-001   8.6803968484e-004   1.2623811335e-004
  7.7700000000e+010  -1.8739594853e-004  -7.0261475483e-004   3.9125904319e-003  -2.3361043686e-001   8.6796872120e-003  -2.3470412254e-001   8.6650954871e-004   1.2734977501e-004
