# Hz S RI R 50.000000
! Metas.Vna.Tools, 2.4.7724.19584
! Metas.Vna.Data, 2.4.7724.19560
! Created: UTC 2021.04.29 12:40:11
! FREQ                re:S1,1             im:S1,1             re:S2,1             im:S2,1             re:S1,2             im:S1,2             re:S2,2             im:S2,2          
  7.5000000000e+010  -5.3070258510e-004  -6.7005367158e-004   8.3894619107e-001   3.0967810638e-001   8.3837828385e-001   3.1730116015e-001   7.1846163448e-004   3.7580167518e-004
  7.5025000000e+010  -5.3069730269e-004  -6.7003153318e-004   8.3894644312e-001   3.0967781817e-001   8.3837855395e-001   3.1730080260e-001   7.1845113157e-004   3.7578449523e-004
  7.5050000000e+010  -5.3068673777e-004  -6.6998725730e-004   8.3894694723e-001   3.0967724175e-001   8.3837909416e-001   3.1730008750e-001   7.1843012566e-004   3.7575013639e-004
  7.5075000000e+010  -5.3067089007e-004  -6.6992084587e-004   8.3894770340e-001   3.0967637713e-001   8.3837990448e-001   3.1729901485e-001   7.1839861660e-004   3.7569860070e-004
  7.5100000000e+010  -5.3064975925e-004  -6.6983230170e-004   8.3894871161e-001   3.0967522431e-001   8.3838098489e-001   3.1729758466e-001   7.1835660415e-004   3.7562989129e-004
  7.5125000000e+010  -5.3062334482e-004  -6.6972162859e-004   8.3894997187e-001   3.0967378330e-001   8.3838233540e-001   3.1729579694e-001   7.1830408800e-004   3.7554401230e-004
  7.5150000000e+010  -5.3059164619e-004  -6.6958883127e-004   8.3895148416e-001   3.0967205412e-001   8.3838395600e-001   3.1729365169e-001   7.1824106774e-004   3.7544096890e-004
  7.5175000000e+010  -5.3055466263e-004  -6.6943391542e-004   8.3895324849e-001   3.0967003676e-001   8.3838584669e-001   3.1729114891e-001   7.1816754290e-004   3.7532076732e-004
  7.5200000000e+010  -5.3051239331e-004  -6.6925688767e-004   8.3895526484e-001   3.0966773126e-001   8.3838800746e-001   3.1728828863e-001   7.1808351294e-004   3.7518341478e-004
  7.5225000000e+010  -5.3046483726e-004  -6.6905775559e-004   8.3895753321e-001   3.0966513762e-001   8.3839043829e-001   3.1728507086e-001   7.1798897721e-004   3.7502891959e-004
  7.5250000000e+010  -5.3041199340e-004  -6.6883652769e-004   8.3896005358e-001   3.0966225587e-001   8.3839313919e-001   3.1728149560e-001   7.1788393502e-004   3.7485729105e-004
  7.5275000000e+010  -5.3035386055e-004  -6.6859321343e-004   8.3896282594e-001   3.0965908602e-001   8.3839611014e-001   3.1727756287e-001   7.1776838558e-004   3.7466853951e-004
  7.5300000000e+010  -5.3029043737e-004  -6.6832782323e-004   8.3896585029e-001   3.0965562810e-001   8.3839935113e-001   3.1727327270e-001   7.1764232802e-004   3.7446267636e-004
  7.5325000000e+010  -5.3022172244e-004  -6.6804036843e-004   8.3896912661e-001   3.0965188214e-001   8.3840286215e-001   3.1726862510e-001   7.1750576141e-004   3.7423971400e-004
  7.5350000000e+010  -5.3014771420e-004  -6.6773086133e-004   8.3897265488e-001   3.0964784815e-001   8.3840664318e-001   3.1726362008e-001   7.1735868474e-004   3.7399966589e-004
  7.5375000000e+010  -5.3006841099e-004  -6.6739931517e-004   8.3897643509e-001   3.0964352618e-001   8.3841069422e-001   3.1725825767e-001   7.1720109692e-004   3.7374254649e-004
  7.5400000000e+010  -5.2998381101e-004  -6.6704574413e-004   8.3898046722e-001   3.0963891625e-001   8.3841501525e-001   3.1725253790e-001   7.1703299679e-004   3.7346837130e-004
  7.5425000000e+010  -5.2989391235e-004  -6.6667016333e-004   8.3898475125e-001   3.0963401840e-001   8.3841960624e-001   3.1724646079e-001   7.1685438311e-004   3.7317715685e-004
  7.5450000000e+010  -5.2979871300e-004  -6.6627258883e-004   8.3898928717e-001   3.0962883266e-001   8.3842446719e-001   3.1724002636e-001   7.1666525458e-004   3.7286892071e-004
  7.5475000000e+010  -5.2969821081e-004  -6.6585303766e-004   8.3899407495e-001   3.0962335908e-001   8.3842959808e-001   3.1723323464e-001   7.1646560983e-004   3.7254368146e-004
  7.5500000000e+010  -5.2959240353e-004  -6.6541152775e-004   8.3899911458e-001   3.0961759768e-001   8.3843499889e-001   3.1722608567e-001   7.1625544739e-004   3.7220145870e-004
  7.5525000000e+010  -5.2948128878e-004  -6.6494807799e-004   8.3900440602e-001   3.0961154851e-001   8.3844066960e-001   3.1721857947e-001   7.1603476577e-004   3.7184227306e-004
  7.5550000000e+010  -5.2936486409e-004  -6.6446270821e-004   8.3900994926e-001   3.0960521163e-001   8.3844661018e-001   3.1721071607e-001   7.1580356336e-004   3.7146614620e-004
  7.5575000000e+010  -5.2924312684e-004  -6.6395543917e-004   8.3901574428e-001   3.0959858706e-001   8.3845282063e-001   3.1720249551e-001   7.1556183852e-004   3.7107310079e-004
  7.5600000000e+010  -5.2911607434e-004  -6.6342629259e-004   8.3902179104e-001   3.0959167487e-001   8.3845930090e-001   3.1719391783e-001   7.1530958953e-004   3.7066316052e-004
  7.5625000000e+010  -5.2898370373e-004  -6.6287529109e-004   8.3902808952e-001   3.0958447510e-001   8.3846605098e-001   3.1718498306e-001   7.1504681460e-004   3.7023635010e-004
  7.5650000000e+010  -5.2884601209e-004  -6.6230245826e-004   8.3903463969e-001   3.0957698781e-001   8.3847307085e-001   3.1717569123e-001   7.1477351189e-004   3.6979269527e-004
  7.5675000000e+010  -5.2870299637e-004  -6.6170781860e-004   8.3904144153e-001   3.0956921304e-001   8.3848036048e-001   3.1716604240e-001   7.1448967948e-004   3.6933222275e-004
  7.5700000000e+010  -5.2855465339e-004  -6.6109139757e-004   8.3904849500e-001   3.0956115086e-001   8.3848791985e-001   3.1715603660e-001   7.1419531541e-004   3.6885496031e-004
  7.5725000000e+010  -5.2840097988e-004  -6.6045322154e-004   8.3905580007e-001   3.0955280133e-001   8.3849574891e-001   3.1714567387e-001   7.1389041764e-004   3.6836093670e-004
  7.5750000000e+010  -5.2824197245e-004  -6.5979331782e-004   8.3906335670e-001   3.0954416451e-001   8.3850384766e-001   3.1713495426e-001   7.1357498409e-004   3.6785018171e-004
  7.5775000000e+010  -5.2807762761e-004  -6.5911171466e-004   8.3907116488e-001   3.0953524046e-001   8.3851221605e-001   3.1712387782e-001   7.1324901261e-004   3.6732272611e-004
  7.5800000000e+010  -5.2790794175e-004  -6.5840844123e-004   8.3907922455e-001   3.0952602924e-001   8.3852085406e-001   3.1711244459e-001   7.1291250099e-004   3.6677860168e-004
  7.5825000000e+010  -5.2773291116e-004  -6.5768352763e-004   8.3908753569e-001   3.0951653092e-001   8.3852976165e-001   3.1710065462e-001   7.1256544699e-004   3.6621784122e-004
  7.5850000000e+010  -5.2755253201e-004  -6.5693700489e-004   8.3909609825e-001   3.0950674558e-001   8.3853893880e-001   3.1708850797e-001   7.1220784830e-004   3.6564047851e-004
  7.5875000000e+010  -5.2736680038e-004  -6.5616890497e-004   8.3910491221e-001   3.0949667328e-001   8.3854838546e-001   3.1707600468e-001   7.1183970255e-004   3.6504654835e-004
  7.5900000000e+010  -5.2717571224e-004  -6.5537926075e-004   8.3911397751e-001   3.0948631410e-001   8.3855810161e-001   3.1706314481e-001   7.1146100735e-004   3.6443608652e-004
  7.5925000000e+010  -5.2697926345e-004  -6.5456810603e-004   8.3912329412e-001   3.0947566812e-001   8.3856808720e-001   3.1704992842e-001   7.1107176024e-004   3.6380912980e-004
  7.5950000000e+010  -5.2677744976e-004  -6.5373547556e-004   8.3913286201e-001   3.0946473540e-001   8.3857834221e-001   3.1703635556e-001   7.1067195873e-004   3.6316571596e-004
  7.5975000000e+010  -5.2657026683e-004  -6.5288140497e-004   8.3914268112e-001   3.0945351604e-001   8.3858886660e-001   3.1702242629e-001   7.1026160027e-004   3.6250588375e-004
  7.6000000000e+010  -5.2635771020e-004  -6.5200593084e-004   8.3915275141e-001   3.0944201011e-001   8.3859966032e-001   3.1700814067e-001   7.0984068228e-004   3.6182967294e-004
  7.6025000000e+010  -5.2613977534e-004  -6.5110909066e-004   8.3916307284e-001   3.0943021770e-001   8.3861072333e-001   3.1699349876e-001   7.0940920216e-004   3.6113712425e-004
  7.6050000000e+010  -5.2591645759e-004  -6.5019092284e-004   8.3917364536e-001   3.0941813889e-001   8.3862205560e-001   3.1697850063e-001   7.0896715722e-004   3.6042827940e-004
  7.6075000000e+010  -5.2568775219e-004  -6.4925146670e-004   8.3918446893e-001   3.0940577377e-001   8.3863365709e-001   3.1696314634e-001   7.0851454480e-004   3.5970318107e-004
  7.6100000000e+010  -5.2545365431e-004  -6.4829076249e-004   8.3919554349e-001   3.0939312244e-001   8.3864552775e-001   3.1694743596e-001   7.0805136215e-004   3.5896187295e-004
  7.6125000000e+010  -5.2521415899e-004  -6.4730885135e-004   8.3920686900e-001   3.0938018498e-001   8.3865766754e-001   3.1693136955e-001   7.0757760653e-004   3.5820439966e-004
  7.6150000000e+010  -5.2496926119e-004  -6.4630577535e-004   8.3921844541e-001   3.0936696150e-001   8.3867007641e-001   3.1691494718e-001   7.0709327515e-004   3.5743080684e-004
  7.6175000000e+010  -5.2471895578e-004  -6.4528157746e-004   8.3923027266e-001   3.0935345207e-001   8.3868275432e-001   3.1689816893e-001   7.0659836520e-004   3.5664114105e-004
  7.6200000000e+010  -5.2446323752e-004  -6.4423630156e-004   8.3924235070e-001   3.0933965682e-001   8.3869570122e-001   3.1688103487e-001   7.0609287385e-004   3.5583544986e-004
  7.6225000000e+010  -5.2420210109e-004  -6.4316999245e-004   8.3925467949e-001   3.0932557583e-001   8.3870891707e-001   3.1686354507e-001   7.0557679824e-004   3.5501378175e-004
  7.6250000000e+010  -5.2393554107e-004  -6.4208269582e-004   8.3926725896e-001   3.0931120921e-001   8.3872240181e-001   3.1684569960e-001   7.0505013549e-004   3.5417618621e-004
  7.6275000000e+010  -5.2366355195e-004  -6.4097445826e-004   8.3928008906e-001   3.0929655706e-001   8.3873615540e-001   3.1682749855e-001   7.0451288272e-004   3.5332271366e-004
  7.6300000000e+010  -5.2338612813e-004  -6.3984532727e-004   8.3929316973e-001   3.0928161950e-001   8.3875017779e-001   3.1680894199e-001   7.0396503702e-004   3.5245341547e-004
  7.6325000000e+010  -5.2310326392e-004  -6.3869535125e-004   8.3930650091e-001   3.0926639663e-001   8.3876446892e-001   3.1679003000e-001   7.0340659547e-004   3.5156834396e-004
  7.6350000000e+010  -5.2281495355e-004  -6.3752457951e-004   8.3932008255e-001   3.0925088856e-001   8.3877902875e-001   3.1677076266e-001   7.0283755515e-004   3.5066755241e-004
  7.6375000000e+010  -5.2252119117e-004  -6.3633306221e-004   8.3933391458e-001   3.0923509540e-001   8.3879385722e-001   3.1675114007e-001   7.0225791311e-004   3.4975109503e-004
  7.6400000000e+010  -5.2222197082e-004  -6.3512085047e-004   8.3934799694e-001   3.0921901727e-001   8.3880895427e-001   3.1673116229e-001   7.0166766644e-004   3.4881902697e-004
  7.6425000000e+010  -5.2191728647e-004  -6.3388799625e-004   8.3936232957e-001   3.0920265430e-001   8.3882431985e-001   3.1671082942e-001   7.0106681218e-004   3.4787140431e-004
  7.6450000000e+010  -5.2160713201e-004  -6.3263455242e-004   8.3937691241e-001   3.0918600659e-001   8.3883995390e-001   3.1669014155e-001   7.0045534740e-004   3.4690828407e-004
  7.6475000000e+010  -5.2129150125e-004  -6.3136057273e-004   8.3939174538e-001   3.0916907426e-001   8.3885585638e-001   3.1666909876e-001   6.9983326918e-004   3.4592972421e-004
  7.6500000000e+010  -5.2097038793e-004  -6.3006611184e-004   8.3940682844e-001   3.0915185746e-001   8.3887202721e-001   3.1664770115e-001   6.9920057458e-004   3.4493578358e-004
  7.6525000000e+010  -5.2064378567e-004  -6.2875122527e-004   8.3942216150e-001   3.0913435629e-001   8.3888846633e-001   3.1662594881e-001   6.9855726069e-004   3.4392652199e-004
  7.6550000000e+010  -5.2031168807e-004  -6.2741596942e-004   8.3943774450e-001   3.0911657089e-001   8.3890517370e-001   3.1660384183e-001   6.9790332461e-004   3.4290200013e-004
  7.6575000000e+010  -5.1997408861e-004  -6.2606040159e-004   8.3945357737e-001   3.0909850138e-001   8.3892214924e-001   3.1658138030e-001   6.9723876346e-004   3.4186227962e-004
  7.6600000000e+010  -5.1963098071e-004  -6.2468457994e-004   8.3946966004e-001   3.0908014790e-001   8.3893939290e-001   3.1655856433e-001   6.9656357437e-004   3.4080742300e-004
  7.6625000000e+010  -5.1928235774e-004  -6.2328856352e-004   8.3948599243e-001   3.0906151059e-001   8.3895690461e-001   3.1653539402e-001   6.9587775449e-004   3.3973749370e-004
  7.6650000000e+010  -5.1892821296e-004  -6.2187241223e-004   8.3950257449e-001   3.0904258957e-001   8.3897468431e-001   3.1651186946e-001   6.9518130101e-004   3.3865255605e-004
  7.6675000000e+010  -5.1856853958e-004  -6.2043618686e-004   8.3951940612e-001   3.0902338499e-001   8.3899273193e-001   3.1648799075e-001   6.9447421114e-004   3.3755267528e-004
  7.6700000000e+010  -5.1820333074e-004  -6.1897994908e-004   8.3953648726e-001   3.0900389699e-001   8.3901104741e-001   3.1646375800e-001   6.9375648211e-004   3.3643791752e-004
  7.6725000000e+010  -5.1783257952e-004  -6.1750376139e-004   8.3955381784e-001   3.0898412571e-001   8.3902963067e-001   3.1643917132e-001   6.9302811121e-004   3.3530834978e-004
  7.6750000000e+010  -5.1745627892e-004  -6.1600768718e-004   8.3957139776e-001   3.0896407129e-001   8.3904848165e-001   3.1641423080e-001   6.9228909575e-004   3.3416403995e-004
  7.6775000000e+010  -5.1707442189e-004  -6.1449179071e-004   8.3958922696e-001   3.0894373388e-001   8.3906760029e-001   3.1638893656e-001   6.9153943307e-004   3.3300505681e-004
  7.6800000000e+010  -5.1668700131e-004  -6.1295613707e-004   8.3960730536e-001   3.0892311363e-001   8.3908698651e-001   3.1636328871e-001   6.9077912059e-004   3.3183147000e-004
  7.6825000000e+010  -5.1629401001e-004  -6.1140079222e-004   8.3962563288e-001   3.0890221069e-001   8.3910664023e-001   3.1633728735e-001   6.9000815574e-004   3.3064335005e-004
  7.6850000000e+010  -5.1589544073e-004  -6.0982582299e-004   8.3964420942e-001   3.0888102520e-001   8.3912656140e-001   3.1631093260e-001   6.8922653602e-004   3.2944076835e-004
  7.6875000000e+010  -5.1549128620e-004  -6.0823129703e-004   8.3966303492e-001   3.0885955734e-001   8.3914674993e-001   3.1628422458e-001   6.8843425900e-004   3.2822379714e-004
  7.6900000000e+010  -5.1508153905e-004  -6.0661728287e-004   8.3968210929e-001   3.0883780725e-001   8.3916720575e-001   3.1625716339e-001   6.8763132227e-004   3.2699250953e-004
  7.6925000000e+010  -5.1466619189e-004  -6.0498384987e-004   8.3970143243e-001   3.0881577509e-001   8.3918792878e-001   3.1622974916e-001   6.8681772351e-004   3.2574697948e-004
  7.6950000000e+010  -5.1424523725e-004  -6.0333106823e-004   8.3972100428e-001   3.0879346102e-001   8.3920891895e-001   3.1620198200e-001   6.8599346046e-004   3.2448728179e-004
  7.6975000000e+010  -5.1381866763e-004  -6.0165900900e-004   8.3974082473e-001   3.0877086520e-001   8.3923017619e-001   3.1617386204e-001   6.8515853092e-004   3.2321349211e-004
  7.7000000000e+010  -5.1338647548e-004  -5.9996774407e-004   8.3976089371e-001   3.0874798781e-001   8.3925170040e-001   3.1614538939e-001   6.8431293277e-004   3.2192568692e-004
  7.7025000000e+010  -5.1294865318e-004  -5.9825734615e-004   8.3978121112e-001   3.0872482900e-001   8.3927349153e-001   3.1611656418e-001   6.8345666396e-004   3.2062394355e-004
  7.7050000000e+010  -5.1250519309e-004  -5.9652788881e-004   8.3980177686e-001   3.0870138895e-001   8.3929554947e-001   3.1608738654e-001   6.8258972253e-004   3.1930834015e-004
  7.7075000000e+010  -5.1205608751e-004  -5.9477944642e-004   8.3982259086e-001   3.0867766782e-001   8.3931787416e-001   3.1605785658e-001   6.8171210660e-004   3.1797895567e-004
  7.7100000000e+010  -5.1160132871e-004  -5.9301209420e-004   8.3984365302e-001   3.0865366579e-001   8.3934046551e-001   3.1602797445e-001   6.8082381436e-004   3.1663586992e-004
  7.7125000000e+010  -5.1114090892e-004  -5.9122590818e-004   8.3986496324e-001   3.0862938304e-001   8.3936332344e-001   3.1599774025e-001   6.7992484411e-004   3.1527916350e-004
  7.7150000000e+010  -5.1067482032e-004  -5.8942096521e-004   8.3988652142e-001   3.0860481973e-001   8.3938644786e-001   3.1596715414e-001   6.7901519425e-004   3.1390891780e-004
  7.7175000000e+010  -5.1020305506e-004  -5.8759734299e-004   8.3990832748e-001   3.0857997606e-001   8.3940983869e-001   3.1593621624e-001   6.7809486324e-004   3.1252521505e-004
  7.7200000000e+010  -5.0972560526e-004  -5.8575511998e-004   8.3993038131e-001   3.0855485220e-001   8.3943349585e-001   3.1590492667e-001   6.7716384970e-004   3.1112813826e-004
  7.7225000000e+010  -5.0924246300e-004  -5.8389437551e-004   8.3995268282e-001   3.0852944833e-001   8.3945741923e-001   3.1587328559e-001   6.7622215230e-004   3.0971777122e-004
  7.7250000000e+010  -5.0875362032e-004  -5.8201518967e-004   8.3997523191e-001   3.0850376464e-001   8.3948160877e-001   3.1584129312e-001   6.7526976986e-004   3.0829419852e-004
  7.7275000000e+010  -5.0825906926e-004  -5.8011764340e-004   8.3999802848e-001   3.0847780132e-001   8.3950606436e-001   3.1580894941e-001   6.7430670128e-004   3.0685750554e-004
  7.7300000000e+010  -5.0775880181e-004  -5.7820181840e-004   8.4002107242e-001   3.0845155855e-001   8.3953078592e-001   3.1577625459e-001   6.7333294562e-004   3.0540777842e-004
  7.7325000000e+010  -5.0725280994e-004  -5.7626779722e-004   8.4004436363e-001   3.0842503652e-001   8.3955577336e-001   3.1574320881e-001   6.7234850202e-004   3.0394510407e-004
  7.7350000000e+010  -5.0674108560e-004  -5.7431566316e-004   8.4006790201e-001   3.0839823544e-001   8.3958102659e-001   3.1570981220e-001   6.7135336977e-004   3.0246957018e-004
  7.7375000000e+010  -5.0622362070e-004  -5.7234550034e-004   8.4009168746e-001   3.0837115549e-001   8.3960654550e-001   3.1567606492e-001   6.7034754828e-004   3.0098126519e-004
  7.7400000000e+010  -5.0570040717e-004  -5.7035739367e-004   8.4011571986e-001   3.0834379687e-001   8.3963233001e-001   3.1564196711e-001   6.6933103710e-004   2.9948027829e-004
  7.7425000000e+010  -5.0517143688e-004  -5.6835142883e-004   8.4013999912e-001   3.0831615979e-001   8.3965838003e-001   3.1560751891e-001   6.6830383592e-004   2.9796669941e-004
  7.7450000000e+010  -5.0463670172e-004  -5.6632769230e-004   8.4016452512e-001   3.0828824443e-001   8.3968469545e-001   3.1557272048e-001   6.6726594455e-004   2.9644061926e-004
  7.7475000000e+010  -5.0409619353e-004  -5.6428627135e-004   8.4018929775e-001   3.0826005101e-001   8.3971127618e-001   3.1553757196e-001   6.6621736299e-004   2.9490212924e-004
  7.7500000000e+010  -5.0354990418e-004  -5.6222725400e-004   8.4021431690e-001   3.0823157973e-001   8.3973812212e-001   3.1550207352e-001   6.6515809134e-004   2.9335132151e-004
  7.7525000000e+010  -5.0299782551e-004  -5.6015072907e-004   8.4023958247e-001   3.0820283079e-001   8.3976523317e-001   3.1546622529e-001   6.6408812989e-004   2.9178828894e-004
  7.7550000000e+010  -5.0243994934e-004  -5.5805678613e-004   8.4026509433e-001   3.0817380442e-001   8.3979260924e-001   3.1543002745e-001   6.6300747907e-004   2.9021312512e-004
  7.7575000000e+010  -5.0187626750e-004  -5.5594551553e-004   8.4029085238e-001   3.0814450081e-001   8.3982025022e-001   3.1539348014e-001   6.6191613948e-004   2.8862592438e-004
  7.7600000000e+010  -5.0130677182e-004  -5.5381700838e-004   8.4031685650e-001   3.0811492018e-001   8.3984815600e-001   3.1535658352e-001   6.6081411190e-004   2.8702678171e-004
  7.7625000000e+010  -5.0073145412e-004  -5.5167135655e-004   8.4034310657e-001   3.0808506274e-001   8.3987632649e-001   3.1531933775e-001   6.5970139726e-004   2.8541579283e-004
  7.7650000000e+010  -5.0015030624e-004  -5.4950865268e-004   8.4036960248e-001   3.0805492872e-001   8.3990476158e-001   3.1528174300e-001   6.5857799667e-004   2.8379305416e-004
  7.7675000000e+010  -4.9956331998e-004  -5.4732899014e-004   8.4039634411e-001   3.0802451833e-001   8.3993346117e-001   3.1524379942e-001   6.5744391143e-004   2.8215866279e-004
  7.7700000000e+010  -4.9897048720e-004  -5.4513246306e-004   8.4042333134e-001   3.0799383179e-001   8.3996242515e-001   3.1520550719e-001   6.5629914302e-004   2.8051271650e-004
