# Hz S RI R 50.000000
! Metas.Vna.Tools, 2.4.7724.19584
! Metas.Vna.Data, 2.4.7724.19560
! Created: UTC 2021.04.29 12:40:11
! FREQ                re:S1,1             im:S1,1             re:S2,1             im:S2,1             re:S1,2             im:S1,2             re:S2,2             im:S2,2          
  7.5000000000e+010  -2.1777023634e-004  -8.1416275345e-004   1.0774366229e-001  -3.7163450325e-001   1.1575856707e-001  -3.7151668267e-001   6.6300690938e-004   2.0406731948e-004
  7.5025000000e+010  -2.1777172185e-004  -8.1413826794e-004   1.0774350042e-001  -3.7163413793e-001   1.1575837982e-001  -3.7151631850e-001   6.6485009334e-004   2.0569855020e-004
  7.5050000000e+010  -2.1777469249e-004  -8.1408929792e-004   1.0774317669e-001  -3.7163340728e-001   1.1575800531e-001  -3.7151559017e-001   6.6666474915e-004   2.0731883727e-004
  7.5075000000e+010  -2.1777914752e-004  -8.1401584543e-004   1.0774269109e-001  -3.7163231131e-001   1.1575744354e-001  -3.7151449766e-001   6.6845090567e-004   2.0892812104e-004
  7.5100000000e+010  -2.1778508585e-004  -8.1391791348e-004   1.0774204364e-001  -3.7163085002e-001   1.1575669451e-001  -3.7151304100e-001   6.7020859260e-004   2.1052634248e-004
  7.5125000000e+010  -2.1779250599e-004  -8.1379550613e-004   1.0774123432e-001  -3.7162902343e-001   1.1575575823e-001  -3.7151122019e-001   6.7193784053e-004   2.1211344323e-004
  7.5150000000e+010  -2.1780140609e-004  -8.1364862844e-004   1.0774026314e-001  -3.7162683153e-001   1.1575463470e-001  -3.7150903524e-001   6.7363868089e-004   2.1368936552e-004
  7.5175000000e+010  -2.1781178395e-004  -8.1347728647e-004   1.0773913012e-001  -3.7162427435e-001   1.1575332391e-001  -3.7150648615e-001   6.7531114598e-004   2.1525405228e-004
  7.5200000000e+010  -2.1782363697e-004  -8.1328148729e-004   1.0773783525e-001  -3.7162135189e-001   1.1575182587e-001  -3.7150357295e-001   6.7695526896e-004   2.1680744706e-004
  7.5225000000e+010  -2.1783696220e-004  -8.1306123900e-004   1.0773637853e-001  -3.7161806416e-001   1.1575014058e-001  -3.7150029564e-001   6.7857108382e-004   2.1834949405e-004
  7.5250000000e+010  -2.1785175632e-004  -8.1281655068e-004   1.0773475998e-001  -3.7161441119e-001   1.1574826803e-001  -3.7149665425e-001   6.8015862540e-004   2.1988013813e-004
  7.5275000000e+010  -2.1786801565e-004  -8.1254743246e-004   1.0773297960e-001  -3.7161039299e-001   1.1574620824e-001  -3.7149264879e-001   6.8171792939e-004   2.2139932479e-004
  7.5300000000e+010  -2.1788573613e-004  -8.1225389543e-004   1.0773103739e-001  -3.7160600957e-001   1.1574396120e-001  -3.7148827929e-001   6.8324903232e-004   2.2290700023e-004
  7.5325000000e+010  -2.1790491333e-004  -8.1193595173e-004   1.0772893337e-001  -3.7160126096e-001   1.1574152692e-001  -3.7148354576e-001   6.8475197155e-004   2.2440311127e-004
  7.5350000000e+010  -2.1792554246e-004  -8.1159361450e-004   1.0772666754e-001  -3.7159614719e-001   1.1573890539e-001  -3.7147844823e-001   6.8622678525e-004   2.2588760542e-004
  7.5375000000e+010  -2.1794761837e-004  -8.1122689786e-004   1.0772423992e-001  -3.7159066827e-001   1.1573609661e-001  -3.7147298673e-001   6.8767351244e-004   2.2736043085e-004
  7.5400000000e+010  -2.1797113554e-004  -8.1083581698e-004   1.0772165051e-001  -3.7158482423e-001   1.1573310060e-001  -3.7146716128e-001   6.8909219296e-004   2.2882153640e-004
  7.5425000000e+010  -2.1799608806e-004  -8.1042038799e-004   1.0771889932e-001  -3.7157861510e-001   1.1572991735e-001  -3.7146097192e-001   6.9048286746e-004   2.3027087158e-004
  7.5450000000e+010  -2.1802246970e-004  -8.0998062808e-004   1.0771598637e-001  -3.7157204090e-001   1.1572654686e-001  -3.7145441867e-001   6.9184557741e-004   2.3170838659e-004
  7.5475000000e+010  -2.1805027384e-004  -8.0951655540e-004   1.0771291166e-001  -3.7156510168e-001   1.1572298914e-001  -3.7144750158e-001   6.9318036507e-004   2.3313403229e-004
  7.5500000000e+010  -2.1807949349e-004  -8.0902818912e-004   1.0770967521e-001  -3.7155779745e-001   1.1571924419e-001  -3.7144022066e-001   6.9448727354e-004   2.3454776023e-004
  7.5525000000e+010  -2.1811012130e-004  -8.0851554942e-004   1.0770627703e-001  -3.7155012827e-001   1.1571531201e-001  -3.7143257598e-001   6.9576634669e-004   2.3594952265e-004
  7.5550000000e+010  -2.1814214957e-004  -8.0797865749e-004   1.0770271713e-001  -3.7154209415e-001   1.1571119261e-001  -3.7142456755e-001   6.9701762919e-004   2.3733927246e-004
  7.5575000000e+010  -2.1817557024e-004  -8.0741753549e-004   1.0769899554e-001  -3.7153369515e-001   1.1570688598e-001  -3.7141619542e-001   6.9824116653e-004   2.3871696327e-004
  7.5600000000e+010  -2.1821037487e-004  -8.0683220663e-004   1.0769511226e-001  -3.7152493129e-001   1.1570239213e-001  -3.7140745965e-001   6.9943700497e-004   2.4008254936e-004
  7.5625000000e+010  -2.1824655466e-004  -8.0622269508e-004   1.0769106731e-001  -3.7151580263e-001   1.1569771107e-001  -3.7139836026e-001   7.0060519154e-004   2.4143598574e-004
  7.5650000000e+010  -2.1828410048e-004  -8.0558902603e-004   1.0768686071e-001  -3.7150630920e-001   1.1569284279e-001  -3.7138889731e-001   7.0174577407e-004   2.4277722809e-004
  7.5675000000e+010  -2.1832300280e-004  -8.0493122566e-004   1.0768249247e-001  -3.7149645105e-001   1.1568778731e-001  -3.7137907085e-001   7.0285880117e-004   2.4410623277e-004
  7.5700000000e+010  -2.1836325177e-004  -8.0424932117e-004   1.0767796261e-001  -3.7148622822e-001   1.1568254461e-001  -3.7136888092e-001   7.0394432221e-004   2.4542295687e-004
  7.5725000000e+010  -2.1840483715e-004  -8.0354334072e-004   1.0767327116e-001  -3.7147564077e-001   1.1567711472e-001  -3.7135832758e-001   7.0500238732e-004   2.4672735817e-004
  7.5750000000e+010  -2.1844774837e-004  -8.0281331350e-004   1.0766841812e-001  -3.7146468874e-001   1.1567149763e-001  -3.7134741089e-001   7.0603304742e-004   2.4801939514e-004
  7.5775000000e+010  -2.1849197450e-004  -8.0205926967e-004   1.0766340352e-001  -3.7145337219e-001   1.1566569334e-001  -3.7133613089e-001   7.0703635417e-004   2.4929902698e-004
  7.5800000000e+010  -2.1853750423e-004  -8.0128124041e-004   1.0765822738e-001  -3.7144169116e-001   1.1565970187e-001  -3.7132448765e-001   7.0801235997e-004   2.5056621356e-004
  7.5825000000e+010  -2.1858432593e-004  -8.0047925788e-004   1.0765288971e-001  -3.7142964572e-001   1.1565352321e-001  -3.7131248123e-001   7.0896111801e-004   2.5182091550e-004
  7.5850000000e+010  -2.1863242761e-004  -7.9965335523e-004   1.0764739055e-001  -3.7141723592e-001   1.1564715737e-001  -3.7130011169e-001   7.0988268219e-004   2.5306309409e-004
  7.5875000000e+010  -2.1868179691e-004  -7.9880356659e-004   1.0764172992e-001  -3.7140446182e-001   1.1564060435e-001  -3.7128737909e-001   7.1077710717e-004   2.5429271136e-004
  7.5900000000e+010  -2.1873242113e-004  -7.9792992710e-004   1.0763590782e-001  -3.7139132348e-001   1.1563386417e-001  -3.7127428350e-001   7.1164444835e-004   2.5550973003e-004
  7.5925000000e+010  -2.1878428724e-004  -7.9703247288e-004   1.0762992430e-001  -3.7137782096e-001   1.1562693681e-001  -3.7126082498e-001   7.1248476184e-004   2.5671411356e-004
  7.5950000000e+010  -2.1883738183e-004  -7.9611124104e-004   1.0762377938e-001  -3.7136395432e-001   1.1561982230e-001  -3.7124700360e-001   7.1329810450e-004   2.5790582610e-004
  7.5975000000e+010  -2.1889169118e-004  -7.9516626967e-004   1.0761747307e-001  -3.7134972363e-001   1.1561252062e-001  -3.7123281944e-001   7.1408453391e-004   2.5908483254e-004
  7.6000000000e+010  -2.1894720118e-004  -7.9419759784e-004   1.0761100540e-001  -3.7133512897e-001   1.1560503180e-001  -3.7121827257e-001   7.1484410837e-004   2.6025109847e-004
  7.6025000000e+010  -2.1900389741e-004  -7.9320526562e-004   1.0760437641e-001  -3.7132017038e-001   1.1559735583e-001  -3.7120336306e-001   7.1557688688e-004   2.6140459021e-004
  7.6050000000e+010  -2.1906176510e-004  -7.9218931404e-004   1.0759758612e-001  -3.7130484796e-001   1.1558949273e-001  -3.7118809099e-001   7.1628292917e-004   2.6254527481e-004
  7.6075000000e+010  -2.1912078914e-004  -7.9114978512e-004   1.0759063455e-001  -3.7128916176e-001   1.1558144248e-001  -3.7117245644e-001   7.1696229567e-004   2.6367312002e-004
  7.6100000000e+010  -2.1918095406e-004  -7.9008672186e-004   1.0758352173e-001  -3.7127311187e-001   1.1557320512e-001  -3.7115645948e-001   7.1761504751e-004   2.6478809433e-004
  7.6125000000e+010  -2.1924224408e-004  -7.8900016824e-004   1.0757624769e-001  -3.7125669836e-001   1.1556478062e-001  -3.7114010021e-001   7.1824124651e-004   2.6589016696e-004
  7.6150000000e+010  -2.1930464306e-004  -7.8789016920e-004   1.0756881247e-001  -3.7123992130e-001   1.1555616902e-001  -3.7112337870e-001   7.1884095520e-004   2.6697930783e-004
  7.6175000000e+010  -2.1936813453e-004  -7.8675677067e-004   1.0756121609e-001  -3.7122278078e-001   1.1554737030e-001  -3.7110629503e-001   7.1941423677e-004   2.6805548762e-004
  7.6200000000e+010  -2.1943270170e-004  -7.8560001953e-004   1.0755345858e-001  -3.7120527687e-001   1.1553838449e-001  -3.7108884931e-001   7.1996115513e-004   2.6911867771e-004
  7.6225000000e+010  -2.1949832743e-004  -7.8441996366e-004   1.0754553997e-001  -3.7118740967e-001   1.1552921157e-001  -3.7107104161e-001   7.2048177484e-004   2.7016885023e-004
  7.6250000000e+010  -2.1956499425e-004  -7.8321665189e-004   1.0753746030e-001  -3.7116917924e-001   1.1551985157e-001  -3.7105287203e-001   7.2097616114e-004   2.7120597802e-004
  7.6275000000e+010  -2.1963268437e-004  -7.8199013401e-004   1.0752921960e-001  -3.7115058569e-001   1.1551030448e-001  -3.7103434066e-001   7.2144437996e-004   2.7223003468e-004
  7.6300000000e+010  -2.1970137966e-004  -7.8074046079e-004   1.0752081790e-001  -3.7113162909e-001   1.1550057032e-001  -3.7101544760e-001   7.2188649786e-004   2.7324099450e-004
  7.6325000000e+010  -2.1977106167e-004  -7.7946768396e-004   1.0751225524e-001  -3.7111230954e-001   1.1549064910e-001  -3.7099619294e-001   7.2230258209e-004   2.7423883254e-004
  7.6350000000e+010  -2.1984171162e-004  -7.7817185619e-004   1.0750353164e-001  -3.7109262713e-001   1.1548054081e-001  -3.7097657679e-001   7.2269270054e-004   2.7522352458e-004
  7.6375000000e+010  -2.1991331042e-004  -7.7685303114e-004   1.0749464716e-001  -3.7107258194e-001   1.1547024547e-001  -3.7095659924e-001   7.2305692176e-004   2.7619504712e-004
  7.6400000000e+010  -2.1998583863e-004  -7.7551126341e-004   1.0748560181e-001  -3.7105217409e-001   1.1545976309e-001  -3.7093626039e-001   7.2339531494e-004   2.7715337740e-004
  7.6425000000e+010  -2.2005927653e-004  -7.7414660856e-004   1.0747639564e-001  -3.7103140365e-001   1.1544909366e-001  -3.7091556036e-001   7.2370794992e-004   2.7809849342e-004
  7.6450000000e+010  -2.2013360404e-004  -7.7275912309e-004   1.0746702869e-001  -3.7101027073e-001   1.1543823721e-001  -3.7089449924e-001   7.2399489718e-004   2.7903037387e-004
  7.6475000000e+010  -2.2020880079e-004  -7.7134886447e-004   1.0745750100e-001  -3.7098877543e-001   1.1542719374e-001  -3.7087307714e-001   7.2425622781e-004   2.7994899822e-004
  7.6500000000e+010  -2.2028484609e-004  -7.6991589111e-004   1.0744781259e-001  -3.7096691786e-001   1.1541596326e-001  -3.7085129418e-001   7.2449201355e-004   2.8085434663e-004
  7.6525000000e+010  -2.2036171894e-004  -7.6846026236e-004   1.0743796352e-001  -3.7094469810e-001   1.1540454578e-001  -3.7082915047e-001   7.2470232676e-004   2.8174640004e-004
  7.6550000000e+010  -2.2043939801e-004  -7.6698203852e-004   1.0742795382e-001  -3.7092211628e-001   1.1539294130e-001  -3.7080664612e-001   7.2488724042e-004   2.8262514009e-004
  7.6575000000e+010  -2.2051786169e-004  -7.6548128085e-004   1.0741778353e-001  -3.7089917249e-001   1.1538114983e-001  -3.7078378124e-001   7.2504682811e-004   2.8349054919e-004
  7.6600000000e+010  -2.2059708804e-004  -7.6395805151e-004   1.0740745269e-001  -3.7087586684e-001   1.1536917139e-001  -3.7076055596e-001   7.2518116404e-004   2.8434261044e-004
  7.6625000000e+010  -2.2067705483e-004  -7.6241241363e-004   1.0739696135e-001  -3.7085219945e-001   1.1535700598e-001  -3.7073697039e-001   7.2529032301e-004   2.8518130773e-004
  7.6650000000e+010  -2.2075773951e-004  -7.6084443128e-004   1.0738630955e-001  -3.7082817042e-001   1.1534465361e-001  -3.7071302465e-001   7.2537438043e-004   2.8600662564e-004
  7.6675000000e+010  -2.2083911925e-004  -7.5925416942e-004   1.0737549733e-001  -3.7080377987e-001   1.1533211429e-001  -3.7068871887e-001   7.2543341229e-004   2.8681854952e-004
  7.6700000000e+010  -2.2092117090e-004  -7.5764169400e-004   1.0736452474e-001  -3.7077902791e-001   1.1531938803e-001  -3.7066405317e-001   7.2546749519e-004   2.8761706544e-004
  7.6725000000e+010  -2.2100387102e-004  -7.5600707184e-004   1.0735339181e-001  -3.7075391466e-001   1.1530647485e-001  -3.7063902767e-001   7.2547670631e-004   2.8840216019e-004
  7.6750000000e+010  -2.2108719589e-004  -7.5435037074e-004   1.0734209860e-001  -3.7072844025e-001   1.1529337474e-001  -3.7061364252e-001   7.2546112340e-004   2.8917382134e-004
  7.6775000000e+010  -2.2117112147e-004  -7.5267165938e-004   1.0733064515e-001  -3.7070260478e-001   1.1528008773e-001  -3.7058789783e-001   7.2542082480e-004   2.8993203714e-004
  7.6800000000e+010  -2.2125562346e-004  -7.5097100737e-004   1.0731903151e-001  -3.7067640838e-001   1.1526661382e-001  -3.7056179374e-001   7.2535588942e-004   2.9067679663e-004
  7.6825000000e+010  -2.2134067724e-004  -7.4924848527e-004   1.0730725772e-001  -3.7064985118e-001   1.1525295302e-001  -3.7053533038e-001   7.2526639674e-004   2.9140808954e-004
  7.6850000000e+010  -2.2142625792e-004  -7.4750416451e-004   1.0729532383e-001  -3.7062293330e-001   1.1523910535e-001  -3.7050850789e-001   7.2515242678e-004   2.9212590636e-004
  7.6875000000e+010  -2.2151234033e-004  -7.4573811747e-004   1.0728322989e-001  -3.7059565486e-001   1.1522507080e-001  -3.7048132641e-001   7.2501406015e-004   2.9283023831e-004
  7.6900000000e+010  -2.2159889901e-004  -7.4395041741e-004   1.0727097595e-001  -3.7056801600e-001   1.1521084941e-001  -3.7045378607e-001   7.2485137799e-004   2.9352107733e-004
  7.6925000000e+010  -2.2168590823e-004  -7.4214113852e-004   1.0725856206e-001  -3.7054001685e-001   1.1519644117e-001  -3.7042588702e-001   7.2466446201e-004   2.9419841611e-004
  7.6950000000e+010  -2.2177334197e-004  -7.4031035589e-004   1.0724598827e-001  -3.7051165753e-001   1.1518184609e-001  -3.7039762941e-001   7.2445339443e-004   2.9486224805e-004
  7.6975000000e+010  -2.2186117393e-004  -7.3845814550e-004   1.0723325463e-001  -3.7048293819e-001   1.1516706420e-001  -3.7036901336e-001   7.2421825805e-004   2.9551256731e-004
  7.7000000000e+010  -2.2194937757e-004  -7.3658458425e-004   1.0722036120e-001  -3.7045385896e-001   1.1515209550e-001  -3.7034003904e-001   7.2395913617e-004   2.9614936876e-004
  7.7025000000e+010  -2.2203792604e-004  -7.3468974991e-004   1.0720730802e-001  -3.7042441997e-001   1.1513694000e-001  -3.7031070659e-001   7.2367611264e-004   2.9677264801e-004
  7.7050000000e+010  -2.2212679224e-004  -7.3277372118e-004   1.0719409514e-001  -3.7039462136e-001   1.1512159772e-001  -3.7028101617e-001   7.2336927182e-004   2.9738240139e-004
  7.7075000000e+010  -2.2221594882e-004  -7.3083657760e-004   1.0718072263e-001  -3.7036446329e-001   1.1510606866e-001  -3.7025096791e-001   7.2303869861e-004   2.9797862596e-004
  7.7100000000e+010  -2.2230536814e-004  -7.2887839965e-004   1.0716719053e-001  -3.7033394587e-001   1.1509035285e-001  -3.7022056199e-001   7.2268447841e-004   2.9856131951e-004
  7.7125000000e+010  -2.2239502231e-004  -7.2689926867e-004   1.0715349890e-001  -3.7030306927e-001   1.1507445029e-001  -3.7018979855e-001   7.2230669713e-004   2.9913048056e-004
  7.7150000000e+010  -2.2248488318e-004  -7.2489926687e-004   1.0713964780e-001  -3.7027183363e-001   1.1505836099e-001  -3.7015867775e-001   7.2190544119e-004   2.9968610835e-004
  7.7175000000e+010  -2.2257492236e-004  -7.2287847736e-004   1.0712563728e-001  -3.7024023909e-001   1.1504208498e-001  -3.7012719975e-001   7.2148079752e-004   3.0022820284e-004
  7.7200000000e+010  -2.2266511119e-004  -7.2083698413e-004   1.0711146740e-001  -3.7020828581e-001   1.1502562225e-001  -3.7009536472e-001   7.2103285352e-004   3.0075676472e-004
  7.7225000000e+010  -2.2275542076e-004  -7.1877487201e-004   1.0709713822e-001  -3.7017597393e-001   1.1500897283e-001  -3.7006317282e-001   7.2056169712e-004   3.0127179540e-004
  7.7250000000e+010  -2.2284582191e-004  -7.1669222673e-004   1.0708264980e-001  -3.7014330360e-001   1.1499213673e-001  -3.7003062420e-001   7.2006741671e-004   3.0177329701e-004
  7.7275000000e+010  -2.2293628526e-004  -7.1458913488e-004   1.0706800218e-001  -3.7011027499e-001   1.1497511397e-001  -3.6999771905e-001   7.1955010117e-004   3.0226127240e-004
  7.7300000000e+010  -2.2302678116e-004  -7.1246568391e-004   1.0705319545e-001  -3.7007688825e-001   1.1495790455e-001  -3.6996445753e-001   7.1900983986e-004   3.0273572512e-004
  7.7325000000e+010  -2.2311727972e-004  -7.1032196212e-004   1.0703822964e-001  -3.7004314353e-001   1.1494050850e-001  -3.6993083980e-001   7.1844672259e-004   3.0319665947e-004
  7.7350000000e+010  -2.2320775083e-004  -7.0815805869e-004   1.0702310483e-001  -3.7000904100e-001   1.1492292582e-001  -3.6989686605e-001   7.1786083969e-004   3.0364408043e-004
  7.7375000000e+010  -2.2329816415e-004  -7.0597406362e-004   1.0700782108e-001  -3.6997458081e-001   1.1490515653e-001  -3.6986253644e-001   7.1725228189e-004   3.0407799373e-004
  7.7400000000e+010  -2.2338848907e-004  -7.0377006780e-004   1.0699237844e-001  -3.6993976314e-001   1.1488720065e-001  -3.6982785115e-001   7.1662114044e-004   3.0449840578e-004
  7.7425000000e+010  -2.2347869480e-004  -7.0154616294e-004   1.0697677699e-001  -3.6990458813e-001   1.1486905819e-001  -3.6979281037e-001   7.1596750699e-004   3.0490532370e-004
  7.7450000000e+010  -2.2356875029e-004  -6.9930244160e-004   1.0696101678e-001  -3.6986905597e-001   1.1485072917e-001  -3.6975741426e-001   7.1529147368e-004   3.0529875535e-004
  7.7475000000e+010  -2.2365862428e-004  -6.9703899717e-004   1.0694509788e-001  -3.6983316681e-001   1.1483221359e-001  -3.6972166302e-001   7.1459313308e-004   3.0567870927e-004
  7.7500000000e+010  -2.2374828528e-004  -6.9475592390e-004   1.0692902035e-001  -3.6979692082e-001   1.1481351149e-001  -3.6968555682e-001   7.1387257819e-004   3.0604519471e-004
  7.7525000000e+010  -2.2383770160e-004  -6.9245331684e-004   1.0691278426e-001  -3.6976031819e-001   1.1479462287e-001  -3.6964909585e-001   7.1312990246e-004   3.0639822162e-004
  7.7550000000e+010  -2.2392684132e-004  -6.9013127191e-004   1.0689638968e-001  -3.6972335908e-001   1.1477554775e-001  -3.6961228030e-001   7.1236519976e-004   3.0673780066e-004
  7.7575000000e+010  -2.2401567232e-004  -6.8778988582e-004   1.0687983667e-001  -3.6968604366e-001   1.1475628614e-001  -3.6957511036e-001   7.1157856441e-004   3.0706394319e-004
  7.7600000000e+010  -2.2410416225e-004  -6.8542925612e-004   1.0686312530e-001  -3.6964837211e-001   1.1473683807e-001  -3.6953758622e-001   7.1077009111e-004   3.0737666125e-004
  7.7625000000e+010  -2.2419227857e-004  -6.8304948118e-004   1.0684625564e-001  -3.6961034462e-001   1.1471720355e-001  -3.6949970806e-001   7.0993987502e-004   3.0767596760e-004
  7.7650000000e+010  -2.2427998855e-004  -6.8065066017e-004   1.0682922775e-001  -3.6957196135e-001   1.1469738259e-001  -3.6946147609e-001   7.0908801168e-004   3.0796187568e-004
  7.7675000000e+010  -2.2436725923e-004  -6.7823289309e-004   1.0681204171e-001  -3.6953322249e-001   1.1467737521e-001  -3.6942289050e-001   7.0821459706e-004   3.0823439962e-004
  7.7700000000e+010  -2.2445405747e-004  -6.7579628073e-004   1.0679469758e-001  -3.6949412823e-001   1.1465718144e-001  -3.6938395149e-001   7.0731972751e-004   3.0849355424e-004
