# Hz S RI R 50.000000
! Metas.Vna.Tools, 2.4.7724.19584
! Metas.Vna.Data, 2.4.7724.19560
! Created: UTC 2021.04.29 12:40:11
! FREQ                re:S1,1             im:S1,1             re:S2,1             im:S2,1             re:S1,2             im:S1,2             re:S2,2             im:S2,2          
  7.5000000000e+010  -2.8918489189e-004  -7.9481587277e-004   2.5570354026e-001  -4.7647079577e-001   2.6558032644e-001  -4.7331772586e-001   7.0020452001e-004   1.8223620771e-004
  7.5025000000e+010  -2.8918491197e-004  -7.9479151702e-004   2.5570328214e-001  -4.7647032495e-001   2.6558002283e-001  -4.7331727534e-001   7.0052989844e-004   1.8364991382e-004
  7.5050000000e+010  -2.8918495182e-004  -7.9474280653e-004   2.5570276590e-001  -4.7646938332e-001   2.6557941561e-001  -4.7331637430e-001   7.0083763055e-004   1.8505291736e-004
  7.5075000000e+010  -2.8918501086e-004  -7.9466974332e-004   2.5570199155e-001  -4.7646797087e-001   2.6557850478e-001  -4.7331502275e-001   7.0112774839e-004   1.8644517475e-004
  7.5100000000e+010  -2.8918508816e-004  -7.9457233044e-004   2.5570095909e-001  -4.7646608761e-001   2.6557729035e-001  -4.7331322069e-001   7.0140028444e-004   1.8782664300e-004
  7.5125000000e+010  -2.8918518253e-004  -7.9445057192e-004   2.5569966852e-001  -4.7646373356e-001   2.6557577232e-001  -4.7331096813e-001   7.0165527164e-004   1.8919727977e-004
  7.5150000000e+010  -2.8918529245e-004  -7.9430447283e-004   2.5569811986e-001  -4.7646090872e-001   2.6557395068e-001  -4.7330826510e-001   7.0189274333e-004   1.9055704332e-004
  7.5175000000e+010  -2.8918541612e-004  -7.9413403924e-004   2.5569631309e-001  -4.7645761311e-001   2.6557182545e-001  -4.7330511159e-001   7.0211273332e-004   1.9190589256e-004
  7.5200000000e+010  -2.8918555143e-004  -7.9393927823e-004   2.5569424825e-001  -4.7645384675e-001   2.6556939663e-001  -4.7330150763e-001   7.0231527582e-004   1.9324378700e-004
  7.5225000000e+010  -2.8918569597e-004  -7.9372019789e-004   2.5569192532e-001  -4.7644960964e-001   2.6556666423e-001  -4.7329745324e-001   7.0250040549e-004   1.9457068680e-004
  7.5250000000e+010  -2.8918584702e-004  -7.9347680734e-004   2.5568934434e-001  -4.7644490182e-001   2.6556362825e-001  -4.7329294844e-001   7.0266815740e-004   1.9588655272e-004
  7.5275000000e+010  -2.8918600158e-004  -7.9320911668e-004   2.5568650529e-001  -4.7643972330e-001   2.6556028869e-001  -4.7328799325e-001   7.0281856706e-004   1.9719134618e-004
  7.5300000000e+010  -2.8918615633e-004  -7.9291713703e-004   2.5568340821e-001  -4.7643407411e-001   2.6555664557e-001  -4.7328258771e-001   7.0295167039e-004   1.9848502921e-004
  7.5325000000e+010  -2.8918630766e-004  -7.9260088054e-004   2.5568005310e-001  -4.7642795427e-001   2.6555269890e-001  -4.7327673184e-001   7.0306750372e-004   1.9976756449e-004
  7.5350000000e+010  -2.8918645166e-004  -7.9226036034e-004   2.5567643998e-001  -4.7642136382e-001   2.6554844868e-001  -4.7327042567e-001   7.0316610381e-004   2.0103891532e-004
  7.5375000000e+010  -2.8918658412e-004  -7.9189559059e-004   2.5567256887e-001  -4.7641430278e-001   2.6554389493e-001  -4.7326366925e-001   7.0324750782e-004   2.0229904563e-004
  7.5400000000e+010  -2.8918670053e-004  -7.9150658645e-004   2.5566843978e-001  -4.7640677119e-001   2.6553903765e-001  -4.7325646260e-001   7.0331175334e-004   2.0354792002e-004
  7.5425000000e+010  -2.8918679608e-004  -7.9109336409e-004   2.5566405273e-001  -4.7639876909e-001   2.6553387685e-001  -4.7324880576e-001   7.0335887834e-004   2.0478550368e-004
  7.5450000000e+010  -2.8918686568e-004  -7.9065594068e-004   2.5565940775e-001  -4.7639029651e-001   2.6552841255e-001  -4.7324069879e-001   7.0338892123e-004   2.0601176247e-004
  7.5475000000e+010  -2.8918690391e-004  -7.9019433440e-004   2.5565450485e-001  -4.7638135349e-001   2.6552264477e-001  -4.7323214172e-001   7.0340192078e-004   2.0722666288e-004
  7.5500000000e+010  -2.8918690508e-004  -7.8970856444e-004   2.5564934405e-001  -4.7637194008e-001   2.6551657350e-001  -4.7322313459e-001   7.0339791620e-004   2.0843017205e-004
  7.5525000000e+010  -2.8918686319e-004  -7.8919865099e-004   2.5564392539e-001  -4.7636205632e-001   2.6551019877e-001  -4.7321367747e-001   7.0337694707e-004   2.0962225775e-004
  7.5550000000e+010  -2.8918677195e-004  -7.8866461526e-004   2.5563824888e-001  -4.7635170225e-001   2.6550352060e-001  -4.7320377040e-001   7.0333905338e-004   2.1080288839e-004
  7.5575000000e+010  -2.8918662478e-004  -7.8810647943e-004   2.5563231455e-001  -4.7634087793e-001   2.6549653899e-001  -4.7319341343e-001   7.0328427549e-004   2.1197203303e-004
  7.5600000000e+010  -2.8918641479e-004  -7.8752426672e-004   2.5562612243e-001  -4.7632958341e-001   2.6548925397e-001  -4.7318260663e-001   7.0321265419e-004   2.1312966138e-004
  7.5625000000e+010  -2.8918613481e-004  -7.8691800133e-004   2.5561967254e-001  -4.7631781874e-001   2.6548166555e-001  -4.7317135005e-001   7.0312423062e-004   2.1427574379e-004
  7.5650000000e+010  -2.8918577737e-004  -7.8628770847e-004   2.5561296492e-001  -4.7630558398e-001   2.6547377374e-001  -4.7315964376e-001   7.0301904632e-004   2.1541025124e-004
  7.5675000000e+010  -2.8918533472e-004  -7.8563341434e-004   2.5560599960e-001  -4.7629287918e-001   2.6546557858e-001  -4.7314748781e-001   7.0289714320e-004   2.1653315539e-004
  7.5700000000e+010  -2.8918479879e-004  -7.8495514614e-004   2.5559877661e-001  -4.7627970441e-001   2.6545708006e-001  -4.7313488228e-001   7.0275856356e-004   2.1764442851e-004
  7.5725000000e+010  -2.8918416124e-004  -7.8425293210e-004   2.5559129597e-001  -4.7626605973e-001   2.6544827823e-001  -4.7312182723e-001   7.0260335008e-004   2.1874404355e-004
  7.5750000000e+010  -2.8918341344e-004  -7.8352680139e-004   2.5558355774e-001  -4.7625194519e-001   2.6543917308e-001  -4.7310832275e-001   7.0243154580e-004   2.1983197409e-004
  7.5775000000e+010  -2.8918254647e-004  -7.8277678423e-004   2.5557556193e-001  -4.7623736088e-001   2.6542976466e-001  -4.7309436889e-001   7.0224319414e-004   2.2090819436e-004
  7.5800000000e+010  -2.8918155111e-004  -7.8200291181e-004   2.5556730859e-001  -4.7622230686e-001   2.6542005297e-001  -4.7307996574e-001   7.0203833888e-004   2.2197267924e-004
  7.5825000000e+010  -2.8918041787e-004  -7.8120521631e-004   2.5555879776e-001  -4.7620678320e-001   2.6541003804e-001  -4.7306511338e-001   7.0181702418e-004   2.2302540426e-004
  7.5850000000e+010  -2.8917913695e-004  -7.8038373091e-004   2.5555002947e-001  -4.7619078997e-001   2.6539971990e-001  -4.7304981188e-001   7.0157929454e-004   2.2406634562e-004
  7.5875000000e+010  -2.8917769829e-004  -7.7953848979e-004   2.5554100377e-001  -4.7617432726e-001   2.6538909857e-001  -4.7303406134e-001   7.0132519485e-004   2.2509548013e-004
  7.5900000000e+010  -2.8917609152e-004  -7.7866952810e-004   2.5553172069e-001  -4.7615739513e-001   2.6537817407e-001  -4.7301786184e-001   7.0105477033e-004   2.2611278529e-004
  7.5925000000e+010  -2.8917430600e-004  -7.7777688200e-004   2.5552218028e-001  -4.7613999367e-001   2.6536694642e-001  -4.7300121347e-001   7.0076806656e-004   2.2711823923e-004
  7.5950000000e+010  -2.8917233081e-004  -7.7686058862e-004   2.5551238258e-001  -4.7612212296e-001   2.6535541566e-001  -4.7298411632e-001   7.0046512949e-004   2.2811182073e-004
  7.5975000000e+010  -2.8917015474e-004  -7.7592068610e-004   2.5550232764e-001  -4.7610378309e-001   2.6534358181e-001  -4.7296657048e-001   7.0014600540e-004   2.2909350924e-004
  7.6000000000e+010  -2.8916776629e-004  -7.7495721353e-004   2.5549201551e-001  -4.7608497415e-001   2.6533144490e-001  -4.7294857605e-001   6.9981074092e-004   2.3006328485e-004
  7.6025000000e+010  -2.8916515371e-004  -7.7397021102e-004   2.5548144622e-001  -4.7606569621e-001   2.6531900496e-001  -4.7293013314e-001   6.9945938303e-004   2.3102112829e-004
  7.6050000000e+010  -2.8916230494e-004  -7.7295971965e-004   2.5547061984e-001  -4.7604594938e-001   2.6530626201e-001  -4.7291124183e-001   6.9909197905e-004   2.3196702097e-004
  7.6075000000e+010  -2.8915920766e-004  -7.7192578146e-004   2.5545953640e-001  -4.7602573375e-001   2.6529321609e-001  -4.7289190224e-001   6.9870857663e-004   2.3290094493e-004
  7.6100000000e+010  -2.8915584926e-004  -7.7086843949e-004   2.5544819596e-001  -4.7600504942e-001   2.6527986722e-001  -4.7287211448e-001   6.9830922377e-004   2.3382288287e-004
  7.6125000000e+010  -2.8915221687e-004  -7.6978773777e-004   2.5543659857e-001  -4.7598389647e-001   2.6526621543e-001  -4.7285187864e-001   6.9789396879e-004   2.3473281813e-004
  7.6150000000e+010  -2.8914829733e-004  -7.6868372127e-004   2.5542474429e-001  -4.7596227502e-001   2.6525226077e-001  -4.7283119484e-001   6.9746286034e-004   2.3563073473e-004
  7.6175000000e+010  -2.8914407723e-004  -7.6755643597e-004   2.5541263317e-001  -4.7594018516e-001   2.6523800325e-001  -4.7281006320e-001   6.9701594741e-004   2.3651661732e-004
  7.6200000000e+010  -2.8913954285e-004  -7.6640592879e-004   2.5540026526e-001  -4.7591762701e-001   2.6522344292e-001  -4.7278848384e-001   6.9655327931e-004   2.3739045121e-004
  7.6225000000e+010  -2.8913468024e-004  -7.6523224766e-004   2.5538764062e-001  -4.7589460066e-001   2.6520857981e-001  -4.7276645686e-001   6.9607490565e-004   2.3825222234e-004
  7.6250000000e+010  -2.8912947515e-004  -7.6403544144e-004   2.5537475931e-001  -4.7587110623e-001   2.6519341395e-001  -4.7274398239e-001   6.9558087640e-004   2.3910191734e-004
  7.6275000000e+010  -2.8912391309e-004  -7.6281555998e-004   2.5536162139e-001  -4.7584714383e-001   2.6517794537e-001  -4.7272106056e-001   6.9507124180e-004   2.3993952347e-004
  7.6300000000e+010  -2.8911797927e-004  -7.6157265409e-004   2.5534822691e-001  -4.7582271357e-001   2.6516217412e-001  -4.7269769149e-001   6.9454605245e-004   2.4076502863e-004
  7.6325000000e+010  -2.8911165867e-004  -7.6030677556e-004   2.5533457595e-001  -4.7579781557e-001   2.6514610023e-001  -4.7267387531e-001   6.9400535923e-004   2.4157842138e-004
  7.6350000000e+010  -2.8910493598e-004  -7.5901797710e-004   2.5532066855e-001  -4.7577244995e-001   2.6512972374e-001  -4.7264961216e-001   6.9344921334e-004   2.4237969094e-004
  7.6375000000e+010  -2.8909779565e-004  -7.5770631243e-004   2.5530650480e-001  -4.7574661682e-001   2.6511304468e-001  -4.7262490215e-001   6.9287766628e-004   2.4316882717e-004
  7.6400000000e+010  -2.8909022183e-004  -7.5637183619e-004   2.5529208474e-001  -4.7572031631e-001   2.6509606309e-001  -4.7259974544e-001   6.9229076986e-004   2.4394582058e-004
  7.6425000000e+010  -2.8908219847e-004  -7.5501460400e-004   2.5527740845e-001  -4.7569354855e-001   2.6507877903e-001  -4.7257414215e-001   6.9168857617e-004   2.4471066232e-004
  7.6450000000e+010  -2.8907370920e-004  -7.5363467243e-004   2.5526247599e-001  -4.7566631366e-001   2.6506119251e-001  -4.7254809243e-001   6.9107113763e-004   2.4546334420e-004
  7.6475000000e+010  -2.8906473744e-004  -7.5223209899e-004   2.5524728744e-001  -4.7563861178e-001   2.6504330359e-001  -4.7252159643e-001   6.9043850693e-004   2.4620385868e-004
  7.6500000000e+010  -2.8905526632e-004  -7.5080694214e-004   2.5523184286e-001  -4.7561044302e-001   2.6502511231e-001  -4.7249465428e-001   6.8979073706e-004   2.4693219884e-004
  7.6525000000e+010  -2.8904527876e-004  -7.4935926132e-004   2.5521614232e-001  -4.7558180754e-001   2.6500661871e-001  -4.7246726614e-001   6.8912788130e-004   2.4764835845e-004
  7.6550000000e+010  -2.8903475738e-004  -7.4788911687e-004   2.5520018590e-001  -4.7555270545e-001   2.6498782283e-001  -4.7243943216e-001   6.8844999321e-004   2.4835233188e-004
  7.6575000000e+010  -2.8902368459e-004  -7.4639657010e-004   2.5518397366e-001  -4.7552313691e-001   2.6496872472e-001  -4.7241115249e-001   6.8775712664e-004   2.4904411417e-004
  7.6600000000e+010  -2.8901204252e-004  -7.4488168326e-004   2.5516750569e-001  -4.7549310205e-001   2.6494932443e-001  -4.7238242728e-001   6.8704933572e-004   2.4972370100e-004
  7.6625000000e+010  -2.8899981307e-004  -7.4334451954e-004   2.5515078205e-001  -4.7546260101e-001   2.6492962199e-001  -4.7235325670e-001   6.8632667485e-004   2.5039108869e-004
  7.6650000000e+010  -2.8898697790e-004  -7.4178514305e-004   2.5513380283e-001  -4.7543163394e-001   2.6490961745e-001  -4.7232364090e-001   6.8558919872e-004   2.5104627419e-004
  7.6675000000e+010  -2.8897351841e-004  -7.4020361886e-004   2.5511656810e-001  -4.7540020099e-001   2.6488931086e-001  -4.7229358004e-001   6.8483696228e-004   2.5168925511e-004
  7.6700000000e+010  -2.8895941577e-004  -7.3860001295e-004   2.5509907794e-001  -4.7536830231e-001   2.6486870227e-001  -4.7226307430e-001   6.8407002075e-004   2.5232002970e-004
  7.6725000000e+010  -2.8894465091e-004  -7.3697439225e-004   2.5508133243e-001  -4.7533593804e-001   2.6484779173e-001  -4.7223212384e-001   6.8328842963e-004   2.5293859682e-004
  7.6750000000e+010  -2.8892920452e-004  -7.3532682459e-004   2.5506333166e-001  -4.7530310835e-001   2.6482657928e-001  -4.7220072882e-001   6.8249224467e-004   2.5354495601e-004
  7.6775000000e+010  -2.8891305705e-004  -7.3365737876e-004   2.5504507570e-001  -4.7526981338e-001   2.6480506498e-001  -4.7216888943e-001   6.8168152190e-004   2.5413910740e-004
  7.6800000000e+010  -2.8889618873e-004  -7.3196612443e-004   2.5502656464e-001  -4.7523605329e-001   2.6478324888e-001  -4.7213660584e-001   6.8085631758e-004   2.5472105179e-004
  7.6825000000e+010  -2.8887857953e-004  -7.3025313223e-004   2.5500779856e-001  -4.7520182826e-001   2.6476113102e-001  -4.7210387822e-001   6.8001668824e-004   2.5529079061e-004
  7.6850000000e+010  -2.8886020922e-004  -7.2851847369e-004   2.5498877756e-001  -4.7516713843e-001   2.6473871146e-001  -4.7207070676e-001   6.7916269069e-004   2.5584832590e-004
  7.6875000000e+010  -2.8884105732e-004  -7.2676222125e-004   2.5496950171e-001  -4.7513198397e-001   2.6471599025e-001  -4.7203709163e-001   6.7829438194e-004   2.5639366036e-004
  7.6900000000e+010  -2.8882110313e-004  -7.2498444826e-004   2.5494997111e-001  -4.7509636506e-001   2.6469296745e-001  -4.7200303302e-001   6.7741181930e-004   2.5692679730e-004
  7.6925000000e+010  -2.8880032572e-004  -7.2318522900e-004   2.5493018584e-001  -4.7506028185e-001   2.6466964311e-001  -4.7196853112e-001   6.7651506028e-004   2.5744774066e-004
  7.6950000000e+010  -2.8877870396e-004  -7.2136463864e-004   2.5491014600e-001  -4.7502373453e-001   2.6464601728e-001  -4.7193358613e-001   6.7560416266e-004   2.5795649502e-004
  7.6975000000e+010  -2.8875621647e-004  -7.1952275324e-004   2.5488985167e-001  -4.7498672326e-001   2.6462209002e-001  -4.7189819822e-001   6.7467918445e-004   2.5845306558e-004
  7.7000000000e+010  -2.8873284166e-004  -7.1765964980e-004   2.5486930296e-001  -4.7494924822e-001   2.6459786139e-001  -4.7186236759e-001   6.7374018391e-004   2.5893745816e-004
  7.7025000000e+010  -2.8870855774e-004  -7.1577540618e-004   2.5484849995e-001  -4.7491130959e-001   2.6457333144e-001  -4.7182609445e-001   6.7278721951e-004   2.5940967921e-004
  7.7050000000e+010  -2.8868334267e-004  -7.1387010115e-004   2.5482744274e-001  -4.7487290755e-001   2.6454850023e-001  -4.7178937899e-001   6.7182034998e-004   2.5986973579e-004
  7.7075000000e+010  -2.8865717424e-004  -7.1194381439e-004   2.5480613143e-001  -4.7483404228e-001   2.6452336783e-001  -4.7175222141e-001   6.7083963426e-004   2.6031763558e-004
  7.7100000000e+010  -2.8863003000e-004  -7.0999662644e-004   2.5478456612e-001  -4.7479471397e-001   2.6449793428e-001  -4.7171462192e-001   6.6984513153e-004   2.6075338691e-004
  7.7125000000e+010  -2.8860188729e-004  -7.0802861874e-004   2.5476274689e-001  -4.7475492280e-001   2.6447219965e-001  -4.7167658072e-001   6.6883690117e-004   2.6117699867e-004
  7.7150000000e+010  -2.8857272327e-004  -7.0603987362e-004   2.5474067387e-001  -4.7471466897e-001   2.6444616401e-001  -4.7163809803e-001   6.6781500281e-004   2.6158848042e-004
  7.7175000000e+010  -2.8854251487e-004  -7.0403047428e-004   2.5471834713e-001  -4.7467395265e-001   2.6441982741e-001  -4.7159917405e-001   6.6677949628e-004   2.6198784230e-004
  7.7200000000e+010  -2.8851123882e-004  -7.0200050480e-004   2.5469576680e-001  -4.7463277406e-001   2.6439318991e-001  -4.7155980899e-001   6.6573044163e-004   2.6237509507e-004
  7.7225000000e+010  -2.8847887168e-004  -6.9995005015e-004   2.5467293297e-001  -4.7459113338e-001   2.6436625158e-001  -4.7152000309e-001   6.6466789914e-004   2.6275025009e-004
  7.7250000000e+010  -2.8844538976e-004  -6.9787919613e-004   2.5464984574e-001  -4.7454903081e-001   2.6433901248e-001  -4.7147975654e-001   6.6359192927e-004   2.6311331935e-004
  7.7275000000e+010  -2.8841076923e-004  -6.9578802947e-004   2.5462650522e-001  -4.7450646655e-001   2.6431147268e-001  -4.7143906958e-001   6.6250259270e-004   2.6346431543e-004
  7.7300000000e+010  -2.8837498602e-004  -6.9367663770e-004   2.5460291153e-001  -4.7446344080e-001   2.6428363224e-001  -4.7139794242e-001   6.6139995034e-004   2.6380325151e-004
  7.7325000000e+010  -2.8833801591e-004  -6.9154510927e-004   2.5457906476e-001  -4.7441995378e-001   2.6425549123e-001  -4.7135637530e-001   6.6028406326e-004   2.6413014137e-004
  7.7350000000e+010  -2.8829983446e-004  -6.8939353344e-004   2.5455496503e-001  -4.7437600567e-001   2.6422704971e-001  -4.7131436844e-001   6.5915499275e-004   2.6444499941e-004
  7.7375000000e+010  -2.8826041706e-004  -6.8722200037e-004   2.5453061244e-001  -4.7433159671e-001   2.6419830776e-001  -4.7127192207e-001   6.5801280032e-004   2.6474784061e-004
  7.7400000000e+010  -2.8821973891e-004  -6.8503060102e-004   2.5450600712e-001  -4.7428672708e-001   2.6416926544e-001  -4.7122903643e-001   6.5685754763e-004   2.6503868054e-004
  7.7425000000e+010  -2.8817777503e-004  -6.8281942726e-004   2.5448114916e-001  -4.7424139702e-001   2.6413992281e-001  -4.7118571175e-001   6.5568929657e-004   2.6531753538e-004
  7.7450000000e+010  -2.8813450027e-004  -6.8058857175e-004   2.5445603870e-001  -4.7419560673e-001   2.6411027996e-001  -4.7114194827e-001   6.5450810920e-004   2.6558442190e-004
  7.7475000000e+010  -2.8808988929e-004  -6.7833812803e-004   2.5443067583e-001  -4.7414935643e-001   2.6408033695e-001  -4.7109774622e-001   6.5331404777e-004   2.6583935744e-004
  7.7500000000e+010  -2.8804391657e-004  -6.7606819046e-004   2.5440506068e-001  -4.7410264634e-001   2.6405009385e-001  -4.7105310586e-001   6.5210717472e-004   2.6608235993e-004
  7.7525000000e+010  -2.8799655644e-004  -6.7377885424e-004   2.5437919337e-001  -4.7405547669e-001   2.6401955074e-001  -4.7100802743e-001   6.5088755267e-004   2.6631344792e-004
  7.7550000000e+010  -2.8794778305e-004  -6.7147021539e-004   2.5435307402e-001  -4.7400784769e-001   2.6398870768e-001  -4.7096251117e-001   6.4965524440e-004   2.6653264049e-004
  7.7575000000e+010  -2.8789757037e-004  -6.6914237079e-004   2.5432670273e-001  -4.7395975958e-001   2.6395756476e-001  -4.7091655733e-001   6.4841031291e-004   2.6673995733e-004
  7.7600000000e+010  -2.8784589224e-004  -6.6679541811e-004   2.5430007965e-001  -4.7391121258e-001   2.6392612204e-001  -4.7087016618e-001   6.4715282133e-004   2.6693541871e-004
  7.7625000000e+010  -2.8779272230e-004  -6.6442945585e-004   2.5427320488e-001  -4.7386220693e-001   2.6389437960e-001  -4.7082333795e-001   6.4588283299e-004   2.6711904546e-004
  7.7650000000e+010  -2.8773803404e-004  -6.6204458335e-004   2.5424607855e-001  -4.7381274285e-001   2.6386233752e-001  -4.7077607291e-001   6.4460041137e-004   2.6729085898e-004
  7.7675000000e+010  -2.8768180082e-004  -6.5964090073e-004   2.5421870078e-001  -4.7376282059e-001   2.6382999588e-001  -4.7072837132e-001   6.4330562012e-004   2.6745088126e-004
  7.7700000000e+010  -2.8762399581e-004  -6.5721850894e-004   2.5419107171e-001  -4.7371244037e-001   2.6379735474e-001  -4.7068023344e-001   6.4199852308e-004   2.6759913484e-004
