# Hz S RI R 50.000000
! Metas.Vna.Tools, 2.4.7724.19584
! Metas.Vna.Data, 2.4.7724.19560
! Created: UTC 2021.04.29 12:40:11
! FREQ                re:S1,1             im:S1,1             re:S2,1             im:S2,1             re:S1,2             im:S1,2             re:S2,2             im:S2,2          
  7.5000000000e+010  -3.5549335282e-004  -7.9049401771e-004   4.5112771247e-001  -5.1527160236e-001   4.2571685576e-001  -5.4126648707e-001  -1.4132250926e-003   7.7842844294e-004
  7.5025000000e+010  -3.5549202499e-004  -7.9046981300e-004   4.5112735840e-001  -5.1527109614e-001   4.2571654574e-001  -5.4126595595e-001  -1.4131862417e-003   7.7840866377e-004
  7.5050000000e+010  -3.5548936908e-004  -7.9042140458e-004   4.5112665027e-001  -5.1527008370e-001   4.2571592570e-001  -5.4126489371e-001  -1.4131085423e-003   7.7836910638e-004
  7.5075000000e+010  -3.5548538456e-004  -7.9034879449e-004   4.5112558807e-001  -5.1526856506e-001   4.2571499563e-001  -5.4126330035e-001  -1.4129919987e-003   7.7830977268e-004
  7.5100000000e+010  -3.5548007066e-004  -7.9025198574e-004   4.5112417181e-001  -5.1526654021e-001   4.2571375555e-001  -5.4126117589e-001  -1.4128366178e-003   7.7823066553e-004
  7.5125000000e+010  -3.5547342635e-004  -7.9013098239e-004   4.5112240150e-001  -5.1526400917e-001   4.2571220546e-001  -5.4125852033e-001  -1.4126424086e-003   7.7813178875e-004
  7.5150000000e+010  -3.5546545033e-004  -7.8998578947e-004   4.5112027714e-001  -5.1526097196e-001   4.2571034536e-001  -5.4125533369e-001  -1.4124093822e-003   7.7801314710e-004
  7.5175000000e+010  -3.5545614106e-004  -7.8981641305e-004   4.5111779874e-001  -5.1525742858e-001   4.2570817526e-001  -5.4125161598e-001  -1.4121375523e-003   7.7787474630e-004
  7.5200000000e+010  -3.5544549673e-004  -7.8962286020e-004   4.5111496631e-001  -5.1525337907e-001   4.2570569518e-001  -5.4124736723e-001  -1.4118269345e-003   7.7771659303e-004
  7.5225000000e+010  -3.5543351526e-004  -7.8940513900e-004   4.5111177986e-001  -5.1524882345e-001   4.2570290511e-001  -5.4124258744e-001  -1.4114775469e-003   7.7753869491e-004
  7.5250000000e+010  -3.5542019434e-004  -7.8916325854e-004   4.5110823940e-001  -5.1524376173e-001   4.2569980508e-001  -5.4123727665e-001  -1.4110894097e-003   7.7734106051e-004
  7.5275000000e+010  -3.5540553139e-004  -7.8889722891e-004   4.5110434494e-001  -5.1523819396e-001   4.2569639509e-001  -5.4123143489e-001  -1.4106625454e-003   7.7712369935e-004
  7.5300000000e+010  -3.5538952356e-004  -7.8860706122e-004   4.5110009650e-001  -5.1523212016e-001   4.2569267516e-001  -5.4122506218e-001  -1.4101969788e-003   7.7688662193e-004
  7.5325000000e+010  -3.5537216777e-004  -7.8829276757e-004   4.5109549410e-001  -5.1522554036e-001   4.2568864530e-001  -5.4121815855e-001  -1.4096927367e-003   7.7662983966e-004
  7.5350000000e+010  -3.5535346066e-004  -7.8795436109e-004   4.5109053774e-001  -5.1521845461e-001   4.2568430553e-001  -5.4121072403e-001  -1.4091498485e-003   7.7635336492e-004
  7.5375000000e+010  -3.5533339862e-004  -7.8759185591e-004   4.5108522745e-001  -5.1521086294e-001   4.2567965587e-001  -5.4120275867e-001  -1.4085683455e-003   7.7605721102e-004
  7.5400000000e+010  -3.5531197779e-004  -7.8720526716e-004   4.5107956325e-001  -5.1520276540e-001   4.2567469633e-001  -5.4119426251e-001  -1.4079482615e-003   7.7574139225e-004
  7.5425000000e+010  -3.5528919406e-004  -7.8679461097e-004   4.5107354516e-001  -5.1519416204e-001   4.2566942693e-001  -5.4118523558e-001  -1.4072896323e-003   7.7540592381e-004
  7.5450000000e+010  -3.5526504305e-004  -7.8635990449e-004   4.5106717320e-001  -5.1518505290e-001   4.2566384770e-001  -5.4117567793e-001  -1.4065924961e-003   7.7505082187e-004
  7.5475000000e+010  -3.5523952013e-004  -7.8590116587e-004   4.5106044739e-001  -5.1517543803e-001   4.2565795865e-001  -5.4116558961e-001  -1.4058568933e-003   7.7467610353e-004
  7.5500000000e+010  -3.5521262042e-004  -7.8541841427e-004   4.5105336776e-001  -5.1516531750e-001   4.2565175981e-001  -5.4115497067e-001  -1.4050828664e-003   7.7428178684e-004
  7.5525000000e+010  -3.5518433879e-004  -7.8491166983e-004   4.5104593433e-001  -5.1515469135e-001   4.2564525121e-001  -5.4114382115e-001  -1.4042704604e-003   7.7386789079e-004
  7.5550000000e+010  -3.5515466984e-004  -7.8438095371e-004   4.5103814713e-001  -5.1514355966e-001   4.2563843287e-001  -5.4113214113e-001  -1.4034197221e-003   7.7343443531e-004
  7.5575000000e+010  -3.5512360794e-004  -7.8382628808e-004   4.5103000620e-001  -5.1513192248e-001   4.2563130481e-001  -5.4111993064e-001  -1.4025307009e-003   7.7298144126e-004
  7.5600000000e+010  -3.5509114720e-004  -7.8324769609e-004   4.5102151155e-001  -5.1511977987e-001   4.2562386707e-001  -5.4110718977e-001  -1.4016034482e-003   7.7250893046e-004
  7.5625000000e+010  -3.5505728147e-004  -7.8264520191e-004   4.5101266322e-001  -5.1510713192e-001   4.2561611967e-001  -5.4109391855e-001  -1.4006380177e-003   7.7201692565e-004
  7.5650000000e+010  -3.5502200436e-004  -7.8201883069e-004   4.5100346124e-001  -5.1509397869e-001   4.2560806265e-001  -5.4108011708e-001  -1.3996344652e-003   7.7150545050e-004
  7.5675000000e+010  -3.5498530923e-004  -7.8136860860e-004   4.5099390565e-001  -5.1508032025e-001   4.2559969604e-001  -5.4106578540e-001  -1.3985928488e-003   7.7097452963e-004
  7.5700000000e+010  -3.5494718918e-004  -7.8069456279e-004   4.5098399648e-001  -5.1506615669e-001   4.2559101986e-001  -5.4105092359e-001  -1.3975132287e-003   7.7042418857e-004
  7.5725000000e+010  -3.5490763707e-004  -7.7999672141e-004   4.5097373377e-001  -5.1505148809e-001   4.2558203416e-001  -5.4103553174e-001  -1.3963956675e-003   7.6985445380e-004
  7.5750000000e+010  -3.5486664551e-004  -7.7927511361e-004   4.5096311755e-001  -5.1503631452e-001   4.2557273897e-001  -5.4101960990e-001  -1.3952402297e-003   7.6926535273e-004
  7.5775000000e+010  -3.5482420688e-004  -7.7852976953e-004   4.5095214786e-001  -5.1502063609e-001   4.2556313433e-001  -5.4100315817e-001  -1.3940469822e-003   7.6865691367e-004
  7.5800000000e+010  -3.5478031328e-004  -7.7776072030e-004   4.5094082475e-001  -5.1500445286e-001   4.2555322027e-001  -5.4098617662e-001  -1.3928159939e-003   7.6802916588e-004
  7.5825000000e+010  -3.5473495659e-004  -7.7696799806e-004   4.5092914825e-001  -5.1498776495e-001   4.2554299684e-001  -5.4096866533e-001  -1.3915473360e-003   7.6738213953e-004
  7.5850000000e+010  -3.5468812844e-004  -7.7615163591e-004   4.5091711840e-001  -5.1497057244e-001   4.2553246407e-001  -5.4095062440e-001  -1.3902410818e-003   7.6671586571e-004
  7.5875000000e+010  -3.5463982022e-004  -7.7531166797e-004   4.5090473526e-001  -5.1495287544e-001   4.2552162201e-001  -5.4093205392e-001  -1.3888973068e-003   7.6603037645e-004
  7.5900000000e+010  -3.5459002306e-004  -7.7444812933e-004   4.5089199887e-001  -5.1493467403e-001   4.2551047070e-001  -5.4091295397e-001  -1.3875160887e-003   7.6532570465e-004
  7.5925000000e+010  -3.5453872787e-004  -7.7356105607e-004   4.5087890926e-001  -5.1491596834e-001   4.2549901018e-001  -5.4089332465e-001  -1.3860975073e-003   7.6460188418e-004
  7.5950000000e+010  -3.5448592531e-004  -7.7265048526e-004   4.5086546650e-001  -5.1489675846e-001   4.2548724050e-001  -5.4087316605e-001  -1.3846416444e-003   7.6385894977e-004
  7.5975000000e+010  -3.5443160580e-004  -7.7171645495e-004   4.5085167062e-001  -5.1487704450e-001   4.2547516171e-001  -5.4085247829e-001  -1.3831485842e-003   7.6309693711e-004
  7.6000000000e+010  -3.5437575951e-004  -7.7075900419e-004   4.5083752169e-001  -5.1485682658e-001   4.2546277385e-001  -5.4083126145e-001  -1.3816184128e-003   7.6231588275e-004
  7.6025000000e+010  -3.5431837641e-004  -7.6977817298e-004   4.5082301975e-001  -5.1483610482e-001   4.2545007697e-001  -5.4080951565e-001  -1.3800512186e-003   7.6151582417e-004
  7.6050000000e+010  -3.5425944618e-004  -7.6877400232e-004   4.5080816485e-001  -5.1481487933e-001   4.2543707113e-001  -5.4078724099e-001  -1.3784470921e-003   7.6069679975e-004
  7.6075000000e+010  -3.5419895831e-004  -7.6774653419e-004   4.5079295705e-001  -5.1479315022e-001   4.2542375637e-001  -5.4076443759e-001  -1.3768061257e-003   7.5985884878e-004
  7.6100000000e+010  -3.5413690203e-004  -7.6669581154e-004   4.5077739640e-001  -5.1477091764e-001   4.2541013274e-001  -5.4074110555e-001  -1.3751284142e-003   7.5900201141e-004
  7.6125000000e+010  -3.5407326634e-004  -7.6562187830e-004   4.5076148297e-001  -5.1474818170e-001   4.2539620031e-001  -5.4071724499e-001  -1.3734140543e-003   7.5812632873e-004
  7.6150000000e+010  -3.5400804002e-004  -7.6452477937e-004   4.5074521680e-001  -5.1472494253e-001   4.2538195913e-001  -5.4069285603e-001  -1.3716631448e-003   7.5723184269e-004
  7.6175000000e+010  -3.5394121161e-004  -7.6340456062e-004   4.5072859796e-001  -5.1470120027e-001   4.2536740924e-001  -5.4066793880e-001  -1.3698757868e-003   7.5631859614e-004
  7.6200000000e+010  -3.5387276942e-004  -7.6226126891e-004   4.5071162651e-001  -5.1467695506e-001   4.2535255072e-001  -5.4064249341e-001  -1.3680520832e-003   7.5538663282e-004
  7.6225000000e+010  -3.5380270152e-004  -7.6109495204e-004   4.5069430252e-001  -5.1465220702e-001   4.2533738362e-001  -5.4061651999e-001  -1.3661921391e-003   7.5443599735e-004
  7.6250000000e+010  -3.5373099578e-004  -7.5990565879e-004   4.5067662603e-001  -5.1462695631e-001   4.2532190800e-001  -5.4059001867e-001  -1.3642960617e-003   7.5346673523e-004
  7.6275000000e+010  -3.5365763983e-004  -7.5869343892e-004   4.5065859713e-001  -5.1460120307e-001   4.2530612391e-001  -5.4056298958e-001  -1.3623639602e-003   7.5247889284e-004
  7.6300000000e+010  -3.5358262106e-004  -7.5745834312e-004   4.5064021587e-001  -5.1457494743e-001   4.2529003144e-001  -5.4053543285e-001  -1.3603959457e-003   7.5147251741e-004
  7.6325000000e+010  -3.5350592666e-004  -7.5620042308e-004   4.5062148232e-001  -5.1454818957e-001   4.2527363062e-001  -5.4050734863e-001  -1.3583921316e-003   7.5044765709e-004
  7.6350000000e+010  -3.5342754359e-004  -7.5491973142e-004   4.5060239656e-001  -5.1452092962e-001   4.2525692154e-001  -5.4047873705e-001  -1.3563526333e-003   7.4940436085e-004
  7.6375000000e+010  -3.5334745858e-004  -7.5361632173e-004   4.5058295864e-001  -5.1449316774e-001   4.2523990426e-001  -5.4044959825e-001  -1.3542775680e-003   7.4834267855e-004
  7.6400000000e+010  -3.5326565816e-004  -7.5229024856e-004   4.5056316865e-001  -5.1446490410e-001   4.2522257885e-001  -5.4041993237e-001  -1.3521670551e-003   7.4726266091e-004
  7.6425000000e+010  -3.5318212862e-004  -7.5094156740e-004   4.5054302665e-001  -5.1443613885e-001   4.2520494537e-001  -5.4038973957e-001  -1.3500212159e-003   7.4616435950e-004
  7.6450000000e+010  -3.5309685605e-004  -7.4957033471e-004   4.5052253271e-001  -5.1440687215e-001   4.2518700389e-001  -5.4035902000e-001  -1.3478401739e-003   7.4504782675e-004
  7.6475000000e+010  -3.5300982632e-004  -7.4817660788e-004   4.5050168692e-001  -5.1437710418e-001   4.2516875449e-001  -5.4032777380e-001  -1.3456240542e-003   7.4391311593e-004
  7.6500000000e+010  -3.5292102508e-004  -7.4676044526e-004   4.5048048935e-001  -5.1434683511e-001   4.2515019724e-001  -5.4029600113e-001  -1.3433729844e-003   7.4276028118e-004
  7.6525000000e+010  -3.5283043778e-004  -7.4532190615e-004   4.5045894008e-001  -5.1431606511e-001   4.2513133221e-001  -5.4026370215e-001  -1.3410870935e-003   7.4158937747e-004
  7.6550000000e+010  -3.5273804965e-004  -7.4386105078e-004   4.5043703918e-001  -5.1428479434e-001   4.2511215948e-001  -5.4023087701e-001  -1.3387665130e-003   7.4040046059e-004
  7.6575000000e+010  -3.5264384572e-004  -7.4237794032e-004   4.5041478673e-001  -5.1425302301e-001   4.2509267912e-001  -5.4019752589e-001  -1.3364113759e-003   7.3919358722e-004
  7.6600000000e+010  -3.5254781080e-004  -7.4087263690e-004   4.5039218283e-001  -5.1422075127e-001   4.2507289121e-001  -5.4016364895e-001  -1.3340218175e-003   7.3796881481e-004
  7.6625000000e+010  -3.5244992951e-004  -7.3934520357e-004   4.5036922754e-001  -5.1418797933e-001   4.2505279583e-001  -5.4012924635e-001  -1.3315979746e-003   7.3672620169e-004
  7.6650000000e+010  -3.5235018625e-004  -7.3779570430e-004   4.5034592095e-001  -5.1415470735e-001   4.2503239306e-001  -5.4009431826e-001  -1.3291399865e-003   7.3546580699e-004
  7.6675000000e+010  -3.5224856523e-004  -7.3622420403e-004   4.5032226316e-001  -5.1412093555e-001   4.2501168298e-001  -5.4005886486e-001  -1.3266479938e-003   7.3418769066e-004
  7.6700000000e+010  -3.5214505045e-004  -7.3463076860e-004   4.5029825424e-001  -5.1408666410e-001   4.2499066567e-001  -5.4002288633e-001  -1.3241221395e-003   7.3289191348e-004
  7.6725000000e+010  -3.5203962572e-004  -7.3301546479e-004   4.5027389428e-001  -5.1405189321e-001   4.2496934121e-001  -5.3998638284e-001  -1.3215625683e-003   7.3157853703e-004
  7.6750000000e+010  -3.5193227465e-004  -7.3137836029e-004   4.5024918338e-001  -5.1401662307e-001   4.2494770969e-001  -5.3994935457e-001  -1.3189694265e-003   7.3024762372e-004
  7.6775000000e+010  -3.5182298066e-004  -7.2971952373e-004   4.5022412162e-001  -5.1398085389e-001   4.2492577120e-001  -5.3991180171e-001  -1.3163428628e-003   7.2889923673e-004
  7.6800000000e+010  -3.5171172695e-004  -7.2803902464e-004   4.5019870909e-001  -5.1394458587e-001   4.2490352582e-001  -5.3987372444e-001  -1.3136830273e-003   7.2753344009e-004
  7.6825000000e+010  -3.5159849656e-004  -7.2633693350e-004   4.5017294589e-001  -5.1390781921e-001   4.2488097365e-001  -5.3983512295e-001  -1.3109900723e-003   7.2615029857e-004
  7.6850000000e+010  -3.5148327232e-004  -7.2461332166e-004   4.5014683212e-001  -5.1387055413e-001   4.2485811476e-001  -5.3979599744e-001  -1.3082641517e-003   7.2474987778e-004
  7.6875000000e+010  -3.5136603689e-004  -7.2286826141e-004   4.5012036786e-001  -5.1383279083e-001   4.2483494926e-001  -5.3975634809e-001  -1.3055054212e-003   7.2333224410e-004
  7.6900000000e+010  -3.5124677272e-004  -7.2110182596e-004   4.5009355322e-001  -5.1379452954e-001   4.2481147723e-001  -5.3971617511e-001  -1.3027140385e-003   7.2189746469e-004
  7.6925000000e+010  -3.5112546210e-004  -7.1931408939e-004   4.5006638830e-001  -5.1375577048e-001   4.2478769876e-001  -5.3967547869e-001  -1.2998901630e-003   7.2044560749e-004
  7.6950000000e+010  -3.5100208711e-004  -7.1750512672e-004   4.5003887318e-001  -5.1371651386e-001   4.2476361396e-001  -5.3963425903e-001  -1.2970339559e-003   7.1897674122e-004
  7.6975000000e+010  -3.5087662968e-004  -7.1567501384e-004   4.5001100798e-001  -5.1367675991e-001   4.2473922291e-001  -5.3959251635e-001  -1.2941455801e-003   7.1749093537e-004
  7.7000000000e+010  -3.5074907154e-004  -7.1382382756e-004   4.4998279280e-001  -5.1363650885e-001   4.2471452572e-001  -5.3955025083e-001  -1.2912252005e-003   7.1598826019e-004
  7.7025000000e+010  -3.5061939424e-004  -7.1195164558e-004   4.4995422774e-001  -5.1359576092e-001   4.2468952248e-001  -5.3950746271e-001  -1.2882729834e-003   7.1446878670e-004
  7.7050000000e+010  -3.5048757917e-004  -7.1005854649e-004   4.4992531290e-001  -5.1355451634e-001   4.2466421330e-001  -5.3946415218e-001  -1.2852890973e-003   7.1293258667e-004
  7.7075000000e+010  -3.5035360755e-004  -7.0814460977e-004   4.4989604840e-001  -5.1351277537e-001   4.2463859826e-001  -5.3942031946e-001  -1.2822737119e-003   7.1137973263e-004
  7.7100000000e+010  -3.5021746041e-004  -7.0620991578e-004   4.4986643433e-001  -5.1347053822e-001   4.2461267748e-001  -5.3937596477e-001  -1.2792269991e-003   7.0981029784e-004
  7.7125000000e+010  -3.5007911862e-004  -7.0425454578e-004   4.4983647081e-001  -5.1342780514e-001   4.2458645106e-001  -5.3933108834e-001  -1.2761491321e-003   7.0822435631e-004
  7.7150000000e+010  -3.4993856288e-004  -7.0227858189e-004   4.4980615794e-001  -5.1338457639e-001   4.2455991910e-001  -5.3928569037e-001  -1.2730402862e-003   7.0662198281e-004
  7.7175000000e+010  -3.4979577375e-004  -7.0028210713e-004   4.4977549585e-001  -5.1334085219e-001   4.2453308170e-001  -5.3923977110e-001  -1.2699006381e-003   7.0500325280e-004
  7.7200000000e+010  -3.4965073158e-004  -6.9826520538e-004   4.4974448464e-001  -5.1329663281e-001   4.2450593898e-001  -5.3919333075e-001  -1.2667303662e-003   7.0336824250e-004
  7.7225000000e+010  -3.4950341661e-004  -6.9622796139e-004   4.4971312442e-001  -5.1325191850e-001   4.2447849104e-001  -5.3914636956e-001  -1.2635296506e-003   7.0171702884e-004
  7.7250000000e+010  -3.4935380888e-004  -6.9417046079e-004   4.4968141531e-001  -5.1320670950e-001   4.2445073799e-001  -5.3909888776e-001  -1.2602986731e-003   7.0004968948e-004
  7.7275000000e+010  -3.4920188830e-004  -6.9209279006e-004   4.4964935743e-001  -5.1316100609e-001   4.2442267995e-001  -5.3905088558e-001  -1.2570376169e-003   6.9836630277e-004
  7.7300000000e+010  -3.4904763461e-004  -6.8999503655e-004   4.4961695090e-001  -5.1311480851e-001   4.2439431702e-001  -5.3900236326e-001  -1.2537466672e-003   6.9666694777e-004
  7.7325000000e+010  -3.4889102742e-004  -6.8787728847e-004   4.4958419582e-001  -5.1306811704e-001   4.2436564931e-001  -5.3895332105e-001  -1.2504260105e-003   6.9495170428e-004
  7.7350000000e+010  -3.4873204616e-004  -6.8573963489e-004   4.4955109234e-001  -5.1302093194e-001   4.2433667695e-001  -5.3890375917e-001  -1.2470758350e-003   6.9322065274e-004
  7.7375000000e+010  -3.4857067015e-004  -6.8358216572e-004   4.4951764056e-001  -5.1297325348e-001   4.2430740004e-001  -5.3885367789e-001  -1.2436963304e-003   6.9147387432e-004
  7.7400000000e+010  -3.4840687852e-004  -6.8140497172e-004   4.4948384060e-001  -5.1292508192e-001   4.2427781870e-001  -5.3880307745e-001  -1.2402876880e-003   6.8971145086e-004
  7.7425000000e+010  -3.4824065029e-004  -6.7920814450e-004   4.4944969261e-001  -5.1287641756e-001   4.2424793305e-001  -5.3875195810e-001  -1.2368501008e-003   6.8793346490e-004
  7.7450000000e+010  -3.4807196433e-004  -6.7699177652e-004   4.4941519669e-001  -5.1282726066e-001   4.2421774321e-001  -5.3870032009e-001  -1.2333837630e-003   6.8613999962e-004
  7.7475000000e+010  -3.4790079938e-004  -6.7475596107e-004   4.4938035298e-001  -5.1277761150e-001   4.2418724931e-001  -5.3864816368e-001  -1.2298888707e-003   6.8433113890e-004
  7.7500000000e+010  -3.4772713402e-004  -6.7250079227e-004   4.4934516160e-001  -5.1272747037e-001   4.2415645145e-001  -5.3859548912e-001  -1.2263656212e-003   6.8250696728e-004
  7.7525000000e+010  -3.4755094672e-004  -6.7022636507e-004   4.4930962269e-001  -5.1267683755e-001   4.2412534977e-001  -5.3854229669e-001  -1.2228142134e-003   6.8066756996e-004
  7.7550000000e+010  -3.4737221581e-004  -6.6793277527e-004   4.4927373637e-001  -5.1262571333e-001   4.2409394438e-001  -5.3848858664e-001  -1.2192348478e-003   6.7881303276e-004
  7.7575000000e+010  -3.4719091950e-004  -6.6562011947e-004   4.4923750278e-001  -5.1257409801e-001   4.2406223542e-001  -5.3843435924e-001  -1.2156277262e-003   6.7694344220e-004
  7.7600000000e+010  -3.4700703584e-004  -6.6328849510e-004   4.4920092205e-001  -5.1252199187e-001   4.2403022301e-001  -5.3837961475e-001  -1.2119930519e-003   6.7505888541e-004
  7.7625000000e+010  -3.4682054281e-004  -6.6093800042e-004   4.4916399432e-001  -5.1246939522e-001   4.2399790727e-001  -5.3832435346e-001  -1.2083310296e-003   6.7315945016e-004
  7.7650000000e+010  -3.4663141822e-004  -6.5856873447e-004   4.4912671972e-001  -5.1241630836e-001   4.2396528834e-001  -5.3826857562e-001  -1.2046418656e-003   6.7124522485e-004
  7.7675000000e+010  -3.4643963979e-004  -6.5618079714e-004   4.4908909839e-001  -5.1236273158e-001   4.2393236635e-001  -5.3821228153e-001  -1.2009257673e-003   6.6931629851e-004
  7.7700000000e+010  -3.4624518510e-004  -6.5377428910e-004   4.4905113046e-001  -5.1230866519e-001   4.2389914143e-001  -5.3815547146e-001  -1.1971829437e-003   6.6737276079e-004
