# Hz S RI R 50.000000
! Metas.Vna.Tools, 2.4.7724.19584
! Metas.Vna.Data, 2.4.7724.19560
! Created: UTC 2021.04.29 12:40:11
! FREQ                re:S1,1             im:S1,1             re:S2,1             im:S2,1             re:S1,2             im:S1,2             re:S2,2             im:S2,2          
  7.5000000000e+010  -3.9934541912e-004  -7.7508233611e-004   6.4039431663e-001  -4.9763431026e-001   6.0969189709e-001  -5.4237960965e-001  -1.2737375130e-003   6.6972570065e-004
  7.5025000000e+010  -3.9934340042e-004  -7.7505849075e-004   6.4039393741e-001  -4.9763381003e-001   6.0969157202e-001  -5.4237908924e-001  -1.2737022679e-003   6.6970786382e-004
  7.5050000000e+010  -3.9933936275e-004  -7.7501080100e-004   6.4039317897e-001  -4.9763280957e-001   6.0969092187e-001  -5.4237804844e-001  -1.2736317798e-003   6.6967219105e-004
  7.5075000000e+010  -3.9933330563e-004  -7.7493926885e-004   6.4039204131e-001  -4.9763130890e-001   6.0968994665e-001  -5.4237648723e-001  -1.2735260530e-003   6.6961868418e-004
  7.5100000000e+010  -3.9932522829e-004  -7.7484389724e-004   6.4039052444e-001  -4.9762930802e-001   6.0968864636e-001  -5.4237440563e-001  -1.2733850936e-003   6.6954734593e-004
  7.5125000000e+010  -3.9931512974e-004  -7.7472469013e-004   6.4038862836e-001  -4.9762680694e-001   6.0968702101e-001  -5.4237180365e-001  -1.2732089100e-003   6.6945817993e-004
  7.5150000000e+010  -3.9930300871e-004  -7.7458165243e-004   6.4038635307e-001  -4.9762380569e-001   6.0968507061e-001  -5.4236868128e-001  -1.2729975128e-003   6.6935119072e-004
  7.5175000000e+010  -3.9928886370e-004  -7.7441479007e-004   6.4038369860e-001  -4.9762030428e-001   6.0968279518e-001  -5.4236503856e-001  -1.2727509144e-003   6.6922638376e-004
  7.5200000000e+010  -3.9927269296e-004  -7.7422410994e-004   6.4038066493e-001  -4.9761630274e-001   6.0968019472e-001  -5.4236087547e-001  -1.2724691296e-003   6.6908376540e-004
  7.5225000000e+010  -3.9925449446e-004  -7.7400961993e-004   6.4037725209e-001  -4.9761180109e-001   6.0967726924e-001  -5.4235619206e-001  -1.2721521749e-003   6.6892334291e-004
  7.5250000000e+010  -3.9923426597e-004  -7.7377132890e-004   6.4037346009e-001  -4.9760679938e-001   6.0967401877e-001  -5.4235098832e-001  -1.2718000693e-003   6.6874512445e-004
  7.5275000000e+010  -3.9921200497e-004  -7.7350924670e-004   6.4036928893e-001  -4.9760129762e-001   6.0967044333e-001  -5.4234526427e-001  -1.2714128336e-003   6.6854911911e-004
  7.5300000000e+010  -3.9918770869e-004  -7.7322338418e-004   6.4036473864e-001  -4.9759529587e-001   6.0966654292e-001  -5.4233901995e-001  -1.2709904909e-003   6.6833533687e-004
  7.5325000000e+010  -3.9916137415e-004  -7.7291375314e-004   6.4035980922e-001  -4.9758879416e-001   6.0966231757e-001  -5.4233225536e-001  -1.2705330662e-003   6.6810378861e-004
  7.5350000000e+010  -3.9913299807e-004  -7.7258036640e-004   6.4035450070e-001  -4.9758179253e-001   6.0965776732e-001  -5.4232497054e-001  -1.2700405866e-003   6.6785448613e-004
  7.5375000000e+010  -3.9910257695e-004  -7.7222323773e-004   6.4034881308e-001  -4.9757429104e-001   6.0965289217e-001  -5.4231716551e-001  -1.2695130813e-003   6.6758744212e-004
  7.5400000000e+010  -3.9907010705e-004  -7.7184238191e-004   6.4034274640e-001  -4.9756628974e-001   6.0964769216e-001  -5.4230884030e-001  -1.2689505818e-003   6.6730267016e-004
  7.5425000000e+010  -3.9903558436e-004  -7.7143781469e-004   6.4033630066e-001  -4.9755778868e-001   6.0964216731e-001  -5.4229999494e-001  -1.2683531213e-003   6.6700018477e-004
  7.5450000000e+010  -3.9899900462e-004  -7.7100955278e-004   6.4032947590e-001  -4.9754878793e-001   6.0963631767e-001  -5.4229062945e-001  -1.2677207353e-003   6.6668000134e-004
  7.5475000000e+010  -3.9896036336e-004  -7.7055761392e-004   6.4032227213e-001  -4.9753928754e-001   6.0963014325e-001  -5.4228074388e-001  -1.2670534613e-003   6.6634213615e-004
  7.5500000000e+010  -3.9891965582e-004  -7.7008201677e-004   6.4031468938e-001  -4.9752928758e-001   6.0962364409e-001  -5.4227033825e-001  -1.2663513389e-003   6.6598660641e-004
  7.5525000000e+010  -3.9887687701e-004  -7.6958278103e-004   6.4030672766e-001  -4.9751878813e-001   6.0961682023e-001  -5.4225941261e-001  -1.2656144098e-003   6.6561343021e-004
  7.5550000000e+010  -3.9883202171e-004  -7.6905992732e-004   6.4029838702e-001  -4.9750778924e-001   6.0960967171e-001  -5.4224796699e-001  -1.2648427176e-003   6.6522262652e-004
  7.5575000000e+010  -3.9878508443e-004  -7.6851347729e-004   6.4028966748e-001  -4.9749629101e-001   6.0960219856e-001  -5.4223600144e-001  -1.2640363081e-003   6.6481421523e-004
  7.5600000000e+010  -3.9873605946e-004  -7.6794345352e-004   6.4028056906e-001  -4.9748429351e-001   6.0959440083e-001  -5.4222351599e-001  -1.2631952292e-003   6.6438821711e-004
  7.5625000000e+010  -3.9868494082e-004  -7.6734987961e-004   6.4027109179e-001  -4.9747179682e-001   6.0958627856e-001  -5.4221051070e-001  -1.2623195306e-003   6.6394465381e-004
  7.5650000000e+010  -3.9863172231e-004  -7.6673278010e-004   6.4026123571e-001  -4.9745880104e-001   6.0957783179e-001  -5.4219698560e-001  -1.2614092644e-003   6.6348354790e-004
  7.5675000000e+010  -3.9857639748e-004  -7.6609218053e-004   6.4025100085e-001  -4.9744530624e-001   6.0956906057e-001  -5.4218294075e-001  -1.2604644844e-003   6.6300492281e-004
  7.5700000000e+010  -3.9851895963e-004  -7.6542810740e-004   6.4024038724e-001  -4.9743131253e-001   6.0955996494e-001  -5.4216837620e-001  -1.2594852467e-003   6.6250880287e-004
  7.5725000000e+010  -3.9845940183e-004  -7.6474058818e-004   6.4022939493e-001  -4.9741682000e-001   6.0955054497e-001  -5.4215329199e-001  -1.2584716093e-003   6.6199521328e-004
  7.5750000000e+010  -3.9839771690e-004  -7.6402965132e-004   6.4021802393e-001  -4.9740182875e-001   6.0954080069e-001  -5.4213768819e-001  -1.2574236322e-003   6.6146418014e-004
  7.5775000000e+010  -3.9833389744e-004  -7.6329532625e-004   6.4020627430e-001  -4.9738633889e-001   6.0953073217e-001  -5.4212156484e-001  -1.2563413776e-003   6.6091573042e-004
  7.5800000000e+010  -3.9826793580e-004  -7.6253764334e-004   6.4019414607e-001  -4.9737035053e-001   6.0952033945e-001  -5.4210492201e-001  -1.2552249095e-003   6.6034989198e-004
  7.5825000000e+010  -3.9819982408e-004  -7.6175663395e-004   6.4018163928e-001  -4.9735386377e-001   6.0950962260e-001  -5.4208775975e-001  -1.2540742940e-003   6.5976669354e-004
  7.5850000000e+010  -3.9812955416e-004  -7.6095233041e-004   6.4016875398e-001  -4.9733687873e-001   6.0949858168e-001  -5.4207007813e-001  -1.2528895992e-003   6.5916616470e-004
  7.5875000000e+010  -3.9805711768e-004  -7.6012476602e-004   6.4015549020e-001  -4.9731939553e-001   6.0948721674e-001  -5.4205187720e-001  -1.2516708954e-003   6.5854833595e-004
  7.5900000000e+010  -3.9798250604e-004  -7.5927397502e-004   6.4014184799e-001  -4.9730141429e-001   6.0947552784e-001  -5.4203315704e-001  -1.2504182547e-003   6.5791323863e-004
  7.5925000000e+010  -3.9790571041e-004  -7.5839999263e-004   6.4012782739e-001  -4.9728293513e-001   6.0946351506e-001  -5.4201391771e-001  -1.2491317511e-003   6.5726090495e-004
  7.5950000000e+010  -3.9782672173e-004  -7.5750285505e-004   6.4011342846e-001  -4.9726395819e-001   6.0945117845e-001  -5.4199415928e-001  -1.2478114608e-003   6.5659136801e-004
  7.5975000000e+010  -3.9774553071e-004  -7.5658259941e-004   6.4009865123e-001  -4.9724448359e-001   6.0943851809e-001  -5.4197388182e-001  -1.2464574618e-003   6.5590466173e-004
  7.6000000000e+010  -3.9766212782e-004  -7.5563926382e-004   6.4008349577e-001  -4.9722451147e-001   6.0942553404e-001  -5.4195308540e-001  -1.2450698344e-003   6.5520082094e-004
  7.6025000000e+010  -3.9757650331e-004  -7.5467288734e-004   6.4006796211e-001  -4.9720404197e-001   6.0941222637e-001  -5.4193177010e-001  -1.2436486605e-003   6.5447988129e-004
  7.6050000000e+010  -3.9748864719e-004  -7.5368350999e-004   6.4005205031e-001  -4.9718307523e-001   6.0939859517e-001  -5.4190993598e-001  -1.2421940242e-003   6.5374187930e-004
  7.6075000000e+010  -3.9739854924e-004  -7.5267117276e-004   6.4003576042e-001  -4.9716161140e-001   6.0938464050e-001  -5.4188758314e-001  -1.2407060113e-003   6.5298685236e-004
  7.6100000000e+010  -3.9730619904e-004  -7.5163591757e-004   6.4001909250e-001  -4.9713965062e-001   6.0937036243e-001  -5.4186471165e-001  -1.2391847100e-003   6.5221483868e-004
  7.6125000000e+010  -3.9721158592e-004  -7.5057778731e-004   6.4000204660e-001  -4.9711719306e-001   6.0935576106e-001  -5.4184132159e-001  -1.2376302100e-003   6.5142587735e-004
  7.6150000000e+010  -3.9711469900e-004  -7.4949682581e-004   6.3998462278e-001  -4.9709423885e-001   6.0934083645e-001  -5.4181741304e-001  -1.2360426031e-003   6.5062000828e-004
  7.6175000000e+010  -3.9701552715e-004  -7.4839307787e-004   6.3996682110e-001  -4.9707078817e-001   6.0932558870e-001  -5.4179298610e-001  -1.2344219832e-003   6.4979727224e-004
  7.6200000000e+010  -3.9691405906e-004  -7.4726658922e-004   6.3994864161e-001  -4.9704684118e-001   6.0931001787e-001  -5.4176804084e-001  -1.2327684459e-003   6.4895771082e-004
  7.6225000000e+010  -3.9681028317e-004  -7.4611740655e-004   6.3993008437e-001  -4.9702239804e-001   6.0929412407e-001  -5.4174257735e-001  -1.2310820888e-003   6.4810136648e-004
  7.6250000000e+010  -3.9670418770e-004  -7.4494557748e-004   6.3991114946e-001  -4.9699745892e-001   6.0927790737e-001  -5.4171659574e-001  -1.2293630113e-003   6.4722828247e-004
  7.6275000000e+010  -3.9659576068e-004  -7.4375115058e-004   6.3989183692e-001  -4.9697202399e-001   6.0926136787e-001  -5.4169009608e-001  -1.2276113151e-003   6.4633850291e-004
  7.6300000000e+010  -3.9648498989e-004  -7.4253417537e-004   6.3987214683e-001  -4.9694609344e-001   6.0924450565e-001  -5.4166307848e-001  -1.2258271032e-003   6.4543207273e-004
  7.6325000000e+010  -3.9637186292e-004  -7.4129470230e-004   6.3985207924e-001  -4.9691966744e-001   6.0922732081e-001  -5.4163554303e-001  -1.2240104810e-003   6.4450903768e-004
  7.6350000000e+010  -3.9625636712e-004  -7.4003278276e-004   6.3983163424e-001  -4.9689274618e-001   6.0920981344e-001  -5.4160748983e-001  -1.2221615555e-003   6.4356944434e-004
  7.6375000000e+010  -3.9613848967e-004  -7.3874846910e-004   6.3981081187e-001  -4.9686532984e-001   6.0919198365e-001  -5.4157891898e-001  -1.2202804358e-003   6.4261334010e-004
  7.6400000000e+010  -3.9601821749e-004  -7.3744181456e-004   6.3978961222e-001  -4.9683741861e-001   6.0917383152e-001  -5.4154983059e-001  -1.2183672325e-003   6.4164077319e-004
  7.6425000000e+010  -3.9589553732e-004  -7.3611287335e-004   6.3976803536e-001  -4.9680901269e-001   6.0915535715e-001  -5.4152022475e-001  -1.2164220584e-003   6.4065179261e-004
  7.6450000000e+010  -3.9577043569e-004  -7.3476170059e-004   6.3974608134e-001  -4.9678011227e-001   6.0913656065e-001  -5.4149010157e-001  -1.2144450280e-003   6.3964644819e-004
  7.6475000000e+010  -3.9564289893e-004  -7.3338835235e-004   6.3972375026e-001  -4.9675071756e-001   6.0911744212e-001  -5.4145946116e-001  -1.2124362577e-003   6.3862479058e-004
  7.6500000000e+010  -3.9551291313e-004  -7.3199288560e-004   6.3970104218e-001  -4.9672082875e-001   6.0909800167e-001  -5.4142830362e-001  -1.2103958658e-003   6.3758687120e-004
  7.6525000000e+010  -3.9538046422e-004  -7.3057535826e-004   6.3967795718e-001  -4.9669044606e-001   6.0907823940e-001  -5.4139662908e-001  -1.2083239721e-003   6.3653274227e-004
  7.6550000000e+010  -3.9524553791e-004  -7.2913582916e-004   6.3965449533e-001  -4.9665956969e-001   6.0905815542e-001  -5.4136443765e-001  -1.2062206985e-003   6.3546245684e-004
  7.6575000000e+010  -3.9510811971e-004  -7.2767435805e-004   6.3963065672e-001  -4.9662819987e-001   6.0903774984e-001  -5.4133172943e-001  -1.2040861688e-003   6.3437606870e-004
  7.6600000000e+010  -3.9496819493e-004  -7.2619100561e-004   6.3960644141e-001  -4.9659633680e-001   6.0901702278e-001  -5.4129850455e-001  -1.2019205083e-003   6.3327363246e-004
  7.6625000000e+010  -3.9482574868e-004  -7.2468583342e-004   6.3958184950e-001  -4.9656398072e-001   6.0899597433e-001  -5.4126476312e-001  -1.1997238442e-003   6.3215520349e-004
  7.6650000000e+010  -3.9468076589e-004  -7.2315890399e-004   6.3955688107e-001  -4.9653113183e-001   6.0897460463e-001  -5.4123050527e-001  -1.1974963056e-003   6.3102083796e-004
  7.6675000000e+010  -3.9453323128e-004  -7.2161028073e-004   6.3953153619e-001  -4.9649779038e-001   6.0895291379e-001  -5.4119573111e-001  -1.1952380233e-003   6.2987059279e-004
  7.6700000000e+010  -3.9438312939e-004  -7.2004002797e-004   6.3950581495e-001  -4.9646395659e-001   6.0893090193e-001  -5.4116044078e-001  -1.1929491296e-003   6.2870452569e-004
  7.6725000000e+010  -3.9423044457e-004  -7.1844821095e-004   6.3947971745e-001  -4.9642963069e-001   6.0890856916e-001  -5.4112463440e-001  -1.1906297590e-003   6.2752269513e-004
  7.6750000000e+010  -3.9407516096e-004  -7.1683489580e-004   6.3945324375e-001  -4.9639481294e-001   6.0888591562e-001  -5.4108831210e-001  -1.1882800475e-003   6.2632516032e-004
  7.6775000000e+010  -3.9391726255e-004  -7.1520014956e-004   6.3942639396e-001  -4.9635950355e-001   6.0886294142e-001  -5.4105147400e-001  -1.1859001327e-003   6.2511198127e-004
  7.6800000000e+010  -3.9375673312e-004  -7.1354404018e-004   6.3939916816e-001  -4.9632370279e-001   6.0883964669e-001  -5.4101412024e-001  -1.1834901542e-003   6.2388321871e-004
  7.6825000000e+010  -3.9359355628e-004  -7.1186663651e-004   6.3937156645e-001  -4.9628741090e-001   6.0881603156e-001  -5.4097625095e-001  -1.1810502530e-003   6.2263893412e-004
  7.6850000000e+010  -3.9342771545e-004  -7.1016800827e-004   6.3934358891e-001  -4.9625062813e-001   6.0879209616e-001  -5.4093786628e-001  -1.1785805721e-003   6.2137918974e-004
  7.6875000000e+010  -3.9325919386e-004  -7.0844822610e-004   6.3931523563e-001  -4.9621335473e-001   6.0876784061e-001  -5.4089896635e-001  -1.1760812561e-003   6.2010404854e-004
  7.6900000000e+010  -3.9308797461e-004  -7.0670736152e-004   6.3928650672e-001  -4.9617559097e-001   6.0874326506e-001  -5.4085955130e-001  -1.1735524510e-003   6.1881357423e-004
  7.6925000000e+010  -3.9291404056e-004  -7.0494548695e-004   6.3925740227e-001  -4.9613733710e-001   6.0871836964e-001  -5.4081962128e-001  -1.1709943049e-003   6.1750783125e-004
  7.6950000000e+010  -3.9273737446e-004  -7.0316267567e-004   6.3922792238e-001  -4.9609859340e-001   6.0869315448e-001  -5.4077917644e-001  -1.1684069672e-003   6.1618688477e-004
  7.6975000000e+010  -3.9255795883e-004  -7.0135900188e-004   6.3919806713e-001  -4.9605936012e-001   6.0866761972e-001  -5.4073821690e-001  -1.1657905892e-003   6.1485080067e-004
  7.7000000000e+010  -3.9237577608e-004  -6.9953454062e-004   6.3916783665e-001  -4.9601963754e-001   6.0864176550e-001  -5.4069674283e-001  -1.1631453236e-003   6.1349964556e-004
  7.7025000000e+010  -3.9219080839e-004  -6.9768936783e-004   6.3913723101e-001  -4.9597942594e-001   6.0861559197e-001  -5.4065475437e-001  -1.1604713249e-003   6.1213348675e-004
  7.7050000000e+010  -3.9200303784e-004  -6.9582356034e-004   6.3910625034e-001  -4.9593872560e-001   6.0858909926e-001  -5.4061225167e-001  -1.1577687491e-003   6.1075239228e-004
  7.7075000000e+010  -3.9181244629e-004  -6.9393719582e-004   6.3907489472e-001  -4.9589753678e-001   6.0856228753e-001  -5.4056923489e-001  -1.1550377539e-003   6.0935643087e-004
  7.7100000000e+010  -3.9161901548e-004  -6.9203035284e-004   6.3904316427e-001  -4.9585585980e-001   6.0853515691e-001  -5.4052570417e-001  -1.1522784984e-003   6.0794567194e-004
  7.7125000000e+010  -3.9142272696e-004  -6.9010311081e-004   6.3901105909e-001  -4.9581369492e-001   6.0850770756e-001  -5.4048165968e-001  -1.1494911436e-003   6.0652018563e-004
  7.7150000000e+010  -3.9122356216e-004  -6.8815555002e-004   6.3897857928e-001  -4.9577104244e-001   6.0847993963e-001  -5.4043710157e-001  -1.1466758517e-003   6.0508004273e-004
  7.7175000000e+010  -3.9102150231e-004  -6.8618775162e-004   6.3894572497e-001  -4.9572790266e-001   6.0845185327e-001  -5.4039203001e-001  -1.1438327866e-003   6.0362531474e-004
  7.7200000000e+010  -3.9081652853e-004  -6.8419979762e-004   6.3891249625e-001  -4.9568427588e-001   6.0842344863e-001  -5.4034644515e-001  -1.1409621139e-003   6.0215607383e-004
  7.7225000000e+010  -3.9060862176e-004  -6.8219177087e-004   6.3887889324e-001  -4.9564016239e-001   6.0839472588e-001  -5.4030034715e-001  -1.1380640004e-003   6.0067239284e-004
  7.7250000000e+010  -3.9039776281e-004  -6.8016375510e-004   6.3884491605e-001  -4.9559556250e-001   6.0836568516e-001  -5.4025373620e-001  -1.1351386146e-003   5.9917434529e-004
  7.7275000000e+010  -3.9018393234e-004  -6.7811583487e-004   6.3881056479e-001  -4.9555047653e-001   6.0833632664e-001  -5.4020661244e-001  -1.1321861266e-003   5.9766200535e-004
  7.7300000000e+010  -3.8996711085e-004  -6.7604809558e-004   6.3877583958e-001  -4.9550490478e-001   6.0830665047e-001  -5.4015897605e-001  -1.1292067078e-003   5.9613544785e-004
  7.7325000000e+010  -3.8974727873e-004  -6.7396062349e-004   6.3874074054e-001  -4.9545884757e-001   6.0827665682e-001  -5.4011082721e-001  -1.1262005311e-003   5.9459474827e-004
  7.7350000000e+010  -3.8952441620e-004  -6.7185350571e-004   6.3870526778e-001  -4.9541230522e-001   6.0824634586e-001  -5.4006216608e-001  -1.1231677710e-003   5.9303998276e-004
  7.7375000000e+010  -3.8929850337e-004  -6.6972683014e-004   6.3866942142e-001  -4.9536527804e-001   6.0821571775e-001  -5.4001299284e-001  -1.1201086033e-003   5.9147122807e-004
  7.7400000000e+010  -3.8906952019e-004  -6.6758068558e-004   6.3863320159e-001  -4.9531776637e-001   6.0818477266e-001  -5.3996330767e-001  -1.1170232052e-003   5.8988856163e-004
  7.7425000000e+010  -3.8883744650e-004  -6.6541516160e-004   6.3859660839e-001  -4.9526977053e-001   6.0815351075e-001  -5.3991311075e-001  -1.1139117556e-003   5.8829206147e-004
  7.7450000000e+010  -3.8860226199e-004  -6.6323034864e-004   6.3855964197e-001  -4.9522129086e-001   6.0812193220e-001  -5.3986240225e-001  -1.1107744345e-003   5.8668180626e-004
  7.7475000000e+010  -3.8836394625e-004  -6.6102633795e-004   6.3852230243e-001  -4.9517232769e-001   6.0809003719e-001  -5.3981118237e-001  -1.1076114235e-003   5.8505787528e-004
  7.7500000000e+010  -3.8812247871e-004  -6.5880322159e-004   6.3848458991e-001  -4.9512288135e-001   6.0805782588e-001  -5.3975945127e-001  -1.1044229054e-003   5.8342034844e-004
  7.7525000000e+010  -3.8787783871e-004  -6.5656109245e-004   6.3844650452e-001  -4.9507295219e-001   6.0802529845e-001  -5.3970720916e-001  -1.1012090646e-003   5.8176930624e-004
  7.7550000000e+010  -3.8763000545e-004  -6.5430004424e-004   6.3840804641e-001  -4.9502254056e-001   6.0799245509e-001  -5.3965445621e-001  -1.0979700866e-003   5.8010482980e-004
  7.7575000000e+010  -3.8737895802e-004  -6.5202017147e-004   6.3836921570e-001  -4.9497164680e-001   6.0795929596e-001  -5.3960119263e-001  -1.0947061585e-003   5.7842700082e-004
  7.7600000000e+010  -3.8712467539e-004  -6.4972156947e-004   6.3833001251e-001  -4.9492027127e-001   6.0792582126e-001  -5.3954741859e-001  -1.0914174685e-003   5.7673590161e-004
  7.7625000000e+010  -3.8686713642e-004  -6.4740433435e-004   6.3829043699e-001  -4.9486841431e-001   6.0789203116e-001  -5.3949313430e-001  -1.0881042062e-003   5.7503161506e-004
  7.7650000000e+010  -3.8660631985e-004  -6.4506856305e-004   6.3825048926e-001  -4.9481607630e-001   6.0785792586e-001  -5.3943833995e-001  -1.0847665626e-003   5.7331422462e-004
  7.7675000000e+010  -3.8634220434e-004  -6.4271435330e-004   6.3821016946e-001  -4.9476325758e-001   6.0782350553e-001  -5.3938303573e-001  -1.0814047299e-003   5.7158381435e-004
  7.7700000000e+010  -3.8607476842e-004  -6.4034180361e-004   6.3816947772e-001  -4.9470995853e-001   6.0778877037e-001  -5.3932722185e-001  -1.0780189015e-003   5.6984046884e-004
