# Hz S RI R 50.000000
! Metas.Vna.Tools, 2.4.7724.19584
! Metas.Vna.Data, 2.4.7724.19560
! Created: UTC 2021.04.29 12:40:11
! FREQ                re:S1,1             im:S1,1             re:S2,1             im:S2,1             re:S1,2             im:S1,2             re:S2,2             im:S2,2          
  7.5000000000e+010  -4.3476421901e-004  -7.4221843852e-004   8.0950821632e-001  -4.0763929476e-001   7.6835237513e-001  -4.9593523609e-001  -1.1178144934e-003   6.3034914568e-004
  7.5025000000e+010  -4.3476159919e-004  -7.4219536519e-004   8.0950785206e-001  -4.0763890140e-001   7.6835211095e-001  -4.9593474682e-001  -1.1177825488e-003   6.3033164390e-004
  7.5050000000e+010  -4.3475635931e-004  -7.4214921947e-004   8.0950712353e-001  -4.0763811468e-001   7.6835158260e-001  -4.9593376829e-001  -1.1177186615e-003   6.3029664129e-004
  7.5075000000e+010  -4.3474849890e-004  -7.4208000325e-004   8.0950603074e-001  -4.0763693461e-001   7.6835079007e-001  -4.9593230049e-001  -1.1176228355e-003   6.3024413969e-004
  7.5100000000e+010  -4.3473801725e-004  -7.4198771933e-004   8.0950457369e-001  -4.0763536121e-001   7.6834973337e-001  -4.9593034344e-001  -1.1174950767e-003   6.3017414189e-004
  7.5125000000e+010  -4.3472491342e-004  -7.4187237148e-004   8.0950275240e-001  -4.0763339447e-001   7.6834841251e-001  -4.9592789712e-001  -1.1173353931e-003   6.3008665161e-004
  7.5150000000e+010  -4.3470918624e-004  -7.4173396441e-004   8.0950056686e-001  -4.0763103442e-001   7.6834682749e-001  -4.9592496156e-001  -1.1171437943e-003   6.2998167351e-004
  7.5175000000e+010  -4.3469083428e-004  -7.4157250375e-004   8.0949801708e-001  -4.0762828108e-001   7.6834497832e-001  -4.9592153676e-001  -1.1169202923e-003   6.2985921315e-004
  7.5200000000e+010  -4.3466985591e-004  -7.4138799608e-004   8.0949510308e-001  -4.0762513447e-001   7.6834286502e-001  -4.9591762272e-001  -1.1166649009e-003   6.2971927704e-004
  7.5225000000e+010  -4.3464624924e-004  -7.4118044893e-004   8.0949182487e-001  -4.0762159461e-001   7.6834048758e-001  -4.9591321946e-001  -1.1163776359e-003   6.2956187261e-004
  7.5250000000e+010  -4.3462001215e-004  -7.4094987074e-004   8.0948818245e-001  -4.0761766153e-001   7.6833784603e-001  -4.9590832699e-001  -1.1160585148e-003   6.2938700822e-004
  7.5275000000e+010  -4.3459114229e-004  -7.4069627093e-004   8.0948417585e-001  -4.0761333527e-001   7.6833494038e-001  -4.9590294532e-001  -1.1157075576e-003   6.2919469315e-004
  7.5300000000e+010  -4.3455963707e-004  -7.4041965981e-004   8.0947980508e-001  -4.0760861586e-001   7.6833177064e-001  -4.9589707446e-001  -1.1153247857e-003   6.2898493763e-004
  7.5325000000e+010  -4.3452549369e-004  -7.4012004867e-004   8.0947507015e-001  -4.0760350334e-001   7.6832833683e-001  -4.9589071443e-001  -1.1149102229e-003   6.2875775277e-004
  7.5350000000e+010  -4.3448870907e-004  -7.3979744973e-004   8.0946997109e-001  -4.0759799775e-001   7.6832463897e-001  -4.9588386524e-001  -1.1144638946e-003   6.2851315066e-004
  7.5375000000e+010  -4.3444927994e-004  -7.3945187611e-004   8.0946450791e-001  -4.0759209913e-001   7.6832067707e-001  -4.9587652691e-001  -1.1139858285e-003   6.2825114426e-004
  7.5400000000e+010  -4.3440720277e-004  -7.3908334193e-004   8.0945868064e-001  -4.0758580754e-001   7.6831645116e-001  -4.9586869946e-001  -1.1134760541e-003   6.2797174749e-004
  7.5425000000e+010  -4.3436247382e-004  -7.3869186218e-004   8.0945248930e-001  -4.0757912301e-001   7.6831196126e-001  -4.9586038292e-001  -1.1129346027e-003   6.2767497517e-004
  7.5450000000e+010  -4.3431508910e-004  -7.3827745285e-004   8.0944593391e-001  -4.0757204562e-001   7.6830720740e-001  -4.9585157729e-001  -1.1123615078e-003   6.2736084306e-004
  7.5475000000e+010  -4.3426504440e-004  -7.3784013081e-004   8.0943901450e-001  -4.0756457540e-001   7.6830218959e-001  -4.9584228260e-001  -1.1117568047e-003   6.2702936782e-004
  7.5500000000e+010  -4.3421233527e-004  -7.3737991389e-004   8.0943173110e-001  -4.0755671244e-001   7.6829690786e-001  -4.9583249888e-001  -1.1111205307e-003   6.2668056703e-004
  7.5525000000e+010  -4.3415695703e-004  -7.3689682087e-004   8.0942408373e-001  -4.0754845678e-001   7.6829136225e-001  -4.9582222615e-001  -1.1104527251e-003   6.2631445921e-004
  7.5550000000e+010  -4.3409890478e-004  -7.3639087144e-004   8.0941607242e-001  -4.0753980849e-001   7.6828555277e-001  -4.9581146443e-001  -1.1097534290e-003   6.2593106377e-004
  7.5575000000e+010  -4.3403817338e-004  -7.3586208622e-004   8.0940769721e-001  -4.0753076765e-001   7.6827947947e-001  -4.9580021376e-001  -1.1090226855e-003   6.2553040104e-004
  7.5600000000e+010  -4.3397475748e-004  -7.3531048678e-004   8.0939895813e-001  -4.0752133433e-001   7.6827314236e-001  -4.9578847416e-001  -1.1082605397e-003   6.2511249226e-004
  7.5625000000e+010  -4.3390865147e-004  -7.3473609561e-004   8.0938985521e-001  -4.0751150860e-001   7.6826654149e-001  -4.9577624565e-001  -1.1074670385e-003   6.2467735960e-004
  7.5650000000e+010  -4.3383984953e-004  -7.3413893615e-004   8.0938038848e-001  -4.0750129054e-001   7.6825967690e-001  -4.9576352828e-001  -1.1066422309e-003   6.2422502610e-004
  7.5675000000e+010  -4.3376834563e-004  -7.3351903273e-004   8.0937055800e-001  -4.0749068025e-001   7.6825254860e-001  -4.9575032207e-001  -1.1057861677e-003   6.2375551576e-004
  7.5700000000e+010  -4.3369413348e-004  -7.3287641065e-004   8.0936036378e-001  -4.0747967779e-001   7.6824515665e-001  -4.9573662706e-001  -1.1048989016e-003   6.2326885344e-004
  7.5725000000e+010  -4.3361720660e-004  -7.3221109612e-004   8.0934980588e-001  -4.0746828326e-001   7.6823750108e-001  -4.9572244327e-001  -1.1039804873e-003   6.2276506493e-004
  7.5750000000e+010  -4.3353755825e-004  -7.3152311628e-004   8.0933888434e-001  -4.0745649676e-001   7.6822958193e-001  -4.9570777075e-001  -1.1030309813e-003   6.2224417690e-004
  7.5775000000e+010  -4.3345518150e-004  -7.3081249919e-004   8.0932759919e-001  -4.0744431838e-001   7.6822139924e-001  -4.9569260953e-001  -1.1020504421e-003   6.2170621695e-004
  7.5800000000e+010  -4.3337006917e-004  -7.3007927385e-004   8.0931595048e-001  -4.0743174821e-001   7.6821295305e-001  -4.9567695966e-001  -1.1010389302e-003   6.2115121356e-004
  7.5825000000e+010  -4.3328221387e-004  -7.2932347018e-004   8.0930393826e-001  -4.0741878636e-001   7.6820424342e-001  -4.9566082116e-001  -1.0999965077e-003   6.2057919610e-004
  7.5850000000e+010  -4.3319160798e-004  -7.2854511901e-004   8.0929156258e-001  -4.0740543294e-001   7.6819527037e-001  -4.9564419408e-001  -1.0989232388e-003   6.1999019484e-004
  7.5875000000e+010  -4.3309824369e-004  -7.2774425212e-004   8.0927882348e-001  -4.0739168804e-001   7.6818603397e-001  -4.9562707847e-001  -1.0978191896e-003   6.1938424094e-004
  7.5900000000e+010  -4.3300211293e-004  -7.2692090218e-004   8.0926572101e-001  -4.0737755179e-001   7.6817653425e-001  -4.9560947436e-001  -1.0966844280e-003   6.1876136647e-004
  7.5925000000e+010  -4.3290320743e-004  -7.2607510280e-004   8.0925225522e-001  -4.0736302429e-001   7.6816677128e-001  -4.9559138179e-001  -1.0955190239e-003   6.1812160435e-004
  7.5950000000e+010  -4.3280151870e-004  -7.2520688851e-004   8.0923842617e-001  -4.0734810567e-001   7.6815674509e-001  -4.9557280082e-001  -1.0943230488e-003   6.1746498841e-004
  7.5975000000e+010  -4.3269703804e-004  -7.2431629476e-004   8.0922423391e-001  -4.0733279605e-001   7.6814645574e-001  -4.9555373150e-001  -1.0930965764e-003   6.1679155336e-004
  7.6000000000e+010  -4.3258975654e-004  -7.2340335789e-004   8.0920967850e-001  -4.0731709554e-001   7.6813590329e-001  -4.9553417386e-001  -1.0918396821e-003   6.1610133478e-004
  7.6025000000e+010  -4.3247966504e-004  -7.2246811520e-004   8.0919475999e-001  -4.0730100427e-001   7.6812508778e-001  -4.9551412796e-001  -1.0905524431e-003   6.1539436913e-004
  7.6050000000e+010  -4.3236675422e-004  -7.2151060486e-004   8.0917947844e-001  -4.0728452239e-001   7.6811400929e-001  -4.9549359385e-001  -1.0892349386e-003   6.1467069374e-004
  7.6075000000e+010  -4.3225101450e-004  -7.2053086600e-004   8.0916383392e-001  -4.0726765001e-001   7.6810266785e-001  -4.9547257157e-001  -1.0878872494e-003   6.1393034683e-004
  7.6100000000e+010  -4.3213243611e-004  -7.1952893862e-004   8.0914782648e-001  -4.0725038727e-001   7.6809106354e-001  -4.9545106120e-001  -1.0865094584e-003   6.1317336747e-004
  7.6125000000e+010  -4.3201100907e-004  -7.1850486365e-004   8.0913145618e-001  -4.0723273432e-001   7.6807919641e-001  -4.9542906276e-001  -1.0851016503e-003   6.1239979559e-004
  7.6150000000e+010  -4.3188672319e-004  -7.1745868293e-004   8.0911472309e-001  -4.0721469130e-001   7.6806706653e-001  -4.9540657633e-001  -1.0836639113e-003   6.1160967201e-004
  7.6175000000e+010  -4.3175956808e-004  -7.1639043921e-004   8.0909762728e-001  -4.0719625834e-001   7.6805467395e-001  -4.9538360196e-001  -1.0821963299e-003   6.1080303839e-004
  7.6200000000e+010  -4.3162953312e-004  -7.1530017614e-004   8.0908016881e-001  -4.0717743561e-001   7.6804201874e-001  -4.9536013971e-001  -1.0806989961e-003   6.0997993723e-004
  7.6225000000e+010  -4.3149660751e-004  -7.1418793827e-004   8.0906234775e-001  -4.0715822326e-001   7.6802910098e-001  -4.9533618963e-001  -1.0791720017e-003   6.0914041193e-004
  7.6250000000e+010  -4.3136078024e-004  -7.1305377107e-004   8.0904416417e-001  -4.0713862143e-001   7.6801592072e-001  -4.9531175179e-001  -1.0776154404e-003   6.0828450670e-004
  7.6275000000e+010  -4.3122204008e-004  -7.1189772090e-004   8.0902561814e-001  -4.0711863029e-001   7.6800247803e-001  -4.9528682624e-001  -1.0760294077e-003   6.0741226661e-004
  7.6300000000e+010  -4.3108037562e-004  -7.1071983502e-004   8.0900670974e-001  -4.0709824999e-001   7.6798877299e-001  -4.9526141306e-001  -1.0744140009e-003   6.0652373758e-004
  7.6325000000e+010  -4.3093577524e-004  -7.0952016159e-004   8.0898743903e-001  -4.0707748071e-001   7.6797480566e-001  -4.9523551230e-001  -1.0727693188e-003   6.0561896636e-004
  7.6350000000e+010  -4.3078822713e-004  -7.0829874969e-004   8.0896780610e-001  -4.0705632261e-001   7.6796057612e-001  -4.9520912403e-001  -1.0710954624e-003   6.0469800054e-004
  7.6375000000e+010  -4.3063771927e-004  -7.0705564926e-004   8.0894781102e-001  -4.0703477586e-001   7.6794608444e-001  -4.9518224831e-001  -1.0693925341e-003   6.0376088856e-004
  7.6400000000e+010  -4.3048423945e-004  -7.0579091114e-004   8.0892745387e-001  -4.0701284064e-001   7.6793133070e-001  -4.9515488522e-001  -1.0676606383e-003   6.0280767965e-004
  7.6425000000e+010  -4.3032777527e-004  -7.0450458710e-004   8.0890673473e-001  -4.0699051712e-001   7.6791631498e-001  -4.9512703483e-001  -1.0658998809e-003   6.0183842391e-004
  7.6450000000e+010  -4.3016831413e-004  -7.0319672975e-004   8.0888565368e-001  -4.0696780548e-001   7.6790103734e-001  -4.9509869720e-001  -1.0641103697e-003   6.0085317224e-004
  7.6475000000e+010  -4.3000584325e-004  -7.0186739262e-004   8.0886421080e-001  -4.0694470591e-001   7.6788549788e-001  -4.9506987240e-001  -1.0622922143e-003   5.9985197635e-004
  7.6500000000e+010  -4.2984034964e-004  -7.0051663012e-004   8.0884240618e-001  -4.0692121859e-001   7.6786969668e-001  -4.9504056051e-001  -1.0604455258e-003   5.9883488880e-004
  7.6525000000e+010  -4.2967182015e-004  -6.9914449754e-004   8.0882023990e-001  -4.0689734371e-001   7.6785363380e-001  -4.9501076160e-001  -1.0585704171e-003   5.9780196292e-004
  7.6550000000e+010  -4.2950024141e-004  -6.9775105106e-004   8.0879771205e-001  -4.0687308146e-001   7.6783730935e-001  -4.9498047575e-001  -1.0566670030e-003   5.9675325287e-004
  7.6575000000e+010  -4.2932559990e-004  -6.9633634775e-004   8.0877482272e-001  -4.0684843205e-001   7.6782072340e-001  -4.9494970304e-001  -1.0547353996e-003   5.9568881361e-004
  7.6600000000e+010  -4.2914788188e-004  -6.9490044553e-004   8.0875157199e-001  -4.0682339566e-001   7.6780387604e-001  -4.9491844353e-001  -1.0527757249e-003   5.9460870091e-004
  7.6625000000e+010  -4.2896707346e-004  -6.9344340322e-004   8.0872795997e-001  -4.0679797250e-001   7.6778676736e-001  -4.9488669732e-001  -1.0507880988e-003   5.9351297130e-004
  7.6650000000e+010  -4.2878316056e-004  -6.9196528053e-004   8.0870398673e-001  -4.0677216278e-001   7.6776939744e-001  -4.9485446448e-001  -1.0487726423e-003   5.9240168215e-004
  7.6675000000e+010  -4.2859612891e-004  -6.9046613801e-004   8.0867965238e-001  -4.0674596671e-001   7.6775176639e-001  -4.9482174509e-001  -1.0467294787e-003   5.9127489157e-004
  7.6700000000e+010  -4.2840596407e-004  -6.8894603709e-004   8.0865495702e-001  -4.0671938449e-001   7.6773387428e-001  -4.9478853924e-001  -1.0446587324e-003   5.9013265848e-004
  7.6725000000e+010  -4.2821265142e-004  -6.8740504010e-004   8.0862990073e-001  -4.0669241633e-001   7.6771572121e-001  -4.9475484701e-001  -1.0425605298e-003   5.8897504258e-004
  7.6750000000e+010  -4.2801617619e-004  -6.8584321020e-004   8.0860448361e-001  -4.0666506247e-001   7.6769730728e-001  -4.9472066848e-001  -1.0404349988e-003   5.8780210433e-004
  7.6775000000e+010  -4.2781652342e-004  -6.8426061143e-004   8.0857870578e-001  -4.0663732311e-001   7.6767863259e-001  -4.9468600375e-001  -1.0382822688e-003   5.8661390496e-004
  7.6800000000e+010  -4.2761367796e-004  -6.8265730870e-004   8.0855256732e-001  -4.0660919848e-001   7.6765969722e-001  -4.9465085289e-001  -1.0361024710e-003   5.8541050647e-004
  7.6825000000e+010  -4.2740762454e-004  -6.8103336777e-004   8.0852606834e-001  -4.0658068881e-001   7.6764050128e-001  -4.9461521601e-001  -1.0338957381e-003   5.8419197163e-004
  7.6850000000e+010  -4.2719834767e-004  -6.7938885526e-004   8.0849920894e-001  -4.0655179433e-001   7.6762104487e-001  -4.9457909318e-001  -1.0316622044e-003   5.8295836396e-004
  7.6875000000e+010  -4.2698583175e-004  -6.7772383865e-004   8.0847198924e-001  -4.0652251527e-001   7.6760132809e-001  -4.9454248451e-001  -1.0294020057e-003   5.8170974770e-004
  7.6900000000e+010  -4.2677006097e-004  -6.7603838628e-004   8.0844440933e-001  -4.0649285186e-001   7.6758135104e-001  -4.9450539008e-001  -1.0271152796e-003   5.8044618789e-004
  7.6925000000e+010  -4.2655101939e-004  -6.7433256733e-004   8.0841646932e-001  -4.0646280435e-001   7.6756111383e-001  -4.9446781000e-001  -1.0248021650e-003   5.7916775028e-004
  7.6950000000e+010  -4.2632869090e-004  -6.7260645184e-004   8.0838816933e-001  -4.0643237298e-001   7.6754061656e-001  -4.9442974434e-001  -1.0224628025e-003   5.7787450135e-004
  7.6975000000e+010  -4.2610305924e-004  -6.7086011069e-004   8.0835950947e-001  -4.0640155798e-001   7.6751985934e-001  -4.9439119322e-001  -1.0200973341e-003   5.7656650833e-004
  7.7000000000e+010  -4.2587410797e-004  -6.6909361561e-004   8.0833048984e-001  -4.0637035962e-001   7.6749884227e-001  -4.9435215673e-001  -1.0177059035e-003   5.7524383917e-004
  7.7025000000e+010  -4.2564182054e-004  -6.6730703916e-004   8.0830111057e-001  -4.0633877814e-001   7.6747756547e-001  -4.9431263497e-001  -1.0152886557e-003   5.7390656255e-004
  7.7050000000e+010  -4.2540618021e-004  -6.6550045476e-004   8.0827137176e-001  -4.0630681379e-001   7.6745602905e-001  -4.9427262804e-001  -1.0128457373e-003   5.7255474785e-004
  7.7075000000e+010  -4.2516717012e-004  -6.6367393666e-004   8.0824127354e-001  -4.0627446684e-001   7.6743423311e-001  -4.9423213604e-001  -1.0103772965e-003   5.7118846517e-004
  7.7100000000e+010  -4.2492477324e-004  -6.6182755994e-004   8.0821081602e-001  -4.0624173754e-001   7.6741217778e-001  -4.9419115907e-001  -1.0078834829e-003   5.6980778533e-004
  7.7125000000e+010  -4.2467897242e-004  -6.5996140051e-004   8.0817999932e-001  -4.0620862616e-001   7.6738986316e-001  -4.9414969725e-001  -1.0053644474e-003   5.6841277983e-004
  7.7150000000e+010  -4.2442975034e-004  -6.5807553512e-004   8.0814882357e-001  -4.0617513295e-001   7.6736728937e-001  -4.9410775067e-001  -1.0028203426e-003   5.6700352087e-004
  7.7175000000e+010  -4.2417708956e-004  -6.5617004134e-004   8.0811728889e-001  -4.0614125821e-001   7.6734445654e-001  -4.9406531945e-001  -1.0002513224e-003   5.6558008136e-004
  7.7200000000e+010  -4.2392097249e-004  -6.5424499756e-004   8.0808539539e-001  -4.0610700218e-001   7.6732136477e-001  -4.9402240368e-001  -9.9765754222e-004   5.6414253488e-004
  7.7225000000e+010  -4.2366138142e-004  -6.5230048301e-004   8.0805314321e-001  -4.0607236516e-001   7.6729801420e-001  -4.9397900349e-001  -9.9503915883e-004   5.6269095570e-004
  7.7250000000e+010  -4.2339829848e-004  -6.5033657773e-004   8.0802053248e-001  -4.0603734741e-001   7.6727440493e-001  -4.9393511898e-001  -9.9239633044e-004   5.6122541874e-004
  7.7275000000e+010  -4.2313170570e-004  -6.4835336256e-004   8.0798756331e-001  -4.0600194923e-001   7.6725053710e-001  -4.9389075027e-001  -9.8972921664e-004   5.5974599962e-004
  7.7300000000e+010  -4.2286158496e-004  -6.4635091918e-004   8.0795423585e-001  -4.0596617089e-001   7.6722641082e-001  -4.9384589746e-001  -9.8703797841e-004   5.5825277460e-004
  7.7325000000e+010  -4.2258791800e-004  -6.4432933007e-004   8.0792055022e-001  -4.0593001269e-001   7.6720202623e-001  -4.9380056068e-001  -9.8432277810e-004   5.5674582063e-004
  7.7350000000e+010  -4.2231068647e-004  -6.4228867852e-004   8.0788650655e-001  -4.0589347490e-001   7.6717738345e-001  -4.9375474004e-001  -9.8158377942e-004   5.5522521528e-004
  7.7375000000e+010  -4.2202987188e-004  -6.4022904861e-004   8.0785210499e-001  -4.0585655784e-001   7.6715248261e-001  -4.9370843566e-001  -9.7882114742e-004   5.5369103678e-004
  7.7400000000e+010  -4.2174545560e-004  -6.3815052524e-004   8.0781734566e-001  -4.0581926178e-001   7.6712732383e-001  -4.9366164765e-001  -9.7603504850e-004   5.5214336400e-004
  7.7425000000e+010  -4.2145741891e-004  -6.3605319412e-004   8.0778222869e-001  -4.0578158704e-001   7.6710190726e-001  -4.9361437614e-001  -9.7322565036e-004   5.5058227645e-004
  7.7450000000e+010  -4.2116574296e-004  -6.3393714172e-004   8.0774675424e-001  -4.0574353392e-001   7.6707623301e-001  -4.9356662124e-001  -9.7039312201e-004   5.4900785427e-004
  7.7475000000e+010  -4.2087040879e-004  -6.3180245534e-004   8.0771092244e-001  -4.0570510272e-001   7.6705030123e-001  -4.9351838309e-001  -9.6753763378e-004   5.4742017821e-004
  7.7500000000e+010  -4.2057139734e-004  -6.2964922306e-004   8.0767473343e-001  -4.0566629375e-001   7.6702411205e-001  -4.9346966180e-001  -9.6465935725e-004   5.4581932966e-004
  7.7525000000e+010  -4.2026868941e-004  -6.2747753373e-004   8.0763818735e-001  -4.0562710732e-001   7.6699766560e-001  -4.9342045751e-001  -9.6175846528e-004   5.4420539061e-004
  7.7550000000e+010  -4.1996226572e-004  -6.2528747701e-004   8.0760128435e-001  -4.0558754374e-001   7.6697096203e-001  -4.9337077033e-001  -9.5883513199e-004   5.4257844365e-004
  7.7575000000e+010  -4.1965210689e-004  -6.2307914333e-004   8.0756402457e-001  -4.0554760334e-001   7.6694400147e-001  -4.9332060039e-001  -9.5588953273e-004   5.4093857198e-004
  7.7600000000e+010  -4.1933819341e-004  -6.2085262390e-004   8.0752640816e-001  -4.0550728644e-001   7.6691678407e-001  -4.9326994783e-001  -9.5292184410e-004   5.3928585939e-004
  7.7625000000e+010  -4.1902050570e-004  -6.1860801070e-004   8.0748843527e-001  -4.0546659335e-001   7.6688930996e-001  -4.9321881277e-001  -9.4993224390e-004   5.3762039026e-004
  7.7650000000e+010  -4.1869902406e-004  -6.1634539649e-004   8.0745010605e-001  -4.0542552441e-001   7.6686157928e-001  -4.9316719536e-001  -9.4692091113e-004   5.3594224955e-004
  7.7675000000e+010  -4.1837372871e-004  -6.1406487480e-004   8.0741142065e-001  -4.0538407994e-001   7.6683359219e-001  -4.9311509571e-001  -9.4388802597e-004   5.3425152280e-004
  7.7700000000e+010  -4.1804459978e-004  -6.1176653991e-004   8.0737237921e-001  -4.0534226027e-001   7.6680534882e-001  -4.9306251397e-001  -9.4083376980e-004   5.3254829612e-004
