# Hz S RI R 50.000000
! Metas.Vna.Tools, 2.4.7724.19584
! Metas.Vna.Data, 2.4.7724.19560
! Created: UTC 2021.04.29 12:40:11
! FREQ                re:S1,1             im:S1,1             re:S2,1             im:S2,1             re:S1,2             im:S1,2             re:S2,2             im:S2,2          
  7.5000000000e+010  -4.6871894424e-004  -6.9850821924e-004   9.3262657259e-001  -2.7166966858e-001   9.0632178257e-001  -3.8312153366e-001  -8.6555404708e-004   5.6952268688e-004
  7.5025000000e+010  -4.6871554143e-004  -6.9848617019e-004   9.3262628029e-001  -2.7166943540e-001   9.0632160352e-001  -3.8312114677e-001  -8.6552764003e-004   5.6950567516e-004
  7.5050000000e+010  -4.6870873558e-004  -6.9844207301e-004   9.3262569569e-001  -2.7166896903e-001   9.0632124542e-001  -3.8312037299e-001  -8.6547482768e-004   5.6947165265e-004
  7.5075000000e+010  -4.6869852623e-004  -6.9837592950e-004   9.3262481879e-001  -2.7166826949e-001   9.0632070827e-001  -3.8311921231e-001  -8.6539561352e-004   5.6942062125e-004
  7.5100000000e+010  -4.6868491267e-004  -6.9828774237e-004   9.3262364959e-001  -2.7166733679e-001   9.0631999208e-001  -3.8311766474e-001  -8.6529000282e-004   5.6935258375e-004
  7.5125000000e+010  -4.6866789400e-004  -6.9817751524e-004   9.3262218811e-001  -2.7166617093e-001   9.0631909686e-001  -3.8311573027e-001  -8.6515800257e-004   5.6926754394e-004
  7.5150000000e+010  -4.6864746904e-004  -6.9804525262e-004   9.3262043434e-001  -2.7166477195e-001   9.0631802259e-001  -3.8311340890e-001  -8.6499962153e-004   5.6916550650e-004
  7.5175000000e+010  -4.6862363640e-004  -6.9789095995e-004   9.3261838829e-001  -2.7166313984e-001   9.0631676931e-001  -3.8311070063e-001  -8.6481487018e-004   5.6904647707e-004
  7.5200000000e+010  -4.6859639448e-004  -6.9771464354e-004   9.3261604998e-001  -2.7166127465e-001   9.0631533700e-001  -3.8310760545e-001  -8.6460376079e-004   5.6891046222e-004
  7.5225000000e+010  -4.6856574142e-004  -6.9751631062e-004   9.3261341940e-001  -2.7165917639e-001   9.0631372568e-001  -3.8310412335e-001  -8.6436630733e-004   5.6875746948e-004
  7.5250000000e+010  -4.6853167514e-004  -6.9729596934e-004   9.3261049657e-001  -2.7165684509e-001   9.0631193536e-001  -3.8310025434e-001  -8.6410252556e-004   5.6858750729e-004
  7.5275000000e+010  -4.6849419333e-004  -6.9705362871e-004   9.3260728151e-001  -2.7165428079e-001   9.0630996605e-001  -3.8309599841e-001  -8.6381243295e-004   5.6840058504e-004
  7.5300000000e+010  -4.6845329345e-004  -6.9678929869e-004   9.3260377422e-001  -2.7165148353e-001   9.0630781777e-001  -3.8309135555e-001  -8.6349604873e-004   5.6819671306e-004
  7.5325000000e+010  -4.6840897272e-004  -6.9650299011e-004   9.3259997473e-001  -2.7164845334e-001   9.0630549052e-001  -3.8308632576e-001  -8.6315339387e-004   5.6797590260e-004
  7.5350000000e+010  -4.6836122815e-004  -6.9619471471e-004   9.3259588303e-001  -2.7164519027e-001   9.0630298432e-001  -3.8308090902e-001  -8.6278449107e-004   5.6773816585e-004
  7.5375000000e+010  -4.6831005651e-004  -6.9586448513e-004   9.3259149916e-001  -2.7164169436e-001   9.0630029919e-001  -3.8307510534e-001  -8.6238936478e-004   5.6748351595e-004
  7.5400000000e+010  -4.6825545435e-004  -6.9551231492e-004   9.3258682312e-001  -2.7163796567e-001   9.0629743513e-001  -3.8306891469e-001  -8.6196804117e-004   5.6721196696e-004
  7.5425000000e+010  -4.6819741798e-004  -6.9513821851e-004   9.3258185494e-001  -2.7163400424e-001   9.0629439218e-001  -3.8306233708e-001  -8.6152054817e-004   5.6692353386e-004
  7.5450000000e+010  -4.6813594348e-004  -6.9474221127e-004   9.3257659463e-001  -2.7162981013e-001   9.0629117035e-001  -3.8305537249e-001  -8.6104691541e-004   5.6661823258e-004
  7.5475000000e+010  -4.6807102672e-004  -6.9432430941e-004   9.3257104222e-001  -2.7162538341e-001   9.0628776965e-001  -3.8304802091e-001  -8.6054717427e-004   5.6629607997e-004
  7.5500000000e+010  -4.6800266333e-004  -6.9388453010e-004   9.3256519773e-001  -2.7162072413e-001   9.0628419011e-001  -3.8304028234e-001  -8.6002135785e-004   5.6595709380e-004
  7.5525000000e+010  -4.6793084873e-004  -6.9342289136e-004   9.3255906118e-001  -2.7161583236e-001   9.0628043176e-001  -3.8303215676e-001  -8.5946950097e-004   5.6560129279e-004
  7.5550000000e+010  -4.6785557809e-004  -6.9293941215e-004   9.3255263260e-001  -2.7161070817e-001   9.0627649460e-001  -3.8302364415e-001  -8.5889164019e-004   5.6522869655e-004
  7.5575000000e+010  -4.6777684637e-004  -6.9243411228e-004   9.3254591201e-001  -2.7160535164e-001   9.0627237868e-001  -3.8301474452e-001  -8.5828781375e-004   5.6483932566e-004
  7.5600000000e+010  -4.6769464832e-004  -6.9190701249e-004   9.3253889944e-001  -2.7159976283e-001   9.0626808401e-001  -3.8300545784e-001  -8.5765806164e-004   5.6443320158e-004
  7.5625000000e+010  -4.6760897844e-004  -6.9135813441e-004   9.3253159491e-001  -2.7159394184e-001   9.0626361062e-001  -3.8299578410e-001  -8.5700242555e-004   5.6401034671e-004
  7.5650000000e+010  -4.6751983102e-004  -6.9078750056e-004   9.3252399846e-001  -2.7158788873e-001   9.0625895853e-001  -3.8298572329e-001  -8.5632094887e-004   5.6357078436e-004
  7.5675000000e+010  -4.6742720013e-004  -6.9019513436e-004   9.3251611012e-001  -2.7158160361e-001   9.0625412778e-001  -3.8297527540e-001  -8.5561367671e-004   5.6311453877e-004
  7.5700000000e+010  -4.6733107962e-004  -6.8958106011e-004   9.3250792991e-001  -2.7157508654e-001   9.0624911840e-001  -3.8296444040e-001  -8.5488065586e-004   5.6264163509e-004
  7.5725000000e+010  -4.6723146311e-004  -6.8894530302e-004   9.3249945787e-001  -2.7156833764e-001   9.0624393041e-001  -3.8295321829e-001  -8.5412193482e-004   5.6215209937e-004
  7.5750000000e+010  -4.6712834401e-004  -6.8828788918e-004   9.3249069404e-001  -2.7156135700e-001   9.0623856386e-001  -3.8294160904e-001  -8.5333756380e-004   5.6164595860e-004
  7.5775000000e+010  -4.6702171551e-004  -6.8760884557e-004   9.3248163844e-001  -2.7155414470e-001   9.0623301876e-001  -3.8292961265e-001  -8.5252759466e-004   5.6112324064e-004
  7.5800000000e+010  -4.6691157059e-004  -6.8690820008e-004   9.3247229111e-001  -2.7154670087e-001   9.0622729516e-001  -3.8291722909e-001  -8.5169208098e-004   5.6058397430e-004
  7.5825000000e+010  -4.6679790200e-004  -6.8618598146e-004   9.3246265210e-001  -2.7153902560e-001   9.0622139308e-001  -3.8290445834e-001  -8.5083107799e-004   5.6002818925e-004
  7.5850000000e+010  -4.6668070227e-004  -6.8544221936e-004   9.3245272143e-001  -2.7153111899e-001   9.0621531258e-001  -3.8289130040e-001  -8.4994464263e-004   5.5945591611e-004
  7.5875000000e+010  -4.6655996373e-004  -6.8467694433e-004   9.3244249916e-001  -2.7152298118e-001   9.0620905368e-001  -3.8287775523e-001  -8.4903283349e-004   5.5886718637e-004
  7.5900000000e+010  -4.6643567850e-004  -6.8389018778e-004   9.3243198531e-001  -2.7151461226e-001   9.0620261642e-001  -3.8286382282e-001  -8.4809571082e-004   5.5826203243e-004
  7.5925000000e+010  -4.6630783847e-004  -6.8308198204e-004   9.3242117993e-001  -2.7150601235e-001   9.0619600084e-001  -3.8284950316e-001  -8.4713333655e-004   5.5764048757e-004
  7.5950000000e+010  -4.6617643534e-004  -6.8225236028e-004   9.3241008307e-001  -2.7149718159e-001   9.0618920698e-001  -3.8283479621e-001  -8.4614577426e-004   5.5700258598e-004
  7.5975000000e+010  -4.6604146057e-004  -6.8140135660e-004   9.3239869476e-001  -2.7148812010e-001   9.0618223489e-001  -3.8281970197e-001  -8.4513308918e-004   5.5634836273e-004
  7.6000000000e+010  -4.6590290543e-004  -6.8052900594e-004   9.3238701506e-001  -2.7147882799e-001   9.0617508460e-001  -3.8280422040e-001  -8.4409534818e-004   5.5567785380e-004
  7.6025000000e+010  -4.6576076100e-004  -6.7963534414e-004   9.3237504401e-001  -2.7146930542e-001   9.0616775617e-001  -3.8278835149e-001  -8.4303261977e-004   5.5499109603e-004
  7.6050000000e+010  -4.6561501811e-004  -6.7872040793e-004   9.3236278165e-001  -2.7145955250e-001   9.0616024963e-001  -3.8277209521e-001  -8.4194497412e-004   5.5428812714e-004
  7.6075000000e+010  -4.6546566741e-004  -6.7778423490e-004   9.3235022804e-001  -2.7144956938e-001   9.0615256503e-001  -3.8275545155e-001  -8.4083248300e-004   5.5356898576e-004
  7.6100000000e+010  -4.6531269936e-004  -6.7682686352e-004   9.3233738322e-001  -2.7143935621e-001   9.0614470242e-001  -3.8273842048e-001  -8.3969521982e-004   5.5283371137e-004
  7.6125000000e+010  -4.6515610419e-004  -6.7584833315e-004   9.3232424725e-001  -2.7142891312e-001   9.0613666185e-001  -3.8272100197e-001  -8.3853325959e-004   5.5208234433e-004
  7.6150000000e+010  -4.6499587193e-004  -6.7484868399e-004   9.3231082018e-001  -2.7141824026e-001   9.0612844337e-001  -3.8270319600e-001  -8.3734667896e-004   5.5131492587e-004
  7.6175000000e+010  -4.6483199243e-004  -6.7382795716e-004   9.3229710206e-001  -2.7140733779e-001   9.0612004702e-001  -3.8268500255e-001  -8.3613555615e-004   5.5053149809e-004
  7.6200000000e+010  -4.6466445533e-004  -6.7278619461e-004   9.3228309295e-001  -2.7139620586e-001   9.0611147286e-001  -3.8266642158e-001  -8.3489997102e-004   5.4973210397e-004
  7.6225000000e+010  -4.6449325005e-004  -6.7172343918e-004   9.3226879290e-001  -2.7138484463e-001   9.0610272094e-001  -3.8264745309e-001  -8.3364000498e-004   5.4891678732e-004
  7.6250000000e+010  -4.6431836586e-004  -6.7063973458e-004   9.3225420197e-001  -2.7137325425e-001   9.0609379132e-001  -3.8262809703e-001  -8.3235574105e-004   5.4808559283e-004
  7.6275000000e+010  -4.6413979180e-004  -6.6953512538e-004   9.3223932022e-001  -2.7136143490e-001   9.0608468404e-001  -3.8260835338e-001  -8.3104726384e-004   5.4723856603e-004
  7.6300000000e+010  -4.6395751672e-004  -6.6840965702e-004   9.3222414770e-001  -2.7134938675e-001   9.0607539917e-001  -3.8258822212e-001  -8.2971465949e-004   5.4637575333e-004
  7.6325000000e+010  -4.6377152930e-004  -6.6726337580e-004   9.3220868448e-001  -2.7133710995e-001   9.0606593677e-001  -3.8256770321e-001  -8.2835801576e-004   5.4549720195e-004
  7.6350000000e+010  -4.6358181799e-004  -6.6609632888e-004   9.3219293062e-001  -2.7132460469e-001   9.0605629688e-001  -3.8254679663e-001  -8.2697742192e-004   5.4460295998e-004
  7.6375000000e+010  -4.6338837110e-004  -6.6490856430e-004   9.3217688618e-001  -2.7131187114e-001   9.0604647957e-001  -3.8252550235e-001  -8.2557296882e-004   5.4369307634e-004
  7.6400000000e+010  -4.6319117671e-004  -6.6370013093e-004   9.3216055122e-001  -2.7129890949e-001   9.0603648491e-001  -3.8250382034e-001  -8.2414474884e-004   5.4276760079e-004
  7.6425000000e+010  -4.6299022275e-004  -6.6247107852e-004   9.3214392581e-001  -2.7128571992e-001   9.0602631294e-001  -3.8248175058e-001  -8.2269285590e-004   5.4182658392e-004
  7.6450000000e+010  -4.6278549693e-004  -6.6122145767e-004   9.3212701002e-001  -2.7127230261e-001   9.0601596374e-001  -3.8245929302e-001  -8.2121738545e-004   5.4087007716e-004
  7.6475000000e+010  -4.6257698681e-004  -6.5995131983e-004   9.3210980391e-001  -2.7125865775e-001   9.0600543736e-001  -3.8243644764e-001  -8.1971843445e-004   5.3989813276e-004
  7.6500000000e+010  -4.6236467974e-004  -6.5866071730e-004   9.3209230755e-001  -2.7124478555e-001   9.0599473388e-001  -3.8241321441e-001  -8.1819610139e-004   5.3891080378e-004
  7.6525000000e+010  -4.6214856293e-004  -6.5734970325e-004   9.3207452101e-001  -2.7123068619e-001   9.0598385335e-001  -3.8238959330e-001  -8.1665048625e-004   5.3790814411e-004
  7.6550000000e+010  -4.6192862337e-004  -6.5601833168e-004   9.3205644436e-001  -2.7121635987e-001   9.0597279585e-001  -3.8236558428e-001  -8.1508169052e-004   5.3689020845e-004
  7.6575000000e+010  -4.6170484789e-004  -6.5466665744e-004   9.3203807768e-001  -2.7120180681e-001   9.0596156143e-001  -3.8234118730e-001  -8.1348981715e-004   5.3585705231e-004
  7.6600000000e+010  -4.6147722317e-004  -6.5329473622e-004   9.3201942103e-001  -2.7118702719e-001   9.0595015018e-001  -3.8231640235e-001  -8.1187497061e-004   5.3480873201e-004
  7.6625000000e+010  -4.6124573569e-004  -6.5190262458e-004   9.3200047449e-001  -2.7117202125e-001   9.0593856216e-001  -3.8229122938e-001  -8.1023725681e-004   5.3374530467e-004
  7.6650000000e+010  -4.6101037176e-004  -6.5049037989e-004   9.3198123814e-001  -2.7115678917e-001   9.0592679744e-001  -3.8226566837e-001  -8.0857678314e-004   5.3266682819e-004
  7.6675000000e+010  -4.6077111754e-004  -6.4905806037e-004   9.3196171206e-001  -2.7114133119e-001   9.0591485609e-001  -3.8223971927e-001  -8.0689365842e-004   5.3157336129e-004
  7.6700000000e+010  -4.6052795901e-004  -6.4760572509e-004   9.3194189631e-001  -2.7112564752e-001   9.0590273820e-001  -3.8221338206e-001  -8.0518799295e-004   5.3046496346e-004
  7.6725000000e+010  -4.6028088199e-004  -6.4613343394e-004   9.3192179098e-001  -2.7110973839e-001   9.0589044382e-001  -3.8218665670e-001  -8.0345989845e-004   5.2934169497e-004
  7.6750000000e+010  -4.6002987213e-004  -6.4464124765e-004   9.3190139615e-001  -2.7109360401e-001   9.0587797303e-001  -3.8215954315e-001  -8.0170948805e-004   5.2820361689e-004
  7.6775000000e+010  -4.5977491494e-004  -6.4312922778e-004   9.3188071190e-001  -2.7107724462e-001   9.0586532593e-001  -3.8213204137e-001  -7.9993687632e-004   5.2705079104e-004
  7.6800000000e+010  -4.5951599575e-004  -6.4159743672e-004   9.3185973832e-001  -2.7106066045e-001   9.0585250257e-001  -3.8210415134e-001  -7.9814217923e-004   5.2588328002e-004
  7.6825000000e+010  -4.5925309975e-004  -6.4004593768e-004   9.3183847548e-001  -2.7104385173e-001   9.0583950304e-001  -3.8207587301e-001  -7.9632551415e-004   5.2470114721e-004
  7.6850000000e+010  -4.5898621195e-004  -6.3847479472e-004   9.3181692347e-001  -2.7102681871e-001   9.0582632742e-001  -3.8204720635e-001  -7.9448699985e-004   5.2350445673e-004
  7.6875000000e+010  -4.5871531724e-004  -6.3688407269e-004   9.3179508238e-001  -2.7100956161e-001   9.0581297578e-001  -3.8201815131e-001  -7.9262675645e-004   5.2229327347e-004
  7.6900000000e+010  -4.5844040035e-004  -6.3527383729e-004   9.3177295229e-001  -2.7099208070e-001   9.0579944822e-001  -3.8198870787e-001  -7.9074490548e-004   5.2106766305e-004
  7.6925000000e+010  -4.5816144583e-004  -6.3364415501e-004   9.3175053330e-001  -2.7097437621e-001   9.0578574482e-001  -3.8195887598e-001  -7.8884156980e-004   5.1982769185e-004
  7.6950000000e+010  -4.5787843814e-004  -6.3199509319e-004   9.3172782549e-001  -2.7095644839e-001   9.0577186565e-001  -3.8192865560e-001  -7.8691687363e-004   5.1857342701e-004
  7.6975000000e+010  -4.5759136155e-004  -6.3032671994e-004   9.3170482894e-001  -2.7093829750e-001   9.0575781080e-001  -3.8189804669e-001  -7.8497094254e-004   5.1730493636e-004
  7.7000000000e+010  -4.5730020020e-004  -6.2863910423e-004   9.3168154377e-001  -2.7091992380e-001   9.0574358037e-001  -3.8186704922e-001  -7.8300390341e-004   5.1602228851e-004
  7.7025000000e+010  -4.5700493811e-004  -6.2693231580e-004   9.3165797004e-001  -2.7090132755e-001   9.0572917443e-001  -3.8183566314e-001  -7.8101588445e-004   5.1472555276e-004
  7.7050000000e+010  -4.5670555915e-004  -6.2520642523e-004   9.3163410787e-001  -2.7088250900e-001   9.0571459307e-001  -3.8180388842e-001  -7.7900701518e-004   5.1341479915e-004
  7.7075000000e+010  -4.5640204703e-004  -6.2346150387e-004   9.3160995735e-001  -2.7086346843e-001   9.0569983639e-001  -3.8177172501e-001  -7.7697742643e-004   5.1209009843e-004
  7.7100000000e+010  -4.5609438537e-004  -6.2169762390e-004   9.3158551856e-001  -2.7084420610e-001   9.0568490447e-001  -3.8173917287e-001  -7.7492725030e-004   5.1075152205e-004
  7.7125000000e+010  -4.5578255764e-004  -6.1991485828e-004   9.3156079161e-001  -2.7082472229e-001   9.0566979741e-001  -3.8170623195e-001  -7.7285662016e-004   5.0939914218e-004
  7.7150000000e+010  -4.5546654716e-004  -6.1811328079e-004   9.3153577661e-001  -2.7080501727e-001   9.0565451529e-001  -3.8167290223e-001  -7.7076567068e-004   5.0803303168e-004
  7.7175000000e+010  -4.5514633717e-004  -6.1629296599e-004   9.3151047364e-001  -2.7078509132e-001   9.0563905822e-001  -3.8163918365e-001  -7.6865453776e-004   5.0665326411e-004
  7.7200000000e+010  -4.5482191075e-004  -6.1445398922e-004   9.3148488280e-001  -2.7076494473e-001   9.0562342628e-001  -3.8160507618e-001  -7.6652335855e-004   5.0525991371e-004
  7.7225000000e+010  -4.5449325087e-004  -6.1259642664e-004   9.3145900421e-001  -2.7074457777e-001   9.0560761958e-001  -3.8157057976e-001  -7.6437227142e-004   5.0385305542e-004
  7.7250000000e+010  -4.5416034039e-004  -6.1072035516e-004   9.3143283797e-001  -2.7072399074e-001   9.0559163820e-001  -3.8153569436e-001  -7.6220141600e-004   5.0243276483e-004
  7.7275000000e+010  -4.5382316203e-004  -6.0882585252e-004   9.3140638417e-001  -2.7070318392e-001   9.0557548225e-001  -3.8150041993e-001  -7.6001093309e-004   5.0099911823e-004
  7.7300000000e+010  -4.5348169842e-004  -6.0691299719e-004   9.3137964292e-001  -2.7068215762e-001   9.0555915183e-001  -3.8146475643e-001  -7.5780096472e-004   4.9955219255e-004
  7.7325000000e+010  -4.5313593208e-004  -6.0498186847e-004   9.3135261434e-001  -2.7066091212e-001   9.0554264703e-001  -3.8142870381e-001  -7.5557165408e-004   4.9809206540e-004
  7.7350000000e+010  -4.5278584539e-004  -6.0303254639e-004   9.3132529852e-001  -2.7063944773e-001   9.0552596796e-001  -3.8139226203e-001  -7.5332314556e-004   4.9661881503e-004
  7.7375000000e+010  -4.5243142066e-004  -6.0106511178e-004   9.3129769558e-001  -2.7061776475e-001   9.0550911471e-001  -3.8135543105e-001  -7.5105558470e-004   4.9513252036e-004
  7.7400000000e+010  -4.5207264007e-004  -5.9907964624e-004   9.3126980563e-001  -2.7059586349e-001   9.0549208740e-001  -3.8131821081e-001  -7.4876911820e-004   4.9363326092e-004
  7.7425000000e+010  -4.5170948572e-004  -5.9707623213e-004   9.3124162877e-001  -2.7057374425e-001   9.0547488613e-001  -3.8128060127e-001  -7.4646389390e-004   4.9212111691e-004
  7.7450000000e+010  -4.5134193959e-004  -5.9505495258e-004   9.3121316513e-001  -2.7055140735e-001   9.0545751099e-001  -3.8124260239e-001  -7.4414006077e-004   4.9059616915e-004
  7.7475000000e+010  -4.5096998357e-004  -5.9301589147e-004   9.3118441482e-001  -2.7052885311e-001   9.0543996210e-001  -3.8120421413e-001  -7.4179776889e-004   4.8905849906e-004
  7.7500000000e+010  -4.5059359947e-004  -5.9095913347e-004   9.3115537794e-001  -2.7050608184e-001   9.0542223957e-001  -3.8116543642e-001  -7.3943716945e-004   4.8750818871e-004
  7.7525000000e+010  -4.5021276899e-004  -5.8888476397e-004   9.3112605462e-001  -2.7048309386e-001   9.0540434350e-001  -3.8112626923e-001  -7.3705841474e-004   4.8594532077e-004
  7.7550000000e+010  -4.4982747376e-004  -5.8679286914e-004   9.3109644498e-001  -2.7045988950e-001   9.0538627400e-001  -3.8108671251e-001  -7.3466165811e-004   4.8436997852e-004
  7.7575000000e+010  -4.4943769530e-004  -5.8468353588e-004   9.3106654912e-001  -2.7043646909e-001   9.0536803118e-001  -3.8104676621e-001  -7.3224705399e-004   4.8278224584e-004
  7.7600000000e+010  -4.4904341507e-004  -5.8255685186e-004   9.3103636718e-001  -2.7041283295e-001   9.0534961516e-001  -3.8100643028e-001  -7.2981475788e-004   4.8118220719e-004
  7.7625000000e+010  -4.4864461443e-004  -5.8041290547e-004   9.3100589927e-001  -2.7038898143e-001   9.0533102604e-001  -3.8096570468e-001  -7.2736492628e-004   4.7956994765e-004
  7.7650000000e+010  -4.4824127468e-004  -5.7825178585e-004   9.3097514551e-001  -2.7036491485e-001   9.0531226395e-001  -3.8092458935e-001  -7.2489771677e-004   4.7794555285e-004
  7.7675000000e+010  -4.4783337703e-004  -5.7607358290e-004   9.3094410603e-001  -2.7034063355e-001   9.0529332899e-001  -3.8088308425e-001  -7.2241328792e-004   4.7630910900e-004
  7.7700000000e+010  -4.4742090263e-004  -5.7387838723e-004   9.3091278095e-001  -2.7031613789e-001   9.0527422128e-001  -3.8084118933e-001  -7.1991179930e-004   4.7466070289e-004
