# Hz S RI R 50.000000
! Metas.Vna.Tools, 2.4.7724.19584
! Metas.Vna.Data, 2.4.7724.19560
! Created: UTC 2021.04.29 12:40:11
! FREQ                re:S1,1             im:S1,1             re:S2,1             im:S2,1             re:S1,2             im:S1,2             re:S2,2             im:S2,2          
  7.5000000000e+010  -4.5104692682e-004  -6.2221548482e-004   9.9590576751e-001  -9.6021627519e-002   9.8021269970e-001  -2.5076686283e-001  -4.2836109963e-004   4.5075259095e-004
  7.5025000000e+010  -4.5104397512e-004  -6.2219511182e-004   9.9590559499e-001  -9.6021617104e-002   9.8021263607e-001  -2.5076658015e-001  -4.2834465169e-004   4.5073767872e-004
  7.5050000000e+010  -4.5103807147e-004  -6.2215436667e-004   9.9590524996e-001  -9.6021596276e-002   9.8021250882e-001  -2.5076601478e-001  -4.2831175715e-004   4.5070785512e-004
  7.5075000000e+010  -4.5102921533e-004  -6.2209325101e-004   9.9590473241e-001  -9.6021565042e-002   9.8021231793e-001  -2.5076516673e-001  -4.2826241870e-004   4.5066312186e-004
  7.5100000000e+010  -4.5101740589e-004  -6.2201176736e-004   9.9590404235e-001  -9.6021523409e-002   9.8021206342e-001  -2.5076403599e-001  -4.2819664038e-004   4.5060348151e-004
  7.5125000000e+010  -4.5100264210e-004  -6.2190991904e-004   9.9590317979e-001  -9.6021471388e-002   9.8021174528e-001  -2.5076262254e-001  -4.2811442755e-004   4.5052893748e-004
  7.5150000000e+010  -4.5098492261e-004  -6.2178771021e-004   9.9590214472e-001  -9.6021408992e-002   9.8021136352e-001  -2.5076092638e-001  -4.2801578693e-004   4.5043949405e-004
  7.5175000000e+010  -4.5096424584e-004  -6.2164514587e-004   9.9590093715e-001  -9.6021336238e-002   9.8021091814e-001  -2.5075894748e-001  -4.2790072659e-004   4.5033515636e-004
  7.5200000000e+010  -4.5094060990e-004  -6.2148223184e-004   9.9589955708e-001  -9.6021253144e-002   9.8021040914e-001  -2.5075668585e-001  -4.2776925594e-004   4.5021593037e-004
  7.5225000000e+010  -4.5091401268e-004  -6.2129897478e-004   9.9589800453e-001  -9.6021159732e-002   9.8020983652e-001  -2.5075414145e-001  -4.2762138570e-004   4.5008182293e-004
  7.5250000000e+010  -4.5088445178e-004  -6.2109538219e-004   9.9589627950e-001  -9.6021056027e-002   9.8020920030e-001  -2.5075131426e-001  -4.2745712796e-004   4.4993284174e-004
  7.5275000000e+010  -4.5085192454e-004  -6.2087146237e-004   9.9589438199e-001  -9.6020942054e-002   9.8020850047e-001  -2.5074820427e-001  -4.2727649615e-004   4.4976899532e-004
  7.5300000000e+010  -4.5081642802e-004  -6.2062722450e-004   9.9589231203e-001  -9.6020817845e-002   9.8020773704e-001  -2.5074481145e-001  -4.2707950502e-004   4.4959029309e-004
  7.5325000000e+010  -4.5077795905e-004  -6.2036267854e-004   9.9589006961e-001  -9.6020683430e-002   9.8020691001e-001  -2.5074113577e-001  -4.2686617066e-004   4.4939674527e-004
  7.5350000000e+010  -4.5073651415e-004  -6.2007783531e-004   9.9588765474e-001  -9.6020538845e-002   9.8020601939e-001  -2.5073717719e-001  -4.2663651051e-004   4.4918836296e-004
  7.5375000000e+010  -4.5069208963e-004  -6.1977270645e-004   9.9588506745e-001  -9.6020384129e-002   9.8020506518e-001  -2.5073293570e-001  -4.2639054333e-004   4.4896515812e-004
  7.5400000000e+010  -4.5064468149e-004  -6.1944730445e-004   9.9588230774e-001  -9.6020219320e-002   9.8020404739e-001  -2.5072841125e-001  -4.2612828921e-004   4.4872714353e-004
  7.5425000000e+010  -4.5059428549e-004  -6.1910164260e-004   9.9587937562e-001  -9.6020044463e-002   9.8020296603e-001  -2.5072360381e-001  -4.2584976956e-004   4.4847433284e-004
  7.5450000000e+010  -4.5054089712e-004  -6.1873573503e-004   9.9587627111e-001  -9.6019859603e-002   9.8020182110e-001  -2.5071851333e-001  -4.2555500714e-004   4.4820674052e-004
  7.5475000000e+010  -4.5048451162e-004  -6.1834959670e-004   9.9587299422e-001  -9.6019664788e-002   9.8020061261e-001  -2.5071313978e-001  -4.2524402603e-004   4.4792438192e-004
  7.5500000000e+010  -4.5042512396e-004  -6.1794324340e-004   9.9586954498e-001  -9.6019460069e-002   9.8019934058e-001  -2.5070748312e-001  -4.2491685162e-004   4.4762727321e-004
  7.5525000000e+010  -4.5036272885e-004  -6.1751669175e-004   9.9586592338e-001  -9.6019245501e-002   9.8019800500e-001  -2.5070154329e-001  -4.2457351062e-004   4.4731543141e-004
  7.5550000000e+010  -4.5029732074e-004  -6.1706995919e-004   9.9586212946e-001  -9.6019021140e-002   9.8019660588e-001  -2.5069532025e-001  -4.2421403108e-004   4.4698887438e-004
  7.5575000000e+010  -4.5022889382e-004  -6.1660306400e-004   9.9585816322e-001  -9.6018787045e-002   9.8019514324e-001  -2.5068881395e-001  -4.2383844234e-004   4.4664762082e-004
  7.5600000000e+010  -4.5015744203e-004  -6.1611602525e-004   9.9585402470e-001  -9.6018543277e-002   9.8019361708e-001  -2.5068202434e-001  -4.2344677508e-004   4.4629169028e-004
  7.5625000000e+010  -4.5008295905e-004  -6.1560886288e-004   9.9584971390e-001  -9.6018289902e-002   9.8019202742e-001  -2.5067495136e-001  -4.2303906125e-004   4.4592110313e-004
  7.5650000000e+010  -4.5000543829e-004  -6.1508159763e-004   9.9584523085e-001  -9.6018026986e-002   9.8019037426e-001  -2.5066759495e-001  -4.2261533415e-004   4.4553588059e-004
  7.5675000000e+010  -4.4992487292e-004  -6.1453425107e-004   9.9584057557e-001  -9.6017754600e-002   9.8018865762e-001  -2.5065995506e-001  -4.2217562836e-004   4.4513604470e-004
  7.5700000000e+010  -4.4984125586e-004  -6.1396684559e-004   9.9583574808e-001  -9.6017472816e-002   9.8018687750e-001  -2.5065203162e-001  -4.2171997977e-004   4.4472161835e-004
  7.5725000000e+010  -4.4975457975e-004  -6.1337940440e-004   9.9583074841e-001  -9.6017181709e-002   9.8018503392e-001  -2.5064382456e-001  -4.2124842555e-004   4.4429262525e-004
  7.5750000000e+010  -4.4966483701e-004  -6.1277195154e-004   9.9582557657e-001  -9.6016881356e-002   9.8018312689e-001  -2.5063533383e-001  -4.2076100420e-004   4.4384908995e-004
  7.5775000000e+010  -4.4957201977e-004  -6.1214451188e-004   9.9582023260e-001  -9.6016571840e-002   9.8018115642e-001  -2.5062655936e-001  -4.2025775546e-004   4.4339103780e-004
  7.5800000000e+010  -4.4947611995e-004  -6.1149711108e-004   9.9581471651e-001  -9.6016253242e-002   9.8017912253e-001  -2.5061750106e-001  -4.1973872041e-004   4.4291849501e-004
  7.5825000000e+010  -4.4937712919e-004  -6.1082977565e-004   9.9580902834e-001  -9.6015925648e-002   9.8017702522e-001  -2.5060815888e-001  -4.1920394137e-004   4.4243148859e-004
  7.5850000000e+010  -4.4927503890e-004  -6.1014253289e-004   9.9580316810e-001  -9.6015589148e-002   9.8017486452e-001  -2.5059853273e-001  -4.1865346196e-004   4.4193004638e-004
  7.5875000000e+010  -4.4916984022e-004  -6.0943541095e-004   9.9579713584e-001  -9.6015243832e-002   9.8017264043e-001  -2.5058862254e-001  -4.1808732708e-004   4.4141419705e-004
  7.5900000000e+010  -4.4906152407e-004  -6.0870843878e-004   9.9579093157e-001  -9.6014889794e-002   9.8017035296e-001  -2.5057842822e-001  -4.1750558288e-004   4.4088397006e-004
  7.5925000000e+010  -4.4895008111e-004  -6.0796164613e-004   9.9578455533e-001  -9.6014527130e-002   9.8016800215e-001  -2.5056794970e-001  -4.1690827680e-004   4.4033939571e-004
  7.5950000000e+010  -4.4883550175e-004  -6.0719506360e-004   9.9577800714e-001  -9.6014155941e-002   9.8016558799e-001  -2.5055718689e-001  -4.1629545753e-004   4.3978050510e-004
  7.5975000000e+010  -4.4871777617e-004  -6.0640872257e-004   9.9577128704e-001  -9.6013776327e-002   9.8016311050e-001  -2.5054613971e-001  -4.1566717502e-004   4.3920733015e-004
  7.6000000000e+010  -4.4859689430e-004  -6.0560265526e-004   9.9576439506e-001  -9.6013388392e-002   9.8016056971e-001  -2.5053480806e-001  -4.1502348046e-004   4.3861990357e-004
  7.6025000000e+010  -4.4847284583e-004  -6.0477689468e-004   9.9575733123e-001  -9.6012992245e-002   9.8015796562e-001  -2.5052319185e-001  -4.1436442632e-004   4.3801825889e-004
  7.6050000000e+010  -4.4834562022e-004  -6.0393147467e-004   9.9575009558e-001  -9.6012587994e-002   9.8015529826e-001  -2.5051129100e-001  -4.1369006627e-004   4.3740243045e-004
  7.6075000000e+010  -4.4821520668e-004  -6.0306642986e-004   9.9574268816e-001  -9.6012175753e-002   9.8015256764e-001  -2.5049910540e-001  -4.1300045526e-004   4.3677245337e-004
  7.6100000000e+010  -4.4808159419e-004  -6.0218179571e-004   9.9573510898e-001  -9.6011755635e-002   9.8014977378e-001  -2.5048663495e-001  -4.1229564946e-004   4.3612836358e-004
  7.6125000000e+010  -4.4794477150e-004  -6.0127760847e-004   9.9572735810e-001  -9.6011327759e-002   9.8014691669e-001  -2.5047387957e-001  -4.1157570625e-004   4.3547019781e-004
  7.6150000000e+010  -4.4780472710e-004  -6.0035390520e-004   9.9571943554e-001  -9.6010892245e-002   9.8014399640e-001  -2.5046083914e-001  -4.1084068425e-004   4.3479799357e-004
  7.6175000000e+010  -4.4766144929e-004  -5.9941072378e-004   9.9571134135e-001  -9.6010449216e-002   9.8014101292e-001  -2.5044751356e-001  -4.1009064330e-004   4.3411178916e-004
  7.6200000000e+010  -4.4751492611e-004  -5.9844810288e-004   9.9570307556e-001  -9.6009998797e-002   9.8013796628e-001  -2.5043390273e-001  -4.0932564445e-004   4.3341162367e-004
  7.6225000000e+010  -4.4736514538e-004  -5.9746608197e-004   9.9569463821e-001  -9.6009541116e-002   9.8013485649e-001  -2.5042000653e-001  -4.0854574994e-004   4.3269753698e-004
  7.6250000000e+010  -4.4721209469e-004  -5.9646470132e-004   9.9568602934e-001  -9.6009076304e-002   9.8013168357e-001  -2.5040582486e-001  -4.0775102324e-004   4.3196956975e-004
  7.6275000000e+010  -4.4705576140e-004  -5.9544400202e-004   9.9567724899e-001  -9.6008604495e-002   9.8012844755e-001  -2.5039135760e-001  -4.0694152898e-004   4.3122776340e-004
  7.6300000000e+010  -4.4689613266e-004  -5.9440402595e-004   9.9566829721e-001  -9.6008125824e-002   9.8012514844e-001  -2.5037660464e-001  -4.0611733302e-004   4.3047216014e-004
  7.6325000000e+010  -4.4673319539e-004  -5.9334481576e-004   9.9565917403e-001  -9.6007640430e-002   9.8012178626e-001  -2.5036156586e-001  -4.0527850236e-004   4.2970280296e-004
  7.6350000000e+010  -4.4656693628e-004  -5.9226641494e-004   9.9564987949e-001  -9.6007148454e-002   9.8011836105e-001  -2.5034624113e-001  -4.0442510521e-004   4.2891973559e-004
  7.6375000000e+010  -4.4639734181e-004  -5.9116886775e-004   9.9564041366e-001  -9.6006650040e-002   9.8011487281e-001  -2.5033063035e-001  -4.0355721092e-004   4.2812300254e-004
  7.6400000000e+010  -4.4622439825e-004  -5.9005221924e-004   9.9563077655e-001  -9.6006145334e-002   9.8011132157e-001  -2.5031473337e-001  -4.0267489004e-004   4.2731264910e-004
  7.6425000000e+010  -4.4604809164e-004  -5.8891651526e-004   9.9562096823e-001  -9.6005634485e-002   9.8010770736e-001  -2.5029855009e-001  -4.0177821424e-004   4.2648872128e-004
  7.6450000000e+010  -4.4586840781e-004  -5.8776180246e-004   9.9561098874e-001  -9.6005117645e-002   9.8010403019e-001  -2.5028208036e-001  -4.0086725637e-004   4.2565126587e-004
  7.6475000000e+010  -4.4568533239e-004  -5.8658812826e-004   9.9560083813e-001  -9.6004594967e-002   9.8010029010e-001  -2.5026532406e-001  -3.9994209040e-004   4.2480033041e-004
  7.6500000000e+010  -4.4549885078e-004  -5.8539554088e-004   9.9559051644e-001  -9.6004066609e-002   9.8009648710e-001  -2.5024828106e-001  -3.9900279146e-004   4.2393596318e-004
  7.6525000000e+010  -4.4530894819e-004  -5.8418408932e-004   9.9558002372e-001  -9.6003532730e-002   9.8009262123e-001  -2.5023095122e-001  -3.9804943580e-004   4.2305821320e-004
  7.6550000000e+010  -4.4511560961e-004  -5.8295382337e-004   9.9556936003e-001  -9.6002993491e-002   9.8008869249e-001  -2.5021333440e-001  -3.9708210078e-004   4.2216713024e-004
  7.6575000000e+010  -4.4491881984e-004  -5.8170479359e-004   9.9555852541e-001  -9.6002449058e-002   9.8008470093e-001  -2.5019543046e-001  -3.9610086490e-004   4.2126276481e-004
  7.6600000000e+010  -4.4471856347e-004  -5.8043705133e-004   9.9554751991e-001  -9.6001899596e-002   9.8008064657e-001  -2.5017723927e-001  -3.9510580774e-004   4.2034516813e-004
  7.6625000000e+010  -4.4451482489e-004  -5.7915064873e-004   9.9553634359e-001  -9.6001345276e-002   9.8007652942e-001  -2.5015876069e-001  -3.9409701001e-004   4.1941439216e-004
  7.6650000000e+010  -4.4430758828e-004  -5.7784563869e-004   9.9552499650e-001  -9.6000786269e-002   9.8007234953e-001  -2.5013999455e-001  -3.9307455350e-004   4.1847048961e-004
  7.6675000000e+010  -4.4409683765e-004  -5.7652207489e-004   9.9551347869e-001  -9.6000222751e-002   9.8006810691e-001  -2.5012094072e-001  -3.9203852108e-004   4.1751351387e-004
  7.6700000000e+010  -4.4388255680e-004  -5.7518001179e-004   9.9550179021e-001  -9.5999654898e-002   9.8006380159e-001  -2.5010159905e-001  -3.9098899671e-004   4.1654351907e-004
  7.6725000000e+010  -4.4366472933e-004  -5.7381950462e-004   9.9548993113e-001  -9.5999082891e-002   9.8005943361e-001  -2.5008196939e-001  -3.8992606541e-004   4.1556056005e-004
  7.6750000000e+010  -4.4344333868e-004  -5.7244060938e-004   9.9547790150e-001  -9.5998506911e-002   9.8005500298e-001  -2.5006205157e-001  -3.8884981328e-004   4.1456469235e-004
  7.6775000000e+010  -4.4321836806e-004  -5.7104338284e-004   9.9546570137e-001  -9.5997927143e-002   9.8005050974e-001  -2.5004184546e-001  -3.8776032746e-004   4.1355597222e-004
  7.6800000000e+010  -4.4298980053e-004  -5.6962788253e-004   9.9545333081e-001  -9.5997343775e-002   9.8004595392e-001  -2.5002135088e-001  -3.8665769613e-004   4.1253445663e-004
  7.6825000000e+010  -4.4275761896e-004  -5.6819416675e-004   9.9544078987e-001  -9.5996756997e-002   9.8004133554e-001  -2.5000056767e-001  -3.8554200852e-004   4.1150020320e-004
  7.6850000000e+010  -4.4252180603e-004  -5.6674229458e-004   9.9542807861e-001  -9.5996167001e-002   9.8003665463e-001  -2.4997949569e-001  -3.8441335490e-004   4.1045327028e-004
  7.6875000000e+010  -4.4228234423e-004  -5.6527232583e-004   9.9541519709e-001  -9.5995573981e-002   9.8003191124e-001  -2.4995813475e-001  -3.8327182655e-004   4.0939371690e-004
  7.6900000000e+010  -4.4203921591e-004  -5.6378432109e-004   9.9540214537e-001  -9.5994978136e-002   9.8002710538e-001  -2.4993648470e-001  -3.8211751575e-004   4.0832160276e-004
  7.6925000000e+010  -4.4179240322e-004  -5.6227834170e-004   9.9538892351e-001  -9.5994379665e-002   9.8002223708e-001  -2.4991454536e-001  -3.8095051581e-004   4.0723698825e-004
  7.6950000000e+010  -4.4154188814e-004  -5.6075444976e-004   9.9537553158e-001  -9.5993778770e-002   9.8001730638e-001  -2.4989231657e-001  -3.7977092103e-004   4.0613993443e-004
  7.6975000000e+010  -4.4128765249e-004  -5.5921270812e-004   9.9536196964e-001  -9.5993175658e-002   9.8001231332e-001  -2.4986979816e-001  -3.7857882668e-004   4.0503050302e-004
  7.7000000000e+010  -4.4102967792e-004  -5.5765318039e-004   9.9534823775e-001  -9.5992570534e-002   9.8000725791e-001  -2.4984698994e-001  -3.7737432903e-004   4.0390875643e-004
  7.7025000000e+010  -4.4076794590e-004  -5.5607593091e-004   9.9533433598e-001  -9.5991963609e-002   9.8000214020e-001  -2.4982389174e-001  -3.7615752531e-004   4.0277475770e-004
  7.7050000000e+010  -4.4050243777e-004  -5.5448102479e-004   9.9532026440e-001  -9.5991355096e-002   9.7999696022e-001  -2.4980050339e-001  -3.7492851371e-004   4.0162857054e-004
  7.7075000000e+010  -4.4023313468e-004  -5.5286852787e-004   9.9530602306e-001  -9.5990745208e-002   9.7999171800e-001  -2.4977682470e-001  -3.7368739337e-004   4.0047025931e-004
  7.7100000000e+010  -4.3996001765e-004  -5.5123850673e-004   9.9529161205e-001  -9.5990134164e-002   9.7998641357e-001  -2.4975285549e-001  -3.7243426438e-004   3.9929988901e-004
  7.7125000000e+010  -4.3968306753e-004  -5.4959102871e-004   9.9527703142e-001  -9.5989522184e-002   9.7998104697e-001  -2.4972859557e-001  -3.7116922777e-004   3.9811752529e-004
  7.7150000000e+010  -4.3940226500e-004  -5.4792616187e-004   9.9526228124e-001  -9.5988909489e-002   9.7997561824e-001  -2.4970404476e-001  -3.6989238546e-004   3.9692323443e-004
  7.7175000000e+010  -4.3911759064e-004  -5.4624397502e-004   9.9524736159e-001  -9.5988296304e-002   9.7997012740e-001  -2.4967920288e-001  -3.6860384032e-004   3.9571708334e-004
  7.7200000000e+010  -4.3882902484e-004  -5.4454453768e-004   9.9523227254e-001  -9.5987682857e-002   9.7996457449e-001  -2.4965406972e-001  -3.6730369612e-004   3.9449913955e-004
  7.7225000000e+010  -4.3853654787e-004  -5.4282792014e-004   9.9521701415e-001  -9.5987069376e-002   9.7995895956e-001  -2.4962864510e-001  -3.6599205750e-004   3.9326947122e-004
  7.7250000000e+010  -4.3824013984e-004  -5.4109419339e-004   9.9520158650e-001  -9.5986456095e-002   9.7995328263e-001  -2.4960292883e-001  -3.6466903001e-004   3.9202814713e-004
  7.7275000000e+010  -4.3793978075e-004  -5.3934342915e-004   9.9518598966e-001  -9.5985843247e-002   9.7994754374e-001  -2.4957692070e-001  -3.6333472007e-004   3.9077523666e-004
  7.7300000000e+010  -4.3763545042e-004  -5.3757569987e-004   9.9517022371e-001  -9.5985231070e-002   9.7994174293e-001  -2.4955062051e-001  -3.6198923497e-004   3.8951080979e-004
  7.7325000000e+010  -4.3732712859e-004  -5.3579107874e-004   9.9515428871e-001  -9.5984619802e-002   9.7993588023e-001  -2.4952402808e-001  -3.6063268283e-004   3.8823493711e-004
  7.7350000000e+010  -4.3701479483e-004  -5.3398963963e-004   9.9513818476e-001  -9.5984009686e-002   9.7992995569e-001  -2.4949714319e-001  -3.5926517265e-004   3.8694768981e-004
  7.7375000000e+010  -4.3669842859e-004  -5.3217145716e-004   9.9512191191e-001  -9.5983400966e-002   9.7992396934e-001  -2.4946996564e-001  -3.5788681425e-004   3.8564913966e-004
  7.7400000000e+010  -4.3637800921e-004  -5.3033660667e-004   9.9510547026e-001  -9.5982793887e-002   9.7991792122e-001  -2.4944249522e-001  -3.5649771827e-004   3.8433935902e-004
  7.7425000000e+010  -4.3605351590e-004  -5.2848516417e-004   9.9508885987e-001  -9.5982188700e-002   9.7991181137e-001  -2.4941473173e-001  -3.5509799618e-004   3.8301842081e-004
  7.7450000000e+010  -4.3572492775e-004  -5.2661720644e-004   9.9507208082e-001  -9.5981585655e-002   9.7990563983e-001  -2.4938667496e-001  -3.5368776024e-004   3.8168639854e-004
  7.7475000000e+010  -4.3539222373e-004  -5.2473281091e-004   9.9505513320e-001  -9.5980985006e-002   9.7989940663e-001  -2.4935832469e-001  -3.5226712351e-004   3.8034336630e-004
  7.7500000000e+010  -4.3505538270e-004  -5.2283205575e-004   9.9503801709e-001  -9.5980387009e-002   9.7989311182e-001  -2.4932968071e-001  -3.5083619984e-004   3.7898939871e-004
  7.7525000000e+010  -4.3471438342e-004  -5.2091501984e-004   9.9502073256e-001  -9.5979791923e-002   9.7988675544e-001  -2.4930074281e-001  -3.4939510384e-004   3.7762457098e-004
  7.7550000000e+010  -4.3436920452e-004  -5.1898178272e-004   9.9500327970e-001  -9.5979200008e-002   9.7988033753e-001  -2.4927151077e-001  -3.4794395089e-004   3.7624895884e-004
  7.7575000000e+010  -4.3401982454e-004  -5.1703242466e-004   9.9498565858e-001  -9.5978611527e-002   9.7987385813e-001  -2.4924198436e-001  -3.4648285713e-004   3.7486263859e-004
  7.7600000000e+010  -4.3366622193e-004  -5.1506702662e-004   9.9496786930e-001  -9.5978026747e-002   9.7986731728e-001  -2.4921216337e-001  -3.4501193944e-004   3.7346568706e-004
  7.7625000000e+010  -4.3330837501e-004  -5.1308567025e-004   9.9494991194e-001  -9.5977445935e-002   9.7986071503e-001  -2.4918204757e-001  -3.4353131540e-004   3.7205818160e-004
  7.7650000000e+010  -4.3294626203e-004  -5.1108843788e-004   9.9493178658e-001  -9.5976869361e-002   9.7985405141e-001  -2.4915163675e-001  -3.4204110335e-004   3.7064020011e-004
  7.7675000000e+010  -4.3257986115e-004  -5.0907541254e-004   9.9491349331e-001  -9.5976297298e-002   9.7984732647e-001  -2.4912093067e-001  -3.4054142232e-004   3.6921182101e-004
  7.7700000000e+010  -4.3220915041e-004  -5.0704667793e-004   9.9489503222e-001  -9.5975730020e-002   9.7984054025e-001  -2.4908992910e-001  -3.3903239203e-004   3.6777312322e-004
