# Hz S RI R 50.000000
! Metas.Vna.Tools, 2.4.7724.19584
! Metas.Vna.Data, 2.4.7724.19560
! Created: UTC 2021.04.29 12:40:11
! FREQ                re:S1,1             im:S1,1             re:S2,1             im:S2,1             re:S1,2             im:S1,2             re:S2,2             im:S2,2          
  7.5000000000e+010  -5.5359160998e-004  -7.4062885669e-004   6.8572091404e-001   4.1589963747e-001   6.9202726413e-001   4.0871206788e-001   1.0311967529e-003   3.3659275755e-004
  7.5025000000e+010  -5.5358604770e-004  -7.4060506563e-004   6.8572126961e-001   4.1589922807e-001   6.9202763310e-001   4.0871163373e-001   1.0311783104e-003   3.3657450513e-004
  7.5050000000e+010  -5.5357492303e-004  -7.4055748456e-004   6.8572198073e-001   4.1589840926e-001   6.9202837104e-001   4.0871076544e-001   1.0311414258e-003   3.3653800139e-004
  7.5075000000e+010  -5.5355823570e-004  -7.4048611557e-004   6.8572304742e-001   4.1589718106e-001   6.9202947794e-001   4.0870946300e-001   1.0310860997e-003   3.3648324856e-004
  7.5100000000e+010  -5.5353598535e-004  -7.4039096177e-004   6.8572446966e-001   4.1589554347e-001   6.9203095381e-001   4.0870772643e-001   1.0310123331e-003   3.3641024996e-004
  7.5125000000e+010  -5.5350817146e-004  -7.4027202733e-004   6.8572624745e-001   4.1589349650e-001   6.9203279863e-001   4.0870555574e-001   1.0309201275e-003   3.3631901002e-004
  7.5150000000e+010  -5.5347479342e-004  -7.4012931745e-004   6.8572838077e-001   4.1589104017e-001   6.9203501240e-001   4.0870295092e-001   1.0308094846e-003   3.3620953429e-004
  7.5175000000e+010  -5.5343585047e-004  -7.3996283840e-004   6.8573086963e-001   4.1588817450e-001   6.9203759511e-001   4.0869991200e-001   1.0306804064e-003   3.3608182942e-004
  7.5200000000e+010  -5.5339134173e-004  -7.3977259746e-004   6.8573371399e-001   4.1588489951e-001   6.9204054674e-001   4.0869643898e-001   1.0305328954e-003   3.3593590316e-004
  7.5225000000e+010  -5.5334126621e-004  -7.3955860295e-004   6.8573691387e-001   4.1588121521e-001   6.9204386729e-001   4.0869253189e-001   1.0303669543e-003   3.3577176438e-004
  7.5250000000e+010  -5.5328562276e-004  -7.3932086425e-004   6.8574046922e-001   4.1587712164e-001   6.9204755675e-001   4.0868819073e-001   1.0301825861e-003   3.3558942306e-004
  7.5275000000e+010  -5.5322441015e-004  -7.3905939177e-004   6.8574438005e-001   4.1587261883e-001   6.9205161509e-001   4.0868341553e-001   1.0299797945e-003   3.3538889026e-004
  7.5300000000e+010  -5.5315762700e-004  -7.3877419695e-004   6.8574864633e-001   4.1586770680e-001   6.9205604230e-001   4.0867820631e-001   1.0297585831e-003   3.3517017818e-004
  7.5325000000e+010  -5.5308527180e-004  -7.3846529229e-004   6.8575326804e-001   4.1586238559e-001   6.9206083836e-001   4.0867256309e-001   1.0295189561e-003   3.3493330009e-004
  7.5350000000e+010  -5.5300734294e-004  -7.3813269132e-004   6.8575824516e-001   4.1585665525e-001   6.9206600326e-001   4.0866648590e-001   1.0292609180e-003   3.3467827039e-004
  7.5375000000e+010  -5.5292383866e-004  -7.3777640859e-004   6.8576357765e-001   4.1585051580e-001   6.9207153696e-001   4.0865997475e-001   1.0289844736e-003   3.3440510457e-004
  7.5400000000e+010  -5.5283475710e-004  -7.3739645970e-004   6.8576926551e-001   4.1584396730e-001   6.9207743946e-001   4.0865302969e-001   1.0286896281e-003   3.3411381922e-004
  7.5425000000e+010  -5.5274009628e-004  -7.3699286130e-004   6.8577530870e-001   4.1583700979e-001   6.9208371072e-001   4.0864565074e-001   1.0283763870e-003   3.3380443205e-004
  7.5450000000e+010  -5.5263985406e-004  -7.3656563106e-004   6.8578170718e-001   4.1582964332e-001   6.9209035071e-001   4.0863783794e-001   1.0280447563e-003   3.3347696185e-004
  7.5475000000e+010  -5.5253402822e-004  -7.3611478769e-004   6.8578846094e-001   4.1582186794e-001   6.9209735942e-001   4.0862959131e-001   1.0276947420e-003   3.3313142850e-004
  7.5500000000e+010  -5.5242261641e-004  -7.3564035094e-004   6.8579556993e-001   4.1581368371e-001   6.9210473681e-001   4.0862091089e-001   1.0273263509e-003   3.3276785301e-004
  7.5525000000e+010  -5.5230561614e-004  -7.3514234157e-004   6.8580303413e-001   4.1580509068e-001   6.9211248285e-001   4.0861179673e-001   1.0269395898e-003   3.3238625746e-004
  7.5550000000e+010  -5.5218302482e-004  -7.3462078140e-004   6.8581085349e-001   4.1579608892e-001   6.9212059751e-001   4.0860224885e-001   1.0265344660e-003   3.3198666503e-004
  7.5575000000e+010  -5.5205483974e-004  -7.3407569327e-004   6.8581902798e-001   4.1578667849e-001   6.9212908075e-001   4.0859226732e-001   1.0261109871e-003   3.3156910000e-004
  7.5600000000e+010  -5.5192105804e-004  -7.3350710105e-004   6.8582755756e-001   4.1577685946e-001   6.9213793255e-001   4.0858185215e-001   1.0256691612e-003   3.3113358774e-004
  7.5625000000e+010  -5.5178167679e-004  -7.3291502965e-004   6.8583644219e-001   4.1576663189e-001   6.9214715286e-001   4.0857100341e-001   1.0252089964e-003   3.3068015470e-004
  7.5650000000e+010  -5.5163669291e-004  -7.3229950500e-004   6.8584568182e-001   4.1575599587e-001   6.9215674165e-001   4.0855972114e-001   1.0247305016e-003   3.3020882844e-004
  7.5675000000e+010  -5.5148610320e-004  -7.3166055405e-004   6.8585527641e-001   4.1574495145e-001   6.9216669888e-001   4.0854800539e-001   1.0242336857e-003   3.2971963758e-004
  7.5700000000e+010  -5.5132990437e-004  -7.3099820479e-004   6.8586522591e-001   4.1573349874e-001   6.9217702450e-001   4.0853585621e-001   1.0237185581e-003   3.2921261185e-004
  7.5725000000e+010  -5.5116809299e-004  -7.3031248624e-004   6.8587553028e-001   4.1572163779e-001   6.9218771848e-001   4.0852327366e-001   1.0231851286e-003   3.2868778206e-004
  7.5750000000e+010  -5.5100066552e-004  -7.2960342842e-004   6.8588618946e-001   4.1570936871e-001   6.9219878077e-001   4.0851025778e-001   1.0226334073e-003   3.2814518008e-004
  7.5775000000e+010  -5.5082761832e-004  -7.2887106240e-004   6.8589720341e-001   4.1569669157e-001   6.9221021132e-001   4.0849680863e-001   1.0220634045e-003   3.2758483889e-004
  7.5800000000e+010  -5.5064894761e-004  -7.2811542025e-004   6.8590857206e-001   4.1568360646e-001   6.9222201009e-001   4.0848292629e-001   1.0214751312e-003   3.2700679253e-004
  7.5825000000e+010  -5.5046464952e-004  -7.2733653508e-004   6.8592029537e-001   4.1567011349e-001   6.9223417703e-001   4.0846861079e-001   1.0208685984e-003   3.2641107612e-004
  7.5850000000e+010  -5.5027472006e-004  -7.2653444101e-004   6.8593237328e-001   4.1565621274e-001   6.9224671208e-001   4.0845386222e-001   1.0202438177e-003   3.2579772585e-004
  7.5875000000e+010  -5.5007915512e-004  -7.2570917317e-004   6.8594480573e-001   4.1564190431e-001   6.9225961521e-001   4.0843868063e-001   1.0196008010e-003   3.2516677899e-004
  7.5900000000e+010  -5.4987795050e-004  -7.2486076772e-004   6.8595759265e-001   4.1562718831e-001   6.9227288634e-001   4.0842306608e-001   1.0189395605e-003   3.2451827388e-004
  7.5925000000e+010  -5.4967110188e-004  -7.2398926183e-004   6.8597073400e-001   4.1561206483e-001   6.9228652544e-001   4.0840701865e-001   1.0182601088e-003   3.2385224991e-004
  7.5950000000e+010  -5.4945860481e-004  -7.2309469368e-004   6.8598422969e-001   4.1559653400e-001   6.9230053244e-001   4.0839053841e-001   1.0175624589e-003   3.2316874756e-004
  7.5975000000e+010  -5.4924045478e-004  -7.2217710247e-004   6.8599807968e-001   4.1558059590e-001   6.9231490728e-001   4.0837362543e-001   1.0168466241e-003   3.2246780835e-004
  7.6000000000e+010  -5.4901664712e-004  -7.2123652838e-004   6.8601228388e-001   4.1556425067e-001   6.9232964991e-001   4.0835627979e-001   1.0161126180e-003   3.2174947488e-004
  7.6025000000e+010  -5.4878717709e-004  -7.2027301265e-004   6.8602684224e-001   4.1554749842e-001   6.9234476027e-001   4.0833850155e-001   1.0153604548e-003   3.2101379078e-004
  7.6050000000e+010  -5.4855203985e-004  -7.1928659749e-004   6.8604175467e-001   4.1553033925e-001   6.9236023829e-001   4.0832029080e-001   1.0145901488e-003   3.2026080077e-004
  7.6075000000e+010  -5.4831123041e-004  -7.1827732611e-004   6.8605702112e-001   4.1551277331e-001   6.9237608391e-001   4.0830164761e-001   1.0138017149e-003   3.1949055060e-004
  7.6100000000e+010  -5.4806474374e-004  -7.1724524276e-004   6.8607264150e-001   4.1549480070e-001   6.9239229706e-001   4.0828257207e-001   1.0129951681e-003   3.1870308707e-004
  7.6125000000e+010  -5.4781257466e-004  -7.1619039265e-004   6.8608861574e-001   4.1547642156e-001   6.9240887768e-001   4.0826306427e-001   1.0121705240e-003   3.1789845802e-004
  7.6150000000e+010  -5.4755471790e-004  -7.1511282201e-004   6.8610494376e-001   4.1545763603e-001   6.9242582570e-001   4.0824312428e-001   1.0113277984e-003   3.1707671236e-004
  7.6175000000e+010  -5.4729116812e-004  -7.1401257808e-004   6.8612162549e-001   4.1543844422e-001   6.9244314104e-001   4.0822275220e-001   1.0104670078e-003   3.1623790002e-004
  7.6200000000e+010  -5.4702191984e-004  -7.1288970907e-004   6.8613866083e-001   4.1541884628e-001   6.9246082365e-001   4.0820194811e-001   1.0095881685e-003   3.1538207197e-004
  7.6225000000e+010  -5.4674696751e-004  -7.1174426419e-004   6.8615604972e-001   4.1539884234e-001   6.9247887344e-001   4.0818071210e-001   1.0086912977e-003   3.1450928022e-004
  7.6250000000e+010  -5.4646630548e-004  -7.1057629365e-004   6.8617379206e-001   4.1537843256e-001   6.9249729034e-001   4.0815904427e-001   1.0077764128e-003   3.1361957780e-004
  7.6275000000e+010  -5.4617992799e-004  -7.0938584865e-004   6.8619188777e-001   4.1535761707e-001   6.9251607427e-001   4.0813694472e-001   1.0068435314e-003   3.1271301878e-004
  7.6300000000e+010  -5.4588782921e-004  -7.0817298137e-004   6.8621033676e-001   4.1533639602e-001   6.9253522517e-001   4.0811441353e-001   1.0058926718e-003   3.1178965826e-004
  7.6325000000e+010  -5.4559000320e-004  -7.0693774498e-004   6.8622913894e-001   4.1531476956e-001   6.9255474294e-001   4.0809145081e-001   1.0049238523e-003   3.1084955234e-004
  7.6350000000e+010  -5.4528644393e-004  -7.0568019363e-004   6.8624829422e-001   4.1529273784e-001   6.9257462751e-001   4.0806805666e-001   1.0039370920e-003   3.0989275817e-004
  7.6375000000e+010  -5.4497714530e-004  -7.0440038245e-004   6.8626780251e-001   4.1527030103e-001   6.9259487879e-001   4.0804423118e-001   1.0029324100e-003   3.0891933388e-004
  7.6400000000e+010  -5.4466210109e-004  -7.0309836756e-004   6.8628766371e-001   4.1524745927e-001   6.9261549671e-001   4.0801997447e-001   1.0019098260e-003   3.0792933864e-004
  7.6425000000e+010  -5.4434130502e-004  -7.0177420604e-004   6.8630787773e-001   4.1522421274e-001   6.9263648117e-001   4.0799528665e-001   1.0008693600e-003   3.0692283262e-004
  7.6450000000e+010  -5.4401475072e-004  -7.0042795595e-004   6.8632844447e-001   4.1520056159e-001   6.9265783209e-001   4.0797016781e-001   9.9981103240e-004   3.0589987698e-004
  7.6475000000e+010  -5.4368243172e-004  -6.9905967632e-004   6.8634936383e-001   4.1517650600e-001   6.9267954939e-001   4.0794461808e-001   9.9873486405e-004   3.0486053390e-004
  7.6500000000e+010  -5.4334434149e-004  -6.9766942717e-004   6.8637063570e-001   4.1515204613e-001   6.9270163297e-001   4.0791863755e-001   9.9764087609e-004   3.0380486655e-004
  7.6525000000e+010  -5.4300047340e-004  -6.9625726945e-004   6.8639225999e-001   4.1512718216e-001   6.9272408274e-001   4.0789222635e-001   9.9652909010e-004   3.0273293909e-004
  7.6550000000e+010  -5.4265082074e-004  -6.9482326509e-004   6.8641423658e-001   4.1510191426e-001   6.9274689861e-001   4.0786538459e-001   9.9539952802e-004   3.0164481668e-004
  7.6575000000e+010  -5.4229537674e-004  -6.9336747700e-004   6.8643656538e-001   4.1507624261e-001   6.9277008049e-001   4.0783811239e-001   9.9425221222e-004   3.0054056545e-004
  7.6600000000e+010  -5.4193413453e-004  -6.9188996902e-004   6.8645924628e-001   4.1505016740e-001   6.9279362828e-001   4.0781040986e-001   9.9308716542e-004   2.9942025253e-004
  7.6625000000e+010  -5.4156708719e-004  -6.9039080597e-004   6.8648227916e-001   4.1502368881e-001   6.9281754187e-001   4.0778227714e-001   9.9190441076e-004   2.9828394600e-004
  7.6650000000e+010  -5.4119422771e-004  -6.8887005360e-004   6.8650566391e-001   4.1499680703e-001   6.9284182119e-001   4.0775371433e-001   9.9070397176e-004   2.9713171495e-004
  7.6675000000e+010  -5.4081554900e-004  -6.8732777863e-004   6.8652940042e-001   4.1496952224e-001   6.9286646611e-001   4.0772472158e-001   9.8948587235e-004   2.9596362941e-004
  7.6700000000e+010  -5.4043104392e-004  -6.8576404873e-004   6.8655348858e-001   4.1494183464e-001   6.9289147655e-001   4.0769529899e-001   9.8825013685e-004   2.9477976039e-004
  7.6725000000e+010  -5.4004070524e-004  -6.8417893250e-004   6.8657792826e-001   4.1491374443e-001   6.9291685240e-001   4.0766544671e-001   9.8699678998e-004   2.9358017986e-004
  7.6750000000e+010  -5.3964452569e-004  -6.8257249948e-004   6.8660271936e-001   4.1488525180e-001   6.9294259355e-001   4.0763516486e-001   9.8572585686e-004   2.9236496073e-004
  7.6775000000e+010  -5.3924249790e-004  -6.8094482018e-004   6.8662786174e-001   4.1485635697e-001   6.9296869990e-001   4.0760445358e-001   9.8443736302e-004   2.9113417689e-004
  7.6800000000e+010  -5.3883461446e-004  -6.7929596601e-004   6.8665335529e-001   4.1482706012e-001   6.9299517134e-001   4.0757331300e-001   9.8313133437e-004   2.8988790316e-004
  7.6825000000e+010  -5.3842086790e-004  -6.7762600933e-004   6.8667919988e-001   4.1479736147e-001   6.9302200776e-001   4.0754174326e-001   9.8180779726e-004   2.8862621531e-004
  7.6850000000e+010  -5.3800125067e-004  -6.7593502344e-004   6.8670539539e-001   4.1476726123e-001   6.9304920905e-001   4.0750974449e-001   9.8046677842e-004   2.8734919004e-004
  7.6875000000e+010  -5.3757575517e-004  -6.7422308256e-004   6.8673194169e-001   4.1473675961e-001   6.9307677510e-001   4.0747731684e-001   9.7910830500e-004   2.8605690500e-004
  7.6900000000e+010  -5.3714437375e-004  -6.7249026182e-004   6.8675883865e-001   4.1470585683e-001   6.9310470579e-001   4.0744446045e-001   9.7773240457e-004   2.8474943875e-004
  7.6925000000e+010  -5.3670709869e-004  -6.7073663730e-004   6.8678608615e-001   4.1467455311e-001   6.9313300101e-001   4.0741117546e-001   9.7633910508e-004   2.8342687079e-004
  7.6950000000e+010  -5.3626392224e-004  -6.6896228597e-004   6.8681368404e-001   4.1464284866e-001   6.9316166064e-001   4.0737746202e-001   9.7492843493e-004   2.8208928154e-004
  7.6975000000e+010  -5.3581483657e-004  -6.6716728573e-004   6.8684163220e-001   4.1461074372e-001   6.9319068457e-001   4.0734332027e-001   9.7350042291e-004   2.8073675233e-004
  7.7000000000e+010  -5.3535983381e-004  -6.6535171541e-004   6.8686993049e-001   4.1457823850e-001   6.9322007267e-001   4.0730875037e-001   9.7205509823e-004   2.7936936539e-004
  7.7025000000e+010  -5.3489890605e-004  -6.6351565470e-004   6.8689857877e-001   4.1454533325e-001   6.9324982482e-001   4.0727375246e-001   9.7059249054e-004   2.7798720389e-004
  7.7050000000e+010  -5.3443204533e-004  -6.6165918425e-004   6.8692757691e-001   4.1451202818e-001   6.9327994090e-001   4.0723832670e-001   9.6911262989e-004   2.7659035186e-004
  7.7075000000e+010  -5.3395924364e-004  -6.5978238557e-004   6.8695692476e-001   4.1447832355e-001   6.9331042078e-001   4.0720247325e-001   9.6761554675e-004   2.7517889426e-004
  7.7100000000e+010  -5.3348049293e-004  -6.5788534110e-004   6.8698662218e-001   4.1444421957e-001   6.9334126434e-001   4.0716619227e-001   9.6610127202e-004   2.7375291691e-004
  7.7125000000e+010  -5.3299578511e-004  -6.5596813415e-004   6.8701666903e-001   4.1440971651e-001   6.9337247146e-001   4.0712948390e-001   9.6456983702e-004   2.7231250654e-004
  7.7150000000e+010  -5.3250511206e-004  -6.5403084894e-004   6.8704706516e-001   4.1437481460e-001   6.9340404199e-001   4.0709234832e-001   9.6302127351e-004   2.7085775074e-004
  7.7175000000e+010  -5.3200846560e-004  -6.5207357057e-004   6.8707781042e-001   4.1433951408e-001   6.9343597582e-001   4.0705478568e-001   9.6145561367e-004   2.6938873801e-004
  7.7200000000e+010  -5.3150583753e-004  -6.5009638503e-004   6.8710890467e-001   4.1430381521e-001   6.9346827281e-001   4.0701679615e-001   9.5987289011e-004   2.6790555767e-004
  7.7225000000e+010  -5.3099721963e-004  -6.4809937918e-004   6.8714034775e-001   4.1426771824e-001   6.9350093282e-001   4.0697837990e-001   9.5827313586e-004   2.6640829994e-004
  7.7250000000e+010  -5.3048260362e-004  -6.4608264077e-004   6.8717213951e-001   4.1423122342e-001   6.9353395573e-001   4.0693953710e-001   9.5665638441e-004   2.6489705590e-004
  7.7275000000e+010  -5.2996198121e-004  -6.4404625842e-004   6.8720427980e-001   4.1419433101e-001   6.9356734139e-001   4.0690026791e-001   9.5502266967e-004   2.6337191746e-004
  7.7300000000e+010  -5.2943534408e-004  -6.4199032162e-004   6.8723676846e-001   4.1415704128e-001   6.9360108967e-001   4.0686057251e-001   9.5337202599e-004   2.6183297741e-004
  7.7325000000e+010  -5.2890268389e-004  -6.3991492074e-004   6.8726960533e-001   4.1411935448e-001   6.9363520042e-001   4.0682045107e-001   9.5170448815e-004   2.6028032934e-004
  7.7350000000e+010  -5.2836399226e-004  -6.3782014698e-004   6.8730279025e-001   4.1408127089e-001   6.9366967351e-001   4.0677990377e-001   9.5002009138e-004   2.5871406772e-004
  7.7375000000e+010  -5.2781926081e-004  -6.3570609244e-004   6.8733632307e-001   4.1404279076e-001   6.9370450879e-001   4.0673893078e-001   9.4831887137e-004   2.5713428783e-004
  7.7400000000e+010  -5.2726848113e-004  -6.3357285003e-004   6.8737020363e-001   4.1400391438e-001   6.9373970612e-001   4.0669753229e-001   9.4660086421e-004   2.5554108577e-004
  7.7425000000e+010  -5.2671164479e-004  -6.3142051356e-004   6.8740443174e-001   4.1396464202e-001   6.9377526536e-001   4.0665570848e-001   9.4486610649e-004   2.5393455849e-004
  7.7450000000e+010  -5.2614874335e-004  -6.2924917766e-004   6.8743900726e-001   4.1392497394e-001   6.9381118635e-001   4.0661345953e-001   9.4311463520e-004   2.5231480372e-004
  7.7475000000e+010  -5.2557976837e-004  -6.2705893780e-004   6.8747393001e-001   4.1388491045e-001   6.9384746895e-001   4.0657078563e-001   9.4134648781e-004   2.5068192001e-004
  7.7500000000e+010  -5.2500471138e-004  -6.2484989031e-004   6.8750919982e-001   4.1384445181e-001   6.9388411300e-001   4.0652768696e-001   9.3956170224e-004   2.4903600672e-004
  7.7525000000e+010  -5.2442356390e-004  -6.2262213234e-004   6.8754481652e-001   4.1380359831e-001   6.9392111837e-001   4.0648416371e-001   9.3776031685e-004   2.4737716401e-004
  7.7550000000e+010  -5.2383631748e-004  -6.2037576187e-004   6.8758077994e-001   4.1376235024e-001   6.9395848488e-001   4.0644021608e-001   9.3594237047e-004   2.4570549281e-004
  7.7575000000e+010  -5.2324296361e-004  -6.1811087772e-004   6.8761708991e-001   4.1372070789e-001   6.9399621239e-001   4.0639584425e-001   9.3410790236e-004   2.4402109485e-004
  7.7600000000e+010  -5.2264349383e-004  -6.1582757953e-004   6.8765374624e-001   4.1367867156e-001   6.9403430075e-001   4.0635104843e-001   9.3225695228e-004   2.4232407265e-004
  7.7625000000e+010  -5.2203789965e-004  -6.1352596775e-004   6.8769074877e-001   4.1363624154e-001   6.9407274979e-001   4.0630582880e-001   9.3038956043e-004   2.4061452947e-004
  7.7650000000e+010  -5.2142617260e-004  -6.1120614366e-004   6.8772809730e-001   4.1359341814e-001   6.9411155935e-001   4.0626018558e-001   9.2850576746e-004   2.3889256938e-004
  7.7675000000e+010  -5.2080830420e-004  -6.0886820934e-004   6.8776579167e-001   4.1355020164e-001   6.9415072928e-001   4.0621411895e-001   9.2660561451e-004   2.3715829716e-004
  7.7700000000e+010  -5.2018428599e-004  -6.0651226768e-004   6.8780383168e-001   4.1350659236e-001   6.9419025941e-001   4.0616762911e-001   9.2468914317e-004   2.3541181839e-004
