# Hz S RI R 50.000000
! Metas.Vna.Tools, 2.4.7724.19584
! Metas.Vna.Data, 2.4.7724.19560
! Created: UTC 2021.04.29 12:40:11
! FREQ                re:S1,1             im:S1,1             re:S2,1             im:S2,1             re:S1,2             im:S1,2             re:S2,2             im:S2,2          
  7.5000000000e+010  -5.7313675276e-004  -8.0616409486e-004   5.0495375378e-001   4.6005334796e-001   5.1334403316e-001   4.5260332818e-001  -2.7019720024e-004   1.0223922284e-003
  7.5025000000e+010  -5.7313139558e-004  -8.0613907095e-004   5.0495416906e-001   4.6005291691e-001   5.1334446785e-001   4.5260284328e-001  -2.7294637769e-004   1.0234647300e-003
  7.5050000000e+010  -5.7312068107e-004  -8.0608902422e-004   5.0495499962e-001   4.6005205482e-001   5.1334533722e-001   4.5260187349e-001  -2.7568359886e-004   1.0245041852e-003
  7.5075000000e+010  -5.7310460893e-004  -8.0601395687e-004   5.0495624545e-001   4.6005076170e-001   5.1334664128e-001   4.5260041881e-001  -2.7840875884e-004   1.0255105059e-003
  7.5100000000e+010  -5.7308317867e-004  -8.0591387219e-004   5.0495790656e-001   4.6004903754e-001   5.1334838001e-001   4.5259847924e-001  -2.8112175346e-004   1.0264836062e-003
  7.5125000000e+010  -5.7305638969e-004  -8.0578877457e-004   5.0495998293e-001   4.6004688237e-001   5.1335055342e-001   4.5259605480e-001  -2.8382247939e-004   1.0274234016e-003
  7.5150000000e+010  -5.7302424120e-004  -8.0563866948e-004   5.0496247455e-001   4.6004429619e-001   5.1335316149e-001   4.5259314550e-001  -2.8651083406e-004   1.0283298098e-003
  7.5175000000e+010  -5.7298673227e-004  -8.0546356351e-004   5.0496538142e-001   4.6004127903e-001   5.1335620421e-001   4.5258975136e-001  -2.8918671571e-004   1.0292027500e-003
  7.5200000000e+010  -5.7294386183e-004  -8.0526346433e-004   5.0496870351e-001   4.6003783090e-001   5.1335968156e-001   4.5258587239e-001  -2.9185002337e-004   1.0300421435e-003
  7.5225000000e+010  -5.7289562862e-004  -8.0503838071e-004   5.0497244082e-001   4.6003395183e-001   5.1336359354e-001   4.5258150861e-001  -2.9450065689e-004   1.0308479134e-003
  7.5250000000e+010  -5.7284203126e-004  -8.0478832251e-004   5.0497659333e-001   4.6002964183e-001   5.1336794013e-001   4.5257666006e-001  -2.9713851693e-004   1.0316199844e-003
  7.5275000000e+010  -5.7278306819e-004  -8.0451330069e-004   5.0498116102e-001   4.6002490095e-001   5.1337272130e-001   4.5257132674e-001  -2.9976350496e-004   1.0323582833e-003
  7.5300000000e+010  -5.7271873772e-004  -8.0421332731e-004   5.0498614386e-001   4.6001972920e-001   5.1337793704e-001   4.5256550869e-001  -3.0237552328e-004   1.0330627388e-003
  7.5325000000e+010  -5.7264903798e-004  -8.0388841552e-004   5.0499154184e-001   4.6001412662e-001   5.1338358733e-001   4.5255920594e-001  -3.0497447500e-004   1.0337332813e-003
  7.5350000000e+010  -5.7257396698e-004  -8.0353857955e-004   5.0499735494e-001   4.6000809326e-001   5.1338967215e-001   4.5255241853e-001  -3.0756026408e-004   1.0343698431e-003
  7.5375000000e+010  -5.7249352254e-004  -8.0316383473e-004   5.0500358312e-001   4.6000162914e-001   5.1339619146e-001   4.5254514648e-001  -3.1013279528e-004   1.0349723584e-003
  7.5400000000e+010  -5.7240770235e-004  -8.0276419749e-004   5.0501022636e-001   4.5999473431e-001   5.1340314524e-001   4.5253738985e-001  -3.1269197422e-004   1.0355407633e-003
  7.5425000000e+010  -5.7231650395e-004  -8.0233968535e-004   5.0501728463e-001   4.5998740881e-001   5.1341053346e-001   4.5252914866e-001  -3.1523770735e-004   1.0360749959e-003
  7.5450000000e+010  -5.7221992472e-004  -8.0189031691e-004   5.0502475790e-001   4.5997965270e-001   5.1341835609e-001   4.5252042296e-001  -3.1776990197e-004   1.0365749960e-003
  7.5475000000e+010  -5.7211796188e-004  -8.0141611187e-004   5.0503264613e-001   4.5997146602e-001   5.1342661310e-001   4.5251121280e-001  -3.2028846623e-004   1.0370407053e-003
  7.5500000000e+010  -5.7201061253e-004  -8.0091709101e-004   5.0504094930e-001   4.5996284883e-001   5.1343530445e-001   4.5250151822e-001  -3.2279330912e-004   1.0374720677e-003
  7.5525000000e+010  -5.7189787359e-004  -8.0039327619e-004   5.0504966735e-001   4.5995380118e-001   5.1344443011e-001   4.5249133928e-001  -3.2528434049e-004   1.0378690286e-003
  7.5550000000e+010  -5.7177974184e-004  -7.9984469039e-004   5.0505880026e-001   4.5994432312e-001   5.1345399004e-001   4.5248067603e-001  -3.2776147105e-004   1.0382315357e-003
  7.5575000000e+010  -5.7165621391e-004  -7.9927135765e-004   5.0506834798e-001   4.5993441473e-001   5.1346398420e-001   4.5246952852e-001  -3.3022461237e-004   1.0385595383e-003
  7.5600000000e+010  -5.7152728629e-004  -7.9867330309e-004   5.0507831047e-001   4.5992407607e-001   5.1347441254e-001   4.5245789682e-001  -3.3267367688e-004   1.0388529878e-003
  7.5625000000e+010  -5.7139295531e-004  -7.9805055293e-004   5.0508868768e-001   4.5991330719e-001   5.1348527503e-001   4.5244578098e-001  -3.3510857789e-004   1.0391118377e-003
  7.5650000000e+010  -5.7125321717e-004  -7.9740313447e-004   5.0509947958e-001   4.5990210818e-001   5.1349657161e-001   4.5243318107e-001  -3.3752922957e-004   1.0393360430e-003
  7.5675000000e+010  -5.7110806789e-004  -7.9673107608e-004   5.0511068610e-001   4.5989047911e-001   5.1350830225e-001   4.5242009716e-001  -3.3993554697e-004   1.0395255610e-003
  7.5700000000e+010  -5.7095750339e-004  -7.9603440722e-004   5.0512230721e-001   4.5987842004e-001   5.1352046688e-001   4.5240652930e-001  -3.4232744601e-004   1.0396803509e-003
  7.5725000000e+010  -5.7080151942e-004  -7.9531315843e-004   5.0513434284e-001   4.5986593106e-001   5.1353306547e-001   4.5239247759e-001  -3.4470484351e-004   1.0398003737e-003
  7.5750000000e+010  -5.7064011157e-004  -7.9456736133e-004   5.0514679295e-001   4.5985301226e-001   5.1354609795e-001   4.5237794208e-001  -3.4706765714e-004   1.0398855925e-003
  7.5775000000e+010  -5.7047327532e-004  -7.9379704860e-004   5.0515965749e-001   4.5983966370e-001   5.1355956428e-001   4.5236292285e-001  -3.4941580550e-004   1.0399359723e-003
  7.5800000000e+010  -5.7030100599e-004  -7.9300225402e-004   5.0517293638e-001   4.5982588549e-001   5.1357346439e-001   4.5234741999e-001  -3.5174920805e-004   1.0399514800e-003
  7.5825000000e+010  -5.7012329875e-004  -7.9218301243e-004   5.0518662958e-001   4.5981167771e-001   5.1358779823e-001   4.5233143357e-001  -3.5406778514e-004   1.0399320846e-003
  7.5850000000e+010  -5.6994014865e-004  -7.9133935973e-004   5.0520073701e-001   4.5979704044e-001   5.1360256575e-001   4.5231496367e-001  -3.5637145802e-004   1.0398777571e-003
  7.5875000000e+010  -5.6975155058e-004  -7.9047133292e-004   5.0521525863e-001   4.5978197380e-001   5.1361776686e-001   4.5229801040e-001  -3.5866014885e-004   1.0397884703e-003
  7.5900000000e+010  -5.6955749931e-004  -7.8957897004e-004   5.0523019436e-001   4.5976647786e-001   5.1363340152e-001   4.5228057382e-001  -3.6093378068e-004   1.0396641991e-003
  7.5925000000e+010  -5.6935798946e-004  -7.8866231021e-004   5.0524554414e-001   4.5975055275e-001   5.1364946966e-001   4.5226265404e-001  -3.6319227746e-004   1.0395049203e-003
  7.5950000000e+010  -5.6915301551e-004  -7.8772139363e-004   5.0526130790e-001   4.5973419855e-001   5.1366597121e-001   4.5224425115e-001  -3.6543556404e-004   1.0393106128e-003
  7.5975000000e+010  -5.6894257182e-004  -7.8675626155e-004   5.0527748557e-001   4.5971741537e-001   5.1368290610e-001   4.5222536525e-001  -3.6766356619e-004   1.0390812575e-003
  7.6000000000e+010  -5.6872665259e-004  -7.8576695626e-004   5.0529407707e-001   4.5970020332e-001   5.1370027426e-001   4.5220599642e-001  -3.6987621057e-004   1.0388168371e-003
  7.6025000000e+010  -5.6850525191e-004  -7.8475352116e-004   5.0531108234e-001   4.5968256252e-001   5.1371807562e-001   4.5218614479e-001  -3.7207342477e-004   1.0385173364e-003
  7.6050000000e+010  -5.6827836371e-004  -7.8371600067e-004   5.0532850129e-001   4.5966449308e-001   5.1373631010e-001   4.5216581044e-001  -3.7425513730e-004   1.0381827424e-003
  7.6075000000e+010  -5.6804598183e-004  -7.8265444028e-004   5.0534633385e-001   4.5964599511e-001   5.1375497763e-001   4.5214499349e-001  -3.7642127754e-004   1.0378130438e-003
  7.6100000000e+010  -5.6780809994e-004  -7.8156888654e-004   5.0536457995e-001   4.5962706874e-001   5.1377407813e-001   4.5212369405e-001  -3.7857177585e-004   1.0374082314e-003
  7.6125000000e+010  -5.6756471160e-004  -7.8045938704e-004   5.0538323948e-001   4.5960771409e-001   5.1379361152e-001   4.5210191222e-001  -3.8070656345e-004   1.0369682981e-003
  7.6150000000e+010  -5.6731581023e-004  -7.7932599043e-004   5.0540231239e-001   4.5958793127e-001   5.1381357771e-001   4.5207964812e-001  -3.8282557253e-004   1.0364932387e-003
  7.6175000000e+010  -5.6706138914e-004  -7.7816874641e-004   5.0542179857e-001   4.5956772043e-001   5.1383397663e-001   4.5205690187e-001  -3.8492873616e-004   1.0359830501e-003
  7.6200000000e+010  -5.6680144149e-004  -7.7698770572e-004   5.0544169794e-001   4.5954708170e-001   5.1385480818e-001   4.5203367359e-001  -3.8701598836e-004   1.0354377312e-003
  7.6225000000e+010  -5.6653596034e-004  -7.7578292015e-004   5.0546201042e-001   4.5952601519e-001   5.1387607229e-001   4.5200996340e-001  -3.8908726408e-004   1.0348572828e-003
  7.6250000000e+010  -5.6626493861e-004  -7.7455444254e-004   5.0548273591e-001   4.5950452106e-001   5.1389776885e-001   4.5198577142e-001  -3.9114249917e-004   1.0342417079e-003
  7.6275000000e+010  -5.6598836910e-004  -7.7330232675e-004   5.0550387432e-001   4.5948259945e-001   5.1391989779e-001   4.5196109778e-001  -3.9318163043e-004   1.0335910113e-003
  7.6300000000e+010  -5.6570624450e-004  -7.7202662770e-004   5.0552542556e-001   4.5946025048e-001   5.1394245900e-001   4.5193594261e-001  -3.9520459559e-004   1.0329052001e-003
  7.6325000000e+010  -5.6541855737e-004  -7.7072740132e-004   5.0554738952e-001   4.5943747432e-001   5.1396545240e-001   4.5191030605e-001  -3.9721133331e-004   1.0321842831e-003
  7.6350000000e+010  -5.6512530015e-004  -7.6940470461e-004   5.0556976612e-001   4.5941427110e-001   5.1398887789e-001   4.5188418822e-001  -3.9920178316e-004   1.0314282715e-003
  7.6375000000e+010  -5.6482646518e-004  -7.6805859556e-004   5.0559255525e-001   4.5939064097e-001   5.1401273537e-001   4.5185758926e-001  -4.0117588567e-004   1.0306371781e-003
  7.6400000000e+010  -5.6452204466e-004  -7.6668913321e-004   5.0561575680e-001   4.5936658410e-001   5.1403702473e-001   4.5183050931e-001  -4.0313358229e-004   1.0298110181e-003
  7.6425000000e+010  -5.6421203070e-004  -7.6529637763e-004   5.0563937069e-001   4.5934210063e-001   5.1406174588e-001   4.5180294852e-001  -4.0507481542e-004   1.0289498085e-003
  7.6450000000e+010  -5.6389641528e-004  -7.6388038991e-004   5.0566339679e-001   4.5931719072e-001   5.1408689872e-001   4.5177490703e-001  -4.0699952839e-004   1.0280535685e-003
  7.6475000000e+010  -5.6357519028e-004  -7.6244123215e-004   5.0568783501e-001   4.5929185454e-001   5.1411248313e-001   4.5174638498e-001  -4.0890766545e-004   1.0271223191e-003
  7.6500000000e+010  -5.6324834747e-004  -7.6097896747e-004   5.0571268523e-001   4.5926609225e-001   5.1413849902e-001   4.5171738253e-001  -4.1079917181e-004   1.0261560835e-003
  7.6525000000e+010  -5.6291587850e-004  -7.5949366003e-004   5.0573794734e-001   4.5923990401e-001   5.1416494626e-001   4.5168789982e-001  -4.1267399360e-004   1.0251548869e-003
  7.6550000000e+010  -5.6257777493e-004  -7.5798537497e-004   5.0576362124e-001   4.5921329000e-001   5.1419182476e-001   4.5165793702e-001  -4.1453207792e-004   1.0241187565e-003
  7.6575000000e+010  -5.6223402820e-004  -7.5645417845e-004   5.0578970680e-001   4.5918625038e-001   5.1421913440e-001   4.5162749428e-001  -4.1637337277e-004   1.0230477217e-003
  7.6600000000e+010  -5.6188462967e-004  -7.5490013766e-004   5.0581620391e-001   4.5915878534e-001   5.1424687506e-001   4.5159657175e-001  -4.1819782712e-004   1.0219418136e-003
  7.6625000000e+010  -5.6152957058e-004  -7.5332332075e-004   5.0584311245e-001   4.5913089505e-001   5.1427504663e-001   4.5156516961e-001  -4.2000539086e-004   1.0208010656e-003
  7.6650000000e+010  -5.6116884206e-004  -7.5172379692e-004   5.0587043230e-001   4.5910257969e-001   5.1430364899e-001   4.5153328801e-001  -4.2179601484e-004   1.0196255130e-003
  7.6675000000e+010  -5.6080243517e-004  -7.5010163633e-004   5.0589816333e-001   4.5907383944e-001   5.1433268201e-001   4.5150092712e-001  -4.2356965085e-004   1.0184151932e-003
  7.6700000000e+010  -5.6043034086e-004  -7.4845691015e-004   5.0592630544e-001   4.5904467449e-001   5.1436214559e-001   4.5146808712e-001  -4.2532625159e-004   1.0171701456e-003
  7.6725000000e+010  -5.6005254999e-004  -7.4678969055e-004   5.0595485848e-001   4.5901508503e-001   5.1439203959e-001   4.5143476816e-001  -4.2706577074e-004   1.0158904117e-003
  7.6750000000e+010  -5.5966905330e-004  -7.4510005069e-004   5.0598382233e-001   4.5898507125e-001   5.1442236389e-001   4.5140097044e-001  -4.2878816291e-004   1.0145760349e-003
  7.6775000000e+010  -5.5927984149e-004  -7.4338806469e-004   5.0601319686e-001   4.5895463335e-001   5.1445311836e-001   4.5136669413e-001  -4.3049338364e-004   1.0132270607e-003
  7.6800000000e+010  -5.5888490513e-004  -7.4165380768e-004   5.0604298195e-001   4.5892377151e-001   5.1448430288e-001   4.5133193940e-001  -4.3218138941e-004   1.0118435366e-003
  7.6825000000e+010  -5.5848423471e-004  -7.3989735577e-004   5.0607317745e-001   4.5889248595e-001   5.1451591730e-001   4.5129670643e-001  -4.3385213768e-004   1.0104255122e-003
  7.6850000000e+010  -5.5807782064e-004  -7.3811878603e-004   5.0610378323e-001   4.5886077686e-001   5.1454796151e-001   4.5126099542e-001  -4.3550558679e-004   1.0089730391e-003
  7.6875000000e+010  -5.5766565325e-004  -7.3631817652e-004   5.0613479916e-001   4.5882864445e-001   5.1458043536e-001   4.5122480655e-001  -4.3714169607e-004   1.0074861708e-003
  7.6900000000e+010  -5.5724772279e-004  -7.3449560625e-004   5.0616622509e-001   4.5879608892e-001   5.1461333872e-001   4.5118814001e-001  -4.3876042577e-004   1.0059649630e-003
  7.6925000000e+010  -5.5682401942e-004  -7.3265115521e-004   5.0619806090e-001   4.5876311049e-001   5.1464667145e-001   4.5115099599e-001  -4.4036173709e-004   1.0044094733e-003
  7.6950000000e+010  -5.5639453321e-004  -7.3078490437e-004   5.0623030642e-001   4.5872970937e-001   5.1468043342e-001   4.5111337469e-001  -4.4194559214e-004   1.0028197613e-003
  7.6975000000e+010  -5.5595925419e-004  -7.2889693563e-004   5.0626296153e-001   4.5869588578e-001   5.1471462447e-001   4.5107527630e-001  -4.4351195401e-004   1.0011958888e-003
  7.7000000000e+010  -5.5551817228e-004  -7.2698733185e-004   5.0629602607e-001   4.5866163993e-001   5.1474924446e-001   4.5103670102e-001  -4.4506078671e-004   9.9953791939e-004
  7.7025000000e+010  -5.5507127736e-004  -7.2505617687e-004   5.0632949989e-001   4.5862697204e-001   5.1478429326e-001   4.5099764905e-001  -4.4659205517e-004   9.9784591883e-004
  7.7050000000e+010  -5.5461855921e-004  -7.2310355545e-004   5.0636338285e-001   4.5859188235e-001   5.1481977071e-001   4.5095812061e-001  -4.4810572529e-004   9.9611995481e-004
  7.7075000000e+010  -5.5416000755e-004  -7.2112955332e-004   5.0639767480e-001   4.5855637107e-001   5.1485567667e-001   4.5091811590e-001  -4.4960176388e-004   9.9436009707e-004
  7.7100000000e+010  -5.5369561205e-004  -7.1913425712e-004   5.0643237557e-001   4.5852043844e-001   5.1489201098e-001   4.5087763512e-001  -4.5108013870e-004   9.9256641732e-004
  7.7125000000e+010  -5.5322536229e-004  -7.1711775446e-004   5.0646748503e-001   4.5848408468e-001   5.1492877349e-001   4.5083667849e-001  -4.5254081843e-004   9.9073898931e-004
  7.7150000000e+010  -5.5274924782e-004  -7.1508013388e-004   5.0650300300e-001   4.5844731004e-001   5.1496596404e-001   4.5079524622e-001  -4.5398377270e-004   9.8887788877e-004
  7.7175000000e+010  -5.5226725810e-004  -7.1302148483e-004   5.0653892933e-001   4.5841011476e-001   5.1500358249e-001   4.5075333853e-001  -4.5540897205e-004   9.8698319342e-004
  7.7200000000e+010  -5.5177938255e-004  -7.1094189770e-004   5.0657526386e-001   4.5837249906e-001   5.1504162867e-001   4.5071095565e-001  -4.5681638798e-004   9.8505498299e-004
  7.7225000000e+010  -5.5128561052e-004  -7.0884146382e-004   5.0661200643e-001   4.5833446319e-001   5.1508010242e-001   4.5066809778e-001  -4.5820599289e-004   9.8309333921e-004
  7.7250000000e+010  -5.5078593132e-004  -7.0672027541e-004   5.0664915687e-001   4.5829600741e-001   5.1511900359e-001   4.5062476516e-001  -4.5957776012e-004   9.8109834577e-004
  7.7275000000e+010  -5.5028033420e-004  -7.0457842563e-004   5.0668671502e-001   4.5825713195e-001   5.1515833200e-001   4.5058095802e-001  -4.6093166394e-004   9.7907008837e-004
  7.7300000000e+010  -5.4976880837e-004  -7.0241600854e-004   5.0672468071e-001   4.5821783708e-001   5.1519808749e-001   4.5053667658e-001  -4.6226767955e-004   9.7700865469e-004
  7.7325000000e+010  -5.4925134299e-004  -7.0023311910e-004   5.0676305376e-001   4.5817812304e-001   5.1523826990e-001   4.5049192107e-001  -4.6358578305e-004   9.7491413436e-004
  7.7350000000e+010  -5.4872792716e-004  -6.9802985319e-004   5.0680183402e-001   4.5813799008e-001   5.1527887906e-001   4.5044669174e-001  -4.6488595149e-004   9.7278661902e-004
  7.7375000000e+010  -5.4819854996e-004  -6.9580630759e-004   5.0684102129e-001   4.5809743848e-001   5.1531991479e-001   4.5040098881e-001  -4.6616816283e-004   9.7062620227e-004
  7.7400000000e+010  -5.4766320041e-004  -6.9356257995e-004   5.0688061542e-001   4.5805646848e-001   5.1536137692e-001   4.5035481253e-001  -4.6743239593e-004   9.6843297966e-004
  7.7425000000e+010  -5.4712186751e-004  -6.9129876884e-004   5.0692061621e-001   4.5801508036e-001   5.1540326529e-001   4.5030816314e-001  -4.6867863060e-004   9.6620704871e-004
  7.7450000000e+010  -5.4657454021e-004  -6.8901497370e-004   5.0696102350e-001   4.5797327439e-001   5.1544557971e-001   4.5026104087e-001  -4.6990684754e-004   9.6394850891e-004
  7.7475000000e+010  -5.4602120743e-004  -6.8671129486e-004   5.0700183709e-001   4.5793105082e-001   5.1548832000e-001   4.5021344599e-001  -4.7111702838e-004   9.6165746169e-004
  7.7500000000e+010  -5.4546185806e-004  -6.8438783354e-004   5.0704305682e-001   4.5788840994e-001   5.1553148599e-001   4.5016537874e-001  -4.7230915565e-004   9.5933401044e-004
  7.7525000000e+010  -5.4489648097e-004  -6.8204469181e-004   5.0708468249e-001   4.5784535202e-001   5.1557507749e-001   4.5011683937e-001  -4.7348321278e-004   9.5697826048e-004
  7.7550000000e+010  -5.4432506499e-004  -6.7968197263e-004   5.0712671391e-001   4.5780187733e-001   5.1561909432e-001   4.5006782813e-001  -4.7463918414e-004   9.5459031908e-004
  7.7575000000e+010  -5.4374759893e-004  -6.7729977981e-004   5.0716915091e-001   4.5775798617e-001   5.1566353630e-001   4.5001834529e-001  -4.7577705497e-004   9.5217029543e-004
  7.7600000000e+010  -5.4316407158e-004  -6.7489821803e-004   5.0721199328e-001   4.5771367880e-001   5.1570840323e-001   4.4996839109e-001  -4.7689681143e-004   9.4971830068e-004
  7.7625000000e+010  -5.4257447170e-004  -6.7247739283e-004   5.0725524084e-001   4.5766895552e-001   5.1575369494e-001   4.4991796581e-001  -4.7799844057e-004   9.4723444787e-004
  7.7650000000e+010  -5.4197878807e-004  -6.7003741059e-004   5.0729889340e-001   4.5762381662e-001   5.1579941122e-001   4.4986706971e-001  -4.7908193036e-004   9.4471885197e-004
  7.7675000000e+010  -5.4137700940e-004  -6.6757837856e-004   5.0734295075e-001   4.5757826238e-001   5.1584555190e-001   4.4981570304e-001  -4.8014726964e-004   9.4217162988e-004
  7.7700000000e+010  -5.4076912442e-004  -6.6510040480e-004   5.0738741271e-001   4.5753229310e-001   5.1589211676e-001   4.4976386610e-001  -4.8119444817e-004   9.3959290038e-004
