# Hz S RI R 50.000000
! Metas.Vna.Tools, 2.4.7724.19584
! Metas.Vna.Data, 2.4.7724.19560
! Created: UTC 2021.04.29 12:40:11
! FREQ                re:S1,1             im:S1,1             re:S2,1             im:S2,1             re:S1,2             im:S1,2             re:S2,2             im:S2,2          
  7.5000000000e+010  -5.3262597173e-004  -8.8201034616e-004   3.1737014474e-001   4.4974836874e-001   3.2874463956e-001   4.4120749544e-001  -1.1921060031e-004   1.3677571184e-003
  7.5025000000e+010  -5.3262230854e-004  -8.8198442944e-004   3.1737062405e-001   4.4974788192e-001   3.2874508318e-001   4.4120706760e-001  -1.2369816204e-004   1.3699604381e-003
  7.5050000000e+010  -5.3261498190e-004  -8.8193259711e-004   3.1737158268e-001   4.4974690828e-001   3.2874597040e-001   4.4120621192e-001  -1.2817590658e-004   1.3721118213e-003
  7.5075000000e+010  -5.3260399124e-004  -8.8185485139e-004   3.1737302062e-001   4.4974544782e-001   3.2874730123e-001   4.4120492841e-001  -1.3264363894e-004   1.3742111897e-003
  7.5100000000e+010  -5.3258933573e-004  -8.8175119559e-004   3.1737493787e-001   4.4974350056e-001   3.2874907566e-001   4.4120321708e-001  -1.3710116499e-004   1.3762584679e-003
  7.5125000000e+010  -5.3257101429e-004  -8.8162163413e-004   3.1737733441e-001   4.4974106651e-001   3.2875129368e-001   4.4120107794e-001  -1.4154829145e-004   1.3782535827e-003
  7.5150000000e+010  -5.3254902551e-004  -8.8146617256e-004   3.1738021023e-001   4.4973814567e-001   3.2875395529e-001   4.4119851100e-001  -1.4598482593e-004   1.3801964641e-003
  7.5175000000e+010  -5.3252336776e-004  -8.8128481750e-004   3.1738356533e-001   4.4973473808e-001   3.2875706046e-001   4.4119551628e-001  -1.5041057690e-004   1.3820870443e-003
  7.5200000000e+010  -5.3249403909e-004  -8.8107757670e-004   3.1738739968e-001   4.4973084374e-001   3.2876060918e-001   4.4119209380e-001  -1.5482535376e-004   1.3839252584e-003
  7.5225000000e+010  -5.3246103730e-004  -8.8084445901e-004   3.1739171328e-001   4.4972646269e-001   3.2876460144e-001   4.4118824358e-001  -1.5922896676e-004   1.3857110441e-003
  7.5250000000e+010  -5.3242435992e-004  -8.8058547439e-004   3.1739650609e-001   4.4972159495e-001   3.2876903721e-001   4.4118396566e-001  -1.6362122711e-004   1.3874443417e-003
  7.5275000000e+010  -5.3238400417e-004  -8.8030063388e-004   3.1740177811e-001   4.4971624054e-001   3.2877391648e-001   4.4117926006e-001  -1.6800194690e-004   1.3891250945e-003
  7.5300000000e+010  -5.3233996705e-004  -8.7998994966e-004   3.1740752930e-001   4.4971039951e-001   3.2877923922e-001   4.4117412680e-001  -1.7237093917e-004   1.3907532481e-003
  7.5325000000e+010  -5.3229224523e-004  -8.7965343498e-004   3.1741375965e-001   4.4970407188e-001   3.2878500540e-001   4.4116856594e-001  -1.7672801790e-004   1.3923287509e-003
  7.5350000000e+010  -5.3224083515e-004  -8.7929110422e-004   3.1742046912e-001   4.4969725769e-001   3.2879121500e-001   4.4116257750e-001  -1.8107299801e-004   1.3938515541e-003
  7.5375000000e+010  -5.3218573295e-004  -8.7890297285e-004   3.1742765769e-001   4.4968995699e-001   3.2879786799e-001   4.4115616152e-001  -1.8540569538e-004   1.3953216116e-003
  7.5400000000e+010  -5.3212693451e-004  -8.7848905744e-004   3.1743532532e-001   4.4968216982e-001   3.2880496433e-001   4.4114931805e-001  -1.8972592684e-004   1.3967388798e-003
  7.5425000000e+010  -5.3206443545e-004  -8.7804937566e-004   3.1744347198e-001   4.4967389623e-001   3.2881250398e-001   4.4114204714e-001  -1.9403351022e-004   1.3981033179e-003
  7.5450000000e+010  -5.3199823108e-004  -8.7758394629e-004   3.1745209763e-001   4.4966513625e-001   3.2882048692e-001   4.4113434883e-001  -1.9832826432e-004   1.3994148880e-003
  7.5475000000e+010  -5.3192831649e-004  -8.7709278920e-004   3.1746120225e-001   4.4965588996e-001   3.2882891311e-001   4.4112622318e-001  -2.0261000893e-004   1.4006735546e-003
  7.5500000000e+010  -5.3185468645e-004  -8.7657592536e-004   3.1747078578e-001   4.4964615740e-001   3.2883778249e-001   4.4111767024e-001  -2.0687856482e-004   1.4018792851e-003
  7.5525000000e+010  -5.3177733550e-004  -8.7603337685e-004   3.1748084818e-001   4.4963593864e-001   3.2884709504e-001   4.4110869007e-001  -2.1113375382e-004   1.4030320496e-003
  7.5550000000e+010  -5.3169625790e-004  -8.7546516683e-004   3.1749138941e-001   4.4962523372e-001   3.2885685069e-001   4.4109928273e-001  -2.1537539871e-004   1.4041318208e-003
  7.5575000000e+010  -5.3161144762e-004  -8.7487131957e-004   3.1750240943e-001   4.4961404273e-001   3.2886704942e-001   4.4108944829e-001  -2.1960332336e-004   1.4051785742e-003
  7.5600000000e+010  -5.3152289840e-004  -8.7425186041e-004   3.1751390818e-001   4.4960236572e-001   3.2887769116e-001   4.4107918681e-001  -2.2381735262e-004   1.4061722881e-003
  7.5625000000e+010  -5.3143060368e-004  -8.7360681583e-004   3.1752588562e-001   4.4959020276e-001   3.2888877586e-001   4.4106849836e-001  -2.2801731240e-004   1.4071129434e-003
  7.5650000000e+010  -5.3133455666e-004  -8.7293621335e-004   3.1753834169e-001   4.4957755393e-001   3.2890030347e-001   4.4105738301e-001  -2.3220302968e-004   1.4080005238e-003
  7.5675000000e+010  -5.3123475026e-004  -8.7224008162e-004   3.1755127634e-001   4.4956441931e-001   3.2891227394e-001   4.4104584085e-001  -2.3637433246e-004   1.4088350157e-003
  7.5700000000e+010  -5.3113117715e-004  -8.7151845037e-004   3.1756468951e-001   4.4955079897e-001   3.2892468721e-001   4.4103387194e-001  -2.4053104983e-004   1.4096164081e-003
  7.5725000000e+010  -5.3102382971e-004  -8.7077135041e-004   3.1757858115e-001   4.4953669300e-001   3.2893754320e-001   4.4102147637e-001  -2.4467301194e-004   1.4103446930e-003
  7.5750000000e+010  -5.3091270010e-004  -8.6999881365e-004   3.1759295118e-001   4.4952210148e-001   3.2895084188e-001   4.4100865423e-001  -2.4880005002e-004   1.4110198650e-003
  7.5775000000e+010  -5.3079778018e-004  -8.6920087308e-004   3.1760779955e-001   4.4950702450e-001   3.2896458315e-001   4.4099540559e-001  -2.5291199640e-004   1.4116419213e-003
  7.5800000000e+010  -5.3067906157e-004  -8.6837756278e-004   3.1762312620e-001   4.4949146214e-001   3.2897876697e-001   4.4098173056e-001  -2.5700868449e-004   1.4122108621e-003
  7.5825000000e+010  -5.3055653563e-004  -8.6752891790e-004   3.1763893105e-001   4.4947541451e-001   3.2899339326e-001   4.4096762922e-001  -2.6108994880e-004   1.4127266900e-003
  7.5850000000e+010  -5.3043019347e-004  -8.6665497470e-004   3.1765521404e-001   4.4945888169e-001   3.2900846195e-001   4.4095310168e-001  -2.6515562497e-004   1.4131894107e-003
  7.5875000000e+010  -5.3030002592e-004  -8.6575577050e-004   3.1767197509e-001   4.4944186380e-001   3.2902397297e-001   4.4093814802e-001  -2.6920554973e-004   1.4135990325e-003
  7.5900000000e+010  -5.3016602358e-004  -8.6483134370e-004   3.1768921414e-001   4.4942436092e-001   3.2903992624e-001   4.4092276835e-001  -2.7323956095e-004   1.4139555662e-003
  7.5925000000e+010  -5.3002817679e-004  -8.6388173378e-004   3.1770693110e-001   4.4940637317e-001   3.2905632168e-001   4.4090696277e-001  -2.7725749763e-004   1.4142590257e-003
  7.5950000000e+010  -5.2988647563e-004  -8.6290698131e-004   3.1772512590e-001   4.4938790066e-001   3.2907315921e-001   4.4089073140e-001  -2.8125919989e-004   1.4145094273e-003
  7.5975000000e+010  -5.2974090992e-004  -8.6190712792e-004   3.1774379845e-001   4.4936894349e-001   3.2909043875e-001   4.4087407433e-001  -2.8524450902e-004   1.4147067904e-003
  7.6000000000e+010  -5.2959146927e-004  -8.6088221631e-004   3.1776294868e-001   4.4934950177e-001   3.2910816022e-001   4.4085699170e-001  -2.8921326745e-004   1.4148511369e-003
  7.6025000000e+010  -5.2943814299e-004  -8.5983229026e-004   3.1778257651e-001   4.4932957564e-001   3.2912632354e-001   4.4083948360e-001  -2.9316531875e-004   1.4149424915e-003
  7.6050000000e+010  -5.2928092018e-004  -8.5875739463e-004   3.1780268184e-001   4.4930916520e-001   3.2914492860e-001   4.4082155016e-001  -2.9710050768e-004   1.4149808815e-003
  7.6075000000e+010  -5.2911978968e-004  -8.5765757532e-004   3.1782326458e-001   4.4928827058e-001   3.2916397532e-001   4.4080319151e-001  -3.0101868015e-004   1.4149663372e-003
  7.6100000000e+010  -5.2895474009e-004  -8.5653287931e-004   3.1784432465e-001   4.4926689190e-001   3.2918346361e-001   4.4078440776e-001  -3.0491968326e-004   1.4148988914e-003
  7.6125000000e+010  -5.2878575977e-004  -8.5538335465e-004   3.1786586196e-001   4.4924502929e-001   3.2920339338e-001   4.4076519905e-001  -3.0880336529e-004   1.4147785798e-003
  7.6150000000e+010  -5.2861283682e-004  -8.5420905045e-004   3.1788787641e-001   4.4922268289e-001   3.2922376452e-001   4.4074556550e-001  -3.1266957570e-004   1.4146054407e-003
  7.6175000000e+010  -5.2843595913e-004  -8.5301001686e-004   3.1791036790e-001   4.4919985283e-001   3.2924457693e-001   4.4072550725e-001  -3.1651816515e-004   1.4143795152e-003
  7.6200000000e+010  -5.2825511433e-004  -8.5178630512e-004   3.1793333634e-001   4.4917653924e-001   3.2926583052e-001   4.4070502443e-001  -3.2034898550e-004   1.4141008471e-003
  7.6225000000e+010  -5.2807028982e-004  -8.5053796751e-004   3.1795678161e-001   4.4915274226e-001   3.2928752519e-001   4.4068411718e-001  -3.2416188982e-004   1.4137694830e-003
  7.6250000000e+010  -5.2788147277e-004  -8.4926505735e-004   3.1798070363e-001   4.4912846205e-001   3.2930966081e-001   4.4066278565e-001  -3.2795673238e-004   1.4133854722e-003
  7.6275000000e+010  -5.2768865012e-004  -8.4796762902e-004   3.1800510229e-001   4.4910369874e-001   3.2933223730e-001   4.4064102998e-001  -3.3173336868e-004   1.4129488666e-003
  7.6300000000e+010  -5.2749180856e-004  -8.4664573797e-004   3.1802997747e-001   4.4907845248e-001   3.2935525453e-001   4.4061885032e-001  -3.3549165545e-004   1.4124597209e-003
  7.6325000000e+010  -5.2729093456e-004  -8.4529944067e-004   3.1805532907e-001   4.4905272343e-001   3.2937871240e-001   4.4059624681e-001  -3.3923145062e-004   1.4119180927e-003
  7.6350000000e+010  -5.2708601438e-004  -8.4392879464e-004   3.1808115698e-001   4.4902651173e-001   3.2940261079e-001   4.4057321962e-001  -3.4295261338e-004   1.4113240420e-003
  7.6375000000e+010  -5.2687703404e-004  -8.4253385845e-004   3.1810746108e-001   4.4899981756e-001   3.2942694958e-001   4.4054976889e-001  -3.4665500415e-004   1.4106776318e-003
  7.6400000000e+010  -5.2666397933e-004  -8.4111469170e-004   3.1813424126e-001   4.4897264106e-001   3.2945172866e-001   4.4052589479e-001  -3.5033848458e-004   1.4099789276e-003
  7.6425000000e+010  -5.2644683582e-004  -8.3967135504e-004   3.1816149740e-001   4.4894498240e-001   3.2947694790e-001   4.4050159748e-001  -3.5400291760e-004   1.4092279977e-003
  7.6450000000e+010  -5.2622558886e-004  -8.3820391014e-004   3.1818922939e-001   4.4891684175e-001   3.2950260718e-001   4.4047687712e-001  -3.5764816737e-004   1.4084249132e-003
  7.6475000000e+010  -5.2600022360e-004  -8.3671241972e-004   3.1821743709e-001   4.4888821927e-001   3.2952870638e-001   4.4045173388e-001  -3.6127409931e-004   1.4075697476e-003
  7.6500000000e+010  -5.2577072496e-004  -8.3519694750e-004   3.1824612039e-001   4.4885911514e-001   3.2955524537e-001   4.4042616794e-001  -3.6488058012e-004   1.4066625775e-003
  7.6525000000e+010  -5.2553707763e-004  -8.3365755825e-004   3.1827527915e-001   4.4882952953e-001   3.2958222401e-001   4.4040017946e-001  -3.6846747774e-004   1.4057034819e-003
  7.6550000000e+010  -5.2529926612e-004  -8.3209431777e-004   3.1830491326e-001   4.4879946263e-001   3.2960964219e-001   4.4037376862e-001  -3.7203466141e-004   1.4046925427e-003
  7.6575000000e+010  -5.2505727470e-004  -8.3050729287e-004   3.1833502258e-001   4.4876891460e-001   3.2963749976e-001   4.4034693560e-001  -3.7558200163e-004   1.4036298443e-003
  7.6600000000e+010  -5.2481108746e-004  -8.2889655136e-004   3.1836560697e-001   4.4873788564e-001   3.2966579658e-001   4.4031968058e-001  -3.7910937019e-004   1.4025154738e-003
  7.6625000000e+010  -5.2456068826e-004  -8.2726216211e-004   3.1839666631e-001   4.4870637593e-001   3.2969453253e-001   4.4029200375e-001  -3.8261664016e-004   1.4013495212e-003
  7.6650000000e+010  -5.2430606076e-004  -8.2560419497e-004   3.1842820046e-001   4.4867438566e-001   3.2972370746e-001   4.4026390530e-001  -3.8610368589e-004   1.4001320789e-003
  7.6675000000e+010  -5.2404718844e-004  -8.2392272080e-004   3.1846020928e-001   4.4864191502e-001   3.2975332122e-001   4.4023538541e-001  -3.8957038306e-004   1.3988632421e-003
  7.6700000000e+010  -5.2378405456e-004  -8.2221781148e-004   3.1849269262e-001   4.4860896421e-001   3.2978337368e-001   4.4020644428e-001  -3.9301660860e-004   1.3975431088e-003
  7.6725000000e+010  -5.2351664218e-004  -8.2048953989e-004   3.1852565035e-001   4.4857553342e-001   3.2981386468e-001   4.4017708211e-001  -3.9644224077e-004   1.3961717794e-003
  7.6750000000e+010  -5.2324493419e-004  -8.1873797992e-004   3.1855908232e-001   4.4854162286e-001   3.2984479409e-001   4.4014729909e-001  -3.9984715912e-004   1.3947493572e-003
  7.6775000000e+010  -5.2296891326e-004  -8.1696320644e-004   3.1859298839e-001   4.4850723273e-001   3.2987616173e-001   4.4011709543e-001  -4.0323124453e-004   1.3932759479e-003
  7.6800000000e+010  -5.2268856189e-004  -8.1516529533e-004   3.1862736839e-001   4.4847236323e-001   3.2990796748e-001   4.4008647132e-001  -4.0659437917e-004   1.3917516600e-003
  7.6825000000e+010  -5.2240386238e-004  -8.1334432345e-004   3.1866222219e-001   4.4843701458e-001   3.2994021116e-001   4.4005542699e-001  -4.0993644653e-004   1.3901766047e-003
  7.6850000000e+010  -5.2211479685e-004  -8.1150036867e-004   3.1869754963e-001   4.4840118698e-001   3.2997289262e-001   4.4002396263e-001  -4.1325733142e-004   1.3885508958e-003
  7.6875000000e+010  -5.2182134723e-004  -8.0963350981e-004   3.1873335056e-001   4.4836488066e-001   3.3000601171e-001   4.3999207847e-001  -4.1655691998e-004   1.3868746495e-003
  7.6900000000e+010  -5.2152349529e-004  -8.0774382672e-004   3.1876962481e-001   4.4832809583e-001   3.3003956825e-001   4.3995977471e-001  -4.1983509966e-004   1.3851479850e-003
  7.6925000000e+010  -5.2122122260e-004  -8.0583140018e-004   3.1880637223e-001   4.4829083270e-001   3.3007356209e-001   4.3992705158e-001  -4.2309175925e-004   1.3833710239e-003
  7.6950000000e+010  -5.2091451056e-004  -8.0389631198e-004   3.1884359265e-001   4.4825309152e-001   3.3010799306e-001   4.3989390930e-001  -4.2632678887e-004   1.3815438905e-003
  7.6975000000e+010  -5.2060334040e-004  -8.0193864486e-004   3.1888128592e-001   4.4821487249e-001   3.3014286100e-001   4.3986034809e-001  -4.2954007995e-004   1.3796667115e-003
  7.7000000000e+010  -5.2028769319e-004  -7.9995848256e-004   3.1891945186e-001   4.4817617585e-001   3.3017816573e-001   4.3982636818e-001  -4.3273152530e-004   1.3777396165e-003
  7.7025000000e+010  -5.1996754981e-004  -7.9795590975e-004   3.1895809031e-001   4.4813700184e-001   3.3021390707e-001   4.3979196980e-001  -4.3590101903e-004   1.3757627374e-003
  7.7050000000e+010  -5.1964289100e-004  -7.9593101208e-004   3.1899720110e-001   4.4809735068e-001   3.3025008487e-001   4.3975715319e-001  -4.3904845660e-004   1.3737362090e-003
  7.7075000000e+010  -5.1931369731e-004  -7.9388387616e-004   3.1903678405e-001   4.4805722262e-001   3.3028669893e-001   4.3972191857e-001  -4.4217373483e-004   1.3716601684e-003
  7.7100000000e+010  -5.1897994916e-004  -7.9181458955e-004   3.1907683900e-001   4.4801661789e-001   3.3032374908e-001   4.3968626620e-001  -4.4527675186e-004   1.3695347555e-003
  7.7125000000e+010  -5.1864162678e-004  -7.8972324076e-004   3.1911736576e-001   4.4797553675e-001   3.3036123515e-001   4.3965019630e-001  -4.4835740721e-004   1.3673601125e-003
  7.7150000000e+010  -5.1829871028e-004  -7.8760991925e-004   3.1915836416e-001   4.4793397943e-001   3.3039915694e-001   4.3961370912e-001  -4.5141560171e-004   1.3651363844e-003
  7.7175000000e+010  -5.1795117959e-004  -7.8547471542e-004   3.1919983402e-001   4.4789194618e-001   3.3043751427e-001   4.3957680492e-001  -4.5445123758e-004   1.3628637187e-003
  7.7200000000e+010  -5.1759901451e-004  -7.8331772062e-004   3.1924177515e-001   4.4784943726e-001   3.3047630696e-001   4.3953948393e-001  -4.5746421837e-004   1.3605422653e-003
  7.7225000000e+010  -5.1724219468e-004  -7.8113902713e-004   3.1928418737e-001   4.4780645293e-001   3.3051553481e-001   4.3950174642e-001  -4.6045444899e-004   1.3581721768e-003
  7.7250000000e+010  -5.1688069961e-004  -7.7893872816e-004   3.1932707050e-001   4.4776299343e-001   3.3055519764e-001   4.3946359263e-001  -4.6342183571e-004   1.3557536082e-003
  7.7275000000e+010  -5.1651450867e-004  -7.7671691785e-004   3.1937042434e-001   4.4771905904e-001   3.3059529525e-001   4.3942502283e-001  -4.6636628616e-004   1.3532867172e-003
  7.7300000000e+010  -5.1614360107e-004  -7.7447369128e-004   3.1941424870e-001   4.4767465001e-001   3.3063582744e-001   4.3938603728e-001  -4.6928770933e-004   1.3507716638e-003
  7.7325000000e+010  -5.1576795591e-004  -7.7220914442e-004   3.1945854339e-001   4.4762976661e-001   3.3067679402e-001   4.3934663624e-001  -4.7218601557e-004   1.3482086106e-003
  7.7350000000e+010  -5.1538755215e-004  -7.6992337418e-004   3.1950330822e-001   4.4758440911e-001   3.3071819479e-001   4.3930681997e-001  -4.7506111658e-004   1.3455977227e-003
  7.7375000000e+010  -5.1500236861e-004  -7.6761647838e-004   3.1954854298e-001   4.4753857778e-001   3.3076002954e-001   4.3926658875e-001  -4.7791292545e-004   1.3429391677e-003
  7.7400000000e+010  -5.1461238401e-004  -7.6528855575e-004   3.1959424749e-001   4.4749227290e-001   3.3080229808e-001   4.3922594285e-001  -4.8074135662e-004   1.3402331156e-003
  7.7425000000e+010  -5.1421757692e-004  -7.6293970591e-004   3.1964042153e-001   4.4744549474e-001   3.3084500018e-001   4.3918488254e-001  -4.8354632589e-004   1.3374797390e-003
  7.7450000000e+010  -5.1381792581e-004  -7.6057002941e-004   3.1968706491e-001   4.4739824358e-001   3.3088813566e-001   4.3914340810e-001  -4.8632775044e-004   1.3346792127e-003
  7.7475000000e+010  -5.1341340903e-004  -7.5817962765e-004   3.1973417741e-001   4.4735051971e-001   3.3093170429e-001   4.3910151982e-001  -4.8908554880e-004   1.3318317143e-003
  7.7500000000e+010  -5.1300400479e-004  -7.5576860298e-004   3.1978175884e-001   4.4730232342e-001   3.3097570586e-001   4.3905921797e-001  -4.9181964089e-004   1.3289374235e-003
  7.7525000000e+010  -5.1258969123e-004  -7.5333705859e-004   3.1982980898e-001   4.4725365499e-001   3.3102014016e-001   4.3901650284e-001  -4.9452994798e-004   1.3259965227e-003
  7.7550000000e+010  -5.1217044635e-004  -7.5088509858e-004   3.1987832762e-001   4.4720451471e-001   3.3106500698e-001   4.3897337471e-001  -4.9721639273e-004   1.3230091965e-003
  7.7575000000e+010  -5.1174624806e-004  -7.4841282793e-004   3.1992731454e-001   4.4715490287e-001   3.3111030608e-001   4.3892983389e-001  -4.9987889914e-004   1.3199756321e-003
  7.7600000000e+010  -5.1131707418e-004  -7.4592035247e-004   3.1997676954e-001   4.4710481979e-001   3.3115603726e-001   4.3888588066e-001  -5.0251739261e-004   1.3168960191e-003
  7.7625000000e+010  -5.1088290240e-004  -7.4340777893e-004   3.2002669239e-001   4.4705426575e-001   3.3120220029e-001   4.3884151533e-001  -5.0513179988e-004   1.3137705491e-003
  7.7650000000e+010  -5.1044371035e-004  -7.4087521489e-004   3.2007708287e-001   4.4700324105e-001   3.3124879493e-001   4.3879673818e-001  -5.0772204910e-004   1.3105994167e-003
  7.7675000000e+010  -5.0999947554e-004  -7.3832276879e-004   3.2012794076e-001   4.4695174601e-001   3.3129582098e-001   4.3875154953e-001  -5.1028806974e-004   1.3073828184e-003
  7.7700000000e+010  -5.0955017541e-004  -7.3575054995e-004   3.2017926584e-001   4.4689978093e-001   3.3134327819e-001   4.3870594967e-001  -5.1282979268e-004   1.3041209531e-003
