# Hz S RI R 50.000000
! Metas.Vna.Tools, 2.4.7724.19584
! Metas.Vna.Data, 2.4.7724.19560
! Created: UTC 2021.04.29 12:40:11
! FREQ                re:S1,1             im:S1,1             re:S2,1             im:S2,1             re:S1,2             im:S1,2             re:S2,2             im:S2,2          
  7.5000000000e+010  -5.0092741231e-004  -9.8987666938e-004   1.5588252871e-001   3.8202894601e-001   1.6424414093e-001   3.7868668533e-001  -2.8093404773e-004   1.8192793578e-003
  7.5025000000e+010  -5.0092440405e-004  -9.8984873219e-004   1.5588299102e-001   3.8202853231e-001   1.6424458264e-001   3.7868628932e-001  -2.8761636009e-004   1.8185047729e-003
  7.5050000000e+010  -5.0091838721e-004  -9.8979285899e-004   1.5588391564e-001   3.8202770490e-001   1.6424546606e-001   3.7868549732e-001  -2.9427704126e-004   1.8176689898e-003
  7.5075000000e+010  -5.0090936118e-004  -9.8970905209e-004   1.5588530256e-001   3.8202646380e-001   1.6424679118e-001   3.7868430931e-001  -3.0091581916e-004   1.8167720866e-003
  7.5100000000e+010  -5.0089732500e-004  -9.8959731501e-004   1.5588715177e-001   3.8202480901e-001   1.6424855799e-001   3.7868272531e-001  -3.0753242329e-004   1.8158141443e-003
  7.5125000000e+010  -5.0088227741e-004  -9.8945765241e-004   1.5588946327e-001   3.8202274054e-001   1.6425076649e-001   3.7868074534e-001  -3.1412658481e-004   1.8147952466e-003
  7.5150000000e+010  -5.0086421686e-004  -9.8929007013e-004   1.5589223704e-001   3.8202025841e-001   1.6425341666e-001   3.7867836939e-001  -3.2069803651e-004   1.8137154799e-003
  7.5175000000e+010  -5.0084314144e-004  -9.8909457515e-004   1.5589547308e-001   3.8201736262e-001   1.6425650849e-001   3.7867559750e-001  -3.2724651281e-004   1.8125749332e-003
  7.5200000000e+010  -5.0081904897e-004  -9.8887117565e-004   1.5589917135e-001   3.8201405322e-001   1.6426004196e-001   3.7867242967e-001  -3.3377174981e-004   1.8113736982e-003
  7.5225000000e+010  -5.0079193693e-004  -9.8861988095e-004   1.5590333184e-001   3.8201033020e-001   1.6426401706e-001   3.7866886593e-001  -3.4027348528e-004   1.8101118695e-003
  7.5250000000e+010  -5.0076180249e-004  -9.8834070156e-004   1.5590795453e-001   3.8200619360e-001   1.6426843376e-001   3.7866490630e-001  -3.4675145869e-004   1.8087895441e-003
  7.5275000000e+010  -5.0072864252e-004  -9.8803364912e-004   1.5591303939e-001   3.8200164345e-001   1.6427329204e-001   3.7866055080e-001  -3.5320541118e-004   1.8074068218e-003
  7.5300000000e+010  -5.0069245358e-004  -9.8769873646e-004   1.5591858640e-001   3.8199667977e-001   1.6427859187e-001   3.7865579947e-001  -3.5963508564e-004   1.8059638052e-003
  7.5325000000e+010  -5.0065323189e-004  -9.8733597758e-004   1.5592459553e-001   3.8199130260e-001   1.6428433322e-001   3.7865065233e-001  -3.6604022665e-004   1.8044605993e-003
  7.5350000000e+010  -5.0061097338e-004  -9.8694538761e-004   1.5593106674e-001   3.8198551197e-001   1.6429051607e-001   3.7864510943e-001  -3.7242058054e-004   1.8028973119e-003
  7.5375000000e+010  -5.0056567368e-004  -9.8652698288e-004   1.5593800000e-001   3.8197930792e-001   1.6429714038e-001   3.7863917078e-001  -3.7877589537e-004   1.8012740536e-003
  7.5400000000e+010  -5.0051732808e-004  -9.8608078085e-004   1.5594539527e-001   3.8197269049e-001   1.6430420612e-001   3.7863283644e-001  -3.8510592099e-004   1.7995909375e-003
  7.5425000000e+010  -5.0046593159e-004  -9.8560680016e-004   1.5595325252e-001   3.8196565973e-001   1.6431171324e-001   3.7862610644e-001  -3.9141040898e-004   1.7978480794e-003
  7.5450000000e+010  -5.0041147889e-004  -9.8510506062e-004   1.5596157169e-001   3.8195821568e-001   1.6431966171e-001   3.7861898083e-001  -3.9768911272e-004   1.7960455977e-003
  7.5475000000e+010  -5.0035396436e-004  -9.8457558316e-004   1.5597035275e-001   3.8195035839e-001   1.6432805148e-001   3.7861145965e-001  -4.0394178739e-004   1.7941836135e-003
  7.5500000000e+010  -5.0029338207e-004  -9.8401838992e-004   1.5597959565e-001   3.8194208791e-001   1.6433688251e-001   3.7860354295e-001  -4.1016818994e-004   1.7922622507e-003
  7.5525000000e+010  -5.0022972578e-004  -9.8343350415e-004   1.5598930034e-001   3.8193340430e-001   1.6434615476e-001   3.7859523079e-001  -4.1636807916e-004   1.7902816354e-003
  7.5550000000e+010  -5.0016298896e-004  -9.8282095029e-004   1.5599946677e-001   3.8192430761e-001   1.6435586816e-001   3.7858652321e-001  -4.2254121565e-004   1.7882418968e-003
  7.5575000000e+010  -5.0009316476e-004  -9.8218075393e-004   1.5601009488e-001   3.8191479790e-001   1.6436602268e-001   3.7857742028e-001  -4.2868736185e-004   1.7861431666e-003
  7.5600000000e+010  -5.0002024602e-004  -9.8151294180e-004   1.5602118461e-001   3.8190487524e-001   1.6437661825e-001   3.7856792205e-001  -4.3480628202e-004   1.7839855788e-003
  7.5625000000e+010  -4.9994422529e-004  -9.8081754179e-004   1.5603273591e-001   3.8189453969e-001   1.6438765482e-001   3.7855802859e-001  -4.4089774231e-004   1.7817692705e-003
  7.5650000000e+010  -4.9986509481e-004  -9.8009458297e-004   1.5604474871e-001   3.8188379131e-001   1.6439913233e-001   3.7854773995e-001  -4.4696151070e-004   1.7794943812e-003
  7.5675000000e+010  -4.9978284653e-004  -9.7934409551e-004   1.5605722295e-001   3.8187263019e-001   1.6441105072e-001   3.7853705621e-001  -4.5299735706e-004   1.7771610528e-003
  7.5700000000e+010  -4.9969747207e-004  -9.7856611077e-004   1.5607015857e-001   3.8186105639e-001   1.6442340992e-001   3.7852597743e-001  -4.5900505313e-004   1.7747694302e-003
  7.5725000000e+010  -4.9960896278e-004  -9.7776066125e-004   1.5608355549e-001   3.8184906998e-001   1.6443620988e-001   3.7851450369e-001  -4.6498437255e-004   1.7723196606e-003
  7.5750000000e+010  -4.9951730971e-004  -9.7692778060e-004   1.5609741364e-001   3.8183667106e-001   1.6444945051e-001   3.7850263505e-001  -4.7093509087e-004   1.7698118938e-003
  7.5775000000e+010  -4.9942250359e-004  -9.7606750360e-004   1.5611173294e-001   3.8182385969e-001   1.6446313175e-001   3.7849037161e-001  -4.7685698552e-004   1.7672462825e-003
  7.5800000000e+010  -4.9932453487e-004  -9.7517986619e-004   1.5612651333e-001   3.8181063597e-001   1.6447725352e-001   3.7847771343e-001  -4.8274983589e-004   1.7646229815e-003
  7.5825000000e+010  -4.9922339371e-004  -9.7426490546e-004   1.5614175471e-001   3.8179699997e-001   1.6449181575e-001   3.7846466060e-001  -4.8861342326e-004   1.7619421485e-003
  7.5850000000e+010  -4.9911906997e-004  -9.7332265962e-004   1.5615745702e-001   3.8178295179e-001   1.6450681837e-001   3.7845121320e-001  -4.9444753086e-004   1.7592039437e-003
  7.5875000000e+010  -4.9901155320e-004  -9.7235316804e-004   1.5617362016e-001   3.8176849153e-001   1.6452226129e-001   3.7843737133e-001  -5.0025194388e-004   1.7564085299e-003
  7.5900000000e+010  -4.9890083268e-004  -9.7135647122e-004   1.5619024404e-001   3.8175361927e-001   1.6453814442e-001   3.7842313506e-001  -5.0602644944e-004   1.7535560722e-003
  7.5925000000e+010  -4.9878689741e-004  -9.7033261080e-004   1.5620732859e-001   3.8173833511e-001   1.6455446769e-001   3.7840850450e-001  -5.1177083664e-004   1.7506467386e-003
  7.5950000000e+010  -4.9866973607e-004  -9.6928162956e-004   1.5622487370e-001   3.8172263916e-001   1.6457123100e-001   3.7839347973e-001  -5.1748489655e-004   1.7476806993e-003
  7.5975000000e+010  -4.9854933707e-004  -9.6820357141e-004   1.5624287929e-001   3.8170653152e-001   1.6458843427e-001   3.7837806086e-001  -5.2316842219e-004   1.7446581274e-003
  7.6000000000e+010  -4.9842568854e-004  -9.6709848139e-004   1.5626134525e-001   3.8169001229e-001   1.6460607740e-001   3.7836224798e-001  -5.2882120860e-004   1.7415791982e-003
  7.6025000000e+010  -4.9829877831e-004  -9.6596640567e-004   1.5628027149e-001   3.8167308158e-001   1.6462416031e-001   3.7834604120e-001  -5.3444305280e-004   1.7384440896e-003
  7.6050000000e+010  -4.9816859395e-004  -9.6480739155e-004   1.5629965790e-001   3.8165573951e-001   1.6464268288e-001   3.7832944062e-001  -5.4003375382e-004   1.7352529820e-003
  7.6075000000e+010  -4.9803512272e-004  -9.6362148747e-004   1.5631950439e-001   3.8163798618e-001   1.6466164503e-001   3.7831244634e-001  -5.4559311267e-004   1.7320060585e-003
  7.6100000000e+010  -4.9789835163e-004  -9.6240874297e-004   1.5633981084e-001   3.8161982171e-001   1.6468104665e-001   3.7829505849e-001  -5.5112093241e-004   1.7287035045e-003
  7.6125000000e+010  -4.9775826739e-004  -9.6116920873e-004   1.5636057715e-001   3.8160124623e-001   1.6470088763e-001   3.7827727717e-001  -5.5661701811e-004   1.7253455078e-003
  7.6150000000e+010  -4.9761485644e-004  -9.5990293655e-004   1.5638180320e-001   3.8158225985e-001   1.6472116788e-001   3.7825910250e-001  -5.6208117686e-004   1.7219322589e-003
  7.6175000000e+010  -4.9746810495e-004  -9.5860997934e-004   1.5640348888e-001   3.8156286270e-001   1.6474188728e-001   3.7824053459e-001  -5.6751321780e-004   1.7184639505e-003
  7.6200000000e+010  -4.9731799882e-004  -9.5729039113e-004   1.5642563408e-001   3.8154305491e-001   1.6476304572e-001   3.7822157356e-001  -5.7291295210e-004   1.7149407782e-003
  7.6225000000e+010  -4.9716452366e-004  -9.5594422708e-004   1.5644823867e-001   3.8152283660e-001   1.6478464308e-001   3.7820221954e-001  -5.7828019300e-004   1.7113629395e-003
  7.6250000000e+010  -4.9700766484e-004  -9.5457154343e-004   1.5647130253e-001   3.8150220791e-001   1.6480667926e-001   3.7818247266e-001  -5.8361475578e-004   1.7077306347e-003
  7.6275000000e+010  -4.9684740743e-004  -9.5317239757e-004   1.5649482555e-001   3.8148116898e-001   1.6482915414e-001   3.7816233303e-001  -5.8891645778e-004   1.7040440666e-003
  7.6300000000e+010  -4.9668373627e-004  -9.5174684796e-004   1.5651880759e-001   3.8145971994e-001   1.6485206759e-001   3.7814180080e-001  -5.9418511842e-004   1.7003034401e-003
  7.6325000000e+010  -4.9651663591e-004  -9.5029495419e-004   1.5654324853e-001   3.8143786093e-001   1.6487541948e-001   3.7812087608e-001  -5.9942055918e-004   1.6965089627e-003
  7.6350000000e+010  -4.9634609064e-004  -9.4881677694e-004   1.5656814823e-001   3.8141559210e-001   1.6489920971e-001   3.7809955903e-001  -6.0462260364e-004   1.6926608443e-003
  7.6375000000e+010  -4.9617208451e-004  -9.4731237800e-004   1.5659350656e-001   3.8139291359e-001   1.6492343813e-001   3.7807784978e-001  -6.0979107744e-004   1.6887592973e-003
  7.6400000000e+010  -4.9599460129e-004  -9.4578182025e-004   1.5661932339e-001   3.8136982555e-001   1.6494810462e-001   3.7805574846e-001  -6.1492580832e-004   1.6848045364e-003
  7.6425000000e+010  -4.9581362451e-004  -9.4422516768e-004   1.5664559858e-001   3.8134632814e-001   1.6497320905e-001   3.7803325523e-001  -6.2002662613e-004   1.6807967785e-003
  7.6450000000e+010  -4.9562913743e-004  -9.4264248534e-004   1.5667233197e-001   3.8132242150e-001   1.6499875128e-001   3.7801037022e-001  -6.2509336281e-004   1.6767362432e-003
  7.6475000000e+010  -4.9544112309e-004  -9.4103383942e-004   1.5669952345e-001   3.8129810580e-001   1.6502473117e-001   3.7798709358e-001  -6.3012585240e-004   1.6726231521e-003
  7.6500000000e+010  -4.9524956424e-004  -9.3939929715e-004   1.5672717284e-001   3.8127338119e-001   1.6505114859e-001   3.7796342547e-001  -6.3512393105e-004   1.6684577296e-003
  7.6525000000e+010  -4.9505444342e-004  -9.3773892687e-004   1.5675528002e-001   3.8124824784e-001   1.6507800339e-001   3.7793936604e-001  -6.4008743705e-004   1.6642402020e-003
  7.6550000000e+010  -4.9485574290e-004  -9.3605279801e-004   1.5678384482e-001   3.8122270591e-001   1.6510529544e-001   3.7791491544e-001  -6.4501621077e-004   1.6599707983e-003
  7.6575000000e+010  -4.9465344471e-004  -9.3434098105e-004   1.5681286710e-001   3.8119675556e-001   1.6513302458e-001   3.7789007383e-001  -6.4991009475e-004   1.6556497494e-003
  7.6600000000e+010  -4.9444753066e-004  -9.3260354757e-004   1.5684234670e-001   3.8117039698e-001   1.6516119066e-001   3.7786484137e-001  -6.5476893361e-004   1.6512772890e-003
  7.6625000000e+010  -4.9423798231e-004  -9.3084057023e-004   1.5687228345e-001   3.8114363032e-001   1.6518979354e-001   3.7783921824e-001  -6.5959257413e-004   1.6468536527e-003
  7.6650000000e+010  -4.9402478097e-004  -9.2905212273e-004   1.5690267721e-001   3.8111645577e-001   1.6521883306e-001   3.7781320458e-001  -6.6438086524e-004   1.6423790786e-003
  7.6675000000e+010  -4.9380790774e-004  -9.2723827987e-004   1.5693352780e-001   3.8108887351e-001   1.6524830906e-001   3.7778680057e-001  -6.6913365797e-004   1.6378538070e-003
  7.6700000000e+010  -4.9358734348e-004  -9.2539911750e-004   1.5696483506e-001   3.8106088371e-001   1.6527822139e-001   3.7776000638e-001  -6.7385080552e-004   1.6332780805e-003
  7.6725000000e+010  -4.9336306882e-004  -9.2353471253e-004   1.5699659883e-001   3.8103248656e-001   1.6530856989e-001   3.7773282219e-001  -6.7853216324e-004   1.6286521440e-003
  7.6750000000e+010  -4.9313506416e-004  -9.2164514294e-004   1.5702881893e-001   3.8100368225e-001   1.6533935440e-001   3.7770524816e-001  -6.8317758862e-004   1.6239762445e-003
  7.6775000000e+010  -4.9290330969e-004  -9.1973048775e-004   1.5706149518e-001   3.8097447096e-001   1.6537057475e-001   3.7767728448e-001  -6.8778694130e-004   1.6192506315e-003
  7.6800000000e+010  -4.9266778537e-004  -9.1779082704e-004   1.5709462743e-001   3.8094485288e-001   1.6540223076e-001   3.7764893134e-001  -6.9236008307e-004   1.6144755563e-003
  7.6825000000e+010  -4.9242847094e-004  -9.1582624196e-004   1.5712821548e-001   3.8091482822e-001   1.6543432229e-001   3.7762018890e-001  -6.9689687791e-004   1.6096512729e-003
  7.6850000000e+010  -4.9218534594e-004  -9.1383681466e-004   1.5716225916e-001   3.8088439716e-001   1.6546684914e-001   3.7759105736e-001  -7.0139719193e-004   1.6047780372e-003
  7.6875000000e+010  -4.9193838968e-004  -9.1182262838e-004   1.5719675828e-001   3.8085355990e-001   1.6549981115e-001   3.7756153691e-001  -7.0586089341e-004   1.5998561073e-003
  7.6900000000e+010  -4.9168758126e-004  -9.0978376736e-004   1.5723171266e-001   3.8082231666e-001   1.6553320814e-001   3.7753162773e-001  -7.1028785281e-004   1.5948857437e-003
  7.6925000000e+010  -4.9143289958e-004  -9.0772031692e-004   1.5726712211e-001   3.8079066763e-001   1.6556703994e-001   3.7750133002e-001  -7.1467794274e-004   1.5898672087e-003
  7.6950000000e+010  -4.9117432334e-004  -9.0563236336e-004   1.5730298645e-001   3.8075861301e-001   1.6560130635e-001   3.7747064398e-001  -7.1903103799e-004   1.5848007672e-003
  7.6975000000e+010  -4.9091183103e-004  -9.0351999406e-004   1.5733930547e-001   3.8072615303e-001   1.6563600720e-001   3.7743956980e-001  -7.2334701552e-004   1.5796866858e-003
  7.7000000000e+010  -4.9064540094e-004  -9.0138329740e-004   1.5737607899e-001   3.8069328789e-001   1.6567114230e-001   3.7740810769e-001  -7.2762575447e-004   1.5745252335e-003
  7.7025000000e+010  -4.9037501117e-004  -8.9922236277e-004   1.5741330681e-001   3.8066001780e-001   1.6570671147e-001   3.7737625785e-001  -7.3186713614e-004   1.5693166815e-003
  7.7050000000e+010  -4.9010063962e-004  -8.9703728060e-004   1.5745098873e-001   3.8062634300e-001   1.6574271451e-001   3.7734402048e-001  -7.3607104402e-004   1.5640613027e-003
  7.7075000000e+010  -4.8982226400e-004  -8.9482814233e-004   1.5748912454e-001   3.8059226368e-001   1.6577915122e-001   3.7731139579e-001  -7.4023736378e-004   1.5587593726e-003
  7.7100000000e+010  -4.8953986184e-004  -8.9259504042e-004   1.5752771405e-001   3.8055778009e-001   1.6581602143e-001   3.7727838399e-001  -7.4436598325e-004   1.5534111685e-003
  7.7125000000e+010  -4.8925341047e-004  -8.9033806831e-004   1.5756675704e-001   3.8052289244e-001   1.6585332492e-001   3.7724498530e-001  -7.4845679246e-004   1.5480169697e-003
  7.7150000000e+010  -4.8896288706e-004  -8.8805732047e-004   1.5760625330e-001   3.8048760097e-001   1.6589106149e-001   3.7721119993e-001  -7.5250968362e-004   1.5425770577e-003
  7.7175000000e+010  -4.8866826858e-004  -8.8575289236e-004   1.5764620263e-001   3.8045190590e-001   1.6592923096e-001   3.7717702810e-001  -7.5652455110e-004   1.5370917161e-003
  7.7200000000e+010  -4.8836953184e-004  -8.8342488044e-004   1.5768660481e-001   3.8041580746e-001   1.6596783310e-001   3.7714247003e-001  -7.6050129148e-004   1.5315612304e-003
  7.7225000000e+010  -4.8806665347e-004  -8.8107338215e-004   1.5772745962e-001   3.8037930590e-001   1.6600686772e-001   3.7710752595e-001  -7.6443980349e-004   1.5259858881e-003
  7.7250000000e+010  -4.8775960992e-004  -8.7869849594e-004   1.5776876685e-001   3.8034240146e-001   1.6604633460e-001   3.7707219607e-001  -7.6833998808e-004   1.5203659788e-003
  7.7275000000e+010  -4.8744837750e-004  -8.7630032122e-004   1.5781052627e-001   3.8030509437e-001   1.6608623354e-001   3.7703648063e-001  -7.7220174836e-004   1.5147017940e-003
  7.7300000000e+010  -4.8713293232e-004  -8.7387895841e-004   1.5785273766e-001   3.8026738488e-001   1.6612656432e-001   3.7700037986e-001  -7.7602498960e-004   1.5089936274e-003
  7.7325000000e+010  -4.8681325037e-004  -8.7143450887e-004   1.5789540079e-001   3.8022927323e-001   1.6616732672e-001   3.7696389399e-001  -7.7980961931e-004   1.5032417743e-003
  7.7350000000e+010  -4.8648930745e-004  -8.6896707496e-004   1.5793851543e-001   3.8019075967e-001   1.6620852053e-001   3.7692702326e-001  -7.8355554712e-004   1.4974465323e-003
  7.7375000000e+010  -4.8616107923e-004  -8.6647676000e-004   1.5798208136e-001   3.8015184447e-001   1.6625014552e-001   3.7688976790e-001  -7.8726268489e-004   1.4916082006e-003
  7.7400000000e+010  -4.8582854120e-004  -8.6396366828e-004   1.5802609833e-001   3.8011252786e-001   1.6629220148e-001   3.7685212815e-001  -7.9093094661e-004   1.4857270807e-003
  7.7425000000e+010  -4.8549166874e-004  -8.6142790503e-004   1.5807056612e-001   3.8007281012e-001   1.6633468818e-001   3.7681410426e-001  -7.9456024851e-004   1.4798034757e-003
  7.7450000000e+010  -4.8515043705e-004  -8.5886957646e-004   1.5811548449e-001   3.8003269149e-001   1.6637760538e-001   3.7677569647e-001  -7.9815050894e-004   1.4738376907e-003
  7.7475000000e+010  -4.8480482122e-004  -8.5628878972e-004   1.5816085319e-001   3.7999217224e-001   1.6642095287e-001   3.7673690504e-001  -8.0170164846e-004   1.4678300328e-003
  7.7500000000e+010  -4.8445479617e-004  -8.5368565289e-004   1.5820667198e-001   3.7995125263e-001   1.6646473041e-001   3.7669773020e-001  -8.0521358979e-004   1.4617808108e-003
  7.7525000000e+010  -4.8410033672e-004  -8.5106027504e-004   1.5825294061e-001   3.7990993294e-001   1.6650893776e-001   3.7665817221e-001  -8.0868625785e-004   1.4556903353e-003
  7.7550000000e+010  -4.8374141753e-004  -8.4841276612e-004   1.5829965885e-001   3.7986821343e-001   1.6655357468e-001   3.7661823134e-001  -8.1211957969e-004   1.4495589190e-003
  7.7575000000e+010  -4.8337801315e-004  -8.4574323707e-004   1.5834682643e-001   3.7982609438e-001   1.6659864095e-001   3.7657790783e-001  -8.1551348457e-004   1.4433868761e-003
  7.7600000000e+010  -4.8301009800e-004  -8.4305179970e-004   1.5839444310e-001   3.7978357605e-001   1.6664413631e-001   3.7653720194e-001  -8.1886790390e-004   1.4371745230e-003
  7.7625000000e+010  -4.8263764638e-004  -8.4033856681e-004   1.5844250862e-001   3.7974065874e-001   1.6669006053e-001   3.7649611395e-001  -8.2218277125e-004   1.4309221775e-003
  7.7650000000e+010  -4.8226063246e-004  -8.3760365206e-004   1.5849102272e-001   3.7969734271e-001   1.6673641335e-001   3.7645464410e-001  -8.2545802237e-004   1.4246301595e-003
  7.7675000000e+010  -4.8187903033e-004  -8.3484717006e-004   1.5853998514e-001   3.7965362826e-001   1.6678319454e-001   3.7641279268e-001  -8.2869359516e-004   1.4182987903e-003
  7.7700000000e+010  -4.8149281392e-004  -8.3206923633e-004   1.5858939562e-001   3.7960951566e-001   1.6683040384e-001   3.7637055994e-001  -8.3188942969e-004   1.4119283934e-003
