# Hz S RI R 50.000000
! Metas.Vna.Tools, 2.4.7724.19584
! Metas.Vna.Data, 2.4.7724.19560
! Created: UTC 2021.04.29 12:40:11
! FREQ                re:S1,1             im:S1,1             re:S2,1             im:S2,1             re:S1,2             im:S1,2             re:S2,2             im:S2,2          
  7.5000000000e+010  -4.0158893751e-004  -1.1057446030e-003   3.0939603481e-002   2.5353172622e-001   3.9115134018e-002   2.5268075325e-001   3.9242420377e-004   1.4090598751e-003
  7.5025000000e+010  -4.0158789235e-004  -1.1057145602e-003   3.0939951636e-002   2.5353143881e-001   3.9115467071e-002   2.5268046905e-001   3.8684931104e-004   1.4107764974e-003
  7.5050000000e+010  -4.0158580165e-004  -1.1056544759e-003   3.0940647942e-002   2.5353086400e-001   3.9116133175e-002   2.5267990064e-001   3.8126123089e-004   1.4124395052e-003
  7.5075000000e+010  -4.0158266461e-004  -1.1055643524e-003   3.0941692398e-002   2.5353000179e-001   3.9117132328e-002   2.5267904803e-001   3.7566029609e-004   1.4140488247e-003
  7.5100000000e+010  -4.0157848008e-004  -1.1054441933e-003   3.0943084999e-002   2.5352885219e-001   3.9118464523e-002   2.5267791124e-001   3.7004683928e-004   1.4156043846e-003
  7.5125000000e+010  -4.0157324648e-004  -1.1052940035e-003   3.0944825737e-002   2.5352741521e-001   3.9120129756e-002   2.5267649025e-001   3.6442119299e-004   1.4171061165e-003
  7.5150000000e+010  -4.0156696186e-004  -1.1051137890e-003   3.0946914604e-002   2.5352569085e-001   3.9122128017e-002   2.5267478510e-001   3.5878368959e-004   1.4185539545e-003
  7.5175000000e+010  -4.0155962389e-004  -1.1049035570e-003   3.0949351590e-002   2.5352367913e-001   3.9124459297e-002   2.5267279578e-001   3.5313466129e-004   1.4199478354e-003
  7.5200000000e+010  -4.0155122982e-004  -1.1046633161e-003   3.0952136684e-002   2.5352138007e-001   3.9127123584e-002   2.5267052232e-001   3.4747444011e-004   1.4212876990e-003
  7.5225000000e+010  -4.0154177654e-004  -1.1043930757e-003   3.0955269873e-002   2.5351879368e-001   3.9130120866e-002   2.5266796474e-001   3.4180335788e-004   1.4225734874e-003
  7.5250000000e+010  -4.0153126054e-004  -1.1040928468e-003   3.0958751140e-002   2.5351591999e-001   3.9133451128e-002   2.5266512304e-001   3.3612174620e-004   1.4238051457e-003
  7.5275000000e+010  -4.0151967792e-004  -1.1037626415e-003   3.0962580471e-002   2.5351275901e-001   3.9137114353e-002   2.5266199726e-001   3.3042993644e-004   1.4249826216e-003
  7.5300000000e+010  -4.0150702438e-004  -1.1034024729e-003   3.0966757846e-002   2.5350931077e-001   3.9141110524e-002   2.5265858741e-001   3.2472825972e-004   1.4261058655e-003
  7.5325000000e+010  -4.0149329526e-004  -1.1030123555e-003   3.0971283245e-002   2.5350557529e-001   3.9145439622e-002   2.5265489353e-001   3.1901704686e-004   1.4271748307e-003
  7.5350000000e+010  -4.0147848549e-004  -1.1025923051e-003   3.0976156647e-002   2.5350155261e-001   3.9150101624e-002   2.5265091564e-001   3.1329662843e-004   1.4281894731e-003
  7.5375000000e+010  -4.0146258961e-004  -1.1021423384e-003   3.0981378028e-002   2.5349724276e-001   3.9155096510e-002   2.5264665377e-001   3.0756733467e-004   1.4291497514e-003
  7.5400000000e+010  -4.0144560180e-004  -1.1016624735e-003   3.0986947364e-002   2.5349264577e-001   3.9160424253e-002   2.5264210795e-001   3.0182949549e-004   1.4300556269e-003
  7.5425000000e+010  -4.0142751583e-004  -1.1011527297e-003   3.0992864628e-002   2.5348776167e-001   3.9166084828e-002   2.5263727823e-001   2.9608344048e-004   1.4309070639e-003
  7.5450000000e+010  -4.0140832510e-004  -1.1006131275e-003   3.0999129791e-002   2.5348259050e-001   3.9172078208e-002   2.5263216462e-001   2.9032949887e-004   1.4317040292e-003
  7.5475000000e+010  -4.0138802261e-004  -1.1000436885e-003   3.1005742824e-002   2.5347713230e-001   3.9178404363e-002   2.5262676718e-001   2.8456799948e-004   1.4324464926e-003
  7.5500000000e+010  -4.0136660099e-004  -1.0994444356e-003   3.1012703695e-002   2.5347138711e-001   3.9185063262e-002   2.5262108594e-001   2.7879927079e-004   1.4331344265e-003
  7.5525000000e+010  -4.0134405249e-004  -1.0988153928e-003   3.1020012371e-002   2.5346535498e-001   3.9192054874e-002   2.5261512095e-001   2.7302364082e-004   1.4337678061e-003
  7.5550000000e+010  -4.0132036896e-004  -1.0981565855e-003   3.1027668817e-002   2.5345903596e-001   3.9199379163e-002   2.5260887225e-001   2.6724143719e-004   1.4343466093e-003
  7.5575000000e+010  -4.0129554189e-004  -1.0974680399e-003   3.1035672995e-002   2.5345243008e-001   3.9207036094e-002   2.5260233989e-001   2.6145298708e-004   1.4348708170e-003
  7.5600000000e+010  -4.0126956238e-004  -1.0967497839e-003   3.1044024869e-002   2.5344553741e-001   3.9215025631e-002   2.5259552392e-001   2.5565861719e-004   1.4353404127e-003
  7.5625000000e+010  -4.0124242114e-004  -1.0960018462e-003   3.1052724397e-002   2.5343835799e-001   3.9223347733e-002   2.5258842440e-001   2.4985865377e-004   1.4357553826e-003
  7.5650000000e+010  -4.0121410853e-004  -1.0952242569e-003   3.1061771539e-002   2.5343089189e-001   3.9232002360e-002   2.5258104136e-001   2.4405342254e-004   1.4361157159e-003
  7.5675000000e+010  -4.0118461452e-004  -1.0944170472e-003   3.1071166251e-002   2.5342313915e-001   3.9240989470e-002   2.5257337488e-001   2.3824324874e-004   1.4364214045e-003
  7.5700000000e+010  -4.0115392868e-004  -1.0935802495e-003   3.1080908488e-002   2.5341509983e-001   3.9250309019e-002   2.5256542500e-001   2.3242845708e-004   1.4366724430e-003
  7.5725000000e+010  -4.0112204025e-004  -1.0927138974e-003   3.1090998203e-002   2.5340677401e-001   3.9259960962e-002   2.5255719179e-001   2.2660937170e-004   1.4368688288e-003
  7.5750000000e+010  -4.0108893806e-004  -1.0918180257e-003   3.1101435349e-002   2.5339816174e-001   3.9269945252e-002   2.5254867532e-001   2.2078631622e-004   1.4370105623e-003
  7.5775000000e+010  -4.0105461058e-004  -1.0908926704e-003   3.1112219875e-002   2.5338926308e-001   3.9280261840e-002   2.5253987564e-001   2.1495961366e-004   1.4370976464e-003
  7.5800000000e+010  -4.0101904592e-004  -1.0899378687e-003   3.1123351731e-002   2.5338007812e-001   3.9290910675e-002   2.5253079282e-001   2.0912958644e-004   1.4371300871e-003
  7.5825000000e+010  -4.0098223181e-004  -1.0889536589e-003   3.1134830861e-002   2.5337060691e-001   3.9301891706e-002   2.5252142693e-001   2.0329655639e-004   1.4371078929e-003
  7.5850000000e+010  -4.0094415561e-004  -1.0879400805e-003   3.1146657213e-002   2.5336084952e-001   3.9313204879e-002   2.5251177805e-001   1.9746084471e-004   1.4370310753e-003
  7.5875000000e+010  -4.0090480432e-004  -1.0868971742e-003   3.1158830728e-002   2.5335080605e-001   3.9324850140e-002   2.5250184624e-001   1.9162277196e-004   1.4368996486e-003
  7.5900000000e+010  -4.0086416457e-004  -1.0858249820e-003   3.1171351350e-002   2.5334047655e-001   3.9336827430e-002   2.5249163158e-001   1.8578265804e-004   1.4367136298e-003
  7.5925000000e+010  -4.0082222262e-004  -1.0847235469e-003   3.1184219018e-002   2.5332986112e-001   3.9349136692e-002   2.5248113414e-001   1.7994082219e-004   1.4364730387e-003
  7.5950000000e+010  -4.0077896438e-004  -1.0835929132e-003   3.1197433670e-002   2.5331895982e-001   3.9361777866e-002   2.5247035402e-001   1.7409758294e-004   1.4361778981e-003
  7.5975000000e+010  -4.0073437539e-004  -1.0824331262e-003   3.1210995243e-002   2.5330777275e-001   3.9374750890e-002   2.5245929128e-001   1.6825325814e-004   1.4358282334e-003
  7.6000000000e+010  -4.0068844084e-004  -1.0812442326e-003   3.1224903673e-002   2.5329630000e-001   3.9388055701e-002   2.5244794601e-001   1.6240816491e-004   1.4354240728e-003
  7.6025000000e+010  -4.0064114555e-004  -1.0800262801e-003   3.1239158893e-002   2.5328454164e-001   3.9401692233e-002   2.5243631831e-001   1.5656261964e-004   1.4349654476e-003
  7.6050000000e+010  -4.0059247400e-004  -1.0787793177e-003   3.1253760835e-002   2.5327249777e-001   3.9415660421e-002   2.5242440825e-001   1.5071693796e-004   1.4344523915e-003
  7.6075000000e+010  -4.0054241029e-004  -1.0775033955e-003   3.1268709429e-002   2.5326016848e-001   3.9429960196e-002   2.5241221592e-001   1.4487143475e-004   1.4338849413e-003
  7.6100000000e+010  -4.0049093821e-004  -1.0761985647e-003   3.1284004603e-002   2.5324755387e-001   3.9444591489e-002   2.5239974143e-001   1.3902642411e-004   1.4332631366e-003
  7.6125000000e+010  -4.0043804115e-004  -1.0748648778e-003   3.1299646284e-002   2.5323465402e-001   3.9459554228e-002   2.5238698485e-001   1.3318221933e-004   1.4325870195e-003
  7.6150000000e+010  -4.0038370219e-004  -1.0735023884e-003   3.1315634398e-002   2.5322146905e-001   3.9474848340e-002   2.5237394630e-001   1.2733913291e-004   1.4318566354e-003
  7.6175000000e+010  -4.0032790403e-004  -1.0721111512e-003   3.1331968868e-002   2.5320799906e-001   3.9490473751e-002   2.5236062587e-001   1.2149747650e-004   1.4310720321e-003
  7.6200000000e+010  -4.0027062906e-004  -1.0706912222e-003   3.1348649616e-002   2.5319424413e-001   3.9506430383e-002   2.5234702365e-001   1.1565756094e-004   1.4302332604e-003
  7.6225000000e+010  -4.0021185930e-004  -1.0692426583e-003   3.1365676562e-002   2.5318020439e-001   3.9522718161e-002   2.5233313976e-001   1.0981969620e-004   1.4293403738e-003
  7.6250000000e+010  -4.0015157645e-004  -1.0677655180e-003   3.1383049625e-002   2.5316587994e-001   3.9539337003e-002   2.5231897429e-001   1.0398419137e-004   1.4283934288e-003
  7.6275000000e+010  -4.0008976184e-004  -1.0662598604e-003   3.1400768721e-002   2.5315127088e-001   3.9556286830e-002   2.5230452736e-001   9.8151354687e-005   1.4273924845e-003
  7.6300000000e+010  -4.0002639650e-004  -1.0647257461e-003   3.1418833766e-002   2.5313637733e-001   3.9573567558e-002   2.5228979907e-001   9.2321493461e-005   1.4263376030e-003
  7.6325000000e+010  -3.9996146109e-004  -1.0631632369e-003   3.1437244674e-002   2.5312119941e-001   3.9591179102e-002   2.5227478953e-001   8.6494914106e-005   1.4252288489e-003
  7.6350000000e+010  -3.9989493597e-004  -1.0615723955e-003   3.1456001356e-002   2.5310573722e-001   3.9609121378e-002   2.5225949887e-001   8.0671922105e-005   1.4240662900e-003
  7.6375000000e+010  -3.9982680115e-004  -1.0599532859e-003   3.1475103722e-002   2.5308999090e-001   3.9627394298e-002   2.5224392719e-001   7.4852822002e-005   1.4228499966e-003
  7.6400000000e+010  -3.9975703632e-004  -1.0583059732e-003   3.1494551682e-002   2.5307396055e-001   3.9645997772e-002   2.5222807461e-001   6.9037917388e-005   1.4215800419e-003
  7.6425000000e+010  -3.9968562082e-004  -1.0566305237e-003   3.1514345142e-002   2.5305764630e-001   3.9664931710e-002   2.5221194125e-001   6.3227510882e-005   1.4202565019e-003
  7.6450000000e+010  -3.9961253371e-004  -1.0549270046e-003   3.1534484008e-002   2.5304104828e-001   3.9684196019e-002   2.5219552723e-001   5.7421904126e-005   1.4188794554e-003
  7.6475000000e+010  -3.9953775369e-004  -1.0531954846e-003   3.1554968183e-002   2.5302416661e-001   3.9703790605e-002   2.5217883268e-001   5.1621397762e-005   1.4174489841e-003
  7.6500000000e+010  -3.9946125916e-004  -1.0514360332e-003   3.1575797569e-002   2.5300700143e-001   3.9723715374e-002   2.5216185773e-001   4.5826291425e-005   1.4159651722e-003
  7.6525000000e+010  -3.9938302819e-004  -1.0496487213e-003   3.1596972067e-002   2.5298955286e-001   3.9743970226e-002   2.5214460250e-001   4.0036883728e-005   1.4144281070e-003
  7.6550000000e+010  -3.9930303855e-004  -1.0478336207e-003   3.1618491575e-002   2.5297182103e-001   3.9764555065e-002   2.5212706712e-001   3.4253472245e-005   1.4128378784e-003
  7.6575000000e+010  -3.9922126770e-004  -1.0459908044e-003   3.1640355991e-002   2.5295380609e-001   3.9785469789e-002   2.5210925173e-001   2.8476353503e-005   1.4111945792e-003
  7.6600000000e+010  -3.9913769277e-004  -1.0441203466e-003   3.1662565209e-002   2.5293550817e-001   3.9806714296e-002   2.5209115645e-001   2.2705822967e-005   1.4094983049e-003
  7.6625000000e+010  -3.9905229061e-004  -1.0422223225e-003   3.1685119124e-002   2.5291692741e-001   3.9828288483e-002   2.5207278144e-001   1.6942175024e-005   1.4077491537e-003
  7.6650000000e+010  -3.9896503774e-004  -1.0402968085e-003   3.1708017628e-002   2.5289806395e-001   3.9850192245e-002   2.5205412682e-001   1.1185702974e-005   1.4059472268e-003
  7.6675000000e+010  -3.9887591039e-004  -1.0383438820e-003   3.1731260610e-002   2.5287891793e-001   3.9872425474e-002   2.5203519273e-001   5.4366990145e-006   1.4040926280e-003
  7.6700000000e+010  -3.9878488450e-004  -1.0363636217e-003   3.1754847961e-002   2.5285948951e-001   3.9894988062e-002   2.5201597933e-001  -3.0454576991e-007   1.4021854639e-003
  7.6725000000e+010  -3.9869193570e-004  -1.0343561073e-003   3.1778779566e-002   2.5283977884e-001   3.9917879899e-002   2.5199648674e-001  -6.0377414221e-006   1.4002258439e-003
  7.6750000000e+010  -3.9859703934e-004  -1.0323214195e-003   3.1803055312e-002   2.5281978605e-001   3.9941100874e-002   2.5197671513e-001  -1.1762599125e-005   1.3982138802e-003
  7.6775000000e+010  -3.9850017046e-004  -1.0302596403e-003   3.1827675083e-002   2.5279951131e-001   3.9964650873e-002   2.5195666465e-001  -1.7478831212e-005   1.3961496876e-003
  7.6800000000e+010  -3.9840130383e-004  -1.0281708526e-003   3.1852638760e-002   2.5277895477e-001   3.9988529781e-002   2.5193633543e-001  -2.3186151183e-005   1.3940333837e-003
  7.6825000000e+010  -3.9830041392e-004  -1.0260551405e-003   3.1877946224e-002   2.5275811658e-001   4.0012737481e-002   2.5191572764e-001  -2.8884273710e-005   1.3918650890e-003
  7.6850000000e+010  -3.9819747494e-004  -1.0239125892e-003   3.1903597354e-002   2.5273699692e-001   4.0037273856e-002   2.5189484143e-001  -3.4572914659e-005   1.3896449266e-003
  7.6875000000e+010  -3.9809246080e-004  -1.0217432850e-003   3.1929592028e-002   2.5271559593e-001   4.0062138786e-002   2.5187367696e-001  -4.0251791091e-005   1.3873730224e-003
  7.6900000000e+010  -3.9798534514e-004  -1.0195473152e-003   3.1955930121e-002   2.5269391378e-001   4.0087332150e-002   2.5185223439e-001  -4.5920621284e-005   1.3850495049e-003
  7.6925000000e+010  -3.9787610133e-004  -1.0173247682e-003   3.1982611506e-002   2.5267195064e-001   4.0112853824e-002   2.5183051388e-001  -5.1579124736e-005   1.3826745055e-003
  7.6950000000e+010  -3.9776470246e-004  -1.0150757336e-003   3.2009636057e-002   2.5264970667e-001   4.0138703684e-002   2.5180851560e-001  -5.7227022184e-005   1.3802481583e-003
  7.6975000000e+010  -3.9765112137e-004  -1.0128003019e-003   3.2037003643e-002   2.5262718204e-001   4.0164881605e-002   2.5178623970e-001  -6.2864035609e-005   1.3777705999e-003
  7.7000000000e+010  -3.9753533061e-004  -1.0104985649e-003   3.2064714135e-002   2.5260437694e-001   4.0191387457e-002   2.5176368637e-001  -6.8489888253e-005   1.3752419700e-003
  7.7025000000e+010  -3.9741730250e-004  -1.0081706151e-003   3.2092767399e-002   2.5258129152e-001   4.0218221113e-002   2.5174085576e-001  -7.4104304628e-005   1.3726624106e-003
  7.7050000000e+010  -3.9729700907e-004  -1.0058165464e-003   3.2121163301e-002   2.5255792597e-001   4.0245382440e-002   2.5171774805e-001  -7.9707010525e-005   1.3700320668e-003
  7.7075000000e+010  -3.9717442212e-004  -1.0034364537e-003   3.2149901705e-002   2.5253428046e-001   4.0272871307e-002   2.5169436343e-001  -8.5297733028e-005   1.3673510859e-003
  7.7100000000e+010  -3.9704951319e-004  -1.0010304328e-003   3.2178982474e-002   2.5251035519e-001   4.0300687579e-002   2.5167070205e-001  -9.0876200527e-005   1.3646196184e-003
  7.7125000000e+010  -3.9692225356e-004  -9.9859858070e-004   3.2208405469e-002   2.5248615031e-001   4.0328831121e-002   2.5164676410e-001  -9.6442142721e-005   1.3618378172e-003
  7.7150000000e+010  -3.9679261429e-004  -9.9614099543e-004   3.2238170548e-002   2.5246166603e-001   4.0357301795e-002   2.5162254976e-001  -1.0199529064e-004   1.3590058378e-003
  7.7175000000e+010  -3.9666056617e-004  -9.9365777602e-004   3.2268277569e-002   2.5243690254e-001   4.0386099463e-002   2.5159805922e-001  -1.0753537664e-004   1.3561238387e-003
  7.7200000000e+010  -3.9652607977e-004  -9.9114902257e-004   3.2298726389e-002   2.5241186000e-001   4.0415223983e-002   2.5157329265e-001  -1.1306213443e-004   1.3531919807e-003
  7.7225000000e+010  -3.9638912541e-004  -9.8861483622e-004   3.2329516861e-002   2.5238653863e-001   4.0444675214e-002   2.5154825025e-001  -1.1857529907e-004   1.3502104274e-003
  7.7250000000e+010  -3.9624967320e-004  -9.8605531913e-004   3.2360648838e-002   2.5236093861e-001   4.0474453012e-002   2.5152293220e-001  -1.2407460699e-004   1.3471793452e-003
  7.7275000000e+010  -3.9610769301e-004  -9.8347057452e-004   3.2392122171e-002   2.5233506014e-001   4.0504557231e-002   2.5149733870e-001  -1.2955979601e-004   1.3440989029e-003
  7.7300000000e+010  -3.9596315446e-004  -9.8086070660e-004   3.2423936709e-002   2.5230890342e-001   4.0534987726e-002   2.5147146993e-001  -1.3503060531e-004   1.3409692720e-003
  7.7325000000e+010  -3.9581602700e-004  -9.7822582063e-004   3.2456092300e-002   2.5228246864e-001   4.0565744346e-002   2.5144532610e-001  -1.4048677547e-004   1.3377906267e-003
  7.7350000000e+010  -3.9566627981e-004  -9.7556602289e-004   3.2488588791e-002   2.5225575600e-001   4.0596826943e-002   2.5141890739e-001  -1.4592804850e-004   1.3345631438e-003
  7.7375000000e+010  -3.9551388189e-004  -9.7288142065e-004   3.2521426025e-002   2.5222876572e-001   4.0628235364e-002   2.5139221401e-001  -1.5135416781e-004   1.3312870027e-003
  7.7400000000e+010  -3.9535880201e-004  -9.7017212223e-004   3.2554603845e-002   2.5220149799e-001   4.0659969457e-002   2.5136524616e-001  -1.5676487823e-004   1.3279623854e-003
  7.7425000000e+010  -3.9520100875e-004  -9.6743823693e-004   3.2588122094e-002   2.5217395302e-001   4.0692029065e-002   2.5133800404e-001  -1.6215992603e-004   1.3245894763e-003
  7.7450000000e+010  -3.9504047047e-004  -9.6467987507e-004   3.2621980609e-002   2.5214613102e-001   4.0724414034e-002   2.5131048786e-001  -1.6753905893e-004   1.3211684628e-003
  7.7475000000e+010  -3.9487715533e-004  -9.6189714794e-004   3.2656179229e-002   2.5211803221e-001   4.0757124204e-002   2.5128269782e-001  -1.7290202609e-004   1.3176995345e-003
  7.7500000000e+010  -3.9471103130e-004  -9.5909016787e-004   3.2690717791e-002   2.5208965680e-001   4.0790159417e-002   2.5125463414e-001  -1.7824857814e-004   1.3141828838e-003
  7.7525000000e+010  -3.9454206615e-004  -9.5625904814e-004   3.2725596128e-002   2.5206100501e-001   4.0823519510e-002   2.5122629702e-001  -1.8357846719e-004   1.3106187055e-003
  7.7550000000e+010  -3.9437022748e-004  -9.5340390305e-004   3.2760814074e-002   2.5203207704e-001   4.0857204321e-002   2.5119768667e-001  -1.8889144682e-004   1.3070071971e-003
  7.7575000000e+010  -3.9419548268e-004  -9.5052484785e-004   3.2796371461e-002   2.5200287313e-001   4.0891213686e-002   2.5116880332e-001  -1.9418727209e-004   1.3033485584e-003
  7.7600000000e+010  -3.9401779897e-004  -9.4762199880e-004   3.2832268118e-002   2.5197339350e-001   4.0925547439e-002   2.5113964718e-001  -1.9946569957e-004   1.2996429921e-003
  7.7625000000e+010  -3.9383714338e-004  -9.4469547311e-004   3.2868503873e-002   2.5194363837e-001   4.0960205412e-002   2.5111021847e-001  -2.0472648733e-004   1.2958907032e-003
  7.7650000000e+010  -3.9365348279e-004  -9.4174538897e-004   3.2905078553e-002   2.5191360796e-001   4.0995187436e-002   2.5108051741e-001  -2.0996939497e-004   1.2920918991e-003
  7.7675000000e+010  -3.9346678389e-004  -9.3877186554e-004   3.2941991982e-002   2.5188330251e-001   4.1030493340e-002   2.5105054422e-001  -2.1519418357e-004   1.2882467899e-003
  7.7700000000e+010  -3.9327701321e-004  -9.3577502293e-004   3.2979243984e-002   2.5185272224e-001   4.1066122952e-002   2.5102029913e-001  -2.2040061579e-004   1.2843555882e-003
