# Hz S RI R 50.000000
! Metas.Vna.Tools, 2.4.7724.19584
! Metas.Vna.Data, 2.4.7724.19560
! Created: UTC 2021.04.29 12:40:11
! FREQ                re:S1,1             im:S1,1             re:S2,1             im:S2,1             re:S1,2             im:S1,2             re:S2,2             im:S2,2          
  7.5000000000e+010   5.4279029845e-004  -3.2552593909e-004  -3.6337309830e-002   1.0381334093e-001  -3.3386238009e-002   1.0476956075e-001  -2.2143919719e-005   1.6474496751e-003
  7.5025000000e+010   5.3975724349e-004  -3.2708662355e-004  -3.6337135506e-002   1.0381320365e-001  -3.3386066666e-002   1.0476942008e-001  -2.5959127786e-005   1.6475451560e-003
  7.5050000000e+010   5.3670950860e-004  -3.2863327341e-004  -3.6336786859e-002   1.0381292907e-001  -3.3385723983e-002   1.0476913876e-001  -2.9789826759e-005   1.6475768291e-003
  7.5075000000e+010   5.3364725906e-004  -3.3016580046e-004  -3.6336263890e-002   1.0381251721e-001  -3.3385209958e-002   1.0476871678e-001  -3.3635652864e-005   1.6475447280e-003
  7.5100000000e+010   5.3057066093e-004  -3.3168411712e-004  -3.6335566600e-002   1.0381196808e-001  -3.3384524594e-002   1.0476815414e-001  -3.7496242659e-005   1.6474488893e-003
  7.5125000000e+010   5.2747988109e-004  -3.3318813646e-004  -3.6334694992e-002   1.0381128167e-001  -3.3383667894e-002   1.0476745085e-001  -4.1371233054e-005   1.6472893524e-003
  7.5150000000e+010   5.2437508715e-004  -3.3467777216e-004  -3.6333649068e-002   1.0381045800e-001  -3.3382639859e-002   1.0476660693e-001  -4.5260261330e-005   1.6470661603e-003
  7.5175000000e+010   5.2125644753e-004  -3.3615293857e-004  -3.6332428833e-002   1.0380949708e-001  -3.3381440493e-002   1.0476562238e-001  -4.9162965166e-005   1.6467793584e-003
  7.5200000000e+010   5.1812413137e-004  -3.3761355069e-004  -3.6331034290e-002   1.0380839891e-001  -3.3380069799e-002   1.0476449721e-001  -5.3078982649e-005   1.6464289956e-003
  7.5225000000e+010   5.1497830857e-004  -3.3905952416e-004  -3.6329465444e-002   1.0380716352e-001  -3.3378527783e-002   1.0476323144e-001  -5.7007952305e-005   1.6460151238e-003
  7.5250000000e+010   5.1181914976e-004  -3.4049077532e-004  -3.6327722300e-002   1.0380579092e-001  -3.3376814448e-002   1.0476182508e-001  -6.0949513111e-005   1.6455377977e-003
  7.5275000000e+010   5.0864682627e-004  -3.4190722118e-004  -3.6325804863e-002   1.0380428112e-001  -3.3374929800e-002   1.0476027815e-001  -6.4903304522e-005   1.6449970752e-003
  7.5300000000e+010   5.0546151016e-004  -3.4330877944e-004  -3.6323713141e-002   1.0380263414e-001  -3.3372873844e-002   1.0475859066e-001  -6.8868966488e-005   1.6443930173e-003
  7.5325000000e+010   5.0226337417e-004  -3.4469536849e-004  -3.6321447140e-002   1.0380085000e-001  -3.3370646588e-002   1.0475676264e-001  -7.2846139471e-005   1.6437256879e-003
  7.5350000000e+010   4.9905259173e-004  -3.4606690743e-004  -3.6319006867e-002   1.0379892873e-001  -3.3368248038e-002   1.0475479411e-001  -7.6834464472e-005   1.6429951540e-003
  7.5375000000e+010   4.9582933693e-004  -3.4742331607e-004  -3.6316392330e-002   1.0379687034e-001  -3.3365678202e-002   1.0475268509e-001  -8.0833583045e-005   1.6422014857e-003
  7.5400000000e+010   4.9259378455e-004  -3.4876451493e-004  -3.6313603539e-002   1.0379467487e-001  -3.3362937087e-002   1.0475043561e-001  -8.4843137320e-005   1.6413447561e-003
  7.5425000000e+010   4.8934610999e-004  -3.5009042528e-004  -3.6310640502e-002   1.0379234234e-001  -3.3360024702e-002   1.0474804569e-001  -8.8862770021e-005   1.6404250411e-003
  7.5450000000e+010   4.8608648931e-004  -3.5140096912e-004  -3.6307503230e-002   1.0378987277e-001  -3.3356941056e-002   1.0474551536e-001  -9.2892124488e-005   1.6394424200e-003
  7.5475000000e+010   4.8281509916e-004  -3.5269606917e-004  -3.6304191731e-002   1.0378726620e-001  -3.3353686158e-002   1.0474284465e-001  -9.6930844694e-005   1.6383969749e-003
  7.5500000000e+010   4.7953211685e-004  -3.5397564892e-004  -3.6300706019e-002   1.0378452266e-001  -3.3350260020e-002   1.0474003359e-001  -1.0097857526e-004   1.6372887909e-003
  7.5525000000e+010   4.7623772025e-004  -3.5523963264e-004  -3.6297046103e-002   1.0378164219e-001  -3.3346662650e-002   1.0473708222e-001  -1.0503496150e-004   1.6361179562e-003
  7.5550000000e+010   4.7293208786e-004  -3.5648794533e-004  -3.6293211996e-002   1.0377862481e-001  -3.3342894061e-002   1.0473399057e-001  -1.0909964940e-004   1.6348845622e-003
  7.5575000000e+010   4.6961539872e-004  -3.5772051278e-004  -3.6289203712e-002   1.0377547056e-001  -3.3338954264e-002   1.0473075868e-001  -1.1317228565e-004   1.6335887029e-003
  7.5600000000e+010   4.6628783246e-004  -3.5893726157e-004  -3.6285021262e-002   1.0377217949e-001  -3.3334843271e-002   1.0472738659e-001  -1.1725251770e-004   1.6322304755e-003
  7.5625000000e+010   4.6294956927e-004  -3.6013811906e-004  -3.6280664661e-002   1.0376875163e-001  -3.3330561095e-002   1.0472387432e-001  -1.2133999373e-004   1.6308099804e-003
  7.5650000000e+010   4.5960078985e-004  -3.6132301341e-004  -3.6276133923e-002   1.0376518703e-001  -3.3326107750e-002   1.0472022194e-001  -1.2543436269e-004   1.6293273208e-003
  7.5675000000e+010   4.5624167546e-004  -3.6249187360e-004  -3.6271429064e-002   1.0376148572e-001  -3.3321483249e-002   1.0471642948e-001  -1.2953527431e-004   1.6277826029e-003
  7.5700000000e+010   4.5287240788e-004  -3.6364462938e-004  -3.6266550098e-002   1.0375764776e-001  -3.3316687606e-002   1.0471249698e-001  -1.3364237916e-004   1.6261759358e-003
  7.5725000000e+010   4.4949316937e-004  -3.6478121138e-004  -3.6261497042e-002   1.0375367318e-001  -3.3311720837e-002   1.0470842449e-001  -1.3775532859e-004   1.6245074320e-003
  7.5750000000e+010   4.4610414272e-004  -3.6590155100e-004  -3.6256269913e-002   1.0374956205e-001  -3.3306582957e-002   1.0470421206e-001  -1.4187377482e-004   1.6227772064e-003
  7.5775000000e+010   4.4270551117e-004  -3.6700558052e-004  -3.6250868727e-002   1.0374531440e-001  -3.3301273981e-002   1.0469985974e-001  -1.4599737092e-004   1.6209853774e-003
  7.5800000000e+010   4.3929745845e-004  -3.6809323303e-004  -3.6245293503e-002   1.0374093029e-001  -3.3295793927e-002   1.0469536759e-001  -1.5012577085e-004   1.6191320661e-003
  7.5825000000e+010   4.3588016874e-004  -3.6916444248e-004  -3.6239544260e-002   1.0373640977e-001  -3.3290142811e-002   1.0469073564e-001  -1.5425862946e-004   1.6172173966e-003
  7.5850000000e+010   4.3245382668e-004  -3.7021914368e-004  -3.6233621015e-002   1.0373175291e-001  -3.3284320650e-002   1.0468596397e-001  -1.5839560252e-004   1.6152414960e-003
  7.5875000000e+010   4.2901861732e-004  -3.7125727230e-004  -3.6227523790e-002   1.0372695974e-001  -3.3278327464e-002   1.0468105262e-001  -1.6253634673e-004   1.6132044944e-003
  7.5900000000e+010   4.2557472616e-004  -3.7227876487e-004  -3.6221252603e-002   1.0372203034e-001  -3.3272163270e-002   1.0467600165e-001  -1.6668051975e-004   1.6111065248e-003
  7.5925000000e+010   4.2212233909e-004  -3.7328355882e-004  -3.6214807476e-002   1.0371696477e-001  -3.3265828088e-002   1.0467081113e-001  -1.7082778020e-004   1.6089477232e-003
  7.5950000000e+010   4.1866164240e-004  -3.7427159244e-004  -3.6208188431e-002   1.0371176307e-001  -3.3259321937e-002   1.0466548111e-001  -1.7497778769e-004   1.6067282285e-003
  7.5975000000e+010   4.1519282278e-004  -3.7524280493e-004  -3.6201395488e-002   1.0370642533e-001  -3.3252644837e-002   1.0466001166e-001  -1.7913020284e-004   1.6044481825e-003
  7.6000000000e+010   4.1171606728e-004  -3.7619713636e-004  -3.6194428670e-002   1.0370095160e-001  -3.3245796810e-002   1.0465440284e-001  -1.8328468729e-004   1.6021077301e-003
  7.6025000000e+010   4.0823156332e-004  -3.7713452774e-004  -3.6187288001e-002   1.0369534194e-001  -3.3238777876e-002   1.0464865472e-001  -1.8744090372e-004   1.5997070189e-003
  7.6050000000e+010   4.0473949865e-004  -3.7805492096e-004  -3.6179973504e-002   1.0368959643e-001  -3.3231588057e-002   1.0464276737e-001  -1.9159851585e-004   1.5972461997e-003
  7.6075000000e+010   4.0124006139e-004  -3.7895825885e-004  -3.6172485204e-002   1.0368371514e-001  -3.3224227377e-002   1.0463674085e-001  -1.9575718851e-004   1.5947254259e-003
  7.6100000000e+010   3.9773343995e-004  -3.7984448514e-004  -3.6164823124e-002   1.0367769814e-001  -3.3216695857e-002   1.0463057523e-001  -1.9991658759e-004   1.5921448540e-003
  7.6125000000e+010   3.9421982308e-004  -3.8071354451e-004  -3.6156987291e-002   1.0367154550e-001  -3.3208993520e-002   1.0462427060e-001  -2.0407638009e-004   1.5895046434e-003
  7.6150000000e+010   3.9069939981e-004  -3.8156538258e-004  -3.6148977731e-002   1.0366525730e-001  -3.3201120392e-002   1.0461782702e-001  -2.0823623415e-004   1.5868049564e-003
  7.6175000000e+010   3.8717235948e-004  -3.8239994588e-004  -3.6140794469e-002   1.0365883361e-001  -3.3193076496e-002   1.0461124458e-001  -2.1239581905e-004   1.5840459581e-003
  7.6200000000e+010   3.8363889168e-004  -3.8321718193e-004  -3.6132437533e-002   1.0365227451e-001  -3.3184861858e-002   1.0460452334e-001  -2.1655480520e-004   1.5812278165e-003
  7.6225000000e+010   3.8009918628e-004  -3.8401703918e-004  -3.6123906952e-002   1.0364558008e-001  -3.3176476503e-002   1.0459766339e-001  -2.2071286422e-004   1.5783507026e-003
  7.6250000000e+010   3.7655343341e-004  -3.8479946705e-004  -3.6115202752e-002   1.0363875041e-001  -3.3167920456e-002   1.0459066480e-001  -2.2486966889e-004   1.5754147901e-003
  7.6275000000e+010   3.7300182341e-004  -3.8556441592e-004  -3.6106324963e-002   1.0363178557e-001  -3.3159193746e-002   1.0458352767e-001  -2.2902489323e-004   1.5724202557e-003
  7.6300000000e+010   3.6944454688e-004  -3.8631183716e-004  -3.6097273615e-002   1.0362468564e-001  -3.3150296398e-002   1.0457625207e-001  -2.3317821244e-004   1.5693672789e-003
  7.6325000000e+010   3.6588179460e-004  -3.8704168311e-004  -3.6088048737e-002   1.0361745073e-001  -3.3141228441e-002   1.0456883810e-001  -2.3732930300e-004   1.5662560419e-003
  7.6350000000e+010   3.6231375759e-004  -3.8775390709e-004  -3.6078650360e-002   1.0361008090e-001  -3.3131989903e-002   1.0456128583e-001  -2.4147784260e-004   1.5630867300e-003
  7.6375000000e+010   3.5874062702e-004  -3.8844846341e-004  -3.6069078515e-002   1.0360257627e-001  -3.3122580812e-002   1.0455359536e-001  -2.4562351024e-004   1.5598595311e-003
  7.6400000000e+010   3.5516259428e-004  -3.8912530740e-004  -3.6059333234e-002   1.0359493690e-001  -3.3113001199e-002   1.0454576678e-001  -2.4976598619e-004   1.5565746360e-003
  7.6425000000e+010   3.5157985089e-004  -3.8978439536e-004  -3.6049414549e-002   1.0358716290e-001  -3.3103251092e-002   1.0453780019e-001  -2.5390495200e-004   1.5532322385e-003
  7.6450000000e+010   3.4799258855e-004  -3.9042568461e-004  -3.6039322493e-002   1.0357925436e-001  -3.3093330522e-002   1.0452969566e-001  -2.5804009057e-004   1.5498325349e-003
  7.6475000000e+010   3.4440099907e-004  -3.9104913351e-004  -3.6029057099e-002   1.0357121138e-001  -3.3083239520e-002   1.0452145331e-001  -2.6217108611e-004   1.5463757244e-003
  7.6500000000e+010   3.4080527441e-004  -3.9165470140e-004  -3.6018618402e-002   1.0356303406e-001  -3.3072978118e-002   1.0451307323e-001  -2.6629762417e-004   1.5428620090e-003
  7.6525000000e+010   3.3720560666e-004  -3.9224234866e-004  -3.6008006437e-002   1.0355472249e-001  -3.3062546347e-002   1.0450455551e-001  -2.7041939168e-004   1.5392915935e-003
  7.6550000000e+010   3.3360218797e-004  -3.9281203671e-004  -3.5997221238e-002   1.0354627677e-001  -3.3051944240e-002   1.0449590026e-001  -2.7453607692e-004   1.5356646855e-003
  7.6575000000e+010   3.2999521064e-004  -3.9336372799e-004  -3.5986262841e-002   1.0353769702e-001  -3.3041171830e-002   1.0448710758e-001  -2.7864736959e-004   1.5319814952e-003
  7.6600000000e+010   3.2638486699e-004  -3.9389738599e-004  -3.5975131283e-002   1.0352898332e-001  -3.3030229152e-002   1.0447817758e-001  -2.8275296077e-004   1.5282422358e-003
  7.6625000000e+010   3.2277134946e-004  -3.9441297524e-004  -3.5963826601e-002   1.0352013579e-001  -3.3019116238e-002   1.0446911035e-001  -2.8685254296e-004   1.5244471229e-003
  7.6650000000e+010   3.1915485050e-004  -3.9491046133e-004  -3.5952348832e-002   1.0351115454e-001  -3.3007833123e-002   1.0445990601e-001  -2.9094581011e-004   1.5205963752e-003
  7.6675000000e+010   3.1553556264e-004  -3.9538981089e-004  -3.5940698015e-002   1.0350203967e-001  -3.2996379843e-002   1.0445056466e-001  -2.9503245760e-004   1.5166902137e-003
  7.6700000000e+010   3.1191367841e-004  -3.9585099163e-004  -3.5928874188e-002   1.0349279129e-001  -3.2984756434e-002   1.0444108642e-001  -2.9911218227e-004   1.5127288626e-003
  7.6725000000e+010   3.0828939039e-004  -3.9629397230e-004  -3.5916877390e-002   1.0348340953e-001  -3.2972962932e-002   1.0443147139e-001  -3.0318468244e-004   1.5087125484e-003
  7.6750000000e+010   3.0466289114e-004  -3.9671872274e-004  -3.5904707661e-002   1.0347389448e-001  -3.2960999374e-002   1.0442171969e-001  -3.0724965792e-004   1.5046415004e-003
  7.6775000000e+010   3.0103437322e-004  -3.9712521385e-004  -3.5892365042e-002   1.0346424626e-001  -3.2948865796e-002   1.0441183144e-001  -3.1130681003e-004   1.5005159507e-003
  7.6800000000e+010   2.9740402918e-004  -3.9751341764e-004  -3.5879849575e-002   1.0345446500e-001  -3.2936562238e-002   1.0440180674e-001  -3.1535584157e-004   1.4963361339e-003
  7.6825000000e+010   2.9377205154e-004  -3.9788330716e-004  -3.5867161299e-002   1.0344455081e-001  -3.2924088737e-002   1.0439164573e-001  -3.1939645690e-004   1.4921022873e-003
  7.6850000000e+010   2.9013863277e-004  -3.9823485658e-004  -3.5854300259e-002   1.0343450382e-001  -3.2911445333e-002   1.0438134851e-001  -3.2342836192e-004   1.4878146509e-003
  7.6875000000e+010   2.8650396529e-004  -3.9856804115e-004  -3.5841266496e-002   1.0342432413e-001  -3.2898632065e-002   1.0437091522e-001  -3.2745126407e-004   1.4834734673e-003
  7.6900000000e+010   2.8286824145e-004  -3.9888283721e-004  -3.5828060054e-002   1.0341401188e-001  -3.2885648973e-002   1.0436034596e-001  -3.3146487236e-004   1.4790789818e-003
  7.6925000000e+010   2.7923165352e-004  -3.9917922222e-004  -3.5814680976e-002   1.0340356720e-001  -3.2872496097e-002   1.0434964088e-001  -3.3546889738e-004   1.4746314421e-003
  7.6950000000e+010   2.7559439369e-004  -3.9945717474e-004  -3.5801129309e-002   1.0339299020e-001  -3.2859173480e-002   1.0433880009e-001  -3.3946305132e-004   1.4701310986e-003
  7.6975000000e+010   2.7195665404e-004  -3.9971667442e-004  -3.5787405096e-002   1.0338228101e-001  -3.2845681162e-002   1.0432782372e-001  -3.4344704796e-004   1.4655782045e-003
  7.7000000000e+010   2.6831862654e-004  -3.9995770204e-004  -3.5773508383e-002   1.0337143978e-001  -3.2832019187e-002   1.0431671190e-001  -3.4742060271e-004   1.4609730152e-003
  7.7025000000e+010   2.6468050302e-004  -4.0018023949e-004  -3.5759439217e-002   1.0336046662e-001  -3.2818187596e-002   1.0430546476e-001  -3.5138343259e-004   1.4563157891e-003
  7.7050000000e+010   2.6104247517e-004  -4.0038426980e-004  -3.5745197645e-002   1.0334936167e-001  -3.2804186433e-002   1.0429408243e-001  -3.5533525629e-004   1.4516067866e-003
  7.7075000000e+010   2.5740473457e-004  -4.0056977710e-004  -3.5730783713e-002   1.0333812506e-001  -3.2790015743e-002   1.0428256505e-001  -3.5927579412e-004   1.4468462712e-003
  7.7100000000e+010   2.5376747257e-004  -4.0073674666e-004  -3.5716197471e-002   1.0332675694e-001  -3.2775675569e-002   1.0427091276e-001  -3.6320476808e-004   1.4420345085e-003
  7.7125000000e+010   2.5013088041e-004  -4.0088516487e-004  -3.5701438967e-002   1.0331525743e-001  -3.2761165956e-002   1.0425912568e-001  -3.6712190183e-004   1.4371717669e-003
  7.7150000000e+010   2.4649514911e-004  -4.0101501927e-004  -3.5686508250e-002   1.0330362668e-001  -3.2746486950e-002   1.0424720397e-001  -3.7102692072e-004   1.4322583171e-003
  7.7175000000e+010   2.4286046948e-004  -4.0112629853e-004  -3.5671405369e-002   1.0329186483e-001  -3.2731638597e-002   1.0423514775e-001  -3.7491955179e-004   1.4272944325e-003
  7.7200000000e+010   2.3922703216e-004  -4.0121899248e-004  -3.5656130376e-002   1.0327997202e-001  -3.2716620944e-002   1.0422295717e-001  -3.7879952381e-004   1.4222803887e-003
  7.7225000000e+010   2.3559502752e-004  -4.0129309206e-004  -3.5640683322e-002   1.0326794839e-001  -3.2701434038e-002   1.0421063238e-001  -3.8266656726e-004   1.4172164641e-003
  7.7250000000e+010   2.3196464574e-004  -4.0134858939e-004  -3.5625064257e-002   1.0325579409e-001  -3.2686077926e-002   1.0419817352e-001  -3.8652041433e-004   1.4121029392e-003
  7.7275000000e+010   2.2833607673e-004  -4.0138547773e-004  -3.5609273234e-002   1.0324350927e-001  -3.2670552657e-002   1.0418558073e-001  -3.9036079899e-004   1.4069400971e-003
  7.7300000000e+010   2.2470951014e-004  -4.0140375148e-004  -3.5593310307e-002   1.0323109407e-001  -3.2654858280e-002   1.0417285416e-001  -3.9418745693e-004   1.4017282235e-003
  7.7325000000e+010   2.2108513536e-004  -4.0140340623e-004  -3.5577175527e-002   1.0321854865e-001  -3.2638994844e-002   1.0415999397e-001  -3.9800012562e-004   1.3964676062e-003
  7.7350000000e+010   2.1746314150e-004  -4.0138443871e-004  -3.5560868950e-002   1.0320587316e-001  -3.2622962398e-002   1.0414700031e-001  -4.0179854428e-004   1.3911585355e-003
  7.7375000000e+010   2.1384371737e-004  -4.0134684680e-004  -3.5544390629e-002   1.0319306775e-001  -3.2606760994e-002   1.0413387332e-001  -4.0558245395e-004   1.3858013042e-003
  7.7400000000e+010   2.1022705148e-004  -4.0129062956e-004  -3.5527740621e-002   1.0318013257e-001  -3.2590390682e-002   1.0412061316e-001  -4.0935159742e-004   1.3803962073e-003
  7.7425000000e+010   2.0661333203e-004  -4.0121578724e-004  -3.5510918980e-002   1.0316706778e-001  -3.2573851514e-002   1.0410721999e-001  -4.1310571932e-004   1.3749435423e-003
  7.7450000000e+010   2.0300274688e-004  -4.0112232122e-004  -3.5493925763e-002   1.0315387354e-001  -3.2557143542e-002   1.0409369396e-001  -4.1684456606e-004   1.3694436089e-003
  7.7475000000e+010   1.9939548356e-004  -4.0101023407e-004  -3.5476761026e-002   1.0314055001e-001  -3.2540266819e-002   1.0408003523e-001  -4.2056788589e-004   1.3638967093e-003
  7.7500000000e+010   1.9579172924e-004  -4.0087952955e-004  -3.5459424828e-002   1.0312709735e-001  -3.2523221397e-002   1.0406624397e-001  -4.2427542889e-004   1.3583031479e-003
  7.7525000000e+010   1.9219167075e-004  -4.0073021258e-004  -3.5441917227e-002   1.0311351573e-001  -3.2506007331e-002   1.0405232034e-001  -4.2796694697e-004   1.3526632313e-003
  7.7550000000e+010   1.8859549452e-004  -4.0056228925e-004  -3.5424238280e-002   1.0309980529e-001  -3.2488624674e-002   1.0403826449e-001  -4.3164219389e-004   1.3469772686e-003
  7.7575000000e+010   1.8500338661e-004  -4.0037576686e-004  -3.5406388048e-002   1.0308596622e-001  -3.2471073483e-002   1.0402407659e-001  -4.3530092527e-004   1.3412455710e-003
  7.7600000000e+010   1.8141553268e-004  -4.0017065388e-004  -3.5388366590e-002   1.0307199868e-001  -3.2453353811e-002   1.0400975682e-001  -4.3894289860e-004   1.3354684519e-003
  7.7625000000e+010   1.7783211798e-004  -3.9994695996e-004  -3.5370173966e-002   1.0305790284e-001  -3.2435465715e-002   1.0399530533e-001  -4.4256787324e-004   1.3296462273e-003
  7.7650000000e+010   1.7425332734e-004  -3.9970469593e-004  -3.5351810239e-002   1.0304367886e-001  -3.2417409252e-002   1.0398072230e-001  -4.4617561042e-004   1.3237792149e-003
  7.7675000000e+010   1.7067934518e-004  -3.9944387384e-004  -3.5333275468e-002   1.0302932692e-001  -3.2399184478e-002   1.0396600790e-001  -4.4976587330e-004   1.3178677350e-003
  7.7700000000e+010   1.6711035544e-004  -3.9916450690e-004  -3.5314569717e-002   1.0301484719e-001  -3.2380791451e-002   1.0395116230e-001  -4.5333842688e-004   1.3119121100e-003
