# Hz S RI R 1.000000
! Metas.Vna.Tools, 2.4.7898.19887
! Metas.Vna.Data, 2.4.7898.19873
! Created: UTC 2021.09.30 14:31:00
! FREQ                re:S1,1             im:S1,1             re:S2,1             im:S2,1             re:S1,2             im:S1,2             re:S2,2             im:S2,2          
  7.0000000000e+010   2.4074101298e-002  -3.9285992158e-002   3.7690174562e-001   1.3231496508e-001   3.7712680212e-001   1.3956461933e-001  -1.6242110438e-001  -1.0787396131e-001
  7.0020000000e+010   2.3884986801e-002  -3.9501437558e-002   3.7704506723e-001   1.3253320551e-001   3.7728205705e-001   1.3979580690e-001  -1.6449263843e-001  -1.0602949545e-001
  7.0040000000e+010   2.3693543788e-002  -3.9718041611e-002   3.7719129495e-001   1.3273246354e-001   3.7744040649e-001   1.4000742283e-001  -1.6646939928e-001  -1.0408425890e-001
  7.0060000000e+010   2.3499672053e-002  -3.9935596042e-002   3.7734039995e-001   1.3291269428e-001   3.7760181889e-001   1.4019941937e-001  -1.6834820854e-001  -1.0204041968e-001
  7.0080000000e+010   2.3303270451e-002  -4.0153891306e-002   3.7749235194e-001   1.3307385445e-001   3.7776626117e-001   1.4037175049e-001  -1.7012598029e-001  -9.9900285905e-002
  7.0100000000e+010   2.3104237079e-002  -4.0372716620e-002   3.7764711914e-001   1.3321590239e-001   3.7793369873e-001   1.4052437189e-001  -1.7179972630e-001  -9.7666303159e-002
  7.0120000000e+010   2.2902469462e-002  -4.0591859983e-002   3.7780466829e-001   1.3333879812e-001   3.7810409539e-001   1.4065724098e-001  -1.7336656122e-001  -9.5341051629e-002
  7.0140000000e+010   2.2697864745e-002  -4.0811108215e-002   3.7796496468e-001   1.3344250330e-001   3.7827741351e-001   1.4077031695e-001  -1.7482370765e-001  -9.2927243025e-002
  7.0160000000e+010   2.2490319891e-002  -4.1030246988e-002   3.7812797216e-001   1.3352698126e-001   3.7845361388e-001   1.4086356074e-001  -1.7616850104e-001  -9.0427717278e-002
  7.0180000000e+010   2.2279731884e-002  -4.1249060870e-002   3.7829365311e-001   1.3359219702e-001   3.7863265584e-001   1.4093693503e-001  -1.7739839448e-001  -8.7845439020e-002
  7.0200000000e+010   2.2065997944e-002  -4.1467333362e-002   3.7846196850e-001   1.3363811728e-001   3.7881449719e-001   1.4099040433e-001  -1.7851096343e-001  -8.5183493853e-002
  7.0220000000e+010   2.1849015732e-002  -4.1684846953e-002   3.7863287785e-001   1.3366471043e-001   3.7899909429e-001   1.4102393490e-001  -1.7950391015e-001  -8.2445084411e-002
  7.0240000000e+010   2.1628683578e-002  -4.1901383170e-002   3.7880633930e-001   1.3367194660e-001   3.7918640200e-001   1.4103749481e-001  -1.8037506812e-001  -7.9633526223e-002
  7.0260000000e+010   2.1404900697e-002  -4.2116722633e-002   3.7898230954e-001   1.3365979761e-001   3.7937637374e-001   1.4103105394e-001  -1.8112240620e-001  -7.6752243373e-002
  7.0280000000e+010   2.1177567419e-002  -4.2330645120e-002   3.7916074391e-001   1.3362823701e-001   3.7956896145e-001   1.4100458399e-001  -1.8174403265e-001  -7.3804763974e-002
  7.0300000000e+010   2.0946585416e-002  -4.2542929636e-002   3.7934159633e-001   1.3357724009e-001   3.7976411567e-001   1.4095805849e-001  -1.8223819900e-001  -7.0794715457e-002
  7.0320000000e+010   2.0711857939e-002  -4.2753354483e-002   3.7952481936e-001   1.3350678388e-001   3.7996178549e-001   1.4089145280e-001  -1.8260330365e-001  -6.7725819681e-002
  7.0340000000e+010   2.0473290050e-002  -4.2961697338e-002   3.7971036421e-001   1.3341684717e-001   3.8016191859e-001   1.4080474412e-001  -1.8283789538e-001  -6.4601887872e-002
  7.0360000000e+010   2.0230788860e-002  -4.3167735342e-002   3.7989818073e-001   1.3330741049e-001   3.8036446125e-001   1.4069791150e-001  -1.8294067657e-001  -6.1426815396e-002
  7.0380000000e+010   1.9984263768e-002  -4.3371245184e-002   3.8008821742e-001   1.3317845615e-001   3.8056935836e-001   1.4057093586e-001  -1.8291050624e-001  -5.8204576381e-002
  7.0400000000e+010   1.9733626702e-002  -4.3572003199e-002   3.8028042146e-001   1.3302996824e-001   3.8077655344e-001   1.4042379999e-001  -1.8274640292e-001  -5.4939218182e-002
  7.0420000000e+010   1.9478792359e-002  -4.3769785472e-002   3.8047473873e-001   1.3286193261e-001   3.8098598863e-001   1.4025648854e-001  -1.8244754721e-001  -5.1634855712e-002
  7.0440000000e+010   1.9219678445e-002  -4.3964367939e-002   3.8067111379e-001   1.3267433691e-001   3.8119760474e-001   1.4006898805e-001  -1.8201328420e-001  -4.8295665640e-002
  7.0460000000e+010   1.8956205917e-002  -4.4155526509e-002   3.8086948992e-001   1.3246717059e-001   3.8141134123e-001   1.3986128694e-001  -1.8144312559e-001  -4.4925880458e-002
  7.0480000000e+010   1.8688299222e-002  -4.4343037178e-002   3.8106980912e-001   1.3224042489e-001   3.8162713625e-001   1.3963337554e-001  -1.8073675161e-001  -4.1529782442e-002
  7.0500000000e+010   1.8415886536e-002  -4.4526676157e-002   3.8127201212e-001   1.3199409284e-001   3.8184492663e-001   1.3938524606e-001  -1.7989401272e-001  -3.8111697504e-002
  7.0520000000e+010   1.8138900000e-002  -4.4706220003e-002   3.8147603842e-001   1.3172816932e-001   3.8206464791e-001   1.3911689263e-001  -1.7891493097e-001  -3.4675988945e-002
  7.0540000000e+010   1.7857275957e-002  -4.4881445761e-002   3.8168182626e-001   1.3144265099e-001   3.8228623436e-001   1.3882831129e-001  -1.7779970122e-001  -3.1227051127e-002
  7.0560000000e+010   1.7570955180e-002  -4.5052131102e-002   3.8188931269e-001   1.3113753634e-001   3.8250961898e-001   1.3851949999e-001  -1.7654869204e-001  -2.7769303058e-002
  7.0580000000e+010   1.7279883103e-002  -4.5218054480e-002   3.8209843352e-001   1.3081282570e-001   3.8273473351e-001   1.3819045860e-001  -1.7516244638e-001  -2.4307181923e-002
  7.0600000000e+010   1.6984010046e-002  -4.5378995285e-002   3.8230912340e-001   1.3046852121e-001   3.8296150849e-001   1.3784118893e-001  -1.7364168195e-001  -2.0845136545e-002
  7.0620000000e+010   1.6683291435e-002  -4.5534734007e-002   3.8252131576e-001   1.3010462686e-001   3.8318987321e-001   1.3747169470e-001  -1.7198729136e-001  -1.7387620811e-002
  7.0640000000e+010   1.6377688017e-002  -4.5685052402e-002   3.8273494290e-001   1.2972114847e-001   3.8341975578e-001   1.3708198157e-001  -1.7020034201e-001  -1.3939087048e-002
  7.0660000000e+010   1.6067166069e-002  -4.5829733671e-002   3.8294993598e-001   1.2931809369e-001   3.8365108311e-001   1.3667205715e-001  -1.6828207569e-001  -1.0503979390e-002
  7.0680000000e+010   1.5751697608e-002  -4.5968562636e-002   3.8316622499e-001   1.2889547204e-001   3.8388378095e-001   1.3624193097e-001  -1.6623390790e-001  -7.0867271140e-003
  7.0700000000e+010   1.5431260584e-002  -4.6101325926e-002   3.8338373884e-001   1.2845329487e-001   3.8411777389e-001   1.3579161451e-001  -1.6405742693e-001  -3.6917379801e-003
  7.0720000000e+010   1.5105839076e-002  -4.6227812168e-002   3.8360240532e-001   1.2799157538e-001   3.8435298541e-001   1.3532112121e-001  -1.6175439269e-001  -3.2339157627e-004
  7.0740000000e+010   1.4775423475e-002  -4.6347812184e-002   3.8382215114e-001   1.2751032862e-001   3.8458933784e-001   1.3483046643e-001  -1.5932673518e-001   3.0139673208e-003
  7.0760000000e+010   1.4440010657e-002  -4.6461119191e-002   3.8404290194e-001   1.2700957151e-001   3.8482675243e-001   1.3431966750e-001  -1.5677655283e-001   6.3160353568e-003
  7.0780000000e+010   1.4099604161e-002  -4.6567529004e-002   3.8426458231e-001   1.2648932280e-001   3.8506514933e-001   1.3378874370e-001  -1.5410611046e-001   9.5785571719e-003
  7.0800000000e+010   1.3754214342e-002  -4.6666840250e-002   3.8448711581e-001   1.2594960312e-001   3.8530444765e-001   1.3323771625e-001  -1.5131783702e-001   1.2797331923e-002
  7.0820000000e+010   1.3403858524e-002  -4.6758854581e-002   3.8471042496e-001   1.2539043494e-001   3.8554456543e-001   1.3266660834e-001  -1.4841432306e-001   1.5968219748e-002
  7.0840000000e+010   1.3048561145e-002  -4.6843376891e-002   3.8493443131e-001   1.2481184260e-001   3.8578541969e-001   1.3207544509e-001  -1.4539831796e-001   1.9087148153e-002
  7.0860000000e+010   1.2688353885e-002  -4.6920215537e-002   3.8515905541e-001   1.2421385230e-001   3.8602692643e-001   1.3146425361e-001  -1.4227272689e-001   2.2150118329e-002
  7.0880000000e+010   1.2323275791e-002  -4.6989182570e-002   3.8538421683e-001   1.2359649209e-001   3.8626900068e-001   1.3083306293e-001  -1.3904060747e-001   2.5153211360e-002
  7.0900000000e+010   1.1953373390e-002  -4.7050093954e-002   3.8560983421e-001   1.2295979189e-001   3.8651155646e-001   1.3018190406e-001  -1.3570516628e-001   2.8092594344e-002
  7.0920000000e+010   1.1578700786e-002  -4.7102769805e-002   3.8583582525e-001   1.2230378346e-001   3.8675450686e-001   1.2951080993e-001  -1.3226975503e-001   3.0964526394e-002
  7.0940000000e+010   1.1199319750e-002  -4.7147034624e-002   3.8606210674e-001   1.2162850044e-001   3.8699776403e-001   1.2881981545e-001  -1.2873786652e-001   3.3765364510e-002
  7.0960000000e+010   1.0815299800e-002  -4.7182717525e-002   3.8628859457e-001   1.2093397830e-001   3.8724123920e-001   1.2810895749e-001  -1.2511313040e-001   3.6491569329e-002
  7.0980000000e+010   1.0426718266e-002  -4.7209652483e-002   3.8651520375e-001   1.2022025440e-001   3.8748484270e-001   1.2737827483e-001  -1.2139930863e-001   3.9139710720e-002
  7.1000000000e+010   1.0033660342e-002  -4.7227678563e-002   3.8674184843e-001   1.1948736792e-001   3.8772848398e-001   1.2662780823e-001  -1.1760029080e-001   4.1706473236e-002
  7.1020000000e+010   9.6362191299e-003  -4.7236640166e-002   3.8696844192e-001   1.1873535992e-001   3.8797207163e-001   1.2585760039e-001  -1.1372008913e-001   4.4188661395e-002
  7.1040000000e+010   9.2344956653e-003  -4.7236387265e-002   3.8719489672e-001   1.1796427327e-001   3.8821551340e-001   1.2506769593e-001  -1.0976283334e-001   4.6583204792e-002
  7.1060000000e+010   8.8285989344e-003  -4.7226775648e-002   3.8742112451e-001   1.1717415273e-001   3.8845871622e-001   1.2425814144e-001  -1.0573276532e-001   4.8887163033e-002
  7.1080000000e+010   8.4186458760e-003  -4.7207667154e-002   3.8764703618e-001   1.1636504487e-001   3.8870158622e-001   1.2342898543e-001  -1.0163423349e-001   5.1097730470e-002
  7.1100000000e+010   8.0047613705e-003  -4.7178929916e-002   3.8787254187e-001   1.1553699812e-001   3.8894402876e-001   1.2258027834e-001  -9.7471687139e-002   5.3212240753e-002
  7.1120000000e+010   7.5870782145e-003  -4.7140438595e-002   3.8809755096e-001   1.1469006274e-001   3.8918594841e-001   1.2171207254e-001  -9.3249670420e-002   5.5228171157e-002
  7.1140000000e+010   7.1657370831e-003  -4.7092074618e-002   3.8832197212e-001   1.1382429082e-001   3.8942724904e-001   1.2082442234e-001  -8.8972816299e-002   5.7143146709e-002
  7.1160000000e+010   6.7408864776e-003  -4.7033726413e-002   3.8854571328e-001   1.1293973628e-001   3.8966783376e-001   1.1991738393e-001  -8.4645840262e-002   5.8954944085e-002
  7.1180000000e+010   6.3126826590e-003  -4.6965289637e-002   3.8876868170e-001   1.1203645486e-001   3.8990760501e-001   1.1899101547e-001  -8.0273533901e-002   6.0661495283e-002
  7.1200000000e+010   5.8812895680e-003  -4.6886667406e-002   3.8899078398e-001   1.1111450412e-001   3.9014646453e-001   1.1804537698e-001  -7.5860758343e-002   6.2260891052e-002
  7.1220000000e+010   5.4468787310e-003  -4.6797770520e-002   3.8921192604e-001   1.1017394345e-001   3.9038431343e-001   1.1708053042e-001  -7.1412437549e-002   6.3751384088e-002
  7.1240000000e+010   5.0096291514e-003  -4.6698517684e-002   3.8943201319e-001   1.0921483403e-001   3.9062105214e-001   1.1609653962e-001  -6.6933551485e-002   6.5131391976e-002
  7.1260000000e+010   4.5697271877e-003  -4.6588835722e-002   3.8965095013e-001   1.0823723884e-001   3.9085658051e-001   1.1509347031e-001  -6.2429129179e-002   6.6399499875e-002
  7.1280000000e+010   4.1273664167e-003  -4.6468659790e-002   3.8986864094e-001   1.0724122268e-001   3.9109079778e-001   1.1407139013e-001  -5.7904241669e-002   6.7554462946e-002
  7.1300000000e+010   3.6827474833e-003  -4.6337933584e-002   3.9008498917e-001   1.0622685211e-001   3.9132360262e-001   1.1303036856e-001  -5.3363994867e-002   6.8595208519e-002
  7.1320000000e+010   3.2360779358e-003  -4.6196609534e-002   3.9029989778e-001   1.0519419549e-001   3.9155489312e-001   1.1197047698e-001  -4.8813522330e-002   6.9520837983e-002
  7.1340000000e+010   2.7875720481e-003  -4.6044649004e-002   3.9051326922e-001   1.0414332297e-001   3.9178456687e-001   1.1089178863e-001  -4.4257977961e-002   7.0330628406e-002
  7.1360000000e+010   2.3374506276e-003  -4.5882022473e-002   3.9072500542e-001   1.0307430645e-001   3.9201252094e-001   1.0979437859e-001  -3.9702528657e-002   7.1024033880e-002
  7.1380000000e+010   1.8859408096e-003  -4.5708709719e-002   3.9093500782e-001   1.0198721960e-001   3.9223865189e-001   1.0867832380e-001  -3.5152346899e-002   7.1600686582e-002
  7.1400000000e+010   1.4332758387e-003  -4.5524699989e-002   3.9114317738e-001   1.0088213784e-001   3.9246285582e-001   1.0754370304e-001  -3.0612603308e-002   7.2060397556e-002
  7.1420000000e+010   9.7969483673e-004  -4.5329992160e-002   3.9134941461e-001   9.9759138347e-002   3.9268502841e-001   1.0639059694e-001  -2.6088459180e-002   7.2403157206e-002
  7.1440000000e+010   5.2544255746e-004  -4.5124594897e-002   3.9155361960e-001   9.8618300026e-002   3.9290506485e-001   1.0521908791e-001  -2.1585058997e-002   7.2629135503e-002
  7.1460000000e+010   7.0769129329e-005  -4.4908526798e-002   3.9175569201e-001   9.7459703519e-002   3.9312285999e-001   1.0402926021e-001  -1.7107522950e-002   7.2738681905e-002
  7.1480000000e+010  -3.8407021478e-004  -4.4681816527e-002   3.9195553113e-001   9.6283431185e-002   3.9333830825e-001   1.0282119990e-001  -1.2660939458e-002   7.2732324990e-002
  7.1500000000e+010  -8.3881541978e-004  -4.4444502944e-002   3.9215303585e-001   9.5089567098e-002   3.9355130370e-001   1.0159499481e-001  -8.2503577193e-003   7.2610771792e-002
  7.1520000000e+010  -1.2932019023e-003  -4.4196635217e-002   3.9234810472e-001   9.3878197032e-002   3.9376174007e-001   1.0035073459e-001  -3.8807802917e-003   7.2374906853e-002
  7.1540000000e+010  -1.7469608561e-003  -4.3938272930e-002   3.9254063598e-001   9.2649408454e-002   3.9396951077e-001   9.9088510626e-002   4.4284427696e-004   7.2025790990e-002
  7.1560000000e+010  -2.1998195687e-003  -4.3669486174e-002   3.9273052752e-001   9.1403290517e-002   3.9417450889e-001   9.7808416098e-002   4.7156287636e-003   7.1564659766e-002
  7.1580000000e+010  -2.6515017481e-003  -4.3390355627e-002   3.9291767698e-001   9.0139934042e-002   3.9437662728e-001   9.6510545923e-002   8.9327545128e-003   7.0992921679e-002
  7.1600000000e+010  -3.1017278606e-003  -4.3100972632e-002   3.9310198169e-001   8.8859431515e-002   3.9457575850e-001   9.5194996764e-002   1.3089478598e-002   7.0312156070e-002
  7.1620000000e+010  -3.5502154778e-003  -4.2801439244e-002   3.9328333876e-001   8.7561877074e-002   3.9477179488e-001   9.3861867011e-002   1.7181140887e-002   6.9524110745e-002
  7.1640000000e+010  -3.9966796330e-003  -4.2491868283e-002   3.9346164506e-001   8.6247366494e-002   3.9496462854e-001   9.2511256774e-002   2.1203171006e-002   6.8630699322e-002
  7.1660000000e+010  -4.4408331868e-003  -4.2172383363e-002   3.9363679725e-001   8.4915997183e-002   3.9515415141e-001   9.1143267868e-002   2.5151095182e-002   6.7633998299e-002
  7.1680000000e+010  -4.8823872005e-003  -4.1843118910e-002   3.9380869178e-001   8.3567868165e-002   3.9534025523e-001   8.9758003800e-002   2.9020542959e-002   6.6536243860e-002
  7.1700000000e+010  -5.3210513178e-003  -4.1504220170e-002   3.9397722497e-001   8.2203080067e-002   3.9552283162e-001   8.8355569762e-002   3.2807253771e-002   6.5339828403e-002
  7.1720000000e+010  -5.7565341536e-003  -4.1155843196e-002   3.9414229296e-001   8.0821735115e-002   3.9570177203e-001   8.6936072609e-002   3.6507083371e-002   6.4047296818e-002
  7.1740000000e+010  -6.1885436897e-003  -4.0798154831e-002   3.9430379177e-001   7.9423937112e-002   3.9587696784e-001   8.5499620856e-002   4.0116010091e-002   6.2661342504e-002
  7.1760000000e+010  -6.6167876759e-003  -4.0431332665e-002   3.9446161730e-001   7.8009791431e-002   3.9604831031e-001   8.4046324656e-002   4.3630140931e-002   6.1184803132e-002
  7.1780000000e+010  -7.0409740378e-003  -4.0055564989e-002   3.9461566539e-001   7.6579405003e-002   3.9621569066e-001   8.2576295793e-002   4.7045717469e-002   5.9620656177e-002
  7.1800000000e+010  -7.4608112887e-003  -3.9671050727e-002   3.9476583177e-001   7.5132886301e-002   3.9637900003e-001   8.1089647663e-002   5.0359121574e-002   5.7972014197e-002
  7.1820000000e+010  -7.8760089462e-003  -3.9277999352e-002   3.9491201216e-001   7.3670345326e-002   3.9653812958e-001   7.9586495262e-002   5.3566880915e-002   5.6242119896e-002
  7.1840000000e+010  -8.2862779523e-003  -3.8876630796e-002   3.9505410221e-001   7.2191893597e-002   3.9669297042e-001   7.8066955175e-002   5.6665674263e-002   5.4434340960e-002
  7.1860000000e+010  -8.6913310964e-003  -3.8467175336e-002   3.9519199759e-001   7.0697644138e-002   3.9684341371e-001   7.6531145556e-002   5.9652336567e-002   5.2552164673e-002
  7.1880000000e+010  -9.0908834413e-003  -3.8049873465e-002   3.9532559397e-001   6.9187711457e-002   3.9698935062e-001   7.4979186114e-002   6.2523863798e-002   5.0599192341e-002
  7.1900000000e+010  -9.4846527502e-003  -3.7624975758e-002   3.9545478705e-001   6.7662211540e-002   3.9713067241e-001   7.3411198103e-002   6.5277417558e-002   4.8579133505e-002
  7.1920000000e+010  -9.8723599152e-003  -3.7192742708e-002   3.9557947257e-001   6.6121261832e-002   3.9726727038e-001   7.1827304301e-002   6.7910329439e-002   4.6495799974e-002
  7.1940000000e+010  -1.0253729386e-002  -3.6753444560e-002   3.9569954634e-001   6.4564981225e-002   3.9739903596e-001   7.0227628997e-002   7.0420105129e-002   4.4353099679e-002
  7.1960000000e+010  -1.0628489598e-002  -3.6307361120e-002   3.9581490427e-001   6.2993490039e-002   3.9752586069e-001   6.8612297975e-002   7.2804428251e-002   4.2155030358e-002
  7.1980000000e+010  -1.0996373399e-002  -3.5854781556e-002   3.9592544237e-001   6.1406910013e-002   3.9764763624e-001   6.6981438497e-002   7.5061163938e-002   3.9905673080e-002
  7.2000000000e+010  -1.1357118477e-002  -3.5396004177e-002   3.9603105677e-001   5.9805364285e-002   3.9776425444e-001   6.5335179291e-002   7.7188362125e-002   3.7609185626e-002
  7.2020000000e+010  -1.1710467782e-002  -3.4931336203e-002   3.9613164375e-001   5.8188977379e-002   3.9787560731e-001   6.3673650529e-002   7.9184260566e-002   3.5269795726e-002
  7.2040000000e+010  -1.2056169943e-002  -3.4461093517e-002   3.9622709975e-001   5.6557875187e-002   3.9798158707e-001   6.1996983813e-002   8.1047287561e-002   3.2891794180e-002
  7.2060000000e+010  -1.2393979689e-002  -3.3985600402e-002   3.9631732139e-001   5.4912184956e-002   3.9808208614e-001   6.0305312158e-002   8.2776064381e-002   3.0479527850e-002
  7.2080000000e+010  -1.2723658259e-002  -3.3505189266e-002   3.9640220550e-001   5.3252035273e-002   3.9817699720e-001   5.8598769977e-002   8.4369407411e-002   2.8037392562e-002
  7.2100000000e+010  -1.3044973806e-002  -3.3020200347e-002   3.9648164913e-001   5.1577556042e-002   3.9826621317e-001   5.6877493061e-002   8.5826329975e-002   2.5569825906e-002
  7.2120000000e+010  -1.3357701801e-002  -3.2530981411e-002   3.9655554957e-001   4.9888878477e-002   3.9834962727e-001   5.5141618563e-002   8.7146043864e-002   2.3081299964e-002
  7.2140000000e+010  -1.3661625421e-002  -3.2037887430e-002   3.9662380435e-001   4.8186135076e-002   3.9842713300e-001   5.3391284978e-002   8.8327960556e-002   2.0576313962e-002
  7.2160000000e+010  -1.3956535941e-002  -3.1541280249e-002   3.9668631129e-001   4.6469459615e-002   3.9849862419e-001   5.1626632132e-002   8.9371692114e-002   1.8059386870e-002
