# Hz S RI R 1.000000
! Metas.Vna.Tools, 2.4.7898.19887
! Metas.Vna.Data, 2.4.7898.19873
! Created: UTC 2021.09.30 14:30:59
! FREQ                re:S1,1             im:S1,1             re:S2,1             im:S2,1             re:S1,2             im:S1,2             re:S2,2             im:S2,2          
  7.0000000000e+010  -1.2002017344e-002  -1.5165870111e-003   4.6294313629e-003  -6.0075772830e-003   4.6195103221e-003  -6.1391766023e-003   9.4678923939e-002  -6.3871260828e-002
  7.0020000000e+010  -1.1632898362e-002  -9.6737128717e-004   4.6246976618e-003  -5.9964692882e-003   4.6145412047e-003  -6.1279613917e-003   9.1297984866e-002  -6.7436638423e-002
  7.0040000000e+010  -1.1238367838e-002  -4.5039629612e-004   4.6200812730e-003  -5.9854722534e-003   4.6096924768e-003  -6.1168485806e-003   8.7774162348e-002  -7.0830201411e-002
  7.0060000000e+010  -1.0819668977e-002   3.3818530372e-005   4.6155839123e-003  -5.9745884582e-003   4.6049659209e-003  -6.1058404598e-003   8.4115263342e-002  -7.4046656332e-002
  7.0080000000e+010  -1.0378065282e-002   4.8480279259e-004   4.6112072354e-003  -5.9638201965e-003   4.6003632586e-003  -6.0949393359e-003   8.0329295130e-002  -7.7081059787e-002
  7.0100000000e+010  -9.9148385640e-003   9.0213556185e-004   4.6069528370e-003  -5.9531697764e-003   4.5958861506e-003  -6.0841475313e-003   7.6424450017e-002  -7.9928825838e-002
  7.0120000000e+010  -9.4312869375e-003   1.2854457439e-003   4.6028222505e-003  -5.9426395193e-003   4.5915361958e-003  -6.0734673836e-003   7.2409089761e-002  -8.2585732741e-002
  7.0140000000e+010  -8.9287228132e-003   1.6344123666e-003   4.5988169478e-003  -5.9322317597e-003   4.5873149310e-003  -6.0629012448e-003   6.8291729743e-002  -8.5047929007e-002
  7.0160000000e+010  -8.4084708791e-003   1.9487647916e-003   4.5949383379e-003  -5.9219488441e-003   4.5832238299e-003  -6.0524514812e-003   6.4081022937e-002  -8.7311938783e-002
  7.0180000000e+010  -7.8718660793e-003   2.2282828505e-003   4.5911877671e-003  -5.9117931314e-003   4.5792643031e-003  -6.0421204726e-003   5.9785743667e-002  -8.9374666543e-002
  7.0200000000e+010  -7.3202515930e-003   2.4727969053e-003   4.5875665185e-003  -5.9017669911e-003   4.5754376973e-003  -6.0319106116e-003   5.5414771226e-002  -9.1233401083e-002
  7.0220000000e+010  -6.7549768158e-003   2.6821878336e-003   4.5840758112e-003  -5.8918728039e-003   4.5717452949e-003  -6.0218243034e-003   5.0977073348e-002  -9.2885818812e-002
  7.0240000000e+010  -6.1773953459e-003   2.8563869390e-003   4.5807167998e-003  -5.8821129604e-003   4.5681883133e-003  -6.0118639647e-003   4.6481689590e-002  -9.4329986347e-002
  7.0260000000e+010  -5.5888629797e-003   2.9953757867e-003   4.5774905745e-003  -5.8724898606e-003   4.5647679048e-003  -6.0020320236e-003   4.1937714634e-002  -9.5564362386e-002
  7.0280000000e+010  -4.9907357177e-003   3.0991859667e-003   4.5743981599e-003  -5.8630059136e-003   4.5614851559e-003  -5.9923309189e-003   3.7354281556e-002  -9.6587798887e-002
  7.0300000000e+010  -4.3843677852e-003   3.1678987821e-003   4.5714405153e-003  -5.8536635366e-003   4.5583410867e-003  -5.9827630993e-003   3.2740545079e-002  -9.7399541526e-002
  7.0320000000e+010  -3.7711096699e-003   3.2016448673e-003   4.5686185338e-003  -5.8444651548e-003   4.5553366510e-003  -5.9733310228e-003   2.8105664845e-002  -9.7999229447e-002
  7.0340000000e+010  -3.1523061792e-003   3.2006037336e-003   4.5659330422e-003  -5.8354132001e-003   4.5524727354e-003  -5.9640371563e-003   2.3458788739e-002  -9.8386894317e-002
  7.0360000000e+010  -2.5292945199e-003   3.1650032451e-003   4.5633848005e-003  -5.8265101110e-003   4.5497501590e-003  -5.9548839747e-003   1.8809036286e-002  -9.8562958662e-002
  7.0380000000e+010  -1.9034024034e-003   3.0951190262e-003   4.5609745014e-003  -5.8177583318e-003   4.5471696733e-003  -5.9458739604e-003   1.4165482163e-002  -9.8528233517e-002
  7.0400000000e+010  -1.2759461787e-003   2.9912738005e-003   4.5587027704e-003  -5.8091603120e-003   4.5447319615e-003  -5.9370096028e-003   9.5371398395e-003  -9.8283915379e-002
  7.0420000000e+010  -6.4822899580e-004   2.8538366641e-003   4.5565701651e-003  -5.8007185054e-003   4.5424376383e-003  -5.9282933972e-003   4.9329453898e-003  -9.7831582476e-002
  7.0440000000e+010  -2.1539002054e-005   2.6832222936e-003   4.5545771749e-003  -5.7924353698e-003   4.5402872496e-003  -5.9197278446e-003   3.6174149913e-004  -9.7173190360e-002
  7.0460000000e+010   6.0285242596e-004   2.4798900908e-003   4.5527242210e-003  -5.7843133660e-003   4.5382812721e-003  -5.9113154507e-003  -4.1677383097e-003  -9.6311066830e-002
  7.0480000000e+010   1.2236924127e-003   2.2443432657e-003   4.5510116558e-003  -5.7763549574e-003   4.5364201131e-003  -5.9030587254e-003  -8.6468851980e-003  -9.5247906205e-002
  7.0500000000e+010   1.8397482739e-003   1.9771278594e-003   4.5494397627e-003  -5.7685626092e-003   4.5347041102e-003  -5.8949601821e-003  -1.3067230255e-002  -9.3986762950e-002
  7.0520000000e+010   2.4498091640e-003   1.6788317088e-003   4.5480087562e-003  -5.7609387877e-003   4.5331335310e-003  -5.8870223368e-003  -1.7420459439e-002  -9.2531044667e-002
  7.0540000000e+010   3.0526876796e-003   1.3500833548e-003   4.5467187812e-003  -5.7534859594e-003   4.5317085727e-003  -5.8792477077e-003  -2.1698428185e-002  -9.0884504477e-002
  7.0560000000e+010   3.6472214158e-003   9.9155089607e-004   4.5455699130e-003  -5.7462065907e-003   4.5304293624e-003  -5.8716388142e-003  -2.5893175662e-002  -8.9051232794e-002
  7.0580000000e+010   4.2322744737e-003   6.0394079057e-004   4.5445621573e-003  -5.7391031471e-003   4.5292959560e-003  -5.8641981765e-003  -2.9996938645e-002  -8.7035648516e-002
  7.0600000000e+010   4.8067389177e-003   1.8799660639e-004   4.5436954498e-003  -5.7321780922e-003   4.5283083390e-003  -5.8569283146e-003  -3.4002164983e-002  -8.4842489649e-002
  7.0620000000e+010   5.3695361801e-003  -2.5550227543e-004   4.5429696558e-003  -5.7254338872e-003   4.5274664256e-003  -5.8498317476e-003  -3.7901526644e-002  -8.2476803381e-002
  7.0640000000e+010   5.9196184113e-003  -7.2574200410e-004   4.5423845707e-003  -5.7188729901e-003   4.5267700589e-003  -5.8429109932e-003  -4.1687932304e-002  -7.9943935623e-002
  7.0660000000e+010   6.4559697743e-003  -1.2218756460e-003   4.5419399193e-003  -5.7124978552e-003   4.5262190105e-003  -5.8361685666e-003  -4.5354539468e-002  -7.7249520044e-002
  7.0680000000e+010   6.9776076822e-003  -1.7430246133e-003   4.5416353561e-003  -5.7063109319e-003   4.5258129807e-003  -5.8296069801e-003  -4.8894766097e-002  -7.4399466613e-002
  7.0700000000e+010   7.4835839755e-003  -2.2882801309e-003   4.5414704649e-003  -5.7003146645e-003   4.5255515980e-003  -5.8232287421e-003  -5.2302301725e-002  -7.1399949676e-002
  7.0720000000e+010   7.9729860404e-003  -2.8567047411e-003   4.5414447589e-003  -5.6945114909e-003   4.5254344193e-003  -5.8170363564e-003  -5.5571118044e-002  -6.8257395584e-002
  7.0740000000e+010   8.4449378651e-003  -3.4473338411e-003   4.5415576805e-003  -5.6889038425e-003   4.5254609299e-003  -5.8110323217e-003  -5.8695478939e-002  -6.4978469910e-002
  7.0760000000e+010   8.8986010328e-003  -4.0591772536e-003   4.5418086016e-003  -5.6834941427e-003   4.5256305432e-003  -5.8052191303e-003  -6.1669949957e-002  -6.1570064256e-002
  7.0780000000e+010   9.3331756517e-003  -4.6912208252e-003   4.5421968232e-003  -5.6782848068e-003   4.5259426005e-003  -5.7995992679e-003  -6.4489407204e-002  -5.8039282694e-002
  7.0800000000e+010   9.7479012198e-003  -5.3424280524e-003   4.5427215756e-003  -5.6732782410e-003   4.5263963715e-003  -5.7941752124e-003  -6.7149045629e-002  -5.4393427864e-002
  7.0820000000e+010   1.0142057424e-002  -6.0117417309e-003   4.5433820184e-003  -5.6684768413e-003   4.5269910541e-003  -5.7889494333e-003  -6.9644386715e-002  -5.0639986742e-002
  7.0840000000e+010   1.0514964872e-002  -6.6980856264e-003   4.5441772404e-003  -5.6638829933e-003   4.5277257741e-003  -5.7839243909e-003  -7.1971285541e-002  -4.6786616121e-002
  7.0860000000e+010   1.0865985760e-002  -7.4003661646e-003   4.5451062598e-003  -5.6594990712e-003   4.5285995856e-003  -5.7791025356e-003  -7.4125937209e-002  -4.2841127821e-002
  7.0880000000e+010   1.1194524468e-002  -8.1174741365e-003   4.5461680243e-003  -5.6553274368e-003   4.5296114710e-003  -5.7744863069e-003  -7.6104882633e-002  -3.8811473659e-002
  7.0900000000e+010   1.1500028092e-002  -8.8482864177e-003   4.5473614112e-003  -5.6513704391e-003   4.5307603408e-003  -5.7700781329e-003  -7.7905013669e-002  -3.4705730212e-002
  7.0920000000e+010   1.1781986906e-002  -9.5916676982e-003   4.5486852272e-003  -5.6476304131e-003   4.5320450341e-003  -5.7658804291e-003  -7.9523577595e-002  -3.0532083386e-002
  7.0940000000e+010   1.2039934749e-002  -1.0346472220e-002   4.5501382089e-003  -5.6441096796e-003   4.5334643184e-003  -5.7618955979e-003  -8.0958180915e-002  -2.6298812840e-002
  7.0960000000e+010   1.2273449358e-002  -1.1111545523e-002   4.5517190228e-003  -5.6408105438e-003   4.5350168899e-003  -5.7581260280e-003  -8.2206792492e-002  -2.2014276276e-002
  7.0980000000e+010   1.2482152616e-002  -1.1885726185e-002   4.5534262654e-003  -5.6377352950e-003   4.5367013735e-003  -5.7545740929e-003  -8.3267746015e-002  -1.7686893636e-002
  7.1000000000e+010   1.2665710741e-002  -1.2667847575e-002   4.5552584636e-003  -5.6348862054e-003   4.5385163229e-003  -5.7512421509e-003  -8.4139741775e-002  -1.3325131225e-002
  7.1020000000e+010   1.2823834403e-002  -1.3456739594e-002   4.5572140744e-003  -5.6322655296e-003   4.5404602213e-003  -5.7481325437e-003  -8.4821847764e-002  -8.9374857979e-003
  7.1040000000e+010   1.2956278777e-002  -1.4251230412e-002   4.5592914857e-003  -5.6298755040e-003   4.5425314807e-003  -5.7452475958e-003  -8.5313500101e-002  -4.5324686331e-003
  7.1060000000e+010   1.3062843518e-002  -1.5050148201e-002   4.5614890163e-003  -5.6277183452e-003   4.5447284431e-003  -5.7425896139e-003  -8.5614502764e-002  -1.1858962630e-004
  7.1080000000e+010   1.3143372682e-002  -1.5852322856e-002   4.5638049160e-003  -5.6257962504e-003   4.5470493798e-003  -5.7401608858e-003  -8.5725026658e-002   4.2956585708e-003
  7.1100000000e+010   1.3197754570e-002  -1.6656587701e-002   4.5662373661e-003  -5.6241113955e-003   4.5494924926e-003  -5.7379636796e-003  -8.5645607995e-002   8.7018163348e-003
  7.1120000000e+010   1.3225921506e-002  -1.7461781181e-002   4.5687844795e-003  -5.6226659349e-003   4.5520559133e-003  -5.7360002429e-003  -8.5377146016e-002   1.3091472750e-002
  7.1140000000e+010   1.3227849562e-002  -1.8266748542e-002   4.5714443011e-003  -5.6214620008e-003   4.5547377041e-003  -5.7342728025e-003  -8.4920900041e-002   1.7456281157e-002
  7.1160000000e+010   1.3203558199e-002  -1.9070343477e-002   4.5742148081e-003  -5.6205017019e-003   4.5575358585e-003  -5.7327835625e-003  -8.4278485861e-002   2.1787974539e-002
  7.1180000000e+010   1.3153109862e-002  -1.9871429765e-002   4.5770939104e-003  -5.6197871232e-003   4.5604483009e-003  -5.7315347048e-003  -8.3451871483e-002   2.6078380716e-002
  7.1200000000e+010   1.3076609503e-002  -2.0668882875e-002   4.5800794509e-003  -5.6193203247e-003   4.5634728873e-003  -5.7305283871e-003  -8.2443372238e-002   3.0319437332e-002
  7.1220000000e+010   1.2974204043e-002  -2.1461591545e-002   4.5831692058e-003  -5.6191033410e-003   4.5666074057e-003  -5.7297667428e-003  -8.1255645249e-002   3.4503206589e-002
  7.1240000000e+010   1.2846081780e-002  -2.2248459334e-002   4.5863608851e-003  -5.6191381803e-003   4.5698495763e-003  -5.7292518802e-003  -7.9891683290e-002   3.8621889719e-002
  7.1260000000e+010   1.2692471730e-002  -2.3028406139e-002   4.5896521330e-003  -5.6194268238e-003   4.5731970520e-003  -5.7289858813e-003  -7.8354808033e-002   4.2667841157e-002
  7.1280000000e+010   1.2513642919e-002  -2.3800369681e-002   4.5930405282e-003  -5.6199712247e-003   4.5766474189e-003  -5.7289708013e-003  -7.6648662708e-002   4.6633582395e-002
  7.1300000000e+010   1.2309903608e-002  -2.4563306954e-002   4.5965235847e-003  -5.6207733075e-003   4.5801981964e-003  -5.7292086675e-003  -7.4777204182e-002   5.0511815489e-002
  7.1320000000e+010   1.2081600481e-002  -2.5316195637e-002   4.6000987516e-003  -5.6218349673e-003   4.5838468382e-003  -5.7297014789e-003  -7.2744694474e-002   5.4295436198e-002
  7.1340000000e+010   1.1829117758e-002  -2.6058035463e-002   4.6037634144e-003  -5.6231580690e-003   4.5875907322e-003  -5.7304512051e-003  -7.0555691733e-002   5.7977546733e-002
  7.1360000000e+010   1.1552876279e-002  -2.6787849551e-002   4.6075148948e-003  -5.6247444465e-003   4.5914272012e-003  -5.7314597857e-003  -6.8215040681e-002   6.1551468081e-002
  7.1380000000e+010   1.1253332519e-002  -2.7504685696e-002   4.6113504516e-003  -5.6265959020e-003   4.5953535038e-003  -5.7327291293e-003  -6.5727862549e-002   6.5010751908e-002
  7.1400000000e+010   1.0930977573e-002  -2.8207617603e-002   4.6152672811e-003  -5.6287142050e-003   4.5993668342e-003  -5.7342611129e-003  -6.3099544529e-002   6.8349191989e-002
  7.1420000000e+010   1.0586336083e-002  -2.8895746090e-002   4.6192625177e-003  -5.6311010919e-003   4.6034643232e-003  -5.7360575808e-003  -6.0335728752e-002   7.1560835167e-002
  7.1440000000e+010   1.0219965126e-002  -2.9568200231e-002   4.6233332343e-003  -5.6337582650e-003   4.6076430388e-003  -5.7381203444e-003  -5.7442300820e-002   7.4639991817e-002
  7.1460000000e+010   9.8324530626e-003  -3.0224138454e-002   4.6274764432e-003  -5.6366873919e-003   4.6118999864e-003  -5.7404511808e-003  -5.4425377914e-002   7.7581245786e-002
  7.1480000000e+010   9.4244183391e-003  -3.0862749590e-002   4.6316890964e-003  -5.6398901044e-003   4.6162321097e-003  -5.7430518323e-003  -5.1291296498e-002   8.0379463812e-002
  7.1500000000e+010   8.9965082611e-003  -3.1483253863e-002   4.6359680862e-003  -5.6433679984e-003   4.6206362914e-003  -5.7459240057e-003  -4.8046599646e-002   8.3029804386e-002
  7.1520000000e+010   8.5493977245e-003  -3.2084903834e-002   4.6403102463e-003  -5.6471226326e-003   4.6251093534e-003  -5.7490693715e-003  -4.4698024010e-002   8.5527726049e-002
  7.1540000000e+010   8.0837879171e-003  -3.2666985288e-002   4.6447123516e-003  -5.6511555278e-003   4.6296480577e-003  -5.7524895629e-003  -4.1252486464e-002   8.7868995120e-002
  7.1560000000e+010   7.6004049877e-003  -3.3228818063e-002   4.6491711197e-003  -5.6554681665e-003   4.6342491074e-003  -5.7561861753e-003  -3.7717070435e-002   9.0049692819e-002
  7.1580000000e+010   7.0999986874e-003  -3.3769756822e-002   4.6536832112e-003  -5.6600619921e-003   4.6389091465e-003  -5.7601607655e-003  -3.4099011964e-002   9.2066221800e-002
  7.1600000000e+010   6.5833409837e-003  -3.4289191776e-002   4.6582452302e-003  -5.6649384080e-003   4.6436247614e-003  -5.7644148510e-003  -3.0405685506e-002   9.3915312061e-002
  7.1620000000e+010   6.0512246512e-003  -3.4786549338e-002   4.6628537256e-003  -5.6700987767e-003   4.6483924814e-003  -5.7689499091e-003  -2.6644589508e-002   9.5594026233e-002
  7.1640000000e+010   5.5044618402e-003  -3.5261292724e-002   4.6675051910e-003  -5.6755444199e-003   4.6532087791e-003  -5.7737673761e-003  -2.2823331789e-002   9.7099764237e-002
  7.1660000000e+010   4.9438826259e-003  -3.5712922495e-002   4.6721960662e-003  -5.6812766168e-003   4.6580700715e-003  -5.7788686470e-003  -1.8949614745e-002   9.8430267298e-002
  7.1680000000e+010   4.3703335402e-003  -3.6140977038e-002   4.6769227376e-003  -5.6872966042e-003   4.6629727205e-003  -5.7842550744e-003  -1.5031220409e-002   9.9583621316e-002
  7.1700000000e+010   3.7846760897e-003  -3.6545032984e-002   4.6816815389e-003  -5.6936055754e-003   4.6679130341e-003  -5.7899279677e-003  -1.1075995404e-002   1.0055825959e-001
  7.1720000000e+010   3.1877852605e-003  -3.6924705573e-002   4.6864687521e-003  -5.7002046794e-003   4.6728872664e-003  -5.7958885928e-003  -7.0918357929e-003   1.0135296486e-001
  7.1740000000e+010   2.5805480136e-003  -3.7279648951e-002   4.6912806081e-003  -5.7070950209e-003   4.6778916194e-003  -5.8021381712e-003  -3.0866718854e-003   1.0196687076e-001
  7.1760000000e+010   1.9638617721e-003  -3.7609556411e-002   4.6961132878e-003  -5.7142776588e-003   4.6829222429e-003  -5.8086778790e-003   9.3154700158e-004   1.0239946250e-001
  7.1780000000e+010   1.3386329046e-003  -3.7914160569e-002   4.7009629225e-003  -5.7217536062e-003   4.6879752359e-003  -5.8155088468e-003   4.9548677774e-003   1.0265057701e-001
  7.1800000000e+010   7.0577520401e-004  -3.8193233483e-002   4.7058255951e-003  -5.7295238292e-003   4.6930466471e-003  -5.8226321585e-003   8.9753487898e-003   1.0272040234e-001
  7.1820000000e+010   6.6208367465e-005  -3.8446586713e-002   4.7106973408e-003  -5.7375892469e-003   4.6981324761e-003  -5.8300488509e-003   1.2985074984e-002   1.0260947642e-001
  7.1840000000e+010  -5.7914352270e-004  -3.8674071317e-002   4.7155741480e-003  -5.7459507302e-003   4.7032286741e-003  -5.8377599131e-003   1.6976172979e-002   1.0231868524e-001
  7.1860000000e+010  -1.2293535134e-003  -3.8875577786e-002   4.7204519593e-003  -5.7546091014e-003   4.7083311447e-003  -5.8457662856e-003   2.0940826038e-002   1.0184926023e-001
  7.1880000000e+010  -1.8834932887e-003  -3.9051035926e-002   4.7253266720e-003  -5.7635651337e-003   4.7134357448e-003  -5.8540688598e-003   2.4871288899e-002   1.0120277517e-001
  7.1900000000e+010  -2.5406346690e-003  -3.9200414675e-002   4.7301941396e-003  -5.7728195504e-003   4.7185382857e-003  -5.8626684773e-003   2.8759902443e-002   1.0038114236e-001
  7.1920000000e+010  -3.1998510992e-003  -3.9323721869e-002   4.7350501723e-003  -5.7823730245e-003   4.7236345340e-003  -5.8715659294e-003   3.2599108173e-002   9.9386608154e-002
  7.1940000000e+010  -3.8602191228e-003  -3.9421003941e-002   4.7398905379e-003  -5.7922261778e-003   4.7287202124e-003  -5.8807619564e-003   3.6381462474e-002   9.8221747951e-002
  7.1960000000e+010  -4.5208198418e-003  -3.9492345569e-002   4.7447109632e-003  -5.8023795808e-003   4.7337910006e-003  -5.8902572470e-003   4.0099650628e-002   9.6889460514e-002
  7.1980000000e+010  -5.1807403579e-003  -3.9537869273e-002   4.7495071344e-003  -5.8128337517e-003   4.7388425365e-003  -5.9000524376e-003   4.3746500565e-002   9.5392961721e-002
  7.2000000000e+010  -5.8390751939e-003  -3.9557734946e-002   4.7542746983e-003  -5.8235891560e-003   4.7438704172e-003  -5.9101481120e-003   4.7314996313e-002   9.3735777721e-002
  7.2020000000e+010  -6.4949276941e-003  -3.9552139341e-002   4.7590092637e-003  -5.8346462060e-003   4.7488701996e-003  -5.9205448004e-003   5.0798291136e-002   9.1921737532e-002
  7.2040000000e+010  -7.1474114003e-003  -3.9521315500e-002   4.7637064015e-003  -5.8460052604e-003   4.7538374020e-003  -5.9312429793e-003   5.4189720323e-002   8.9954965069e-002
  7.2060000000e+010  -7.7956514016e-003  -3.9465532135e-002   4.7683616465e-003  -5.8576666233e-003   4.7587675043e-003  -5.9422430704e-003   5.7482813619e-002   8.7839870645e-002
  7.2080000000e+010  -8.4387856572e-003  -3.9385092953e-002   4.7729704982e-003  -5.8696305443e-003   4.7636559501e-003  -5.9535454408e-003   6.0671307255e-002   8.5581141940e-002
  7.2100000000e+010  -9.0759662893e-003  -3.9280335945e-002   4.7775284217e-003  -5.8818972175e-003   4.7684981467e-003  -5.9651504016e-003   6.3749155582e-002   8.3183734469e-002
  7.2120000000e+010  -9.7063608444e-003  -3.9151632607e-002   4.7820308486e-003  -5.8944667814e-003   4.7732894668e-003  -5.9770582081e-003   6.6710542264e-002   8.0652861564e-002
  7.2140000000e+010  -1.0329153522e-002  -3.8999387139e-002   4.7864731786e-003  -5.9073393180e-003   4.7780252494e-003  -5.9892690588e-003   6.9549891023e-002   7.7993983883e-002
  7.2160000000e+010  -1.0943546367e-002  -3.8824035578e-002   4.7908507799e-003  -5.9205148527e-003   4.7827008008e-003  -6.0017830954e-003   7.2261875910e-002   7.5212798474e-002
