# Hz S RI R 1.000000
! Metas.Vna.Tools, 2.4.7898.19887
! Metas.Vna.Data, 2.4.7898.19873
! Created: UTC 2021.09.30 14:30:59
! FREQ                re:S1,1             im:S1,1             re:S2,1             im:S2,1             re:S1,2             im:S1,2             re:S2,2             im:S2,2          
  7.0000000000e+010   4.7767942336e-002  -3.3337125367e-002  -1.3783530990e-001   2.3562748919e-001  -1.4170593962e-001   2.3529780834e-001  -1.9070542357e-001  -1.7039077382e-001
  7.0020000000e+010   4.8415578030e-002  -3.4063371011e-002  -1.3790141428e-001   2.3567551079e-001  -1.4177495264e-001   2.3534199431e-001  -1.9374295847e-001  -1.6836945799e-001
  7.0040000000e+010   4.9028601191e-002  -3.4782639526e-002  -1.3795688077e-001   2.3572620391e-001  -1.4183332744e-001   2.3538895439e-001  -1.9667580740e-001  -1.6620058569e-001
  7.0060000000e+010   4.9606734008e-002  -3.5494598977e-002  -1.3800170193e-001   2.3577955539e-001  -1.4188105608e-001   2.3543867663e-001  -1.9949940701e-001  -1.6388637297e-001
  7.0080000000e+010   5.0149726749e-002  -3.6198914367e-002  -1.3803587108e-001   2.3583555148e-001  -1.4191813135e-001   2.3549114840e-001  -2.0220928737e-001  -1.6142923619e-001
  7.0100000000e+010   5.0657357894e-002  -3.6895248036e-002  -1.3805938229e-001   2.3589417781e-001  -1.4194454676e-001   2.3554635650e-001  -2.0480107939e-001  -1.5883178959e-001
  7.0120000000e+010   5.1129434255e-002  -3.7583260060e-002  -1.3807223038e-001   2.3595541942e-001  -1.4196029654e-001   2.3560428707e-001  -2.0727052213e-001  -1.5609684261e-001
  7.0140000000e+010   5.1565791062e-002  -3.8262608661e-002  -1.3807441090e-001   2.3601926071e-001  -1.4196537566e-001   2.3566492564e-001  -2.0961347004e-001  -1.5322739689e-001
  7.0160000000e+010   5.1966292030e-002  -3.8932950619e-002  -1.3806592016e-001   2.3608568553e-001  -1.4195977978e-001   2.3572825713e-001  -2.1182590007e-001  -1.5022664292e-001
  7.0180000000e+010   5.2330829395e-002  -3.9593941688e-002  -1.3804675522e-001   2.3615467710e-001  -1.4194350534e-001   2.3579426585e-001  -2.1390391863e-001  -1.4709795638e-001
  7.0200000000e+010   5.2659323935e-002  -4.0245237018e-002  -1.3801691387e-001   2.3622621807e-001  -1.4191654946e-001   2.3586293552e-001  -2.1584376845e-001  -1.4384489425e-001
  7.0220000000e+010   5.2951724951e-002  -4.0886491579e-002  -1.3797639468e-001   2.3630029051e-001  -1.4187891001e-001   2.3593424925e-001  -2.1764183527e-001  -1.4047119049e-001
  7.0240000000e+010   5.3208010238e-002  -4.1517360587e-002  -1.3792519693e-001   2.3637687591e-001  -1.4183058556e-001   2.3600818954e-001  -2.1929465436e-001  -1.3698075159e-001
  7.0260000000e+010   5.3428186020e-002  -4.2137499936e-002  -1.3786332068e-001   2.3645595519e-001  -1.4177157544e-001   2.3608473834e-001  -2.2079891688e-001  -1.3337765165e-001
  7.0280000000e+010   5.3612286867e-002  -4.2746566629e-002  -1.3779076671e-001   2.3653750871e-001  -1.4170187967e-001   2.3616387699e-001  -2.2215147601e-001  -1.2966612732e-001
  7.0300000000e+010   5.3760375580e-002  -4.3344219210e-002  -1.3770753655e-001   2.3662151626e-001  -1.4162149901e-001   2.3624558625e-001  -2.2334935297e-001  -1.2585057238e-001
  7.0320000000e+010   5.3872543063e-002  -4.3930118199e-002  -1.3761363249e-001   2.3670795709e-001  -1.4153043495e-001   2.3632984632e-001  -2.2438974273e-001  -1.2193553210e-001
  7.0340000000e+010   5.3948908154e-002  -4.4503926525e-002  -1.3750905755e-001   2.3679680988e-001  -1.4142868968e-001   2.3641663682e-001  -2.2527001956e-001  -1.1792569728e-001
  7.0360000000e+010   5.3989617451e-002  -4.5065309963e-002  -1.3739381549e-001   2.3688805278e-001  -1.4131626614e-001   2.3650593682e-001  -2.2598774234e-001  -1.1382589809e-001
  7.0380000000e+010   5.3994845093e-002  -4.5613937565e-002  -1.3726791081e-001   2.3698166341e-001  -1.4119316795e-001   2.3659772482e-001  -2.2654065960e-001  -1.0964109764e-001
  7.0400000000e+010   5.3964792538e-002  -4.6149482091e-002  -1.3713134878e-001   2.3707761884e-001  -1.4105939950e-001   2.3669197877e-001  -2.2692671433e-001  -1.0537638530e-001
  7.0420000000e+010   5.3899688297e-002  -4.6671620447e-002  -1.3698413536e-001   2.3717589563e-001  -1.4091496585e-001   2.3678867608e-001  -2.2714404854e-001  -1.0103696980e-001
  7.0440000000e+010   5.3799787664e-002  -4.7180034104e-002  -1.3682627729e-001   2.3727646981e-001  -1.4075987280e-001   2.3688779362e-001  -2.2719100755e-001  -9.6628172126e-002
  7.0460000000e+010   5.3665372407e-002  -4.7674409531e-002  -1.3665778200e-001   2.3737931689e-001  -1.4059412686e-001   2.3698930770e-001  -2.2706614393e-001  -9.2155418185e-002
  7.0480000000e+010   5.3496750445e-002  -4.8154438615e-002  -1.3647865771e-001   2.3748441188e-001  -1.4041773525e-001   2.3709319413e-001  -2.2676822126e-001  -8.7624231288e-002
  7.0500000000e+010   5.3294255500e-002  -4.8619819082e-002  -1.3628891332e-001   2.3759172929e-001  -1.4023070592e-001   2.3719942818e-001  -2.2629621754e-001  -8.3040224432e-002
  7.0520000000e+010   5.3058246726e-002  -4.9070254907e-002  -1.3608855848e-001   2.3770124313e-001  -1.4003304750e-001   2.3730798460e-001  -2.2564932824e-001  -7.8409092414e-002
  7.0540000000e+010   5.2789108319e-002  -4.9505456732e-002  -1.3587760358e-001   2.3781292691e-001  -1.3982476934e-001   2.3741883763e-001  -2.2482696918e-001  -7.3736603783e-002
  7.0560000000e+010   5.2487249101e-002  -4.9925142264e-002  -1.3565605971e-001   2.3792675366e-001  -1.3960588150e-001   2.3753196099e-001  -2.2382877894e-001  -6.9028592633e-002
  7.0580000000e+010   5.2153102088e-002  -5.0329036679e-002  -1.3542393869e-001   2.3804269593e-001  -1.3937639474e-001   2.3764732792e-001  -2.2265462104e-001  -6.4290950259e-002
  7.0600000000e+010   5.1787124034e-002  -5.0716873013e-002  -1.3518125308e-001   2.3816072580e-001  -1.3913632052e-001   2.3776491114e-001  -2.2130458577e-001  -5.9529616687e-002
  7.0620000000e+010   5.1389794957e-002  -5.1088392549e-002  -1.3492801613e-001   2.3828081488e-001  -1.3888567099e-001   2.3788468289e-001  -2.1977899165e-001  -5.4750572090e-002
  7.0640000000e+010   5.0961617640e-002  -5.1443345200e-002  -1.3466424182e-001   2.3840293432e-001  -1.3862445903e-001   2.3800661492e-001  -2.1807838663e-001  -4.9959828102e-002
  7.0660000000e+010   5.0503117124e-002  -5.1781489876e-002  -1.3438994484e-001   2.3852705481e-001  -1.3835269816e-001   2.3813067850e-001  -2.1620354885e-001  -4.5163419041e-002
  7.0680000000e+010   5.0014840168e-002  -5.2102594851e-002  -1.3410514058e-001   2.3865314660e-001  -1.3807040264e-001   2.3825684444e-001  -2.1415548710e-001  -4.0367393067e-002
  7.0700000000e+010   4.9497354705e-002  -5.2406438121e-002  -1.3380984515e-001   2.3878117949e-001  -1.3777758740e-001   2.3838508305e-001  -2.1193544096e-001  -3.5577803273e-002
  7.0720000000e+010   4.8951249268e-002  -5.2692807747e-002  -1.3350407536e-001   2.3891112283e-001  -1.3747426803e-001   2.3851536422e-001  -2.0954488050e-001  -3.0800698731e-002
  7.0740000000e+010   4.8377132404e-002  -5.2961502196e-002  -1.3318784870e-001   2.3904294556e-001  -1.3716046084e-001   2.3864765733e-001  -2.0698550575e-001  -2.6042115511e-002
  7.0760000000e+010   4.7775632075e-002  -5.3212330667e-002  -1.3286118338e-001   2.3917661619e-001  -1.3683618281e-001   2.3878193137e-001  -2.0425924565e-001  -2.1308067675e-002
  7.0780000000e+010   4.7147395040e-002  -5.3445113410e-002  -1.3252409829e-001   2.3931210281e-001  -1.3650145159e-001   2.3891815483e-001  -2.0136825682e-001  -1.6604538279e-002
  7.0800000000e+010   4.6493086216e-002  -5.3659682034e-002  -1.3217661302e-001   2.3944937308e-001  -1.3615628549e-001   2.3905629579e-001  -1.9831492185e-001  -1.1937470373e-002
  7.0820000000e+010   4.5813388033e-002  -5.3855879803e-002  -1.3181874783e-001   2.3958839429e-001  -1.3580070352e-001   2.3919632189e-001  -1.9510184724e-001  -7.3127580425e-003
  7.0840000000e+010   4.5108999770e-002  -5.4033561924e-002  -1.3145052368e-001   2.3972913328e-001  -1.3543472533e-001   2.3933820034e-001  -1.9173186107e-001  -2.7362374796e-003
  7.0860000000e+010   4.4380636880e-002  -5.4192595817e-002  -1.3107196219e-001   2.3987155655e-001  -1.3505837124e-001   2.3948189794e-001  -1.8820801022e-001   1.7863218854e-003
  7.0880000000e+010   4.3629030296e-002  -5.4332861379e-002  -1.3068308566e-001   2.4001563016e-001  -1.3467166223e-001   2.3962738106e-001  -1.8453355728e-001   6.2492261825e-003
  7.0900000000e+010   4.2854925735e-002  -5.4454251235e-002  -1.3028391707e-001   2.4016131983e-001  -1.3427461995e-001   2.3977461565e-001  -1.8071197713e-001   1.0646865816e-002
  7.0920000000e+010   4.2059082980e-002  -5.4556670973e-002  -1.2987448005e-001   2.4030859088e-001  -1.3386726668e-001   2.3992356729e-001  -1.7674695311e-001   1.4973724080e-002
  7.0940000000e+010   4.1242275156e-002  -5.4640039371e-002  -1.2945479891e-001   2.4045740826e-001  -1.3344962535e-001   2.4007420113e-001  -1.7264237292e-001   1.9224385657e-002
  7.0960000000e+010   4.0405287997e-002  -5.4704288604e-002  -1.2902489859e-001   2.4060773656e-001  -1.3302171955e-001   2.4022648195e-001  -1.6840232416e-001   2.3393544994e-002
  7.0980000000e+010   3.9548919098e-002  -5.4749364446e-002  -1.2858480471e-001   2.4075954002e-001  -1.3258357349e-001   2.4038037412e-001  -1.6403108948e-001   2.7476014527e-002
  7.1000000000e+010   3.8673977165e-002  -5.4775226451e-002  -1.2813454353e-001   2.4091278252e-001  -1.3213521203e-001   2.4053584164e-001  -1.5953314150e-001   3.1466732763e-002
  7.1020000000e+010   3.7781281251e-002  -5.4781848123e-002  -1.2767414195e-001   2.4106742759e-001  -1.3167666065e-001   2.4069284815e-001  -1.5491313735e-001   3.5360772178e-002
  7.1040000000e+010   3.6871659989e-002  -5.4769217074e-002  -1.2720362750e-001   2.4122343843e-001  -1.3120794548e-001   2.4085135689e-001  -1.5017591287e-001   3.9153346938e-002
  7.1060000000e+010   3.5945950810e-002  -5.4737335161e-002  -1.2672302836e-001   2.4138077789e-001  -1.3072909324e-001   2.4101133077e-001  -1.4532647659e-001   4.2839820427e-002
  7.1080000000e+010   3.5004999169e-002  -5.4686218614e-002  -1.2623237334e-001   2.4153940850e-001  -1.3024013129e-001   2.4117273231e-001  -1.4037000335e-001   4.6415712556e-002
  7.1100000000e+010   3.4049657749e-002  -5.4615898150e-002  -1.2573169186e-001   2.4169929249e-001  -1.2974108759e-001   2.4133552371e-001  -1.3531182764e-001   4.9876706852e-002
  7.1120000000e+010   3.3080785677e-002  -5.4526419066e-002  -1.2522101398e-001   2.4186039173e-001  -1.2923199074e-001   2.4149966679e-001  -1.3015743663e-001   5.3218657322e-002
  7.1140000000e+010   3.2099247719e-002  -5.4417841319e-002  -1.2470037035e-001   2.4202266782e-001  -1.2871286991e-001   2.4166512307e-001  -1.2491246304e-001   5.6437595050e-002
  7.1160000000e+010   3.1105913487e-002  -5.4290239596e-002  -1.2416979226e-001   2.4218608203e-001  -1.2818375489e-001   2.4183185369e-001  -1.1958267760e-001   5.9529734553e-002
  7.1180000000e+010   3.0101656636e-002  -5.4143703360e-002  -1.2362931157e-001   2.4235059533e-001  -1.2764467605e-001   2.4199981950e-001  -1.1417398137e-001   6.2491479859e-002
  7.1200000000e+010   2.9087354059e-002  -5.3978336886e-002  -1.2307896077e-001   2.4251616843e-001  -1.2709566437e-001   2.4216898100e-001  -1.0869239778e-001   6.5319430300e-002
  7.1220000000e+010   2.8063885081e-002  -5.3794259280e-002  -1.2251877293e-001   2.4268276171e-001  -1.2653675140e-001   2.4233929839e-001  -1.0314406442e-001   6.8010386018e-002
  7.1240000000e+010   2.7032130659e-002  -5.3591604479e-002  -1.2194878171e-001   2.4285033529e-001  -1.2596796929e-001   2.4251073155e-001  -9.7535224671e-002   7.0561353170e-002
  7.1260000000e+010   2.5992972575e-002  -5.3370521242e-002  -1.2136902135e-001   2.4301884902e-001  -1.2538935073e-001   2.4268324005e-001  -9.1872219101e-002   7.2969548813e-002
  7.1280000000e+010   2.4947292631e-002  -5.3131173115e-002  -1.2077952666e-001   2.4318826247e-001  -1.2480092903e-001   2.4285678318e-001  -8.6161476649e-002   7.5232405480e-002
  7.1300000000e+010   2.3895971854e-002  -5.2873738392e-002  -1.2018033305e-001   2.4335853494e-001  -1.2420273803e-001   2.4303131990e-001  -8.0409505671e-002   7.7347575414e-002
  7.1320000000e+010   2.2839889692e-002  -5.2598410047e-002  -1.1957147648e-001   2.4352962548e-001  -1.2359481214e-001   2.4320680891e-001  -7.4622884805e-002   7.9312934471e-002
  7.1340000000e+010   2.1779923224e-002  -5.2305395662e-002  -1.1895299346e-001   2.4370149290e-001  -1.2297718633e-001   2.4338320861e-001  -6.8808253682e-002   8.1126585678e-002
  7.1360000000e+010   2.0716946366e-002  -5.1994917331e-002  -1.1832492107e-001   2.4387409573e-001  -1.2234989611e-001   2.4356047714e-001  -6.2972303514e-002   8.2786862434e-002
  7.1380000000e+010   1.9651829090e-002  -5.1667211547e-002  -1.1768729693e-001   2.4404739229e-001  -1.2171297756e-001   2.4373857234e-001  -5.7121767548e-002   8.4292331355e-002
  7.1400000000e+010   1.8585436641e-002  -5.1322529083e-002  -1.1704015921e-001   2.4422134064e-001  -1.2106646727e-001   2.4391745180e-001  -5.1263411420e-002   8.5641794752e-002
  7.1420000000e+010   1.7518628764e-002  -5.0961134846e-002  -1.1638354663e-001   2.4439589861e-001  -1.2041040238e-001   2.4409707284e-001  -4.5404023422e-002   8.6834292742e-002
  7.1440000000e+010   1.6452258940e-002  -5.0583307721e-002  -1.1571749842e-001   2.4457102383e-001  -1.1974482056e-001   2.4427739254e-001  -3.9550404684e-002   8.7869104980e-002
  7.1460000000e+010   1.5387173629e-002  -5.0189340394e-002  -1.1504205434e-001   2.4474667367e-001  -1.1906976001e-001   2.4445836770e-001  -3.3709359298e-002   8.8745752011e-002
  7.1480000000e+010   1.4324211514e-002  -4.9779539172e-002  -1.1435725468e-001   2.4492280533e-001  -1.1838525942e-001   2.4463995490e-001  -2.7887684405e-002   8.9463996243e-002
  7.1500000000e+010   1.3264202771e-002  -4.9354223767e-002  -1.1366314024e-001   2.4509937575e-001  -1.1769135802e-001   2.4482211047e-001  -2.2092160242e-002   9.0023842531e-002
  7.1520000000e+010   1.2207968329e-002  -4.8913727087e-002  -1.1295975233e-001   2.4527634170e-001  -1.1698809555e-001   2.4500479049e-001  -1.6329540179e-002   9.0425538375e-002
  7.1540000000e+010   1.1156319156e-002  -4.8458394992e-002  -1.1224713276e-001   2.4545365975e-001  -1.1627551224e-001   2.4518795083e-001  -1.0606540766e-002   9.0669573728e-002
  7.1560000000e+010   1.0110055549e-002  -4.7988586052e-002  -1.1152532382e-001   2.4563128624e-001  -1.1555364881e-001   2.4537154712e-001  -4.9298317860e-003   9.0756680408e-002
  7.1580000000e+010   9.0699664374e-003  -4.7504671277e-002  -1.1079436833e-001   2.4580917737e-001  -1.1482254648e-001   2.4555553477e-001   6.9397364474e-004   9.0687831132e-002
  7.1600000000e+010   8.0368287008e-003  -4.7007033837e-002  -1.1005430955e-001   2.4598728913e-001  -1.1408224696e-001   2.4573986900e-001   6.2583289344e-003   9.0464238142e-002
  7.1620000000e+010   7.0114064963e-003  -4.6496068773e-002  -1.0930519125e-001   2.4616557731e-001  -1.1333279243e-001   2.4592450477e-001   1.1756763801e-002   9.0087351456e-002
  7.1640000000e+010   5.9944506032e-003  -4.5972182686e-002  -1.0854705764e-001   2.4634399756e-001  -1.1257422554e-001   2.4610939689e-001   1.7182893977e-002   8.9558856726e-002
  7.1660000000e+010   4.9866977803e-003  -4.5435793413e-002  -1.0777995344e-001   2.4652250535e-001  -1.1180658944e-001   2.4629449993e-001   2.2530430814e-002   8.8880672706e-002
  7.1680000000e+010   3.9888701393e-003  -4.4887329696e-002  -1.0700392378e-001   2.4670105596e-001  -1.1102992769e-001   2.4647976829e-001   2.7793190770e-002   8.8054948345e-002
  7.1700000000e+010   3.0016745328e-003  -4.4327230833e-002  -1.0621901427e-001   2.4687960455e-001  -1.1024428436e-001   2.4666515614e-001   3.2965104772e-002   8.7084059497e-002
  7.1720000000e+010   2.0258019596e-003  -4.3755946312e-002  -1.0542527098e-001   2.4705810610e-001  -1.0944970393e-001   2.4685061752e-001   3.8040227422e-002   8.5970605252e-002
  7.1740000000e+010   1.0619269858e-003  -4.3173935440e-002  -1.0462274038e-001   2.4723651544e-001  -1.0864623135e-001   2.4703610624e-001   4.3012746054e-002   8.4717403912e-002
  7.1760000000e+010   1.1070718395e-004  -4.2581666958e-002  -1.0381146940e-001   2.4741478725e-001  -1.0783391199e-001   2.4722157597e-001   4.7876989600e-002   8.3327488581e-002
  7.1780000000e+010  -8.2721741014e-004  -4.1979618638e-002  -1.0299150540e-001   2.4759287608e-001  -1.0701279168e-001   2.4740698017e-001   5.2627437273e-002   8.1804102419e-002
  7.1800000000e+010  -1.7512248225e-003  -4.1368276877e-002  -1.0216289616e-001   2.4777073634e-001  -1.0618291666e-001   2.4759227217e-001   5.7258727040e-002   8.0150693530e-002
  7.1820000000e+010  -2.6607116469e-003  -4.0748136272e-002  -1.0132568986e-001   2.4794832229e-001  -1.0534433360e-001   2.4777740511e-001   6.1765663872e-002   7.8370909513e-002
  7.1840000000e+010  -3.5550935317e-003  -4.0119699192e-002  -1.0047993510e-001   2.4812558808e-001  -1.0449708957e-001   2.4796233199e-001   6.6143227761e-002   7.6468591675e-002
  7.1860000000e+010  -4.4338056470e-003  -3.9483475332e-002  -9.9625680892e-002   2.4830248773e-001  -1.0364123207e-001   2.4814700566e-001   7.0386581484e-002   7.4447768922e-002
  7.1880000000e+010  -5.2963031308e-003  -3.8839981261e-002  -9.8762976629e-002   2.4847897513e-001  -1.0277680900e-001   2.4833137879e-001   7.4491078106e-002   7.2312651323e-002
  7.1900000000e+010  -6.1420615161e-003  -3.8189739962e-002  -9.7891872099e-002   2.4865500408e-001  -1.0190386867e-001   2.4851540394e-001   7.8452268207e-002   7.0067623378e-002
  7.1920000000e+010  -6.9705771351e-003  -3.7533280358e-002  -9.7012417477e-002   2.4883052823e-001  -1.0102245975e-001   2.4869903351e-001   8.2265906818e-002   6.7717236978e-002
  7.1940000000e+010  -7.7813675036e-003  -3.6871136836e-002  -9.6124663314e-002   2.4900550116e-001  -1.0013263134e-001   2.4888221978e-001   8.5927960060e-002   6.5266204089e-002
  7.1960000000e+010  -8.5739716827e-003  -3.6203848754e-002  -9.5228660530e-002   2.4917987632e-001  -9.9234432902e-002   2.4906491488e-001   8.9434611460e-002   6.2719389149e-002
  7.1980000000e+010  -9.3479506187e-003  -3.5531959950e-002  -9.4324460415e-002   2.4935360707e-001  -9.8327914270e-002   2.4924707081e-001   9.2782267959e-002   6.0081801214e-002
  7.2000000000e+010  -1.0102887461e-002  -3.4856018239e-002  -9.3412114614e-002   2.4952664667e-001  -9.7413125658e-002   2.4942863948e-001   9.5967565567e-002   5.7358585847e-002
  7.2020000000e+010  -1.0838387856e-002  -3.4176574899e-002  -9.2491675127e-002   2.4969894829e-001  -9.6490117644e-002   2.4960957264e-001   9.8987374686e-002   5.4555016769e-002
  7.2040000000e+010  -1.1554080219e-002  -3.3494184161e-002  -9.1563194301e-002   2.4987046502e-001  -9.5558941166e-002   2.4978982196e-001   1.0183880507e-001   5.1676487289e-002
  7.2060000000e+010  -1.2249615986e-002  -3.2809402684e-002  -9.0626724822e-002   2.5004114986e-001  -9.4619647514e-002   2.4996933896e-001   1.0451921042e-001   4.8728501520e-002
  7.2080000000e+010  -1.2924669832e-002  -3.2122789032e-002  -8.9682319712e-002   2.5021095571e-001  -9.3672288330e-002   2.5014807510e-001   1.0702619263e-001   4.5716665402e-002
  7.2100000000e+010  -1.3578939881e-002  -3.1434903140e-002  -8.8730032321e-002   2.5037983543e-001  -9.2716915597e-002   2.5032598171e-001   1.0935760558e-001   4.2646677542e-002
  7.2120000000e+010  -1.4212147875e-002  -3.0746305781e-002  -8.7769916322e-002   2.5054774177e-001  -9.1753581637e-002   2.5050301000e-001   1.1151155866e-001   3.9524319885e-002
  7.2140000000e+010  -1.4824039335e-002  -3.0057558028e-002  -8.6802025704e-002   2.5071462744e-001  -9.0782339103e-002   2.5067911114e-001   1.1348641977e-001   3.6355448236e-002
  7.2160000000e+010  -1.5414383687e-002  -2.9369220711e-002  -8.5826414767e-002   2.5088044507e-001  -8.9803240975e-002   2.5085423616e-001   1.1528081800e-001   3.3145982647e-002
