# Hz S RI R 1.000000
! Metas.Vna.Tools, 2.4.7898.19887
! Metas.Vna.Data, 2.4.7898.19873
! Created: UTC 2021.09.30 14:31:00
! FREQ                re:S1,1             im:S1,1             re:S2,1             im:S2,1             re:S1,2             im:S1,2             re:S2,2             im:S2,2          
  7.0000000000e+010   1.4345744996e-002   4.8273665705e-002   1.0041863530e-002  -9.3888086244e-003   1.0048918284e-002  -9.6060952993e-003   1.0099117885e-001  -4.9833285644e-002
  7.0020000000e+010   1.5929911626e-002   4.7795394268e-002   1.0035331805e-002  -9.3829656695e-003   1.0042181376e-002  -9.5998925014e-003   9.8244361216e-002  -5.3684674528e-002
  7.0040000000e+010   1.7479142964e-002   4.7262427770e-002   1.0028629655e-002  -9.3772481662e-003   1.0035282097e-002  -9.5938030340e-003   9.5334172141e-002  -5.7392452999e-002
  7.0060000000e+010   1.8992279437e-002   4.6675864737e-002   1.0021759383e-002  -9.3716568680e-003   1.0028222793e-002  -9.5878277251e-003   9.2267354516e-002  -6.0950281076e-002
  7.0080000000e+010   2.0468201470e-002   4.6036848032e-002   1.0014723266e-002  -9.3661925495e-003   1.0021005792e-002  -9.5819674249e-003   8.9050901969e-002  -6.4352126935e-002
  7.0100000000e+010   2.1905830552e-002   4.5346563382e-002   1.0007523563e-002  -9.3608560057e-003   1.0013633398e-002  -9.5762230063e-003   8.5692045139e-002  -6.7592276618e-002
  7.0120000000e+010   2.3304130243e-002   4.4606237852e-002   1.0000162511e-002  -9.3556480527e-003   1.0006107889e-002  -9.5705953648e-003   8.2198237565e-002  -7.0665343153e-002
  7.0140000000e+010   2.4662107144e-002   4.3817138293e-002   9.9926423224e-003  -9.3505695271e-003   9.9984315207e-003  -9.5650854180e-003   7.8577141232e-002  -7.3566275048e-002
  7.0160000000e+010   2.5978811804e-002   4.2980569750e-002   9.9849651872e-003  -9.3456212862e-003   9.9906065231e-003  -9.5596941059e-003   7.4836611786e-002  -7.6290364156e-002
  7.0180000000e+010   2.7253339580e-002   4.2097873835e-002   9.9771332710e-003  -9.3408042079e-003   9.9826350996e-003  -9.5544223908e-003   7.0984683447e-002  -7.8833252900e-002
  7.0200000000e+010   2.8484831446e-002   4.1170427076e-002   9.9691487143e-003  -9.3361191907e-003   9.9745194268e-003  -9.5492712572e-003   6.7029553656e-002  -8.1190940835e-002
  7.0220000000e+010   2.9672474744e-002   4.0199639225e-002   9.9610136319e-003  -9.3315671532e-003   9.9662616539e-003  -9.5442417114e-003   6.2979567477e-002  -8.3359790557e-002
  7.0240000000e+010   3.0815503883e-002   3.9186951547e-002   9.9527301120e-003  -9.3271490346e-003   9.9578639016e-003  -9.5393347817e-003   5.8843201781e-002  -8.5336532927e-002
  7.0260000000e+010   3.1913200981e-002   3.8133835084e-002   9.9443002156e-003  -9.3228657941e-003   9.9493282618e-003  -9.5345515181e-003   5.4629049251e-002  -8.7118271620e-002
  7.0280000000e+010   3.2964896454e-002   3.7041788889e-002   9.9357259759e-003  -9.3187184108e-003   9.9406567961e-003  -9.5298929922e-003   5.0345802224e-002  -8.8702486986e-002
  7.0300000000e+010   3.3969969546e-002   3.5912338247e-002   9.9270093973e-003  -9.3147078839e-003   9.9318515359e-003  -9.5253602970e-003   4.6002236407e-002  -9.0087039212e-002
  7.0320000000e+010   3.4927848802e-002   3.4747032867e-002   9.9181524549e-003  -9.3108352320e-003   9.9229144812e-003  -9.5209545468e-003   4.1607194499e-002  -9.1270170799e-002
  7.0340000000e+010   3.5838012487e-002   3.3547445068e-002   9.9091570935e-003  -9.3071014934e-003   9.9138475999e-003  -9.5166768766e-003   3.7169569739e-002  -9.2250508322e-002
  7.0360000000e+010   3.6699988942e-002   3.2315167946e-002   9.9000252275e-003  -9.3035077257e-003   9.9046528274e-003  -9.5125284426e-003   3.2698289422e-002  -9.3027063506e-002
  7.0380000000e+010   3.7513356887e-002   3.1051813521e-002   9.8907587396e-003  -9.3000550055e-003   9.8953320655e-003  -9.5085104214e-003   2.8202298398e-002  -9.3599233591e-002
  7.0400000000e+010   3.8277745665e-002   2.9759010885e-002   9.8813594802e-003  -9.2967444283e-003   9.8858871817e-003  -9.5046240099e-003   2.3690542601e-002  -9.3966800995e-002
  7.0420000000e+010   3.8992835423e-002   2.8438404337e-002   9.8718292673e-003  -9.2935771083e-003   9.8763200092e-003  -9.5008704251e-003   1.9171952621e-002  -9.4129932290e-002
  7.0440000000e+010   3.9658357244e-002   2.7091651510e-002   9.8621698848e-003  -9.2905541780e-003   9.8666323451e-003  -9.4972509037e-003   1.4655427361e-002  -9.4089176467e-002
  7.0460000000e+010   4.0274093211e-002   2.5720421493e-002   9.8523830830e-003  -9.2876767881e-003   9.8568259507e-003  -9.4937667022e-003   1.0149817799e-002  -9.3845462530e-002
  7.0480000000e+010   4.0839876420e-002   2.4326392961e-002   9.8424705768e-003  -9.2849461070e-003   9.8469025504e-003  -9.4904190960e-003   5.6639108928e-003  -9.3400096389e-002
  7.0500000000e+010   4.1355590930e-002   2.2911252292e-002   9.8324340461e-003  -9.2823633209e-003   9.8368638309e-003  -9.4872093797e-003   1.2064136457e-003  -9.2754757086e-002
  7.0520000000e+010   4.1821171662e-002   2.1476691695e-002   9.8222751342e-003  -9.2799296330e-003   9.8267114408e-003  -9.4841388662e-003  -3.2140626270e-003  -9.1911492356e-002
  7.0540000000e+010   4.2236604229e-002   2.0024407341e-002   9.8119954481e-003  -9.2776462636e-003   9.8164469900e-003  -9.4812088869e-003  -7.5890178120e-003  -9.0872713518e-002
  7.0560000000e+010   4.2601924725e-002   1.8556097502e-002   9.8015965570e-003  -9.2755144496e-003   9.8060720488e-003  -9.4784207909e-003  -1.1910078261e-002  -8.9641189730e-002
  7.0580000000e+010   4.2917219441e-002   1.7073460693e-002   9.7910799922e-003  -9.2735354440e-003   9.7955881475e-003  -9.4757759449e-003  -1.6169011773e-002  -8.8220041599e-002
  7.0600000000e+010   4.3182624536e-002   1.5578193834e-002   9.7804472463e-003  -9.2717105159e-003   9.7849967756e-003  -9.4732757328e-003  -2.0357742281e-002  -8.6612734179e-002
  7.0620000000e+010   4.3398325650e-002   1.4071990417e-002   9.7696997729e-003  -9.2700409497e-003   9.7742993814e-003  -9.4709215551e-003  -2.4468364197e-002  -8.4823069346e-002
  7.0640000000e+010   4.3564557460e-002   1.2556538697e-002   9.7588389855e-003  -9.2685280453e-003   9.7634973713e-003  -9.4687148288e-003  -2.8493156413e-002  -8.2855177594e-002
  7.0660000000e+010   4.3681603180e-002   1.1033519889e-002   9.7478662572e-003  -9.2671731170e-003   9.7525921090e-003  -9.4666569867e-003  -3.2424595918e-002  -8.0713509246e-002
  7.0680000000e+010   4.3749794018e-002   9.5046063925e-003   9.7367829203e-003  -9.2659774937e-003   9.7415849153e-003  -9.4647494773e-003  -3.6255371008e-002  -7.8402825105e-002
  7.0700000000e+010   4.3769508565e-002   7.9714600378e-003   9.7255902654e-003  -9.2649425180e-003   9.7304770673e-003  -9.4629937638e-003  -3.9978394082e-002  -7.5928186565e-002
  7.0720000000e+010   4.3741172148e-002   6.4357303485e-003   9.7142895410e-003  -9.2640695463e-003   9.7192697979e-003  -9.4613913243e-003  -4.3586813973e-002  -7.3294945203e-002
  7.0740000000e+010   4.3665256117e-002   4.8990528349e-003   9.7028819529e-003  -9.2633599477e-003   9.7079642952e-003  -9.4599436509e-003  -4.7074027822e-002  -7.0508731860e-002
  7.0760000000e+010   4.3542277098e-002   3.3630473120e-003   9.6913686639e-003  -9.2628151041e-003   9.6965617021e-003  -9.4586522492e-003  -5.0433692461e-002  -6.7575445251e-002
  7.0780000000e+010   4.3372796184e-002   1.8293162467e-003   9.6797507929e-003  -9.2624364095e-003   9.6850631157e-003  -9.4575186382e-003  -5.3659735278e-002  -6.4501240103e-002
  7.0800000000e+010   4.3157418088e-002   2.9944313518e-004   9.6680294148e-003  -9.2622252694e-003   9.6734695865e-003  -9.4565443493e-003  -5.6746364560e-002  -6.1292514871e-002
  7.0820000000e+010   4.2896790244e-002  -1.2250090876e-003   9.6562055594e-003  -9.2621831007e-003   9.6617821184e-003  -9.4557309262e-003  -5.9688079293e-002  -5.7955899027e-002
  7.0840000000e+010   4.2591601866e-002  -2.7424996042e-003   9.6442802117e-003  -9.2623113306e-003   9.6500016681e-003  -9.4550799238e-003  -6.2479678391e-002  -5.4498239962e-002
  7.0860000000e+010   4.2242582959e-002  -4.2515112357e-003   9.6322543109e-003  -9.2626113968e-003   9.6381291442e-003  -9.4545929085e-003  -6.5116269356e-002  -5.0926589533e-002
  7.0880000000e+010   4.1850503296e-002  -5.7505519257e-003   9.6201287500e-003  -9.2630847462e-003   9.6261654073e-003  -9.4542714569e-003  -6.7593276339e-002  -4.7248190253e-002
  7.0900000000e+010   4.1416171348e-002  -7.2381561859e-003   9.6079043754e-003  -9.2637328349e-003   9.6141112691e-003  -9.4541171553e-003  -6.9906447598e-002  -4.3470461185e-002
  7.0920000000e+010   4.0940433171e-002  -8.7128865007e-003   9.5955819865e-003  -9.2645571276e-003   9.6019674922e-003  -9.4541315998e-003  -7.2051862338e-002  -3.9600983532e-002
  7.0940000000e+010   4.0424171265e-002  -1.0173334691e-002   9.5831623353e-003  -9.2655590968e-003   9.5897347897e-003  -9.4543163949e-003  -7.4025936924e-002  -3.5647485982e-002
  7.0960000000e+010   3.9868303386e-002  -1.1618123237e-002   9.5706461258e-003  -9.2667402224e-003   9.5774138247e-003  -9.4546731531e-003  -7.5825430446e-002  -3.1617829804e-002
  7.0980000000e+010   3.9273781331e-002  -1.3045906552e-002   9.5580340139e-003  -9.2681019909e-003   9.5650052097e-003  -9.4552034947e-003  -7.7447449652e-002  -2.7519993753e-002
  7.1000000000e+010   3.8641589687e-002  -1.4455372213e-002   9.5453266066e-003  -9.2696458953e-003   9.5525095067e-003  -9.4559090467e-003  -7.8889453208e-002  -2.3362058787e-002
  7.1020000000e+010   3.7972744545e-002  -1.5845242151e-002   9.5325244620e-003  -9.2713734339e-003   9.5399272264e-003  -9.4567914423e-003  -8.0149255311e-002  -1.9152192640e-002
  7.1040000000e+010   3.7268292186e-002  -1.7214273781e-002   9.5196280890e-003  -9.2732861099e-003   9.5272588281e-003  -9.4578523205e-003  -8.1225028623e-002  -1.4898634271e-002
  7.1060000000e+010   3.6529307743e-002  -1.8561261093e-002   9.5066379463e-003  -9.2753854310e-003   9.5145047192e-003  -9.4590933250e-003  -8.2115306545e-002  -1.0609678220e-002
  7.1080000000e+010   3.5756893832e-002  -1.9885035694e-002   9.4935544429e-003  -9.2776729086e-003   9.5016652548e-003  -9.4605161039e-003  -8.2818984809e-002  -6.2936589101e-003
  7.1100000000e+010   3.4952179152e-002  -2.1184467786e-002   9.4803779373e-003  -9.2801500568e-003   9.4887407378e-003  -9.4621223088e-003  -8.3335322398e-002  -1.9589348991e-003
  7.1120000000e+010   3.4116317078e-002  -2.2458467111e-002   9.4671087371e-003  -9.2828183925e-003   9.4757314180e-003  -9.4639135943e-003  -8.3663941791e-002   2.3861268604e-003
  7.1140000000e+010   3.3250484217e-002  -2.3705983831e-002   9.4537470993e-003  -9.2856794341e-003   9.4626374923e-003  -9.4658916170e-003  -8.3804828537e-002   6.7331667456e-003
  7.1160000000e+010   3.2355878951e-002  -2.4926009358e-002   9.4402932293e-003  -9.2887347009e-003   9.4494591042e-003  -9.4680580352e-003  -8.3758330144e-002   1.1073848133e-002
  7.1180000000e+010   3.1433719963e-002  -2.6117577128e-002   9.4267472810e-003  -9.2919857127e-003   9.4361963437e-003  -9.4704145080e-003  -8.3525154318e-002   1.5399872989e-002
  7.1200000000e+010   3.0485244748e-002  -2.7279763331e-002   9.4131093567e-003  -9.2954339890e-003   9.4228492469e-003  -9.4729626944e-003  -8.3106366521e-002   1.9702997349e-002
  7.1220000000e+010   2.9511708102e-002  -2.8411687567e-002   9.3993795065e-003  -9.2990810482e-003   9.4094177958e-003  -9.4757042527e-003  -8.2503386880e-002   2.3975046663e-002
  7.1240000000e+010   2.8514380610e-002  -2.9512513469e-002   9.3855577284e-003  -9.3029284068e-003   9.3959019181e-003  -9.4786408399e-003  -8.1717986441e-002   2.8207930975e-002
  7.1260000000e+010   2.7494547118e-002  -3.0581449249e-002   9.3716439678e-003  -9.3069775791e-003   9.3823014873e-003  -9.4817741109e-003  -8.0752282783e-002   3.2393659904e-002
  7.1280000000e+010   2.6453505193e-002  -3.1617748207e-002   9.3576381177e-003  -9.3112300759e-003   9.3686163219e-003  -9.4851057174e-003  -7.9608734992e-002   3.6524357417e-002
  7.1300000000e+010   2.5392563586e-002  -3.2620709166e-002   9.3435400182e-003  -9.3156874042e-003   9.3548461859e-003  -9.4886373077e-003  -7.8290138019e-002   4.0592276344e-002
  7.1320000000e+010   2.4313040681e-002  -3.3589676865e-002   9.3293494565e-003  -9.3203510664e-003   9.3409907883e-003  -9.4923705255e-003  -7.6799616421e-002   4.4589812628e-002
  7.1340000000e+010   2.3216262947e-002  -3.4524042287e-002   9.3150661666e-003  -9.3252225594e-003   9.3270497830e-003  -9.4963070091e-003  -7.5140617502e-002   4.8509519271e-002
  7.1360000000e+010   2.2103563386e-002  -3.5423242932e-002   9.3006898294e-003  -9.3303033738e-003   9.3130227686e-003  -9.5004483910e-003  -7.3316903877e-002   5.2344119963e-002
  7.1380000000e+010   2.0976279986e-002  -3.6286763037e-002   9.2862200725e-003  -9.3355949934e-003   9.2989092887e-003  -9.5047962969e-003  -7.1332545454e-002   5.6086522356e-002
  7.1400000000e+010   1.9835754170e-002  -3.7114133733e-002   9.2716564700e-003  -9.3410988942e-003   9.2847088315e-003  -9.5093523446e-003  -6.9191910868e-002   5.9729830971e-002
  7.1420000000e+010   1.8683329257e-002  -3.7904933150e-002   9.2569985427e-003  -9.3468165439e-003   9.2704208296e-003  -9.5141181437e-003  -6.6899658379e-002   6.3267359712e-002
  7.1440000000e+010   1.7520348925e-002  -3.8658786467e-002   9.2422457577e-003  -9.3527494006e-003   9.2560446604e-003  -9.5190952944e-003  -6.4460726242e-002   6.6692643954e-002
  7.1460000000e+010   1.6348155686e-002  -3.9375365903e-002   9.2273975287e-003  -9.3588989126e-003   9.2415796457e-003  -9.5242853869e-003  -6.1880322586e-002   6.9999452203e-002
  7.1480000000e+010   1.5168089364e-002  -4.0054390652e-002   9.2124532155e-003  -9.3652665172e-003   9.2270250518e-003  -9.5296900006e-003  -5.9163914800e-002   7.3181797290e-002
  7.1500000000e+010   1.3981485595e-002  -4.0695626766e-002   9.1974121246e-003  -9.3718536402e-003   9.2123800898e-003  -9.5353107030e-003  -5.6317218468e-002   7.6233947086e-002
  7.1520000000e+010   1.2789674331e-002  -4.1298886983e-002   9.1822735087e-003  -9.3786616949e-003   9.1976439150e-003  -9.5411490492e-003  -5.3346185858e-002   7.9150434723e-002
  7.1540000000e+010   1.1593978366e-002  -4.1864030500e-002   9.1670365670e-003  -9.3856920813e-003   9.1828156275e-003  -9.5472065808e-003  -5.0256993992e-002   8.1926068297e-002
  7.1560000000e+010   1.0395711880e-002  -4.2390962689e-002   9.1517004453e-003  -9.3929461853e-003   9.1678942720e-003  -9.5534848252e-003  -4.7056032328e-002   8.4555940032e-002
  7.1580000000e+010   9.1961789894e-003  -4.2879634772e-002   9.1362642357e-003  -9.4004253780e-003   9.1528788381e-003  -9.5599852946e-003  -4.3749890061e-002   8.7035434906e-002
  7.1600000000e+010   7.9966723380e-003  -4.3330043426e-002   9.1207269771e-003  -9.4081310148e-003   9.1377682600e-003  -9.5667094856e-003  -4.0345343082e-002   8.9360238704e-002
  7.1620000000e+010   6.7984716916e-003  -4.3742230357e-002   9.1050876548e-003  -9.4160644345e-003   9.1225614171e-003  -9.5736588776e-003  -3.6849340614e-002   9.1526345493e-002
  7.1640000000e+010   5.6028425665e-003  -4.4116281807e-002   9.0893452013e-003  -9.4242269587e-003   9.1072571337e-003  -9.5808349327e-003  -3.3268991549e-002   9.3530064513e-002
  7.1660000000e+010   4.4110348797e-003  -4.4452328022e-002   9.0734984958e-003  -9.4326198906e-003   9.0918541795e-003  -9.5882390942e-003  -2.9611550511e-002   9.5368026461e-002
  7.1680000000e+010   3.2242816267e-003  -4.4750542667e-002   9.0575463646e-003  -9.4412445146e-003   9.0763512694e-003  -9.5958727862e-003  -2.5884403679e-002   9.7037189157e-002
  7.1700000000e+010   2.0437975867e-003  -4.5011142196e-002   9.0414875813e-003  -9.4501020952e-003   9.0607470641e-003  -9.6037374126e-003  -2.2095054387e-002   9.8534842596e-002
  7.1720000000e+010   8.7077805729e-004  -4.5234385172e-002   9.0253208669e-003  -9.4591938761e-003   9.0450401700e-003  -9.6118343560e-003  -1.8251108532e-002   9.9858613360e-002
  7.1740000000e+010  -2.9360237889e-004  -4.5420571549e-002   9.0090448900e-003  -9.4685210798e-003   9.0292291396e-003  -9.6201649773e-003  -1.4360259817e-002   1.0100646840e-001
  7.1760000000e+010  -1.4481910568e-003  -4.5570041902e-002   8.9926582671e-003  -9.4780849060e-003   9.0133124715e-003  -9.6287306144e-003  -1.0430274864e-002   1.0197671817e-001
  7.1780000000e+010  -2.5918583970e-003  -4.5683176620e-002   8.9761595627e-003  -9.4878865315e-003   8.9972886109e-003  -9.6375325815e-003  -6.4689782073e-003   1.0276801911e-001
  7.1800000000e+010  -3.7234990397e-003  -4.5760395055e-002   8.9595472897e-003  -9.4979271091e-003   8.9811559498e-003  -9.6465721682e-003  -2.4842372122e-003   1.0337937546e-001
  7.1820000000e+010  -4.8420329424e-003  -4.5802154631e-002   8.9428199095e-003  -9.5082077666e-003   8.9649128273e-003  -9.6558506387e-003   1.5160530589e-003   1.0381014048e-001
  7.1840000000e+010  -5.9464064405e-003  -4.5808949916e-002   8.9259758323e-003  -9.5187296061e-003   8.9485575299e-003  -9.6653692308e-003   5.5239850084e-003   1.0406001693e-001
  7.1860000000e+010  -7.0355932703e-003  -4.5781311655e-002   8.9090134177e-003  -9.5294937031e-003   8.9320882918e-003  -9.6751291553e-003   9.5316536594e-003   1.0412905693e-001
  7.1880000000e+010  -8.1085955525e-003  -4.5719805769e-002   8.8919309747e-003  -9.5405011059e-003   8.9155032952e-003  -9.6851315946e-003   1.3531171782e-002   1.0401766120e-001
  7.1900000000e+010  -9.1644447351e-003  -4.5625032313e-002   8.8747267621e-003  -9.5517528343e-003   8.8988006709e-003  -9.6953777025e-003   1.7514684957e-002   1.0372657760e-001
  7.1920000000e+010  -1.0202202496e-002  -4.5497624414e-002   8.8573989888e-003  -9.5632498792e-003   8.8819784983e-003  -9.7058686027e-003   2.1474386557e-002   1.0325689902e-001
  7.1940000000e+010  -1.1220961605e-002  -4.5338247164e-002   8.8399458143e-003  -9.5749932015e-003   8.8650348063e-003  -9.7166053884e-003   2.5402532607e-002   1.0261006067e-001
  7.1960000000e+010  -1.2219846738e-002  -4.5147596490e-002   8.8223653493e-003  -9.5869837313e-003   8.8479675732e-003  -9.7275891213e-003   2.9291456504e-002   1.0178783669e-001
  7.1980000000e+010  -1.3198015254e-002  -4.4926397997e-002   8.8046556554e-003  -9.5992223672e-003   8.8307747275e-003  -9.7388208304e-003   3.3133583571e-002   1.0079233612e-001
  7.2000000000e+010  -1.4154657925e-002  -4.4675405780e-002   8.7868147464e-003  -9.6117099754e-003   8.8134541482e-003  -9.7503015118e-003   3.6921445407e-002   9.9625998319e-002
  7.2020000000e+010  -1.5088999619e-002  -4.4395401214e-002   8.7688405880e-003  -9.6244473887e-003   8.7960036652e-003  -9.7620321273e-003   4.0647694015e-002   9.8291587661e-002
  7.2040000000e+010  -1.6000299943e-002  -4.4087191721e-002   8.7507310988e-003  -9.6374354060e-003   8.7784210601e-003  -9.7740136036e-003   4.4305115693e-002   9.6792187736e-002
  7.2060000000e+010  -1.6887853836e-002  -4.3751609510e-002   8.7324841504e-003  -9.6506747910e-003   8.7607040664e-003  -9.7862468318e-003   4.7886644628e-002   9.5131194889e-002
  7.2080000000e+010  -1.7750992114e-002  -4.3389510307e-002   8.7140975682e-003  -9.6641662720e-003   8.7428503701e-003  -9.7987326661e-003   5.1385376212e-002   9.3312311202e-002
  7.2100000000e+010  -1.8589081975e-002  -4.3001772058e-002   8.6955691315e-003  -9.6779105405e-003   8.7248576103e-003  -9.8114719233e-003   5.4794580022e-002   9.1339536922e-002
  7.2120000000e+010  -1.9401527447e-002  -4.2589293615e-002   8.6768965745e-003  -9.6919082509e-003   8.7067233796e-003  -9.8244653818e-003   5.8107712454e-002   8.9217162317e-002
  7.2140000000e+010  -2.0187769803e-002  -4.2152993418e-002   8.6580775865e-003  -9.7061600191e-003   8.6884452250e-003  -9.8377137807e-003   6.1318428986e-002   8.6949759020e-002
  7.2160000000e+010  -2.0947287910e-002  -4.1693808151e-002   8.6391098128e-003  -9.7206664223e-003   8.6700206483e-003  -9.8512178192e-003   6.4420596054e-002   8.4542170841e-002
