# Hz S RI R 1.000000
! Metas.Vna.Tools, 2.4.7898.19887
! Metas.Vna.Data, 2.4.7898.19873
! Created: UTC 2021.09.30 14:31:00
! FREQ                re:S1,1             im:S1,1             re:S2,1             im:S2,1             re:S1,2             im:S1,2             re:S2,2             im:S2,2          
  7.0000000000e+010   4.2902132330e-002  -2.1310185367e-002  -1.3419575530e-001   2.3762260622e-001  -1.3735706956e-001   2.3776318562e-001  -1.3711034491e-001  -2.0653818950e-001
  7.0020000000e+010   4.2533552553e-002  -2.2325819298e-002  -1.3424074054e-001   2.3767887672e-001  -1.3740436064e-001   2.3782055670e-001  -1.4053559485e-001  -2.0536587310e-001
  7.0040000000e+010   4.2160212597e-002  -2.3334255604e-002  -1.3427519711e-001   2.3773716723e-001  -1.3744103881e-001   2.3788002703e-001  -1.4389737174e-001  -2.0402673883e-001
  7.0060000000e+010   4.1781980361e-002  -2.4334949008e-002  -1.3429912177e-001   2.3779746112e-001  -1.3746710028e-001   2.3794157963e-001  -1.4719072350e-001  -2.0252173138e-001
  7.0080000000e+010   4.1398726950e-002  -2.5327359396e-002  -1.3431251209e-001   2.3785974129e-001  -1.3748254205e-001   2.3800519699e-001  -1.5041073572e-001  -2.0085201127e-001
  7.0100000000e+010   4.1010326967e-002  -2.6310952130e-002  -1.3431536641e-001   2.3792399012e-001  -1.3748736191e-001   2.3807086113e-001  -1.5355253938e-001  -1.9901895452e-001
  7.0120000000e+010   4.0616658820e-002  -2.7285198351e-002  -1.3430768388e-001   2.3799018952e-001  -1.3748155845e-001   2.3813855353e-001  -1.5661131861e-001  -1.9702415200e-001
  7.0140000000e+010   4.0217605011e-002  -2.8249575291e-002  -1.3428946442e-001   2.3805832092e-001  -1.3746513105e-001   2.3820825520e-001  -1.5958231844e-001  -1.9486940845e-001
  7.0160000000e+010   3.9813052430e-002  -2.9203566573e-002  -1.3426070874e-001   2.3812836524e-001  -1.3743807991e-001   2.3827994665e-001  -1.6246085244e-001  -1.9255674115e-001
  7.0180000000e+010   3.9402892644e-002  -3.0146662517e-002  -1.3422141833e-001   2.3820030298e-001  -1.3740040599e-001   2.3835360792e-001  -1.6524231047e-001  -1.9008837828e-001
  7.0200000000e+010   3.8987022171e-002  -3.1078360442e-002  -1.3417159548e-001   2.3827411413e-001  -1.3735211107e-001   2.3842921857e-001  -1.6792216622e-001  -1.8746675699e-001
  7.0220000000e+010   3.8565342768e-002  -3.1998164961e-002  -1.3411124325e-001   2.3834977826e-001  -1.3729319770e-001   2.3850675767e-001  -1.7049598476e-001  -1.8469452101e-001
  7.0240000000e+010   3.8137761693e-002  -3.2905588283e-002  -1.3404036549e-001   2.3842727446e-001  -1.3722366923e-001   2.3858620387e-001  -1.7295943005e-001  -1.8177451812e-001
  7.0260000000e+010   3.7704191976e-002  -3.3800150507e-002  -1.3395896682e-001   2.3850658139e-001  -1.3714352981e-001   2.3866753532e-001  -1.7530827228e-001  -1.7870979715e-001
  7.0280000000e+010   3.7264552675e-002  -3.4681379912e-002  -1.3386705266e-001   2.3858767727e-001  -1.3705278437e-001   2.3875072975e-001  -1.7753839512e-001  -1.7550360468e-001
  7.0300000000e+010   3.6818769130e-002  -3.5548813245e-002  -1.3376462919e-001   2.3867053988e-001  -1.3695143863e-001   2.3883576444e-001  -1.7964580295e-001  -1.7215938150e-001
  7.0320000000e+010   3.6366773206e-002  -3.6401996015e-002  -1.3365170337e-001   2.3875514660e-001  -1.3683949909e-001   2.3892261621e-001  -1.8162662777e-001  -1.6868075868e-001
  7.0340000000e+010   3.5908503534e-002  -3.7240482767e-002  -1.3352828294e-001   2.3884147435e-001  -1.3671697304e-001   2.3901126150e-001  -1.8347713619e-001  -1.6507155331e-001
  7.0360000000e+010   3.5443905734e-002  -3.8063837370e-002  -1.3339437640e-001   2.3892949968e-001  -1.3658386854e-001   2.3910167627e-001  -1.8519373608e-001  -1.6133576406e-001
  7.0380000000e+010   3.4972932643e-002  -3.8871633287e-002  -1.3324999304e-001   2.3901919870e-001  -1.3644019444e-001   2.3919383611e-001  -1.8677298318e-001  -1.5747756624e-001
  7.0400000000e+010   3.4495544521e-002  -3.9663453856e-002  -1.3309514289e-001   2.3911054714e-001  -1.3628596036e-001   2.3928771618e-001  -1.8821158744e-001  -1.5350130678e-001
  7.0420000000e+010   3.4011709261e-002  -4.0438892551e-002  -1.3292983677e-001   2.3920352034e-001  -1.3612117672e-001   2.3938329122e-001  -1.8950641925e-001  -1.4941149874e-001
  7.0440000000e+010   3.3521402574e-002  -4.1197553253e-002  -1.3275408626e-001   2.3929809324e-001  -1.3594585467e-001   2.3948053561e-001  -1.9065451540e-001  -1.4521281567e-001
  7.0460000000e+010   3.3024608182e-002  -4.1939050510e-002  -1.3256790368e-001   2.3939424040e-001  -1.3576000615e-001   2.3957942333e-001  -1.9165308486e-001  -1.4091008559e-001
  7.0480000000e+010   3.2521317983e-002  -4.2663009791e-002  -1.3237130212e-001   2.3949193603e-001  -1.3556364388e-001   2.3967992794e-001  -1.9249951436e-001  -1.3650828478e-001
  7.0500000000e+010   3.2011532221e-002  -4.3369067742e-002  -1.3216429543e-001   2.3959115395e-001  -1.3535678132e-001   2.3978202268e-001  -1.9319137366e-001  -1.3201253129e-001
  7.0520000000e+010   3.1495259637e-002  -4.4056872428e-002  -1.3194689819e-001   2.3969186763e-001  -1.3513943270e-001   2.3988568039e-001  -1.9372642067e-001  -1.2742807818e-001
  7.0540000000e+010   3.0972517608e-002  -4.4726083582e-002  -1.3171912576e-001   2.3979405018e-001  -1.3491161302e-001   2.3999087355e-001  -1.9410260622e-001  -1.2276030652e-001
  7.0560000000e+010   3.0443332279e-002  -4.5376372834e-002  -1.3148099421e-001   2.3989767437e-001  -1.3467333801e-001   2.4009757428e-001  -1.9431807865e-001  -1.1801471820e-001
  7.0580000000e+010   2.9907738684e-002  -4.6007423950e-002  -1.3123252037e-001   2.4000271264e-001  -1.3442462417e-001   2.4020575437e-001  -1.9437118807e-001  -1.1319692849e-001
  7.0600000000e+010   2.9365780847e-002  -4.6618933049e-002  -1.3097372180e-001   2.4010913708e-001  -1.3416548873e-001   2.4031538524e-001  -1.9426049033e-001  -1.0831265835e-001
  7.0620000000e+010   2.8817511885e-002  -4.7210608832e-002  -1.3070461680e-001   2.4021691946e-001  -1.3389594968e-001   2.4042643801e-001  -1.9398475078e-001  -1.0336772664e-001
  7.0640000000e+010   2.8262994081e-002  -4.7782172789e-002  -1.3042522438e-001   2.4032603123e-001  -1.3361602573e-001   2.4053888344e-001  -1.9354294760e-001  -9.8368042038e-002
  7.0660000000e+010   2.7702298963e-002  -4.8333359409e-002  -1.3013556430e-001   2.4043644352e-001  -1.3332573635e-001   2.4065269198e-001  -1.9293427495e-001  -9.3319594872e-002
  7.0680000000e+010   2.7135507356e-002  -4.8863916380e-002  -1.2983565701e-001   2.4054812717e-001  -1.3302510171e-001   2.4076783376e-001  -1.9215814572e-001  -8.8228448707e-002
  7.0700000000e+010   2.6562709426e-002  -4.9373604781e-002  -1.2952552372e-001   2.4066105271e-001  -1.3271414274e-001   2.4088427862e-001  -1.9121419398e-001  -8.3100731839e-002
  7.0720000000e+010   2.5984004717e-002  -4.9862199273e-002  -1.2920518631e-001   2.4077519037e-001  -1.3239288107e-001   2.4100199608e-001  -1.9010227714e-001  -7.7942628632e-002
  7.0740000000e+010   2.5399502163e-002  -5.0329488276e-002  -1.2887466738e-001   2.4089051010e-001  -1.3206133904e-001   2.4112095537e-001  -1.8882247772e-001  -7.2760370725e-002
  7.0760000000e+010   2.4809320096e-002  -5.0775274141e-002  -1.2853399025e-001   2.4100698156e-001  -1.3171953974e-001   2.4124112543e-001  -1.8737510481e-001  -6.7560228134e-002
  7.0780000000e+010   2.4213586239e-002  -5.1199373314e-002  -1.2818317891e-001   2.4112457416e-001  -1.3136750692e-001   2.4136247491e-001  -1.8576069519e-001  -6.2348500254e-002
  7.0800000000e+010   2.3612437681e-002  -5.1601616494e-002  -1.2782225807e-001   2.4124325702e-001  -1.3100526507e-001   2.4148497221e-001  -1.8398001411e-001  -5.7131506776e-002
  7.0820000000e+010   2.3006020844e-002  -5.1981848783e-002  -1.2745125310e-001   2.4136299900e-001  -1.3063283937e-001   2.4160858544e-001  -1.8203405565e-001  -5.1915578537e-002
  7.0840000000e+010   2.2394491432e-002  -5.2339929821e-002  -1.2707019007e-001   2.4148376871e-001  -1.3025025568e-001   2.4173328245e-001  -1.7992404286e-001  -4.6707048312e-002
  7.0860000000e+010   2.1778014371e-002  -5.2675733922e-002  -1.2667909574e-001   2.4160553452e-001  -1.2985754057e-001   2.4185903085e-001  -1.7765142740e-001  -4.1512241563e-002
  7.0880000000e+010   2.1156763731e-002  -5.2989150195e-002  -1.2627799750e-001   2.4172826454e-001  -1.2945472126e-001   2.4198579798e-001  -1.7521788892e-001  -3.6337467170e-002
  7.0900000000e+010   2.0530922634e-002  -5.3280082659e-002  -1.2586692346e-001   2.4185192666e-001  -1.2904182569e-001   2.4211355094e-001  -1.7262533402e-001  -3.1189008136e-002
  7.0920000000e+010   1.9900683155e-002  -5.3548450346e-002  -1.2544590235e-001   2.4197648852e-001  -1.2861888244e-001   2.4224225662e-001  -1.6987589493e-001  -2.6073112310e-002
  7.0940000000e+010   1.9266246200e-002  -5.3794187397e-002  -1.2501496357e-001   2.4210191757e-001  -1.2818592076e-001   2.4237188165e-001  -1.6697192771e-001  -2.0995983122e-002
  7.0960000000e+010   1.8627821378e-002  -5.4017243149e-002  -1.2457413718e-001   2.4222818100e-001  -1.2774297058e-001   2.4250239244e-001  -1.6391601019e-001  -1.5963770344e-002
  7.0980000000e+010   1.7985626855e-002  -5.4217582208e-002  -1.2412345387e-001   2.4235524582e-001  -1.2729006247e-001   2.4263375521e-001  -1.6071093953e-001  -1.0982560914e-002
  7.1000000000e+010   1.7339889199e-002  -5.4395184518e-002  -1.2366294496e-001   2.4248307882e-001  -1.2682722764e-001   2.4276593593e-001  -1.5735972938e-001  -6.0583698079e-003
  7.1020000000e+010   1.6690843205e-002  -5.4550045415e-002  -1.2319264243e-001   2.4261164660e-001  -1.2635449795e-001   2.4289890039e-001  -1.5386560676e-001  -1.1971310025e-003
  7.1040000000e+010   1.6038731712e-002  -5.4682175672e-002  -1.2271257886e-001   2.4274091556e-001  -1.2587190592e-001   2.4303261418e-001  -1.5023200850e-001   3.5953114791e-003
  7.1060000000e+010   1.5383805408e-002  -5.4791601536e-002  -1.2222278746e-001   2.4287085192e-001  -1.2537948466e-001   2.4316704269e-001  -1.4646257741e-001   8.3132124077e-003
  7.1080000000e+010   1.4726322618e-002  -5.4878364748e-002  -1.2172330206e-001   2.4300142170e-001  -1.2487726794e-001   2.4330215112e-001  -1.4256115807e-001   1.2950934068e-002
  7.1100000000e+010   1.4066549080e-002  -5.4942522563e-002  -1.2121415709e-001   2.4313259077e-001  -1.2436529012e-001   2.4343790451e-001  -1.3853179225e-001   1.7502954842e-002
  7.1120000000e+010   1.3404757711e-002  -5.4984147745e-002  -1.2069538757e-001   2.4326432480e-001  -1.2384358619e-001   2.4357426770e-001  -1.3437871410e-001   2.1963877639e-002
  7.1140000000e+010   1.2741228363e-002  -5.5003328563e-002  -1.2016702913e-001   2.4339658933e-001  -1.2331219173e-001   2.4371120537e-001  -1.3010634490e-001   2.6328438159e-002
  7.1160000000e+010   1.2076247557e-002  -5.5000168768e-002  -1.1962911798e-001   2.4352934971e-001  -1.2277114294e-001   2.4384868204e-001  -1.2571928753e-001   3.0591512985e-002
  7.1180000000e+010   1.1410108215e-002  -5.4974787566e-002  -1.1908169091e-001   2.4366257115e-001  -1.2222047659e-001   2.4398666208e-001  -1.2122232066e-001   3.4748127464e-002
  7.1200000000e+010   1.0743109381e-002  -5.4927319566e-002  -1.1852478529e-001   2.4379621871e-001  -1.2166023004e-001   2.4412510969e-001  -1.1662039256e-001   3.8793463401e-002
  7.1220000000e+010   1.0075555918e-002  -5.4857914736e-002  -1.1795843905e-001   2.4393025732e-001  -1.2109044123e-001   2.4426398894e-001  -1.1191861471e-001   4.2722866517e-002
  7.1240000000e+010   9.4077582154e-003  -5.4766738326e-002  -1.1738269069e-001   2.4406465174e-001  -1.2051114868e-001   2.4440326374e-001  -1.0712225503e-001   4.6531853680e-002
  7.1260000000e+010   8.7400318627e-003  -5.4653970795e-002  -1.1679757924e-001   2.4419936664e-001  -1.1992239146e-001   2.4454289789e-001  -1.0223673090e-001   5.0216119893e-002
  7.1280000000e+010   8.0726973312e-003  -5.4519807722e-002  -1.1620314431e-001   2.4433436653e-001  -1.1932420920e-001   2.4468285504e-001  -9.7267601820e-002   5.3771545012e-002
  7.1300000000e+010   7.4060796367e-003  -5.4364459697e-002  -1.1559942602e-001   2.4446961582e-001  -1.1871664209e-001   2.4482309873e-001  -9.2220561938e-002   5.7194200209e-002
  7.1320000000e+010   6.7405079947e-003  -5.4188152211e-002  -1.1498646503e-001   2.4460507879e-001  -1.1809973084e-001   2.4496359237e-001  -8.7101432214e-002   6.0480354139e-002
  7.1340000000e+010   6.0763154674e-003  -5.3991125525e-002  -1.1436430254e-001   2.4474071960e-001  -1.1747351673e-001   2.4510429926e-001  -8.1916152410e-002   6.3626478826e-002
  7.1360000000e+010   5.4138386017e-003  -5.3773634536e-002  -1.1373298024e-001   2.4487650234e-001  -1.1683804153e-001   2.4524518259e-001  -7.6670772835e-002   6.6629255234e-002
  7.1380000000e+010   4.7534170582e-003  -5.3535948619e-002  -1.1309254035e-001   2.4501239095e-001  -1.1619334756e-001   2.4538620544e-001  -7.1371445876e-002   6.9485578533e-002
  7.1400000000e+010   4.0953932338e-003  -5.3278351466e-002  -1.1244302559e-001   2.4514834932e-001  -1.1553947763e-001   2.4552733081e-001  -6.6024417333e-002   7.2192563037e-002
  7.1420000000e+010   3.4401118763e-003  -5.3001140910e-002  -1.1178447918e-001   2.4528434120e-001  -1.1487647508e-001   2.4566852159e-001  -6.0636017563e-002   7.4747546811e-002
  7.1440000000e+010   2.7879196917e-003  -5.2704628734e-002  -1.1111694480e-001   2.4542033030e-001  -1.1420438373e-001   2.4580974058e-001  -5.5212652454e-002   7.7148095935e-002
  7.1460000000e+010   2.1391649462e-003  -5.2389140469e-002  -1.1044046664e-001   2.4555628021e-001  -1.1352324790e-001   2.4595095050e-001  -4.9760794232e-002   7.9392008418e-002
  7.1480000000e+010   1.4941970613e-003  -5.2055015186e-002  -1.0975508935e-001   2.4569215445e-001  -1.1283311239e-001   2.4609211399e-001  -4.4286972128e-002   8.1477317759e-002
  7.1500000000e+010   8.5336620482e-004  -5.1702605261e-002  -1.0906085805e-001   2.4582791648e-001  -1.1213402247e-001   2.4623319362e-001  -3.8797762911e-002   8.3402296137e-002
  7.1520000000e+010   2.1702287543e-004  -5.1332276145e-002  -1.0835781832e-001   2.4596352968e-001  -1.1142602390e-001   2.4637415187e-001  -3.3299781299e-002   8.5165457235e-002
  7.1540000000e+010  -4.1448251564e-004  -5.0944406108e-002  -1.0764601618e-001   2.4609895736e-001  -1.1070916287e-001   2.4651495118e-001  -2.7799670277e-002   8.6765558686e-002
  7.1560000000e+010  -1.0408000675e-003  -5.0539385978e-002  -1.0692549810e-001   2.4623416277e-001  -1.0998348605e-001   2.4665555391e-001  -2.2304091323e-002   8.8201604136e-002
  7.1580000000e+010  -1.6615808156e-003  -5.0117618869e-002  -1.0619631098e-001   2.4636910911e-001  -1.0924904053e-001   2.4679592237e-001  -1.6819714560e-002   8.9472844922e-002
  7.1600000000e+010  -2.2764771602e-003  -4.9679519887e-002  -1.0545850214e-001   2.4650375951e-001  -1.0850587385e-001   2.4693601880e-001  -1.1353208856e-002   9.0578781357e-002
  7.1620000000e+010  -2.8851432972e-003  -4.9225515841e-002  -1.0471211934e-001   2.4663807707e-001  -1.0775403399e-001   2.4707580541e-001  -5.9112318881e-003   9.1519163625e-002
  7.1640000000e+010  -3.4872356503e-003  -4.8756044924e-002  -1.0395721074e-001   2.4677202483e-001  -1.0699356934e-001   2.4721524436e-001  -5.0042016988e-004   9.2293992275e-002
  7.1660000000e+010  -4.0824133045e-003  -4.8271556397e-002  -1.0319382489e-001   2.4690556579e-001  -1.0622452870e-001   2.4735429776e-001   4.8726209146e-003   9.2903518317e-002
  7.1680000000e+010  -4.6703384398e-003  -4.7772510251e-002  -1.0242201075e-001   2.4703866291e-001  -1.0544696128e-001   2.4749292769e-001   1.0201327077e-002   9.3348242919e-002
  7.1700000000e+010  -5.2506767647e-003  -4.7259376868e-002  -1.0164181767e-001   2.4717127912e-001  -1.0466091670e-001   2.4763109619e-001   1.5479185066e-002   9.3628916705e-002
  7.1720000000e+010  -5.8230979488e-003  -4.6732636657e-002  -1.0085329538e-001   2.4730337732e-001  -1.0386644494e-001   2.4776876526e-001   2.0699742560e-002   9.3746538645e-002
  7.1740000000e+010  -6.3872760546e-003  -4.6192779699e-002  -1.0005649398e-001   2.4743492037e-001  -1.0306359640e-001   2.4790589690e-001   2.5856618015e-002   9.3702354553e-002
  7.1760000000e+010  -6.9428899669e-003  -4.5640305356e-002  -9.9251463922e-002   2.4756587110e-001  -1.0225242183e-001   2.4804245307e-001   3.0943510429e-002   9.3497855176e-002
  7.1780000000e+010  -7.4896238196e-003  -4.5075721897e-002  -9.8438256033e-002   2.4769619235e-001  -1.0143297236e-001   2.4817839569e-001   3.5954209019e-002   9.3134773900e-002
  7.1800000000e+010  -8.0271674200e-003  -4.4499546088e-002  -9.7616921479e-002   2.4782584690e-001  -1.0060529946e-001   2.4831368670e-001   4.0882602798e-002   9.2615084042e-002
  7.1820000000e+010  -8.5552166684e-003  -4.3912302793e-002  -9.6787511772e-002   2.4795479754e-001  -9.9769454978e-002   2.4844828800e-001   4.5722690017e-002   9.1940995769e-002
  7.1840000000e+010  -9.0734739746e-003  -4.3314524551e-002  -9.5950078755e-002   2.4808300704e-001  -9.8925491084e-002   2.4858216149e-001   5.0468587486e-002   9.1114952618e-002
  7.1860000000e+010  -9.5816486685e-003  -4.2706751153e-002  -9.5104674596e-002   2.4821043815e-001  -9.8073460294e-002   2.4871526905e-001   5.5114539727e-002   9.0139627639e-002
  7.1880000000e+010  -1.0079457405e-002  -4.2089529203e-002  -9.4251351783e-002   2.4833705364e-001  -9.7213415449e-002   2.4884757258e-001   5.9654927968e-002   8.9017919154e-002
  7.1900000000e+010  -1.0566624566e-002  -4.1463411674e-002  -9.3390163113e-002   2.4846281623e-001  -9.6345409709e-002   2.4897903394e-001   6.4084278943e-002   8.7752946154e-002
  7.1920000000e+010  -1.1042882649e-002  -4.0828957456e-002  -9.2521161686e-002   2.4858768869e-001  -9.5469496548e-002   2.4910961503e-001   6.8397273504e-002   8.6348043322e-002
  7.1940000000e+010  -1.1507972655e-002  -4.0186730893e-002  -9.1644400896e-002   2.4871163374e-001  -9.4585729744e-002   2.4923927773e-001   7.2588755006e-002   8.4806755704e-002
  7.1960000000e+010  -1.1961644468e-002  -3.9537301315e-002  -9.0759934424e-002   2.4883461415e-001  -9.3694163372e-002   2.4936798392e-001   7.6653737473e-002   8.3132833028e-002
  7.1980000000e+010  -1.2403657222e-002  -3.8881242562e-002  -8.9867816233e-002   2.4895659264e-001  -9.2794851794e-002   2.4949569551e-001   8.0587413517e-002   8.1330223679e-002
  7.2000000000e+010  -1.2833779660e-002  -3.8219132497e-002  -8.8968100555e-002   2.4907753199e-001  -9.1887849656e-002   2.4962237441e-001   8.4385161998e-002   7.9403068346e-002
  7.2020000000e+010  -1.3251790490e-002  -3.7551552522e-002  -8.8060841887e-002   2.4919739496e-001  -9.0973211877e-002   2.4974798254e-001   8.8042555417e-002   7.7355693346e-002
  7.2040000000e+010  -1.3657478720e-002  -3.6879087076e-002  -8.7146094983e-002   2.4931614432e-001  -9.0050993642e-002   2.4987248183e-001   9.1555367024e-002   7.5192603632e-002
  7.2060000000e+010  -1.4050643994e-002  -3.6202323136e-002  -8.6223914849e-002   2.4943374286e-001  -8.9121250394e-002   2.4999583424e-001   9.4919577629e-002   7.2918475504e-002
  7.2080000000e+010  -1.4431096909e-002  -3.5521849708e-002  -8.5294356728e-002   2.4955015340e-001  -8.8184037828e-002   2.5011800175e-001   9.8131382103e-002   7.0538149024e-002
  7.2100000000e+010  -1.4798659321e-002  -3.4838257318e-002  -8.4357476100e-002   2.4966533874e-001  -8.7239411882e-002   2.5023894635e-001   1.0118719557e-001   6.8056620159e-002
  7.2120000000e+010  -1.5153164644e-002  -3.4152137490e-002  -8.3413328674e-002   2.4977926173e-001  -8.6287428732e-002   2.5035863006e-001   1.0408365923e-001   6.5479032652e-002
  7.2140000000e+010  -1.5494458133e-002  -3.3464082228e-002  -8.2461970375e-002   2.4989188523e-001  -8.5328144779e-002   2.5047701492e-001   1.0681764593e-001   6.2810669648e-002
  7.2160000000e+010  -1.5822397151e-002  -3.2774683494e-002  -8.1503457343e-002   2.5000317212e-001  -8.4361616648e-002   2.5059406301e-001   1.0938626523e-001   6.0056945069e-002
