# Hz S RI R 1.000000
! Metas.Vna.Tools, 2.4.7898.19887
! Metas.Vna.Data, 2.4.7898.19873
! Created: UTC 2021.09.30 14:31:00
! FREQ                re:S1,1             im:S1,1             re:S2,1             im:S2,1             re:S1,2             im:S1,2             re:S2,2             im:S2,2          
  7.0000000000e+010   5.6399425466e-003  -4.3281443424e-002   3.8966422834e-001   1.3625046913e-001   3.8702827550e-001   1.5043258383e-001  -1.1729670411e-001  -1.3432678498e-001
  7.0020000000e+010   5.7646173329e-003  -4.3377651948e-002   3.8983887628e-001   1.3641993882e-001   3.8720086542e-001   1.5061217198e-001  -1.1972410753e-001  -1.3317885758e-001
  7.0040000000e+010   5.8927716393e-003  -4.3475582004e-002   3.9001495184e-001   1.3656970798e-001   3.8737547286e-001   1.5077191375e-001  -1.2209092522e-001  -1.3191339974e-001
  7.0060000000e+010   6.0239845395e-003  -4.3575154556e-002   3.9019241550e-001   1.3669974408e-001   3.8755205888e-001   1.5091177409e-001  -1.2439357413e-001  -1.3053152540e-001
  7.0080000000e+010   6.1578337030e-003  -4.3676285837e-002   3.9037122657e-001   1.3681001637e-001   3.8773058331e-001   1.5103171982e-001  -1.2662851706e-001  -1.2903450478e-001
  7.0100000000e+010   6.2938958462e-003  -4.3778887281e-002   3.9055134317e-001   1.3690049602e-001   3.8791100469e-001   1.5113171955e-001  -1.2879226842e-001  -1.2742376345e-001
  7.0120000000e+010   6.4317471888e-003  -4.3882865458e-002   3.9073272225e-001   1.3697115599e-001   3.8809328035e-001   1.5121174377e-001  -1.3088139986e-001  -1.2570088122e-001
  7.0140000000e+010   6.5709639148e-003  -4.3988122019e-002   3.9091531963e-001   1.3702197117e-001   3.8827736637e-001   1.5127176480e-001  -1.3289254594e-001  -1.2386759074e-001
  7.0160000000e+010   6.7111226373e-003  -4.4094553659e-002   3.9109908996e-001   1.3705291827e-001   3.8846321762e-001   1.5131175684e-001  -1.3482240974e-001  -1.2192577585e-001
  7.0180000000e+010   6.8518008675e-003  -4.4202052073e-002   3.9128398677e-001   1.3706397590e-001   3.8865078776e-001   1.5133169593e-001  -1.3666776835e-001  -1.1987746979e-001
  7.0200000000e+010   6.9925774864e-003  -4.4310503937e-002   3.9146996248e-001   1.3705512457e-001   3.8884002927e-001   1.5133156001e-001  -1.3842547840e-001  -1.1772485299e-001
  7.0220000000e+010   7.1330332181e-003  -4.4419790888e-002   3.9165696839e-001   1.3702634665e-001   3.8903089343e-001   1.5131132888e-001  -1.4009248140e-001  -1.1547025080e-001
  7.0240000000e+010   7.2727511062e-003  -4.4529789521e-002   3.9184495473e-001   1.3697762642e-001   3.8922333037e-001   1.5127098423e-001  -1.4166580911e-001  -1.1311613090e-001
  7.0260000000e+010   7.4113169898e-003  -4.4640371393e-002   3.9203387063e-001   1.3690895008e-001   3.8941728906e-001   1.5121050965e-001  -1.4314258866e-001  -1.1066510046e-001
  7.0280000000e+010   7.5483199813e-003  -4.4751403039e-002   3.9222366417e-001   1.3682030571e-001   3.8961271731e-001   1.5112989062e-001  -1.4452004776e-001  -1.0811990312e-001
  7.0300000000e+010   7.6833529429e-003  -4.4862745996e-002   3.9241428237e-001   1.3671168330e-001   3.8980956184e-001   1.5102911452e-001  -1.4579551963e-001  -1.0548341572e-001
  7.0320000000e+010   7.8160129629e-003  -4.4974256843e-002   3.9260567121e-001   1.3658307478e-001   3.9000776821e-001   1.5090817065e-001  -1.4696644789e-001  -1.0275864481e-001
  7.0340000000e+010   7.9459018302e-003  -4.5085787248e-002   3.9279777567e-001   1.3643447397e-001   3.9020728093e-001   1.5076705022e-001  -1.4803039127e-001  -9.9948722943e-002
  7.0360000000e+010   8.0726265068e-003  -4.5197184027e-002   3.9299053968e-001   1.3626587664e-001   3.9040804338e-001   1.5060574633e-001  -1.4898502826e-001  -9.7056904742e-002
  7.0380000000e+010   8.1957995973e-003  -4.5308289213e-002   3.9318390621e-001   1.3607728046e-001   3.9060999790e-001   1.5042425403e-001  -1.4982816153e-001  -9.4086562781e-002
  7.0400000000e+010   8.3150398148e-003  -4.5418940145e-002   3.9337781724e-001   1.3586868505e-001   3.9081308574e-001   1.5022257028e-001  -1.5055772221e-001  -9.1041183242e-002
  7.0420000000e+010   8.4299724427e-003  -4.5528969553e-002   3.9357221377e-001   1.3564009193e-001   3.9101724714e-001   1.5000069397e-001  -1.5117177403e-001  -8.7924361390e-002
  7.0440000000e+010   8.5402297919e-003  -4.5638205669e-002   3.9376703586e-001   1.3539150460e-001   3.9122242131e-001   1.4975862593e-001  -1.5166851727e-001  -8.4739796845e-002
  7.0460000000e+010   8.6454516514e-003  -4.5746472341e-002   3.9396222265e-001   1.3512292846e-001   3.9142854641e-001   1.4949636890e-001  -1.5204629254e-001  -8.1491288672e-002
  7.0480000000e+010   8.7452857344e-003  -4.5853589166e-002   3.9415771232e-001   1.3483437084e-001   3.9163555966e-001   1.4921392756e-001  -1.5230358434e-001  -7.8182730298e-002
  7.0500000000e+010   8.8393881153e-003  -4.5959371621e-002   3.9435344219e-001   1.3452584105e-001   3.9184339724e-001   1.4891130855e-001  -1.5243902445e-001  -7.4818104247e-002
  7.0520000000e+010   8.9274236611e-003  -4.6063631225e-002   3.9454934865e-001   1.3419735030e-001   3.9205199441e-001   1.4858852043e-001  -1.5245139511e-001  -7.1401476724e-002
  7.0540000000e+010   9.0090664533e-003  -4.6166175695e-002   3.9474536725e-001   1.3384891174e-001   3.9226128546e-001   1.4824557368e-001  -1.5233963203e-001  -6.7936992031e-002
  7.0560000000e+010   9.0840002011e-003  -4.6266809120e-002   3.9494143265e-001   1.3348054049e-001   3.9247120375e-001   1.4788248076e-001  -1.5210282707e-001  -6.4428866843e-002
  7.0580000000e+010   9.1519186454e-003  -4.6365332151e-002   3.9513747869e-001   1.3309225359e-001   3.9268168172e-001   1.4749925604e-001  -1.5174023086e-001  -6.0881384339e-002
  7.0600000000e+010   9.2125259520e-003  -4.6461542194e-002   3.9533343838e-001   1.3268407000e-001   3.9289265089e-001   1.4709591584e-001  -1.5125125502e-001  -5.7298888209e-002
  7.0620000000e+010   9.2655370943e-003  -4.6555233616e-002   3.9552924392e-001   1.3225601065e-001   3.9310404194e-001   1.4667247843e-001  -1.5063547430e-001  -5.3685776529e-002
  7.0640000000e+010   9.3106782244e-003  -4.6646197966e-002   3.9572482671e-001   1.3180809840e-001   3.9331578464e-001   1.4622896400e-001  -1.4989262838e-001  -5.0046495533e-002
  7.0660000000e+010   9.3476870319e-003  -4.6734224204e-002   3.9592011738e-001   1.3134035803e-001   3.9352780792e-001   1.4576539471e-001  -1.4902262346e-001  -4.6385533274e-002
  7.0680000000e+010   9.3763130903e-003  -4.6819098934e-002   3.9611504578e-001   1.3085281627e-001   3.9374003988e-001   1.4528179462e-001  -1.4802553364e-001  -4.2707413195e-002
  7.0700000000e+010   9.3963181895e-003  -4.6900606658e-002   3.9630954106e-001   1.3034550176e-001   3.9395240780e-001   1.4477818975e-001  -1.4690160194e-001  -3.9016687618e-002
  7.0720000000e+010   9.4074766549e-003  -4.6978530033e-002   3.9650353159e-001   1.2981844510e-001   3.9416483816e-001   1.4425460807e-001  -1.4565124122e-001  -3.5317931149e-002
  7.0740000000e+010   9.4095756519e-003  -4.7052650137e-002   3.9669694507e-001   1.2927167879e-001   3.9437725664e-001   1.4371107944e-001  -1.4427503469e-001  -3.1615734034e-002
  7.0760000000e+010   9.4024154751e-003  -4.7122746745e-002   3.9688970849e-001   1.2870523726e-001   3.9458958817e-001   1.4314763569e-001  -1.4277373630e-001  -2.7914695449e-002
  7.0780000000e+010   9.3858098224e-003  -4.7188598618e-002   3.9708174817e-001   1.2811915687e-001   3.9480175694e-001   1.4256431056e-001  -1.4114827072e-001  -2.4219416753e-002
  7.0800000000e+010   9.3595860523e-003  -4.7249983791e-002   3.9727298975e-001   1.2751347587e-001   3.9501368638e-001   1.4196113972e-001  -1.3939973318e-001  -2.0534494709e-002
  7.0820000000e+010   9.3235854256e-003  -4.7306679881e-002   3.9746335827e-001   1.2688823446e-001   3.9522529922e-001   1.4133816075e-001  -1.3752938901e-001  -1.6864514680e-002
  7.0840000000e+010   9.2776633292e-003  -4.7358464388e-002   3.9765277810e-001   1.2624347471e-001   3.9543651750e-001   1.4069541316e-001  -1.3553867284e-001  -1.3214043820e-002
  7.0860000000e+010   9.2216894831e-003  -4.7405115017e-002   3.9784117305e-001   1.2557924061e-001   3.9564726257e-001   1.4003293837e-001  -1.3342918767e-001  -9.5876242607e-003
  7.0880000000e+010   9.1555481288e-003  -4.7446409997e-002   3.9802846629e-001   1.2489557804e-001   3.9585745512e-001   1.3935077971e-001  -1.3120270353e-001  -5.9897663084e-003
  7.0900000000e+010   9.0791382000e-003  -4.7482128411e-002   3.9821458046e-001   1.2419253478e-001   3.9606701521e-001   1.3864898240e-001  -1.2886115595e-001  -2.4249416699e-003
  7.0920000000e+010   8.9923734742e-003  -4.7512050529e-002   3.9839943762e-001   1.2347016048e-001   3.9627586225e-001   1.3792759357e-001  -1.2640664420e-001   1.1024232943e-003
  7.0940000000e+010   8.8951827057e-003  -4.7535958148e-002   3.9858295931e-001   1.2272850669e-001   3.9648391507e-001   1.3718666226e-001  -1.2384142915e-001   4.5879542698e-003
  7.0960000000e+010   8.7875097385e-003  -4.7553634934e-002   3.9876506654e-001   1.2196762682e-001   3.9669109190e-001   1.3642623936e-001  -1.2116793096e-001   8.0273356327e-003
  7.0980000000e+010   8.6693136004e-003  -4.7564866772e-002   3.9894567983e-001   1.2118757615e-001   3.9689731039e-001   1.3564637768e-001  -1.1838872652e-001   1.1416317028e-002
  7.1000000000e+010   8.5405685765e-003  -4.7569442115e-002   3.9912471920e-001   1.2038841181e-001   3.9710248765e-001   1.3484713187e-001  -1.1550654652e-001   1.4750719869e-002
  7.1020000000e+010   8.4012642628e-003  -4.7567152338e-002   3.9930210421e-001   1.1957019279e-001   3.9730654025e-001   1.3402855847e-001  -1.1252427239e-001   1.8026443751e-002
  7.1040000000e+010   8.2514055993e-003  -4.7557792095e-002   3.9947775399e-001   1.1873297992e-001   3.9750938424e-001   1.3319071588e-001  -1.0944493293e-001   2.1239472764e-002
  7.1060000000e+010   8.0910128825e-003  -4.7541159679e-002   3.9965158722e-001   1.1787683587e-001   3.9771093518e-001   1.3233366435e-001  -1.0627170067e-001   2.4385881693e-002
  7.1080000000e+010   7.9201217575e-003  -4.7517057377e-002   3.9982352217e-001   1.1700182514e-001   3.9791110815e-001   1.3145746596e-001  -1.0300788805e-001   2.7461842107e-002
  7.1100000000e+010   7.7387831885e-003  -4.7485291830e-002   3.9999347673e-001   1.1610801404e-001   3.9810981777e-001   1.3056218466e-001  -9.9656943304e-002   3.0463628302e-002
  7.1120000000e+010   7.5470634088e-003  -4.7445674396e-002   4.0016136839e-001   1.1519547069e-001   3.9830697820e-001   1.2964788621e-001  -9.6222446122e-002   3.3387623122e-002
  7.1140000000e+010   7.3450438499e-003  -4.7398021507e-002   4.0032711429e-001   1.1426426501e-001   3.9850250321e-001   1.2871463818e-001  -9.2708103118e-002   3.6230323609e-002
  7.1160000000e+010   7.1328210494e-003  -4.7342155022e-002   4.0049063125e-001   1.1331446873e-001   3.9869630613e-001   1.2776250999e-001  -8.9117743039e-002   3.8988346512e-002
  7.1180000000e+010   6.9105065373e-003  -4.7277902588e-002   4.0065183574e-001   1.1234615533e-001   3.9888829993e-001   1.2679157282e-001  -8.5455311767e-002   4.1658433607e-002
  7.1200000000e+010   6.6782267021e-003  -4.7205097990e-002   4.0081064394e-001   1.1135940008e-001   3.9907839718e-001   1.2580189966e-001  -8.1724867124e-002   4.4237456851e-002
  7.1220000000e+010   6.4361226355e-003  -4.7123581500e-002   4.0096697173e-001   1.1035428000e-001   3.9926651013e-001   1.2479356530e-001  -7.7930573463e-002   4.6722423339e-002
  7.1240000000e+010   6.1843499560e-003  -4.7033200221e-002   4.0112073473e-001   1.0933087388e-001   3.9945255069e-001   1.2376664628e-001  -7.4076696071e-002   4.9110480070e-002
  7.1260000000e+010   5.9230786123e-003  -4.6933808431e-002   4.0127184831e-001   1.0828926222e-001   3.9963643044e-001   1.2272122092e-001  -7.0167595388e-002   5.1398918498e-002
  7.1280000000e+010   5.6524926654e-003  -4.6825267913e-002   4.0142022760e-001   1.0722952727e-001   3.9981806070e-001   1.2165736927e-001  -6.6207721044e-002   5.3585178875e-002
  7.1300000000e+010   5.3727900511e-003  -4.6707448289e-002   4.0156578752e-001   1.0615175298e-001   3.9999735246e-001   1.2057517314e-001  -6.2201605730e-002   5.5666854373e-002
  7.1320000000e+010   5.0841823216e-003  -4.6580227339e-002   4.0170844278e-001   1.0505602501e-001   4.0017421651e-001   1.1947471606e-001  -5.8153858910e-002   5.7641694966e-002
  7.1340000000e+010   4.7868943675e-003  -4.6443491321e-002   4.0184810793e-001   1.0394243071e-001   4.0034856336e-001   1.1835608330e-001  -5.4069160380e-002   5.9507611088e-002
  7.1360000000e+010   4.4811641201e-003  -4.6297135272e-002   4.0198469732e-001   1.0281105911e-001   4.0052030331e-001   1.1721936180e-001  -4.9952253690e-002   6.1262677035e-002
  7.1380000000e+010   4.1672422347e-003  -4.6141063311e-002   4.0211812519e-001   1.0166200090e-001   4.0068934646e-001   1.1606464023e-001  -4.5807939433e-002   6.2905134127e-002
  7.1400000000e+010   3.8453917541e-003  -4.5975188930e-002   4.0224830563e-001   1.0049534844e-001   4.0085560272e-001   1.1489200891e-001  -4.1641068413e-002   6.4433393602e-002
  7.1420000000e+010   3.5158877545e-003  -4.5799435272e-002   4.0237515264e-001   9.9311195709e-002   4.0101898184e-001   1.1370155985e-001  -3.7456534706e-002   6.5846039258e-002
  7.1440000000e+010   3.1790169726e-003  -4.5613735400e-002   4.0249858010e-001   9.8109638325e-002   4.0117939340e-001   1.1249338672e-001  -3.3259268618e-002   6.7141829818e-002
  7.1460000000e+010   2.8350774153e-003  -4.5418032558e-002   4.0261850183e-001   9.6890773515e-002   4.0133674688e-001   1.1126758481e-001  -2.9054229555e-002   6.8319701035e-002
  7.1480000000e+010   2.4843779519e-003  -4.5212280418e-002   4.0273483158e-001   9.5654700104e-002   4.0149095163e-001   1.1002425106e-001  -2.4846398820e-002   6.9378767503e-002
  7.1500000000e+010   2.1272378894e-003  -4.4996443314e-002   4.0284748307e-001   9.4401518501e-002   4.0164191689e-001   1.0876348402e-001  -2.0640772340e-002   7.0318324203e-002
  7.1520000000e+010   1.7639865326e-003  -4.4770496466e-002   4.0295636998e-001   9.3131330687e-002   4.0178955186e-001   1.0748538384e-001  -1.6442353337e-002   7.1137847757e-002
  7.1540000000e+010   1.3949627268e-003  -4.4534426188e-002   4.0306140599e-001   9.1844240196e-002   4.0193376563e-001   1.0619005225e-001  -1.2256144960e-002   7.1836997393e-002
  7.1560000000e+010   1.0205143874e-003  -4.4288230086e-002   4.0316250479e-001   9.0540352103e-002   4.0207446730e-001   1.0487759258e-001  -8.0871428857e-003   7.2415615623e-002
  7.1580000000e+010   6.4099801315e-004  -4.4031917238e-002   4.0325958009e-001   8.9219773006e-002   4.0221156592e-001   1.0354810969e-001  -3.9403278964e-003   7.2873728632e-002
  7.1600000000e+010   2.5677818727e-004  -4.3765508362e-002   4.0335254564e-001   8.7882611016e-002   4.0234497051e-001   1.0220170999e-001   1.7934154756e-004   7.3211546366e-002
  7.1620000000e+010  -1.3177293586e-004  -4.3489035965e-002   4.0344131525e-001   8.6528975734e-002   4.0247459015e-001   1.0083850143e-001   4.2669367297e-003   7.3429462330e-002
  7.1640000000e+010  -5.2427615579e-004  -4.3202544484e-002   4.0352580281e-001   8.5158978241e-002   4.0260033391e-001   9.9458593463e-002   8.3175660841e-003   7.3528053091e-002
  7.1660000000e+010  -9.2034576303e-004  -4.2906090404e-002   4.0360592230e-001   8.3772731080e-002   4.0272211092e-001   9.8062097042e-002   1.2326382573e-002   7.3508077481e-002
  7.1680000000e+010  -1.3195900872e-003  -4.2599742362e-002   4.0368158778e-001   8.2370348237e-002   4.0283983037e-001   9.6649124602e-002   1.6288591023e-002   7.3370475511e-002
  7.1700000000e+010  -1.7216120552e-003  -4.2283581231e-002   4.0375271348e-001   8.0951945129e-002   4.0295340151e-001   9.5219790043e-002   2.0199455410e-002   7.3116366984e-002
  7.1720000000e+010  -2.1260097593e-003  -4.1957700198e-002   4.0381921373e-001   7.9517638585e-002   4.0306273372e-001   9.3774208714e-002   2.4054306074e-002   7.2747049821e-002
  7.1740000000e+010  -2.5323770333e-003  -4.1622204809e-002   4.0388100303e-001   7.8067546829e-002   4.0316773647e-001   9.2312497398e-002   2.7848546866e-002   7.2263998091e-002
  7.1760000000e+010  -2.9403040374e-003  -4.1277213008e-002   4.0393799604e-001   7.6601789464e-002   4.0326831936e-001   9.0834774294e-002   3.1577662197e-002   7.1668859755e-002
  7.1780000000e+010  -3.3493778493e-003  -4.0922855153e-002   4.0399010763e-001   7.5120487452e-002   4.0336439215e-001   8.9341158998e-002   3.5237223991e-002   7.0963454125e-002
  7.1800000000e+010  -3.7591830621e-003  -4.0559274014e-002   4.0403725284e-001   7.3623763100e-002   4.0345586473e-001   8.7831772492e-002   3.8822898524e-002   7.0149769036e-002
  7.1820000000e+010  -4.1693023876e-003  -4.0186624756e-002   4.0407934695e-001   7.2111740041e-002   4.0354264720e-001   8.6306737121e-002   4.2330453140e-002   6.9229957745e-002
  7.1840000000e+010  -4.5793172636e-003  -3.9805074898e-002   4.0411630545e-001   7.0584543215e-002   4.0362464985e-001   8.4766176576e-002   4.5755762830e-002   6.8206335549e-002
  7.1860000000e+010  -4.9888084652e-003  -3.9414804257e-002   4.0414804410e-001   6.9042298852e-002   4.0370178315e-001   8.3210215881e-002   4.9094816665e-002   6.7081376140e-002
  7.1880000000e+010  -5.3973567192e-003  -3.9016004872e-002   4.0417447891e-001   6.7485134456e-002   4.0377395784e-001   8.1638981371e-002   5.2343724074e-002   6.5857707691e-002
  7.1900000000e+010  -5.8045433192e-003  -3.8608880909e-002   4.0419552615e-001   6.5913178781e-002   4.0384108487e-001   8.0052600674e-002   5.5498720945e-002   6.4538108688e-002
  7.1920000000e+010  -6.2099507432e-003  -3.8193648549e-002   4.0421110242e-001   6.4326561819e-002   4.0390307546e-001   7.8451202696e-002   5.8556175559e-002   6.3125503499e-002
  7.1940000000e+010  -6.6131632696e-003  -3.7770535851e-002   4.0422112458e-001   6.2725414777e-002   4.0395984110e-001   7.6834917599e-002   6.1512594323e-002   6.1622957715e-002
  7.1960000000e+010  -7.0137675939e-003  -3.7339782604e-002   4.0422550983e-001   6.1109870060e-002   4.0401129356e-001   7.5203876787e-002   6.4364627310e-002   6.0033673232e-002
  7.1980000000e+010  -7.4113534421e-003  -3.6901640152e-002   4.0422417572e-001   5.9480061251e-002   4.0405734493e-001   7.3558212881e-002   6.7109073590e-002   5.8360983120e-002
  7.2000000000e+010  -7.8055141826e-003  -3.6456371209e-002   4.0421704011e-001   5.7836123096e-002   4.0409790759e-001   7.1898059709e-002   6.9742886336e-002   5.6608346255e-002
  7.2020000000e+010  -8.1958474339e-003  -3.6004249642e-002   4.0420402125e-001   5.6178191477e-002   4.0413289429e-001   7.0223552277e-002   7.2263177710e-002   5.4779341744e-002
  7.2040000000e+010  -8.5819556675e-003  -3.5545560252e-002   4.0418503775e-001   5.4506403399e-002   4.0416221809e-001   6.8534826758e-002   7.4667223505e-002   5.2877663141e-002
  7.2060000000e+010  -8.9634468057e-003  -3.5080598521e-002   4.0416000862e-001   5.2820896971e-002   4.0418579244e-001   6.6832020472e-002   7.6952467547e-002   5.0907112464e-002
  7.2080000000e+010  -9.3399348134e-003  -3.4609670351e-002   4.0412885324e-001   5.1121811382e-002   4.0420353115e-001   6.5115271860e-002   7.9116525844e-002   4.8871594032e-002
  7.2100000000e+010  -9.7110402814e-003  -3.4133091778e-002   4.0409149145e-001   4.9409286885e-002   4.0421534841e-001   6.3384720473e-002   8.1157190467e-002   4.6775108113e-002
  7.2120000000e+010  -1.0076391003e-002  -3.3651188671e-002   4.0404784348e-001   4.7683464774e-002   4.0422115885e-001   6.1640506947e-002   8.3072433173e-002   4.4621744412e-002
  7.2140000000e+010  -1.0435622540e-002  -3.3164296418e-002   4.0399783001e-001   4.5944487368e-002   4.0422087747e-001   5.9882772987e-002   8.4860408743e-002   4.2415675401e-002
  7.2160000000e+010  -1.0788378780e-002  -3.2672759582e-002   4.0394137218e-001   4.4192497989e-002   4.0421441975e-001   5.8111661345e-002   8.6519458048e-002   4.0161149499e-002
