# Hz S RI R 1.000000
! Metas.Vna.Tools, 2.4.7898.19887
! Metas.Vna.Data, 2.4.7898.19873
! Created: UTC 2021.09.30 14:30:59
! FREQ                re:S1,1             im:S1,1             re:S2,1             im:S2,1             re:S1,2             im:S1,2             re:S2,2             im:S2,2          
  7.0000000000e+010  -3.6714979564e-002  -3.8795443475e-002   2.0400148069e-001  -1.3343860738e-002   2.0559322641e-001  -1.1592570157e-002  -2.0553517334e-001  -2.0927248959e-001
  7.0020000000e+010  -3.6071116636e-002  -3.8108512064e-002   2.0405536467e-001  -1.3273349959e-002   2.0564877732e-001  -1.1519265003e-002  -2.0907590311e-001  -2.0717079918e-001
  7.0040000000e+010  -3.5404355940e-002  -3.7443055831e-002   2.0410744930e-001  -1.3211187258e-002   2.0570253427e-001  -1.1454407971e-002  -2.1250716345e-001  -2.0489620097e-001
  7.0060000000e+010  -3.4715846300e-002  -3.6799523344e-002   2.0415772617e-001  -1.3157383758e-002   2.0575448866e-001  -1.1398010832e-002  -2.1582369501e-001  -2.0245092851e-001
  7.0080000000e+010  -3.4006748262e-002  -3.6178327259e-002   2.0420618651e-001  -1.3111949847e-002   2.0580463151e-001  -1.1350084615e-002  -2.1902033218e-001  -1.9983744624e-001
  7.0100000000e+010  -3.3278232679e-002  -3.5579844114e-002   2.0425282122e-001  -1.3074895182e-002   2.0585295347e-001  -1.1310639605e-002  -2.2209201162e-001  -1.9705844728e-001
  7.0120000000e+010  -3.2531479271e-002  -3.5004414166e-002   2.0429762078e-001  -1.3046228681e-002   2.0589944481e-001  -1.1279685340e-002  -2.2503378057e-001  -1.9411685077e-001
  7.0140000000e+010  -3.1767675200e-002  -3.4452341276e-002   2.0434057535e-001  -1.3025958523e-002   2.0594409544e-001  -1.1257230610e-002  -2.2784080517e-001  -1.9101579890e-001
  7.0160000000e+010  -3.0988013630e-002  -3.3923892847e-002   2.0438167472e-001  -1.3014092149e-002   2.0598689488e-001  -1.1243283457e-002  -2.3050837864e-001  -1.8775865354e-001
  7.0180000000e+010  -3.0193692294e-002  -3.3419299794e-002   2.0442090832e-001  -1.3010636258e-002   2.0602783231e-001  -1.1237851170e-002  -2.3303192931e-001  -1.8434899259e-001
  7.0200000000e+010  -2.9385912061e-002  -3.2938756576e-002   2.0445826524e-001  -1.3015596808e-002   2.0606689652e-001  -1.1240940289e-002  -2.3540702855e-001  -1.8079060587e-001
  7.0220000000e+010  -2.8565875509e-002  -3.2482421266e-002   2.0449373421e-001  -1.3028979013e-002   2.0610407594e-001  -1.1252556597e-002  -2.3762939851e-001  -1.7708749078e-001
  7.0240000000e+010  -2.7734785497e-002  -3.2050415669e-002   2.0452730360e-001  -1.3050787343e-002   2.0613935865e-001  -1.1272705126e-002  -2.3969491972e-001  -1.7324384754e-001
  7.0260000000e+010  -2.6893843753e-002  -3.1642825484e-002   2.0455896145e-001  -1.3081025523e-002   2.0617273237e-001  -1.1301390149e-002  -2.4159963850e-001  -1.6926407408e-001
  7.0280000000e+010  -2.6044249465e-002  -3.1259700513e-002   2.0458869545e-001  -1.3119696529e-002   2.0620418446e-001  -1.1338615184e-002  -2.4333977415e-001  -1.6515276073e-001
  7.0300000000e+010  -2.5187197885e-002  -3.0901054920e-002   2.0461649296e-001  -1.3166802595e-002   2.0623370194e-001  -1.1384382993e-002  -2.4491172598e-001  -1.6091468438e-001
  7.0320000000e+010  -2.4323878941e-002  -3.0566867524e-002   2.0464234099e-001  -1.3222345204e-002   2.0626127145e-001  -1.1438695575e-002  -2.4631208010e-001  -1.5655480252e-001
  7.0340000000e+010  -2.3455475875e-002  -3.0257082144e-002   2.0466622622e-001  -1.3286325090e-002   2.0628687932e-001  -1.1501554175e-002  -2.4753761592e-001  -1.5207824685e-001
  7.0360000000e+010  -2.2583163880e-002  -2.9971607989e-002   2.0468813499e-001  -1.3358742241e-002   2.0631051151e-001  -1.1572959275e-002  -2.4858531255e-001  -1.4749031664e-001
  7.0380000000e+010  -2.1708108769e-002  -2.9710320081e-002   2.0470805332e-001  -1.3439595895e-002   2.0633215364e-001  -1.1652910597e-002  -2.4945235475e-001  -1.4279647179e-001
  7.0400000000e+010  -2.0831465653e-002  -2.9473059731e-002   2.0472596689e-001  -1.3528884539e-002   2.0635179102e-001  -1.1741407104e-002  -2.5013613877e-001  -1.3800232558e-001
  7.0420000000e+010  -1.9954377648e-002  -2.9259635050e-002   2.0474186109e-001  -1.3626605911e-002   2.0636940859e-001  -1.1838446996e-002  -2.5063427782e-001  -1.3311363718e-001
  7.0440000000e+010  -1.9077974598e-002  -2.9069821504e-002   2.0475572095e-001  -1.3732757001e-002   2.0638499098e-001  -1.1944027713e-002  -2.5094460729e-001  -1.2813630393e-001
  7.0460000000e+010  -1.8203371822e-002  -2.8903362505e-002   2.0476753120e-001  -1.3847334046e-002   2.0639852247e-001  -1.2058145932e-002  -2.5106518966e-001  -1.2307635328e-001
  7.0480000000e+010  -1.7331668890e-002  -2.8759970045e-002   2.0477727627e-001  -1.3970332536e-002   2.0640998704e-001  -1.2180797570e-002  -2.5099431907e-001  -1.1793993454e-001
  7.0500000000e+010  -1.6463948425e-002  -2.8639325366e-002   2.0478494025e-001  -1.4101747208e-002   2.0641936834e-001  -1.2311977780e-002  -2.5073052560e-001  -1.1273331045e-001
  7.0520000000e+010  -1.5601274929e-002  -2.8541079665e-002   2.0479050695e-001  -1.4241572052e-002   2.0642664968e-001  -1.2451680955e-002  -2.5027257919e-001  -1.0746284843e-001
  7.0540000000e+010  -1.4744693642e-002  -2.8464854840e-002   2.0479395986e-001  -1.4389800308e-002   2.0643181408e-001  -1.2599900727e-002  -2.4961949330e-001  -1.0213501173e-001
  7.0560000000e+010  -1.3895229432e-002  -2.8410244262e-002   2.0479528217e-001  -1.4546424468e-002   2.0643484424e-001  -1.2756629966e-002  -2.4877052805e-001  -9.6756350336e-002
  7.0580000000e+010  -1.3053885718e-002  -2.8376813592e-002   2.0479445678e-001  -1.4711436273e-002   2.0643572255e-001  -1.2921860782e-002  -2.4772519323e-001  -9.1333491679e-002
  7.0600000000e+010  -1.2221643422e-002  -2.8364101620e-002   2.0479146630e-001  -1.4884826719e-002   2.0643443109e-001  -1.3095584522e-002  -2.4648325073e-001  -8.5873131255e-002
  7.0620000000e+010  -1.1399459958e-002  -2.8371621139e-002   2.0478629305e-001  -1.5066586052e-002   2.0643095166e-001  -1.3277791778e-002  -2.4504471677e-001  -8.0382023033e-002
  7.0640000000e+010  -1.0588268260e-002  -2.8398859855e-002   2.0477891904e-001  -1.5256703776e-002   2.0642526573e-001  -1.3468472378e-002  -2.4340986365e-001  -7.4866969763e-002
  7.0660000000e+010  -9.7889758434e-003  -2.8445281312e-002   2.0476932603e-001  -1.5455168644e-002   2.0641735450e-001  -1.3667615394e-002  -2.4157922114e-001  -6.9334813153e-002
  7.0680000000e+010  -9.0024639040e-003  -2.8510325856e-002   2.0475749547e-001  -1.5661968669e-002   2.0640719887e-001  -1.3875209140e-002  -2.3955357754e-001  -6.3792423947e-002
  7.0700000000e+010  -8.2295864576e-003  -2.8593411620e-002   2.0474340858e-001  -1.5877091117e-002   2.0639477946e-001  -1.4091241173e-002  -2.3733398025e-001  -5.8246691918e-002
  7.0720000000e+010  -7.4711695193e-003  -2.8693935537e-002   2.0472704626e-001  -1.6100522512e-002   2.0638007660e-001  -1.4315698294e-002  -2.3492173604e-001  -5.2704515785e-002
  7.0740000000e+010  -6.7280103231e-003  -2.8811274366e-002   2.0470838917e-001  -1.6332248639e-002   2.0636307035e-001  -1.4548566551e-002  -2.3231841087e-001  -4.7172793077e-002
  7.0760000000e+010  -6.0008765837e-003  -2.8944785753e-002   2.0468741770e-001  -1.6572254541e-002   2.0634374049e-001  -1.4789831234e-002  -2.2952582933e-001  -4.1658409959e-002
  7.0780000000e+010  -5.2905058002e-003  -2.9093809303e-002   2.0466411198e-001  -1.6820524521e-002   2.0632206653e-001  -1.5039476886e-002  -2.2654607365e-001  -3.6168231031e-002
  7.0800000000e+010  -4.5976046033e-003  -2.9257667672e-002   2.0463845189e-001  -1.7077042147e-002   2.0629802772e-001  -1.5297487295e-002  -2.2338148237e-001  -3.0709089118e-002
  7.0820000000e+010  -3.9228481468e-003  -2.9435667678e-002   2.0461041704e-001  -1.7341790249e-002   2.0627160302e-001  -1.5563845502e-002  -2.2003464853e-001  -2.5287775079e-002
  7.0840000000e+010  -3.2668795425e-003  -2.9627101425e-002   2.0457998683e-001  -1.7614750926e-002   2.0624277118e-001  -1.5838533797e-002  -2.1650841752e-001  -1.9911027630e-002
  7.0860000000e+010  -2.6303093410e-003  -2.9831247443e-002   2.0454714037e-001  -1.7895905540e-002   2.0621151066e-001  -1.6121533725e-002  -2.1280588448e-001  -1.4585523216e-002
  7.0880000000e+010  -2.0137150577e-003  -3.0047371838e-002   2.0451185657e-001  -1.8185234726e-002   2.0617779967e-001  -1.6412826086e-002  -2.0893039137e-001  -9.3178659415e-003
  7.0900000000e+010  -1.4176407445e-003  -3.0274729454e-002   2.0447411408e-001  -1.8482718388e-002   2.0614161620e-001  -1.6712390938e-002  -2.0488552353e-001  -4.1145775758e-003
  7.0920000000e+010  -8.4259660848e-004  -3.0512565040e-002   2.0443389133e-001  -1.8788335704e-002   2.0610293797e-001  -1.7020207594e-002  -2.0067510597e-001   1.0179123529e-003
  7.0940000000e+010  -2.8905867600e-004  -3.0760114434e-002   2.0439116652e-001  -1.9102065126e-002   2.0606174249e-001  -1.7336254631e-002  -1.9630319920e-001   6.0732763506e-003
  7.0960000000e+010   2.4253149520e-004  -3.1016605739e-002   2.0434591764e-001  -1.9423884384e-002   2.0601800701e-001  -1.7660509887e-002  -1.9177409465e-001   1.1045298628e-002
  7.0980000000e+010   7.5176705772e-004  -3.1281260516e-002   2.0429812243e-001  -1.9753770486e-002   2.0597170857e-001  -1.7992950465e-002  -1.8709230980e-001   1.5927884631e-002
  7.1000000000e+010   1.2382760688e-003  -3.1553294968e-002   2.0424775846e-001  -2.0091699723e-002   2.0592282399e-001  -1.8333552734e-002  -1.8226258282e-001   2.0715070411e-002
  7.1020000000e+010   1.7017216376e-003  -3.1831921135e-002   2.0419480305e-001  -2.0437647669e-002   2.0587132985e-001  -1.8682292331e-002  -1.7728986695e-001   2.5401031829e-002
  7.1040000000e+010   2.1418020252e-003  -3.2116348080e-002   2.0413923334e-001  -2.0791589183e-002   2.0581720254e-001  -1.9039144167e-002  -1.7217932442e-001   2.9980093562e-002
  7.1060000000e+010   2.5582506981e-003  -3.2405783074e-002   2.0408102626e-001  -2.1153498416e-002   2.0576041822e-001  -1.9404082424e-002  -1.6693632012e-001   3.4446737916e-002
  7.1080000000e+010   2.9508363340e-003  -3.2699432783e-002   2.0402015855e-001  -2.1523348808e-002   2.0570095285e-001  -1.9777080561e-002  -1.6156641480e-001   3.8795613412e-002
  7.1100000000e+010   3.3193627817e-003  -3.2996504442e-002   2.0395660676e-001  -2.1901113091e-002   2.0563878220e-001  -2.0158111315e-002  -1.5607535804e-001   4.3021543141e-002
  7.1120000000e+010   3.6636689744e-003  -3.3296207020e-002   2.0389034723e-001  -2.2286763297e-002   2.0557388183e-001  -2.0547146705e-002  -1.5046908083e-001   4.7119532872e-002
  7.1140000000e+010   3.9836287965e-003  -3.3597752386e-002   2.0382135614e-001  -2.2680270756e-002   2.0550622712e-001  -2.0944158033e-002  -1.4475368786e-001   5.1084778898e-002
  7.1160000000e+010   4.2791509055e-003  -3.3900356455e-002   2.0374960949e-001  -2.3081606099e-002   2.0543579325e-001  -2.1349115889e-002  -1.3893544949e-001   5.4912675600e-002
  7.1180000000e+010   4.5501785080e-003  -3.4203240324e-002   2.0367508311e-001  -2.3490739265e-002   2.0536255522e-001  -2.1761990149e-002  -1.3302079344e-001   5.8598822730e-002
  7.1200000000e+010   4.7966890917e-003  -3.4505631397e-002   2.0359775264e-001  -2.3907639497e-002   2.0528648787e-001  -2.2182749986e-002  -1.2701629614e-001   6.2139032387e-002
  7.1220000000e+010   5.0186941126e-003  -3.4806764493e-002   2.0351759357e-001  -2.4332275352e-002   2.0520756585e-001  -2.2611363864e-002  -1.2092867391e-001   6.5529335672e-002
  7.1240000000e+010   5.2162386393e-003  -3.5105882935e-002   2.0343458124e-001  -2.4764614702e-002   2.0512576364e-001  -2.3047799547e-002  -1.1476477377e-001   6.8765989032e-002
  7.1260000000e+010   5.3894009545e-003  -3.5402239624e-002   2.0334869082e-001  -2.5204624734e-002   2.0504105556e-001  -2.3492024102e-002  -1.0853156411e-001   7.1845480244e-002
  7.1280000000e+010   5.5382921139e-003  -3.5695098093e-002   2.0325989732e-001  -2.5652271956e-002   2.0495341579e-001  -2.3944003898e-002  -1.0223612500e-001   7.4764534070e-002
  7.1300000000e+010   5.6630554647e-003  -3.5983733540e-002   2.0316817564e-001  -2.6107522202e-002   2.0486281834e-001  -2.4403704613e-002  -9.5885638437e-002   7.7520117534e-002
  7.1320000000e+010   5.7638661231e-003  -3.6267433833e-002   2.0307350050e-001  -2.6570340633e-002   2.0476923706e-001  -2.4871091237e-002  -8.9487378237e-002   8.0109444842e-002
  7.1340000000e+010   5.8409304127e-003  -3.6545500501e-002   2.0297584651e-001  -2.7040691738e-002   2.0467264567e-001  -2.5346128073e-002  -8.3048699860e-002   8.2529981917e-002
  7.1360000000e+010   5.8944852648e-003  -3.6817249695e-002   2.0287518813e-001  -2.7518539344e-002   2.0457301776e-001  -2.5828778742e-002  -7.6577029988e-002   8.4779450541e-002
  7.1380000000e+010   5.9247975798e-003  -3.7082013117e-002   2.0277149971e-001  -2.8003846615e-002   2.0447032678e-001  -2.6319006189e-002  -7.0079855979e-002   8.6855832110e-002
  7.1400000000e+010   5.9321635544e-003  -3.7339138934e-002   2.0266475546e-001  -2.8496576057e-002   2.0436454604e-001  -2.6816772681e-002  -6.3564715173e-002   8.8757370980e-002
  7.1420000000e+010   5.9169079714e-003  -3.7587992651e-002   2.0255492948e-001  -2.8996689519e-002   2.0425564873e-001  -2.7322039815e-002  -5.7039184072e-002   9.0482577398e-002
  7.1440000000e+010   5.8793834566e-003  -3.7827957963e-002   2.0244199577e-001  -2.9504148202e-002   2.0414360794e-001  -2.7834768522e-002  -5.0510867418e-002   9.2030230026e-002
  7.1460000000e+010   5.8199697027e-003  -3.8058437570e-002   2.0232592821e-001  -3.0018912659e-002   2.0402839662e-001  -2.8354919067e-002  -4.3987387180e-002   9.3399378031e-002
  7.1480000000e+010   5.7390726606e-003  -3.8278853965e-002   2.0220670057e-001  -3.0540942800e-002   2.0390998762e-001  -2.8882451057e-002  -3.7476371467e-002   9.4589342758e-002
  7.1500000000e+010   5.6371237016e-003  -3.8488650183e-002   2.0208428654e-001  -3.1070197896e-002   2.0378835370e-001  -2.9417323441e-002  -3.0985443385e-002   9.5599718961e-002
  7.1520000000e+010   5.5145787494e-003  -3.8687290523e-002   2.0195865969e-001  -3.1606636582e-002   2.0366346750e-001  -2.9959494517e-002  -2.4522209864e-002   9.6430375607e-002
  7.1540000000e+010   5.3719173848e-003  -3.8874261231e-002   2.0182979354e-001  -3.2150216864e-002   2.0353530158e-001  -3.0508921936e-002  -1.8094250459e-002   9.7081456240e-002
  7.1560000000e+010   5.2096419239e-003  -3.9049071147e-002   2.0169766148e-001  -3.2700896118e-002   2.0340382841e-001  -3.1065562704e-002  -1.1709106150e-002   9.7553378902e-002
  7.1580000000e+010   5.0282764716e-003  -3.9211252318e-002   2.0156223686e-001  -3.3258631101e-002   2.0326902037e-001  -3.1629373186e-002  -5.3742681635e-003   9.7846835617e-002
  7.1600000000e+010   4.8283659514e-003  -3.9360360570e-002   2.0142349293e-001  -3.3823377947e-002   2.0313084977e-001  -3.2200309114e-002   9.0283317395e-004   9.7962791431e-002
  7.1620000000e+010   4.6104751129e-003  -3.9495976050e-002   2.0128140289e-001  -3.4395092181e-002   2.0298928883e-001  -3.2778325587e-002   7.1148395294e-003   9.7902483011e-002
  7.1640000000e+010   4.3751875192e-003  -3.9617703717e-002   2.0113593987e-001  -3.4973728713e-002   2.0284430973e-001  -3.3363377077e-002   1.3254475585e-002   9.7667416802e-002
  7.1660000000e+010   4.1231045152e-003  -3.9725173808e-002   2.0098707692e-001  -3.5559241851e-002   2.0269588456e-001  -3.3955417434e-002   1.9314559968e-002   9.7259366750e-002
  7.1680000000e+010   3.8548441781e-003  -3.9818042253e-002   2.0083478707e-001  -3.6151585300e-002   2.0254398537e-001  -3.4554399889e-002   2.5288016078e-002   9.6680371585e-002
  7.1700000000e+010   3.5710402524e-003  -3.9895991055e-002   2.0067904328e-001  -3.6750712170e-002   2.0238858414e-001  -3.5160277059e-002   3.1167882786e-002   9.5932731669e-002
  7.1720000000e+010   3.2723410703e-003  -3.9958728632e-002   2.0051981846e-001  -3.7356574977e-002   2.0222965282e-001  -3.5773000952e-002   3.6947324988e-002   9.5019005419e-002
  7.1740000000e+010   2.9594084596e-003  -4.0005990112e-002   2.0035708549e-001  -3.7969125651e-002   2.0206716330e-001  -3.6392522972e-002   4.2619644000e-002   9.3942005303e-002
  7.1760000000e+010   2.6329166401e-003  -4.0037537591e-002   2.0019081721e-001  -3.8588315538e-002   2.0190108745e-001  -3.7018793921e-002   4.8178287778e-002   9.2704793419e-002
  7.1780000000e+010   2.2935511111e-003  -4.0053160353e-002   2.0002098643e-001  -3.9214095407e-002   2.0173139709e-001  -3.7651764008e-002   5.3616860934e-002   9.1310676658e-002
  7.1800000000e+010   1.9420075299e-003  -4.0052675038e-002   1.9984756595e-001  -3.9846415453e-002   2.0155806404e-001  -3.8291382849e-002   5.8929134549e-002   8.9763201462e-002
  7.1820000000e+010   1.5789905856e-003  -4.0035925782e-002   1.9967052852e-001  -4.0485225302e-002   2.0138106005e-001  -3.8937599474e-002   6.4109055751e-002   8.8066148186e-002
  7.1840000000e+010   1.2052128668e-003  -4.0002784303e-002   1.9948984690e-001  -4.1130474015e-002   2.0120035691e-001  -3.9590362333e-002   6.9150757043e-002   8.6223525069e-002
  7.1860000000e+010   8.2139372720e-004  -3.9953149955e-002   1.9930549383e-001  -4.1782110096e-002   2.0101592635e-001  -4.0249619299e-002   7.4048565384e-002   8.4239561815e-002
  7.1880000000e+010   4.2825814930e-004  -3.9886949736e-002   1.9911744203e-001  -4.2440081494e-002   2.0082774013e-001  -4.0915317674e-002   7.8797010975e-002   8.2118702818e-002
  7.1900000000e+010   2.6535608721e-005  -3.9804138254e-002   1.9892566424e-001  -4.3104335608e-002   2.0063576998e-001  -4.1587404192e-002   8.3390835765e-002   7.9865600014e-002
  7.1920000000e+010  -3.8304105984e-004  -3.9704697656e-002   1.9873013320e-001  -4.3774819293e-002   2.0043998765e-001  -4.2265825026e-002   8.7825001646e-002   7.7485105383e-002
  7.1940000000e+010  -7.9973679315e-004  -3.9588637511e-002   1.9853082165e-001  -4.4451478865e-002   2.0024036490e-001  -4.2950525793e-002   9.2094698320e-002   7.4982263121e-002
  7.1960000000e+010  -1.2228154249e-003  -3.9455994657e-002   1.9832770235e-001  -4.5134260105e-002   2.0003687349e-001  -4.3641451558e-002   9.6195350841e-002   7.2362301472e-002
  7.1980000000e+010  -1.6515408043e-003  -3.9306833005e-002   1.9812074807e-001  -4.5823108264e-002   1.9982948522e-001  -4.4338546839e-002   1.0012262680e-001   6.9630624260e-002
  7.2000000000e+010  -2.0851779071e-003  -3.9141243305e-002   1.9790993161e-001  -4.6517968072e-002   1.9961817189e-001  -4.5041755614e-002   1.0387244314e-001   6.6792802107e-002
  7.2020000000e+010  -2.5229939362e-003  -3.8959342873e-002   1.9769522580e-001  -4.7218783735e-002   1.9940290534e-001  -4.5751021322e-002   1.0744097264e-001   6.3854563376e-002
  7.2040000000e+010  -2.9642594108e-003  -3.8761275276e-002   1.9747660349e-001  -4.7925498950e-002   1.9918365746e-001  -4.6466286874e-002   1.1082464993e-001   6.0821784835e-002
  7.2060000000e+010  -3.4082492440e-003  -3.8547209983e-002   1.9725403760e-001  -4.8638056902e-002   1.9896040015e-001  -4.7187494654e-002   1.1402017720e-001   5.7700482064e-002
  7.2080000000e+010  -3.8542438045e-003  -3.8317341978e-002   1.9702750105e-001  -4.9356400273e-002   1.9873310538e-001  -4.7914586526e-002   1.1702452943e-001   5.4496799622e-002
  7.2100000000e+010  -4.3015299636e-003  -3.8071891334e-002   1.9679696683e-001  -5.0080471249e-002   1.9850174515e-001  -4.8647503837e-002   1.1983495927e-001   5.1217000989e-002
  7.2120000000e+010  -4.7494021247e-003  -3.7811102753e-002   1.9656240798e-001  -5.0810211520e-002   1.9826629154e-001  -4.9386187426e-002   1.2244900141e-001   4.7867458294e-002
  7.2140000000e+010  -5.1971632344e-003  -3.7535245070e-002   1.9632379761e-001  -5.1545562289e-002   1.9802671666e-001  -5.0130577628e-002   1.2486447657e-001   4.4454641852e-002
  7.2160000000e+010  -5.6441257736e-003  -3.7244610723e-002   1.9608110885e-001  -5.2286464279e-002   1.9778299271e-001  -5.0880614277e-002   1.2707949509e-001   4.0985109531e-002
