# Hz S RI R 1.000000
! Metas.Vna.Tools, 2.4.7898.19887
! Metas.Vna.Data, 2.4.7898.19873
! Created: UTC 2021.09.30 14:31:00
! FREQ                re:S1,1             im:S1,1             re:S2,1             im:S2,1             re:S1,2             im:S1,2             re:S2,2             im:S2,2          
  7.0000000000e+010   4.4066069990e-003   4.0252235203e-002   3.5306347092e-001   5.4715549947e-001   3.5497034898e-001   5.5211827770e-001  -1.5889756504e-002  -9.3149247834e-003
  7.0020000000e+010   4.9972156417e-003   3.9056110822e-002   3.5325680293e-001   5.4766200034e-001   3.5516382455e-001   5.5264340469e-001  -1.6240098839e-002  -9.1549644842e-003
  7.0040000000e+010   5.5767575265e-003   3.7843961023e-002   3.5347165923e-001   5.4814132869e-001   3.5537908634e-001   5.5314083720e-001  -1.6580662680e-002  -8.9773597921e-003
  7.0060000000e+010   6.1446595974e-003   3.6616350927e-002   3.5370799581e-001   5.4859336685e-001   3.5561609084e-001   5.5361045382e-001  -1.6910963453e-002  -8.7822605045e-003
  7.0080000000e+010   6.7003586454e-003   3.5373864445e-002   3.5396576479e-001   5.4901799909e-001   3.5587479055e-001   5.5405213511e-001  -1.7230522996e-002  -8.5698372717e-003
  7.0100000000e+010   7.2433020237e-003   3.4117103830e-002   3.5424491436e-001   5.4941511168e-001   3.5615513396e-001   5.5446576364e-001  -1.7538870278e-002  -8.3402814854e-003
  7.0120000000e+010   7.7729483527e-003   3.2846689209e-002   3.5454538884e-001   5.4978459291e-001   3.5645706562e-001   5.5485122404e-001  -1.7835542118e-002  -8.0938051382e-003
  7.0140000000e+010   8.2887682138e-003   3.1563258084e-002   3.5486712868e-001   5.5012633309e-001   3.5678052609e-001   5.5520840303e-001  -1.8120083895e-002  -7.8306406534e-003
  7.0160000000e+010   8.7902448310e-003   3.0267464813e-002   3.5521007046e-001   5.5044022465e-001   3.5712545201e-001   5.5553718943e-001  -1.8392050255e-002  -7.5510406853e-003
  7.0180000000e+010   9.2768747391e-003   2.8959980071e-002   3.5557414692e-001   5.5072616210e-001   3.5749177606e-001   5.5583747421e-001  -1.8651005807e-002  -7.2552778903e-003
  7.0200000000e+010   9.7481684384e-003   2.7641490273e-002   3.5595928700e-001   5.5098404211e-001   3.5787942704e-001   5.5610915054e-001  -1.8896525814e-002  -6.9436446687e-003
  7.0220000000e+010   1.0203651034e-002   2.6312696993e-002   3.5636541578e-001   5.5121376352e-001   3.5828832981e-001   5.5635211376e-001  -1.9128196872e-002  -6.6164528775e-003
  7.0240000000e+010   1.0642862859e-002   2.4974316350e-002   3.5679245460e-001   5.5141522737e-001   3.5871840537e-001   5.5656626147e-001  -1.9345617577e-002  -6.2740335147e-003
  7.0260000000e+010   1.1065360081e-002   2.3627078371e-002   3.5724032098e-001   5.5158833693e-001   3.5916957087e-001   5.5675149356e-001  -1.9548399188e-002  -5.9167363749e-003
  7.0280000000e+010   1.1470715294e-002   2.2271726342e-002   3.5770892872e-001   5.5173299775e-001   3.5964173959e-001   5.5690771220e-001  -1.9736166263e-002  -5.5449296766e-003
  7.0300000000e+010   1.1858518082e-002   2.0909016129e-002   3.5819818787e-001   5.5184911765e-001   3.6013482099e-001   5.5703482188e-001  -1.9908557297e-002  -5.1589996621e-003
  7.0320000000e+010   1.2228375581e-002   1.9539715489e-002   3.5870800476e-001   5.5193660678e-001   3.6064872074e-001   5.5713272948e-001  -2.0065225332e-002  -4.7593501701e-003
  7.0340000000e+010   1.2579912999e-002   1.8164603352e-002   3.5923828203e-001   5.5199537764e-001   3.6118334071e-001   5.5720134424e-001  -2.0205838560e-002  -4.3464021810e-003
  7.0360000000e+010   1.2912774135e-002   1.6784469098e-002   3.5978891865e-001   5.5202534511e-001   3.6173857903e-001   5.5724057784e-001  -2.0330080901e-002  -3.9205933363e-003
  7.0380000000e+010   1.3226621863e-002   1.5400111802e-002   3.6035980995e-001   5.5202642647e-001   3.6231433006e-001   5.5725034439e-001  -2.0437652573e-002  -3.4823774319e-003
  7.0400000000e+010   1.3521138599e-002   1.4012339476e-002   3.6095084761e-001   5.5199854143e-001   3.6291048449e-001   5.5723056047e-001  -2.0528270629e-002  -3.0322238864e-003
  7.0420000000e+010   1.3796026748e-002   1.2621968288e-002   3.6156191974e-001   5.5194161216e-001   3.6352692928e-001   5.5718114518e-001  -2.0601669488e-002  -2.5706171848e-003
  7.0440000000e+010   1.4051009118e-002   1.1229821770e-002   3.6219291085e-001   5.5185556331e-001   3.6416354774e-001   5.5710202013e-001  -2.0657601438e-002  -2.0980562981e-003
  7.0460000000e+010   1.4285829319e-002   9.8367300078e-003   3.6284370192e-001   5.5174032204e-001   3.6482021957e-001   5.5699310948e-001  -2.0695837117e-002  -1.6150540804e-003
  7.0480000000e+010   1.4500252134e-002   8.4435288247e-003   3.6351417039e-001   5.5159581804e-001   3.6549682081e-001   5.5685433998e-001  -2.0716165971e-002  -1.1221366424e-003
  7.0500000000e+010   1.4694063861e-002   7.0510589489e-003   3.6420419021e-001   5.5142198358e-001   3.6619322394e-001   5.5668564099e-001  -2.0718396692e-002  -6.1984270475e-004
  7.0520000000e+010   1.4867072634e-002   5.6601651720e-003   3.6491363187e-001   5.5121875349e-001   3.6690929790e-001   5.5648694447e-001  -2.0702357627e-002  -1.0872292959e-004
  7.0540000000e+010   1.5019108714e-002   4.2716954967e-003   3.6564236241e-001   5.5098606522e-001   3.6764490808e-001   5.5625818507e-001  -2.0667897169e-002   4.1066076731e-004
  7.0560000000e+010   1.5150024755e-002   2.8865002769e-003   3.6639024547e-001   5.5072385884e-001   3.6839991639e-001   5.5599930008e-001  -2.0614884108e-002   9.3773592348e-004
  7.0580000000e+010   1.5259696042e-002   1.5054313495e-003   3.6715714130e-001   5.5043207708e-001   3.6917418125e-001   5.5571022952e-001  -2.0543207974e-002   1.4719202547e-003
  7.0600000000e+010   1.5348020700e-002   1.2934115967e-004   3.6794290682e-001   5.5011066535e-001   3.6996755767e-001   5.5539091612e-001  -2.0452779335e-002   2.0126223971e-003
  7.0620000000e+010   1.5414919876e-002  -1.2409181192e-003   3.6874739562e-001   5.4975957175e-001   3.7077989724e-001   5.5504130535e-001  -2.0343530080e-002   2.5592426649e-003
  7.0640000000e+010   1.5460337890e-002  -2.6044954703e-003   3.6957045799e-001   5.4937874710e-001   3.7161104820e-001   5.5466134545e-001  -2.0215413665e-002   3.1111738237e-003
  7.0660000000e+010   1.5484242365e-002  -3.9605419215e-003   3.7041194100e-001   5.4896814495e-001   3.7246085542e-001   5.5425098747e-001  -2.0068405336e-002   3.6678018772e-003
  7.0680000000e+010   1.5486624313e-002  -5.3082114360e-003   3.7127168849e-001   5.4852772162e-001   3.7332916049e-001   5.5381018523e-001  -1.9902502316e-002   4.2285068669e-003
  7.0700000000e+010   1.5467498209e-002  -6.6466618034e-003   3.7214954109e-001   5.4805743621e-001   3.7421580172e-001   5.5333889540e-001  -1.9717723967e-002   4.7926636839e-003
  7.0720000000e+010   1.5426902022e-002  -7.9750555320e-003   3.7304533633e-001   5.4755725061e-001   3.7512061420e-001   5.5283707751e-001  -1.9514111916e-002   5.3596428903e-003
  7.0740000000e+010   1.5364897223e-002  -9.2925607390e-003   3.7395890857e-001   5.4702712952e-001   3.7604342979e-001   5.5230469393e-001  -1.9291730160e-002   5.9288115510e-003
  7.0760000000e+010   1.5281568761e-002  -1.0598352040e-002   3.7489008914e-001   5.4646704049e-001   3.7698407723e-001   5.5174170993e-001  -1.9050665126e-002   6.4995340732e-003
  7.0780000000e+010   1.5177025012e-002  -1.1891611432e-002   3.7583870629e-001   5.4587695390e-001   3.7794238209e-001   5.5114809368e-001  -1.8791025708e-002   7.0711730527e-003
  7.0800000000e+010   1.5051397693e-002  -1.3171529177e-002   3.7680458529e-001   5.4525684302e-001   3.7891816689e-001   5.5052381628e-001  -1.8512943271e-002   7.6430901264e-003
  7.0820000000e+010   1.4904841750e-002  -1.4437304677e-002   3.7778754844e-001   5.4460668398e-001   3.7991125107e-001   5.4986885176e-001  -1.8216571623e-002   8.2146468290e-003
  7.0840000000e+010   1.4737535216e-002  -1.5688147342e-002   3.7878741510e-001   5.4392645582e-001   3.8092145108e-001   5.4918317709e-001  -1.7902086950e-002   8.7852054533e-003
  7.0860000000e+010   1.4549679041e-002  -1.6923277450e-002   3.7980400175e-001   5.4321614049e-001   3.8194858039e-001   5.4846677224e-001  -1.7569687724e-002   9.3541299120e-003
  7.0880000000e+010   1.4341496884e-002  -1.8141927000e-002   3.8083712201e-001   5.4247572289e-001   3.8299244953e-001   5.4771962012e-001  -1.7219594577e-002   9.9207866006e-003
  7.0900000000e+010   1.4113234887e-002  -1.9343340557e-002   3.8188658670e-001   5.4170519081e-001   3.8405286614e-001   5.4694170668e-001  -1.6852050141e-002   1.0484545260e-002
  7.0920000000e+010   1.3865161415e-002  -2.0526776080e-002   3.8295220386e-001   5.4090453505e-001   3.8512963503e-001   5.4613302086e-001  -1.6467318857e-002   1.1044779835e-002
  7.0940000000e+010   1.3597566765e-002  -2.1691505741e-002   3.8403377880e-001   5.4007374935e-001   3.8622255818e-001   5.4529355462e-001  -1.6065686750e-002   1.1600869336e-002
  7.0960000000e+010   1.3310762846e-002  -2.2836816732e-002   3.8513111416e-001   5.3921283042e-001   3.8733143480e-001   5.4442330296e-001  -1.5647461175e-002   1.2152198687e-002
  7.0980000000e+010   1.3005082840e-002  -2.3962012058e-002   3.8624400991e-001   5.3832177797e-001   3.8845606138e-001   5.4352226394e-001  -1.5212970524e-002   1.2698159574e-002
  7.1000000000e+010   1.2680880824e-002  -2.5066411311e-002   3.8737226342e-001   5.3740059472e-001   3.8959623174e-001   5.4259043866e-001  -1.4762563912e-002   1.3238151288e-002
  7.1020000000e+010   1.2338531368e-002  -2.6149351430e-002   3.8851566953e-001   5.3644928639e-001   3.9075173705e-001   5.4162783130e-001  -1.4296610821e-002   1.3771581552e-002
  7.1040000000e+010   1.1978429111e-002  -2.7210187447e-002   3.8967402051e-001   5.3546786170e-001   3.9192236588e-001   5.4063444912e-001  -1.3815500717e-002   1.4297867349e-002
  7.1060000000e+010   1.1600988305e-002  -2.8248293205e-002   3.9084710620e-001   5.3445633244e-001   3.9310790426e-001   5.3961030247e-001  -1.3319642638e-002   1.4816435726e-002
  7.1080000000e+010   1.1206642333e-002  -2.9263062070e-002   3.9203471400e-001   5.3341471340e-001   3.9430813571e-001   5.3855540479e-001  -1.2809464750e-002   1.5326724602e-002
  7.1100000000e+010   1.0795843207e-002  -3.0253907610e-002   3.9323662890e-001   5.3234302243e-001   3.9552284130e-001   5.3746977262e-001  -1.2285413869e-002   1.5828183546e-002
  7.1120000000e+010   1.0369061038e-002  -3.1220264263e-002   3.9445263358e-001   5.3124128042e-001   3.9675179965e-001   5.3635342562e-001  -1.1747954963e-002   1.6320274555e-002
  7.1140000000e+010   9.9267834771e-003  -3.2161587976e-002   3.9568250842e-001   5.3010951132e-001   3.9799478706e-001   5.3520638657e-001  -1.1197570616e-002   1.6802472802e-002
  7.1160000000e+010   9.4695151449e-003  -3.3077356822e-002   3.9692603153e-001   5.2894774215e-001   3.9925157748e-001   5.3402868137e-001  -1.0634760468e-002   1.7274267384e-002
  7.1180000000e+010   8.9977770262e-003  -3.3967071598e-002   3.9818297885e-001   5.2775600297e-001   4.0052194258e-001   5.3282033904e-001  -1.0060040627e-002   1.7735162033e-002
  7.1200000000e+010   8.5121058504e-003  -3.4830256392e-002   3.9945312414e-001   5.2653432693e-001   4.0180565182e-001   5.3158139176e-001  -9.4739430574e-003   1.8184675826e-002
  7.1220000000e+010   8.0130534479e-003  -3.5666459131e-002   4.0073623905e-001   5.2528275026e-001   4.0310247247e-001   5.3031187481e-001  -8.8770149345e-003   1.8622343858e-002
  7.1240000000e+010   7.5011860867e-003  -3.6475252094e-002   4.0203209317e-001   5.2400131224e-001   4.0441216966e-001   5.2901182665e-001  -8.2698179823e-003   1.9047717905e-002
  7.1260000000e+010   6.9770837895e-003  -3.7256232408e-002   4.0334045410e-001   5.2269005525e-001   4.0573450645e-001   5.2768128884e-001  -7.6529277820e-003   1.9460367062e-002
  7.1280000000e+010   6.4413396322e-003  -3.8009022510e-002   4.0466108744e-001   5.2134902473e-001   4.0706924386e-001   5.2632030613e-001  -7.0269330590e-003   1.9859878352e-002
  7.1300000000e+010   5.8945590249e-003  -3.8733270581e-002   4.0599375687e-001   5.1997826921e-001   4.0841614092e-001   5.2492892639e-001  -6.3924349469e-003   2.0245857318e-002
  7.1320000000e+010   5.3373589753e-003  -3.9428650957e-002   4.0733822424e-001   5.1857784030e-001   4.0977495473e-001   5.2350720062e-001  -5.7500462299e-003   2.0617928581e-002
  7.1340000000e+010   4.7703673373e-003  -4.0094864498e-002   4.0869424953e-001   5.1714779268e-001   4.1114544047e-001   5.2205518301e-001  -5.1003905655e-003   2.0975736382e-002
  7.1360000000e+010   4.1942220441e-003  -4.0731638944e-002   4.1006159097e-001   5.1568818412e-001   4.1252735154e-001   5.2057293086e-001  -4.4441016869e-003   2.1318945086e-002
  7.1380000000e+010   3.6095703272e-003  -4.1338729223e-002   4.1144000507e-001   5.1419907545e-001   4.1392043949e-001   5.1906050463e-001  -3.7818225879e-003   2.1647239666e-002
  7.1400000000e+010   3.0170679234e-003  -4.1915917743e-002   4.1282924666e-001   5.1268053059e-001   4.1532445417e-001   5.1751796791e-001  -3.1142046898e-003   2.1960326149e-002
  7.1420000000e+010   2.4173782685e-003  -4.2463014641e-002   4.1422906893e-001   5.1113261651e-001   4.1673914374e-001   5.1594538743e-001  -2.4419069930e-003   2.2257932043e-002
  7.1440000000e+010   1.8111716817e-003  -4.2979858005e-002   4.1563922351e-001   5.0955540325e-001   4.1816425470e-001   5.1434283307e-001  -1.7655952136e-003   2.2539806722e-002
  7.1460000000e+010   1.1991245391e-003  -4.3466314067e-002   4.1705946052e-001   5.0794896393e-001   4.1959953199e-001   5.1271037782e-001  -1.0859409064e-003   2.2805721791e-002
  7.1480000000e+010   5.8191843950e-004  -4.3922277355e-002   4.1848952856e-001   5.0631337468e-001   4.2104471899e-001   5.1104809780e-001  -4.0362057483e-004   2.3055471408e-002
  7.1500000000e+010  -3.9760638679e-005  -4.4347670821e-002   4.1992917486e-001   5.0464871472e-001   4.2249955762e-001   5.0935607227e-001   2.8068522870e-004   2.3288872581e-002
  7.1520000000e+010  -6.6522318554e-004  -4.4742445930e-002   4.2137814522e-001   5.0295506631e-001   4.2396378835e-001   5.0763438358e-001   9.6629281378e-004   2.3505765430e-002
  7.1540000000e+010  -1.2937770141e-003  -4.5106582717e-002   4.2283618416e-001   5.0123251471e-001   4.2543715027e-001   5.0588311720e-001   1.6525162705e-003   2.3706013413e-002
  7.1560000000e+010  -1.9247281187e-003  -4.5440089811e-002   4.2430303490e-001   4.9948114823e-001   4.2691938115e-001   5.0410236167e-001   2.3386683956e-003   2.3889503520e-002
  7.1580000000e+010  -2.5573815365e-003  -4.5743004427e-002   4.2577843945e-001   4.9770105820e-001   4.2841021748e-001   5.0229220867e-001   3.0240616241e-003   2.4056146434e-002
  7.1600000000e+010  -3.1910422107e-003  -4.6015392322e-002   4.2726213864e-001   4.9589233896e-001   4.2990939452e-001   5.0045275292e-001   3.7080089656e-003   2.4205876651e-002
  7.1620000000e+010  -3.8250158552e-003  -4.6257347718e-002   4.2875387220e-001   4.9405508783e-001   4.3141664635e-001   4.9858409223e-001   4.3898249433e-003   2.4338652574e-002
  7.1640000000e+010  -4.4586098180e-003  -4.6468993192e-002   4.3025337875e-001   4.9218940512e-001   4.3293170594e-001   4.9668632746e-001   5.0688265353e-003   2.4454456563e-002
  7.1660000000e+010  -5.0911339442e-003  -4.6650479531e-002   4.3176039593e-001   4.9029539413e-001   4.3445430518e-001   4.9475956254e-001   5.7443341156e-003   2.4553294957e-002
  7.1680000000e+010  -5.7219014354e-003  -4.6801985557e-002   4.3327466039e-001   4.8837316112e-001   4.3598417496e-001   4.9280390441e-001   6.4156723939e-003   2.4635198049e-002
  7.1700000000e+010  -6.3502297059e-003  -4.6923717915e-002   4.3479590787e-001   4.8642281529e-001   4.3752104518e-001   4.9081946306e-001   7.0821713535e-003   2.4700220042e-002
  7.1720000000e+010  -6.9754412339e-003  -4.7015910828e-002   4.3632387325e-001   4.8444446878e-001   4.3906464485e-001   4.8880635149e-001   7.7431671844e-003   2.4748438952e-002
  7.1740000000e+010  -7.5968644063e-003  -4.7078825823e-002   4.3785829059e-001   4.8243823666e-001   4.4061470211e-001   4.8676468569e-001   8.3980032120e-003   2.4779956488e-002
  7.1760000000e+010  -8.2138343568e-003  -4.7112751420e-002   4.3939889318e-001   4.8040423690e-001   4.4217094427e-001   4.8469458464e-001   9.0460308179e-003   2.4794897885e-002
  7.1780000000e+010  -8.8256937953e-003  -4.7118002792e-002   4.4094541361e-001   4.7834259038e-001   4.4373309793e-001   4.8259617029e-001   9.6866103530e-003   2.4793411717e-002
  7.1800000000e+010  -9.4317938283e-003  -4.7094921392e-002   4.4249758381e-001   4.7625342083e-001   4.4530088894e-001   4.8046956754e-001   1.0319112042e-002   2.4775669655e-002
  7.1820000000e+010  -1.0031494768e-002  -4.7043874549e-002   4.4405513509e-001   4.7413685488e-001   4.4687404253e-001   4.7831490425e-001   1.0942916874e-002   2.4741866208e-002
  7.1840000000e+010  -1.0624166931e-002  -4.6965255028e-002   4.4561779821e-001   4.7199302195e-001   4.4845228332e-001   4.7613231117e-001   1.1557417484e-002   2.4692218417e-002
  7.1860000000e+010  -1.1209191422e-002  -4.6859480574e-002   4.4718530341e-001   4.6982205434e-001   4.5003533538e-001   4.7392192198e-001   1.2162019022e-002   2.4626965519e-002
  7.1880000000e+010  -1.1785960908e-002  -4.6726993407e-002   4.4875738048e-001   4.6762408712e-001   4.5162292227e-001   4.7168387323e-001   1.2756139997e-002   2.4546368580e-002
  7.1900000000e+010  -1.2353880373e-002  -4.6568259699e-002   4.5033375882e-001   4.6539925816e-001   4.5321476715e-001   4.6941830434e-001   1.3339213119e-002   2.4450710087e-002
  7.1920000000e+010  -1.2912367858e-002  -4.6383769027e-002   4.5191416744e-001   4.6314770811e-001   4.5481059274e-001   4.6712535760e-001   1.3910686114e-002   2.4340293514e-002
  7.1940000000e+010  -1.3460855188e-002  -4.6174033781e-002   4.5349833507e-001   4.6086958035e-001   4.5641012144e-001   4.6480517809e-001   1.4470022520e-002   2.4215442854e-002
  7.1960000000e+010  -1.3998788677e-002  -4.5939588563e-002   4.5508599018e-001   4.5856502101e-001   4.5801307537e-001   4.6245791373e-001   1.5016702467e-002   2.4076502114e-002
  7.1980000000e+010  -1.4525629814e-002  -4.5680989548e-002   4.5667686103e-001   4.5623417889e-001   4.5961917641e-001   4.6008371521e-001   1.5550223433e-002   2.3923834784e-002
  7.2000000000e+010  -1.5040855932e-002  -4.5398813823e-002   4.5827067572e-001   4.5387720552e-001   4.6122814623e-001   4.5768273600e-001   1.6070100975e-002   2.3757823280e-002
  7.2020000000e+010  -1.5543960858e-002  -4.5093658702e-002   4.5986716227e-001   4.5149425506e-001   4.6283970641e-001   4.5525513229e-001   1.6575869444e-002   2.3578868343e-002
  7.2040000000e+010  -1.6034455531e-002  -4.4766141013e-002   4.6146604862e-001   4.4908548432e-001   4.6445357840e-001   4.5280106301e-001   1.7067082662e-002   2.3387388425e-002
  7.2060000000e+010  -1.6511868616e-002  -4.4416896366e-002   4.6306706271e-001   4.4665105271e-001   4.6606948364e-001   4.5032068978e-001   1.7543314586e-002   2.3183819036e-002
  7.2080000000e+010  -1.6975747076e-002  -4.4046578395e-002   4.6466993252e-001   4.4419112226e-001   4.6768714360e-001   4.4781417689e-001   1.8004159936e-002   2.2968612072e-002
  7.2100000000e+010  -1.7425656731e-002  -4.3655857983e-002   4.6627438613e-001   4.4170585754e-001   4.6930627978e-001   4.4528169127e-001   1.8449234797e-002   2.2742235111e-002
  7.2120000000e+010  -1.7861182790e-002  -4.3245422461e-002   4.6788015177e-001   4.3919542568e-001   4.7092661385e-001   4.4272340250e-001   1.8878177195e-002   2.2505170686e-002
  7.2140000000e+010  -1.8281930358e-002  -4.2815974793e-002   4.6948695783e-001   4.3665999630e-001   4.7254786760e-001   4.4013948273e-001   1.9290647636e-002   2.2257915535e-002
  7.2160000000e+010  -1.8687524914e-002  -4.2368232736e-002   4.7109453296e-001   4.3409974153e-001   4.7416976306e-001   4.3753010669e-001   1.9686329619e-002   2.2000979828e-002
