# Hz S RI R 1.000000
! Metas.Vna.Tools, 2.4.7898.19887
! Metas.Vna.Data, 2.4.7898.19873
! Created: UTC 2021.09.30 14:31:00
! FREQ                re:S1,1             im:S1,1             re:S2,1             im:S2,1             re:S1,2             im:S1,2             re:S2,2             im:S2,2          
  7.0000000000e+010   4.5200538856e-002   6.0811042918e-003   4.4499909194e-001   3.6189492985e-001   4.3408566724e-001   3.7951687526e-001  -4.7733594681e-002  -4.9370234314e-002
  7.0020000000e+010   4.4983174666e-002   5.4179445151e-003   4.4524851867e-001   3.6225069856e-001   4.3432675752e-001   3.7988946524e-001  -4.8844029632e-002  -4.8903101495e-002
  7.0040000000e+010   4.4754100432e-002   4.7442550840e-003   4.4550883617e-001   3.6257885035e-001   4.3457973276e-001   3.8023448931e-001  -4.9929019924e-002  -4.8382722062e-002
  7.0060000000e+010   4.4513188523e-002   4.0604244800e-003   4.4577998607e-001   3.6287930517e-001   4.3484453683e-001   3.8055186374e-001  -5.0986929668e-002  -4.7809518235e-002
  7.0080000000e+010   4.4260317722e-002   3.3668527176e-003   4.4606190730e-001   3.6315198539e-001   4.3512111081e-001   3.8084150716e-001  -5.2016140145e-002  -4.7183982967e-002
  7.0100000000e+010   4.3995373551e-002   2.6639510672e-003   4.4635453614e-001   3.6339681585e-001   4.3540939300e-001   3.8110334060e-001  -5.3015052397e-002  -4.6506679685e-002
  7.0120000000e+010   4.3718248592e-002   1.9521417633e-003   4.4665780620e-001   3.6361372384e-001   4.3570931891e-001   3.8133728752e-001  -5.3982089807e-002  -4.5778241913e-002
  7.0140000000e+010   4.3428842809e-002   1.2318576960e-003   4.4697164848e-001   3.6380263919e-001   4.3602082133e-001   3.8154327381e-001  -5.4915700671e-002  -4.4999372788e-002
  7.0160000000e+010   4.3127063853e-002   5.0354208862e-004   4.4729599134e-001   3.6396349420e-001   4.3634383028e-001   3.8172122783e-001  -5.5814360750e-002  -4.4170844470e-002
  7.0180000000e+010   4.2812827370e-002  -2.3235184066e-004   4.4763076057e-001   3.6409622374e-001   4.3667827309e-001   3.8187108044e-001  -5.6676575809e-002  -4.3293497436e-002
  7.0200000000e+010   4.2486057304e-002  -9.7536123175e-004   4.4797587937e-001   3.6420076524e-001   4.3702407438e-001   3.8199276496e-001  -5.7500884122e-002  -4.2368239676e-002
  7.0220000000e+010   4.2146686187e-002  -1.7250139498e-003   4.4833126838e-001   3.6427705870e-001   4.3738115609e-001   3.8208621729e-001  -5.8285858954e-002  -4.1396045768e-002
  7.0240000000e+010   4.1794655424e-002  -2.4808289671e-003   4.4869684569e-001   3.6432504670e-001   4.3774943750e-001   3.8215137584e-001  -5.9030111012e-002  -4.0377955858e-002
  7.0260000000e+010   4.1429915572e-002  -3.2423167578e-003   4.4907252691e-001   3.6434467446e-001   4.3812883526e-001   3.8218818158e-001  -5.9732290853e-002  -3.9315074529e-002
  7.0280000000e+010   4.1052426608e-002  -4.0089797079e-003   4.4945822513e-001   3.6433588982e-001   4.3851926338e-001   3.8219657810e-001  -6.0391091253e-002  -3.8208569558e-002
  7.0300000000e+010   4.0662158193e-002  -4.7803125364e-003   4.4985385096e-001   3.6429864327e-001   4.3892063331e-001   3.8217651155e-001  -6.1005249532e-002  -3.7059670583e-002
  7.0320000000e+010   4.0259089918e-002  -5.5558027309e-003   4.5025931257e-001   3.6423288798e-001   4.3933285389e-001   3.8212793073e-001  -6.1573549826e-002  -3.5869667653e-002
  7.0340000000e+010   3.9843211548e-002  -6.3349309947e-003   4.5067451572e-001   3.6413857979e-001   4.3975583143e-001   3.8205078705e-001  -6.2094825309e-002  -3.4639909691e-002
  7.0360000000e+010   3.9414523255e-002  -7.1171717059e-003   4.5109936372e-001   3.6401567724e-001   4.4018946969e-001   3.8194503460e-001  -6.2567960352e-002  -3.3371802843e-002
  7.0380000000e+010   3.8973035832e-002  -7.9019933886e-003   4.5153375756e-001   3.6386414159e-001   4.4063366995e-001   3.8181063012e-001  -6.2991892624e-002  -3.2066808744e-002
  7.0400000000e+010   3.8518770906e-002  -8.6888591942e-003   4.5197759581e-001   3.6368393683e-001   4.4108833098e-001   3.8164753305e-001  -6.3365615125e-002  -3.0726442681e-002
  7.0420000000e+010   3.8051761136e-002  -9.4772273943e-003   4.5243077476e-001   3.6347502968e-001   4.4155334912e-001   3.8145570552e-001  -6.3688178150e-002  -2.9352271665e-002
  7.0440000000e+010   3.7572050394e-002  -1.0266551883e-002   4.5289318837e-001   3.6323738965e-001   4.4202861826e-001   3.8123511238e-001  -6.3958691182e-002  -2.7945912415e-002
  7.0460000000e+010   3.7079693939e-002  -1.1056282688e-002   4.5336472832e-001   3.6297098898e-001   4.4251402989e-001   3.8098572122e-001  -6.4176324702e-002  -2.6509029251e-002
  7.0480000000e+010   3.6574758577e-002  -1.1845866493e-002   4.5384528404e-001   3.6267580274e-001   4.4300947311e-001   3.8070750236e-001  -6.4340311925e-002  -2.5043331907e-002
  7.0500000000e+010   3.6057322806e-002  -1.2634747167e-002   4.5433474274e-001   3.6235180875e-001   4.4351483468e-001   3.8040042889e-001  -6.4449950448e-002  -2.3550573257e-002
  7.0520000000e+010   3.5527476946e-002  -1.3422366300e-002   4.5483298942e-001   3.6199898767e-001   4.4402999903e-001   3.8006447666e-001  -6.4504603809e-002  -2.2032546969e-002
  7.0540000000e+010   3.4985323261e-002  -1.4208163748e-002   4.5533990691e-001   3.6161732298e-001   4.4455484827e-001   3.7969962433e-001  -6.4503702965e-002  -2.0491085080e-002
  7.0560000000e+010   3.4430976059e-002  -1.4991578185e-002   4.5585537590e-001   3.6120680096e-001   4.4508926227e-001   3.7930585331e-001  -6.4446747663e-002  -1.8928055498e-002
  7.0580000000e+010   3.3864561782e-002  -1.5772047662e-002   4.5637927497e-001   3.6076741078e-001   4.4563311864e-001   3.7888314786e-001  -6.4333307725e-002  -1.7345359439e-002
  7.0600000000e+010   3.3286219079e-002  -1.6549010165e-002   4.5691148059e-001   3.6029914441e-001   4.4618629277e-001   3.7843149504e-001  -6.4163024229e-002  -1.5744928802e-002
  7.0620000000e+010   3.2696098863e-002  -1.7321904184e-002   4.5745186719e-001   3.5980199671e-001   4.4674865787e-001   3.7795088474e-001  -6.3935610588e-002  -1.4128723473e-002
  7.0640000000e+010   3.2094364357e-002  -1.8090169288e-002   4.5800030718e-001   3.5927596540e-001   4.4732008499e-001   3.7744130967e-001  -6.3650853530e-002  -1.2498728586e-002
  7.0660000000e+010   3.1481191115e-002  -1.8853246695e-002   4.5855667095e-001   3.5872105107e-001   4.4790044307e-001   3.7690276542e-001  -6.3308613960e-002  -1.0856951721e-002
  7.0680000000e+010   3.0856767038e-002  -1.9610579854e-002   4.5912082695e-001   3.5813725721e-001   4.4848959894e-001   3.7633525041e-001  -6.2908827730e-002  -9.2054200607e-003
  7.0700000000e+010   3.0221292363e-002  -2.0361615021e-002   4.5969264166e-001   3.5752459018e-001   4.4908741736e-001   3.7573876594e-001  -6.2451506278e-002  -7.5461774985e-003
  7.0720000000e+010   2.9574979644e-002  -2.1105801841e-002   4.6027197969e-001   3.5688305926e-001   4.4969376107e-001   3.7511331616e-001  -6.1936737173e-002  -5.8812817090e-003
  7.0740000000e+010   2.8918053712e-002  -2.1842593932e-002   4.6085870375e-001   3.5621267660e-001   4.5030849079e-001   3.7445890812e-001  -6.1364684535e-002  -4.2128011838e-003
  7.0760000000e+010   2.8250751617e-002  -2.2571449464e-002   4.6145267471e-001   3.5551345728e-001   4.5093146530e-001   3.7377555174e-001  -6.0735589340e-002  -2.5428122354e-003
  7.0780000000e+010   2.7573322559e-002  -2.3291831741e-002   4.6205375165e-001   3.5478541930e-001   4.5156254141e-001   3.7306325983e-001  -6.0049769612e-002  -8.7339597653e-004
  7.0800000000e+010   2.6886027792e-002  -2.4003209782e-002   4.6266179185e-001   3.5402858355e-001   4.5220157405e-001   3.7232204811e-001  -5.9307620493e-002   7.9336472270e-004
  7.0820000000e+010   2.6189140525e-002  -2.4705058893e-002   4.6327665086e-001   3.5324297385e-001   4.5284841625e-001   3.7155193519e-001  -5.8509614196e-002   2.4553882933e-003
  7.0840000000e+010   2.5482945791e-002  -2.5396861247e-002   4.6389818252e-001   3.5242861695e-001   4.5350291922e-001   3.7075294256e-001  -5.7656299839e-002   4.1105975378e-003
  7.0860000000e+010   2.4767740308e-002  -2.6078106451e-002   4.6452623897e-001   3.5158554253e-001   4.5416493238e-001   3.6992509467e-001  -5.6748303157e-002   5.7569227072e-003
  7.0880000000e+010   2.4043832321e-002  -2.6748292114e-002   4.6516067073e-001   3.5071378317e-001   4.5483430333e-001   3.6906841883e-001  -5.5786326091e-002   7.3923045800e-003
  7.0900000000e+010   2.3311541428e-002  -2.7406924406e-002   4.6580132670e-001   3.4981337439e-001   4.5551087799e-001   3.6818294530e-001  -5.4771146263e-002   9.0146975376e-003
  7.0920000000e+010   2.2571198383e-002  -2.8053518614e-002   4.6644805420e-001   3.4888435466e-001   4.5619450053e-001   3.6726870723e-001  -5.3703616323e-002   1.0622072631e-002
  7.0940000000e+010   2.1823144891e-002  -2.8687599690e-002   4.6710069902e-001   3.4792676533e-001   4.5688501348e-001   3.6632574069e-001  -5.2584663182e-002   1.2212420638e-002
  7.0960000000e+010   2.1067733379e-002  -2.9308702790e-002   4.6775910543e-001   3.4694065073e-001   4.5758225773e-001   3.6535408467e-001  -5.1415287120e-002   1.3783755094e-002
  7.0980000000e+010   2.0305326756e-002  -2.9916373813e-002   4.6842311623e-001   3.4592605807e-001   4.5828607256e-001   3.6435378109e-001  -5.0196560775e-002   1.5334115311e-002
  7.1000000000e+010   1.9536298148e-002  -3.0510169916e-002   4.6909257280e-001   3.4488303751e-001   4.5899629571e-001   3.6332487476e-001  -4.8929628020e-002   1.6861569358e-002
  7.1020000000e+010   1.8761030628e-002  -3.1089660037e-002   4.6976731509e-001   3.4381164213e-001   4.5971276338e-001   3.6226741342e-001  -4.7615702714e-002   1.8364217016e-002
  7.1040000000e+010   1.7979916920e-002  -3.1654425391e-002   4.7044718171e-001   3.4271192792e-001   4.6043531028e-001   3.6118144772e-001  -4.6256067343e-002   1.9840192692e-002
  7.1060000000e+010   1.7193359094e-002  -3.2204059971e-002   4.7113200992e-001   3.4158395379e-001   4.6116376966e-001   3.6006703122e-001  -4.4852071544e-002   2.1287668286e-002
  7.1080000000e+010   1.6401768239e-002  -3.2738171024e-002   4.7182163570e-001   3.4042778156e-001   4.6189797338e-001   3.5892422039e-001  -4.3405130515e-002   2.2704856023e-002
  7.1100000000e+010   1.5605564126e-002  -3.3256379523e-002   4.7251589377e-001   3.3924347594e-001   4.6263775187e-001   3.5775307460e-001  -4.1916723321e-002   2.4090011214e-002
  7.1120000000e+010   1.4805174855e-002  -3.3758320622e-002   4.7321461761e-001   3.3803110457e-001   4.6338293428e-001   3.5655365613e-001  -4.0388391077e-002   2.5441434979e-002
  7.1140000000e+010   1.4001036484e-002  -3.4243644099e-002   4.7391763954e-001   3.3679073795e-001   4.6413334839e-001   3.5532603014e-001  -3.8821735044e-002   2.6757476894e-002
  7.1160000000e+010   1.3193592649e-002  -3.4712014785e-002   4.7462479072e-001   3.3552244951e-001   4.6488882074e-001   3.5407026470e-001  -3.7218414600e-002   2.8036537580e-002
  7.1180000000e+010   1.2383294161e-002  -3.5163112976e-002   4.7533590119e-001   3.3422631553e-001   4.6564917665e-001   3.5278643075e-001  -3.5580145126e-002   2.9277071214e-002
  7.1200000000e+010   1.1570598605e-002  -3.5596634833e-002   4.7605079994e-001   3.3290241516e-001   4.6641424023e-001   3.5147460210e-001  -3.3908695786e-002   3.0477587975e-002
  7.1220000000e+010   1.0755969906e-002  -3.6012292759e-002   4.7676931489e-001   3.3155083044e-001   4.6718383442e-001   3.5013485546e-001  -3.2205887210e-002   3.1636656399e-002
  7.1240000000e+010   9.9398778995e-003  -3.6409815771e-002   4.7749127298e-001   3.3017164623e-001   4.6795778106e-001   3.4876727038e-001  -3.0473589088e-002   3.2752905661e-002
  7.1260000000e+010   9.1227978810e-003  -3.6788949842e-002   4.7821650017e-001   3.2876495028e-001   4.6873590090e-001   3.4737192927e-001  -2.8713717677e-002   3.3825027758e-002
  7.1280000000e+010   8.3052101451e-003  -3.7149458233e-002   4.7894482152e-001   3.2733083314e-001   4.6951801365e-001   3.4594891739e-001  -2.6928233214e-002   3.4851779613e-002
  7.1300000000e+010   7.4875995145e-003  -3.7491121805e-002   4.7967606118e-001   3.2586938821e-001   4.7030393801e-001   3.4449832284e-001  -2.5119137256e-002   3.5831985072e-002
  7.1320000000e+010   6.6704548580e-003  -3.7813739311e-002   4.8041004244e-001   3.2438071168e-001   4.7109349172e-001   3.4302023655e-001  -2.3288469937e-002   3.6764536812e-002
  7.1340000000e+010   5.8542685983e-003  -3.8117127668e-002   4.8114658780e-001   3.2286490256e-001   4.7188649158e-001   3.4151475225e-001  -2.1438307154e-002   3.7648398136e-002
  7.1360000000e+010   5.0395362101e-003  -3.8401122215e-002   4.8188551896e-001   3.2132206266e-001   4.7268275350e-001   3.3998196650e-001  -1.9570757679e-002   3.8482604674e-002
  7.1380000000e+010   4.2267557097e-003  -3.8665576939e-002   4.8262665689e-001   3.1975229655e-001   4.7348209256e-001   3.3842197864e-001  -1.7687960211e-002   3.9266265964e-002
  7.1400000000e+010   3.4164271356e-003  -3.8910364696e-002   4.8336982187e-001   3.1815571156e-001   4.7428432299e-001   3.3683489080e-001  -1.5792080362e-002   3.9998566930e-002
  7.1420000000e+010   2.6090520228e-003  -3.9135377396e-002   4.8411483349e-001   3.1653241779e-001   4.7508925826e-001   3.3522080788e-001  -1.3885307587e-002   4.0678769237e-002
  7.1440000000e+010   1.8051328679e-003  -3.9340526178e-002   4.8486151073e-001   3.1488252807e-001   4.7589671113e-001   3.3357983753e-001  -1.1969852068e-002   4.1306212534e-002
  7.1460000000e+010   1.0051725903e-003  -3.9525741552e-002   4.8560967198e-001   3.1320615794e-001   4.7670649361e-001   3.3191209014e-001  -1.0047941541e-002   4.1880315576e-002
  7.1480000000e+010   2.0967398530e-004  -3.9690973536e-002   4.8635913508e-001   3.1150342566e-001   4.7751841708e-001   3.3021767885e-001  -8.1218180872e-003   4.2400577224e-002
  7.1500000000e+010  -5.8086082566e-004  -3.9836191748e-002   4.8710971733e-001   3.0977445216e-001   4.7833229231e-001   3.2849671950e-001  -6.1937348882e-003   4.2866577315e-002
  7.1520000000e+010  -1.3659309508e-003  -3.9961385496e-002   4.8786123559e-001   3.0801936107e-001   4.7914792946e-001   3.2674933063e-001  -4.2659529424e-003   4.3277977418e-002
  7.1540000000e+010  -2.1450372864e-003  -4.0066563836e-002   4.8861350626e-001   3.0623827865e-001   4.7996513815e-001   3.2497563345e-001  -2.3407377602e-003   4.3634521447e-002
  7.1560000000e+010  -2.9176830784e-003  -4.0151755601e-002   4.8936634534e-001   3.0443133382e-001   4.8078372752e-001   3.2317575186e-001  -4.2035603413e-004   4.3936036159e-002
  7.1580000000e+010  -3.6833744862e-003  -4.0217009423e-002   4.9011956847e-001   3.0259865809e-001   4.8160350620e-001   3.2134981241e-001   1.4929277063e-003   4.4182431509e-002
  7.1600000000e+010  -4.4416211479e-003  -4.0262393716e-002   4.9087299094e-001   3.0074038559e-001   4.8242428243e-001   3.1949794425e-001   3.3968544520e-003   4.4373700880e-002
  7.1620000000e+010  -5.1919367462e-003  -4.0287996642e-002   4.9162642778e-001   2.9885665305e-001   4.8324586403e-001   3.1762027918e-001   5.2891740768e-003   4.4509921183e-002
  7.1640000000e+010  -5.9338395738e-003  -4.0293926056e-002   4.9237969375e-001   2.9694759971e-001   4.8406805848e-001   3.1571695157e-001   7.1676487015e-003   4.4591252814e-002
  7.1660000000e+010  -6.6668530986e-003  -4.0280309424e-002   4.9313260340e-001   2.9501336741e-001   4.8489067295e-001   3.1378809838e-001   9.0300560524e-003   4.4617939487e-002
  7.1680000000e+010  -7.3905065274e-003  -4.0247293715e-002   4.9388497109e-001   2.9305410047e-001   4.8571351432e-001   3.1183385913e-001   1.0874192810e-002   4.4590307929e-002
  7.1700000000e+010  -8.1043353661e-003  -4.0195045278e-002   4.9463661104e-001   2.9106994572e-001   4.8653638924e-001   3.0985437587e-001   1.2697877940e-002   4.4508767440e-002
  7.1720000000e+010  -8.8078819782e-003  -4.0123749686e-002   4.9538733736e-001   2.8906105247e-001   4.8735910415e-001   3.0784979317e-001   1.4498956008e-002   4.4373809324e-002
  7.1740000000e+010  -9.5006961383e-003  -4.0033611562e-002   4.9613696410e-001   2.8702757250e-001   4.8818146534e-001   3.0582025808e-001   1.6275300461e-002   4.4186006181e-002
  7.1760000000e+010  -1.0182335582e-002  -3.9924854379e-002   4.9688530528e-001   2.8496965999e-001   4.8900327895e-001   3.0376592015e-001   1.8024816883e-002   4.3946011074e-002
  7.1780000000e+010  -1.0852366548e-002  -3.9797720240e-002   4.9763217489e-001   2.8288747155e-001   4.8982435107e-001   3.0168693136e-001   1.9745446206e-002   4.3654556556e-002
  7.1800000000e+010  -1.1510364319e-002  -3.9652469633e-002   4.9837738698e-001   2.8078116617e-001   4.9064448769e-001   2.9958344613e-001   2.1435167889e-002   4.3312453575e-002
  7.1820000000e+010  -1.2155913748e-002  -3.9489381163e-002   4.9912075569e-001   2.7865090522e-001   4.9146349483e-001   2.9745562129e-001   2.3092003034e-002   4.2920590245e-002
  7.1840000000e+010  -1.2788609786e-002  -3.9308751258e-002   4.9986209522e-001   2.7649685238e-001   4.9228117850e-001   2.9530361604e-001   2.4714017463e-002   4.2479930493e-002
  7.1860000000e+010  -1.3408057993e-002  -3.9110893863e-002   5.0060121998e-001   2.7431917366e-001   4.9309734479e-001   2.9312759196e-001   2.6299324728e-002   4.1991512575e-002
  7.1880000000e+010  -1.4013875043e-002  -3.8896140100e-002   5.0133794449e-001   2.7211803734e-001   4.9391179988e-001   2.9092771293e-001   2.7846089059e-002   4.1456447479e-002
  7.1900000000e+010  -1.4605689222e-002  -3.8664837915e-002   5.0207208353e-001   2.6989361398e-001   4.9472435007e-001   2.8870414519e-001   2.9352528243e-002   4.0875917197e-002
  7.1920000000e+010  -1.5183140911e-002  -3.8417351696e-002   5.0280345212e-001   2.6764607637e-001   4.9553480185e-001   2.8645705721e-001   3.0816916431e-002   4.0251172881e-002
  7.1940000000e+010  -1.5745883059e-002  -3.8154061879e-002   5.0353186555e-001   2.6537559951e-001   4.9634296190e-001   2.8418661977e-001   3.2237586865e-002   3.9583532889e-002
  7.1960000000e+010  -1.6293581644e-002  -3.7875364526e-002   5.0425713943e-001   2.6308236055e-001   4.9714863714e-001   2.8189300585e-001   3.3612934520e-002   3.8874380708e-002
  7.1980000000e+010  -1.6825916121e-002  -3.7581670886e-002   5.0497908975e-001   2.6076653885e-001   4.9795163476e-001   2.7957639064e-001   3.4941418664e-002   3.8125162777e-002
  7.2000000000e+010  -1.7342579859e-002  -3.7273406938e-002   5.0569753283e-001   2.5842831585e-001   4.9875176228e-001   2.7723695154e-001   3.6221565317e-002   3.7337386194e-002
  7.2020000000e+010  -1.7843280559e-002  -3.6951012908e-002   5.0641228547e-001   2.5606787510e-001   4.9954882756e-001   2.7487486807e-001   3.7451969620e-002   3.6512616331e-002
  7.2040000000e+010  -1.8327740658e-002  -3.6614942777e-002   5.0712316487e-001   2.5368540223e-001   5.0034263882e-001   2.7249032189e-001   3.8631298099e-002   3.5652474335e-002
  7.2060000000e+010  -1.8795697727e-002  -3.6265663765e-002   5.0782998875e-001   2.5128108489e-001   5.0113300471e-001   2.7008349676e-001   3.9758290830e-002   3.4758634548e-002
  7.2080000000e+010  -1.9246904836e-002  -3.5903655796e-002   5.0853257532e-001   2.4885511276e-001   5.0191973435e-001   2.6765457849e-001   4.0831763485e-002   3.3832821826e-002
  7.2100000000e+010  -1.9681130917e-002  -3.5529410954e-002   5.0923074337e-001   2.4640767750e-001   5.0270263730e-001   2.6520375496e-001   4.1850609275e-002   3.2876808773e-002
  7.2120000000e+010  -2.0098161104e-002  -3.5143432911e-002   5.0992431224e-001   2.4393897270e-001   5.0348152367e-001   2.6273121604e-001   4.2813800771e-002   3.1892412893e-002
  7.2140000000e+010  -2.0497797052e-002  -3.4746236352e-002   5.1061310190e-001   2.4144919389e-001   5.0425620410e-001   2.6023715360e-001   4.3720391606e-002   3.0881493660e-002
  7.2160000000e+010  -2.0879857246e-002  -3.4338346377e-002   5.1129693296e-001   2.3893853848e-001   5.0502648984e-001   2.5772176144e-001   4.4569518059e-002   2.9845949521e-002
