# Hz S RI R 1.000000
! Metas.Vna.Tools, 2.4.7898.19887
! Metas.Vna.Data, 2.4.7898.19873
! Created: UTC 2021.09.30 14:30:59
! FREQ                re:S1,1             im:S1,1             re:S2,1             im:S2,1             re:S1,2             im:S1,2             re:S2,2             im:S2,2          
  7.0000000000e+010  -3.6675254699e-002  -2.6817559155e-002   3.1098218173e-001   4.0119855921e-002   3.1264224582e-001   4.5370361751e-002  -1.1889086404e-001  -2.0144634806e-001
  7.0020000000e+010  -3.5879638660e-002  -2.6771350639e-002   3.1109034973e-001   4.0207744572e-002   3.1276128229e-001   4.5460233215e-002  -1.2217394792e-001  -2.0047018586e-001
  7.0040000000e+010  -3.5076814551e-002  -2.6740359724e-002   3.1119688397e-001   4.0281953621e-002   3.1287865800e-001   4.5535978811e-002  -1.2540376025e-001  -1.9933361707e-001
  7.0060000000e+010  -3.4267505919e-002  -2.6724490800e-002   3.1130176133e-001   4.0342469764e-002   3.1299434720e-001   4.5597584980e-002  -1.2857558265e-001  -1.9803735565e-001
  7.0080000000e+010  -3.3452440744e-002  -2.6723633455e-002   3.1140495815e-001   4.0389280960e-002   3.1310832356e-001   4.5645039499e-002  -1.3168472437e-001  -1.9658232121e-001
  7.0100000000e+010  -3.2632350710e-002  -2.6737662407e-002   3.1150645020e-001   4.0422376440e-002   3.1322056021e-001   4.5678331492e-002  -1.3472652962e-001  -1.9496963905e-001
  7.0120000000e+010  -3.1807970453e-002  -2.6766437441e-002   3.1160621272e-001   4.0441746704e-002   3.1333102974e-001   4.5697451426e-002  -1.3769638496e-001  -1.9320063970e-001
  7.0140000000e+010  -3.0980036813e-002  -2.6809803372e-002   3.1170422042e-001   4.0447383528e-002   3.1343970418e-001   4.5702391117e-002  -1.4058972661e-001  -1.9127685834e-001
  7.0160000000e+010  -3.0149288072e-002  -2.6867590034e-002   3.1180044746e-001   4.0439279959e-002   3.1354655506e-001   4.5693143727e-002  -1.4340204781e-001  -1.8920003378e-001
  7.0180000000e+010  -2.9316463188e-002  -2.6939612277e-002   3.1189486751e-001   4.0417430322e-002   3.1365155338e-001   4.5669703769e-002  -1.4612890613e-001  -1.8697210719e-001
  7.0200000000e+010  -2.8482301020e-002  -2.7025669994e-002   3.1198745371e-001   4.0381830220e-002   3.1375466960e-001   4.5632067108e-002  -1.4876593071e-001  -1.8459522049e-001
  7.0220000000e+010  -2.7647539555e-002  -2.7125548169e-002   3.1207817868e-001   4.0332476533e-002   3.1385587371e-001   4.5580230958e-002  -1.5130882953e-001  -1.8207171441e-001
  7.0240000000e+010  -2.6812915127e-002  -2.7239016937e-002   3.1216701457e-001   4.0269367419e-002   3.1395513518e-001   4.5514193888e-002  -1.5375339651e-001  -1.7940412632e-001
  7.0260000000e+010  -2.5979161633e-002  -2.7365831675e-002   3.1225393302e-001   4.0192502320e-002   3.1405242299e-001   4.5433955819e-002  -1.5609551864e-001  -1.7659518763e-001
  7.0280000000e+010  -2.5147009753e-002  -2.7505733114e-002   3.1233890519e-001   4.0101881954e-002   3.1414770566e-001   4.5339518024e-002  -1.5833118295e-001  -1.7364782097e-001
  7.0300000000e+010  -2.4317186164e-002  -2.7658447462e-002   3.1242190176e-001   3.9997508321e-002   3.1424095122e-001   4.5230883132e-002  -1.6045648339e-001  -1.7056513704e-001
  7.0320000000e+010  -2.3490412758e-002  -2.7823686563e-002   3.1250289295e-001   3.9879384703e-002   3.1433212723e-001   4.5108055123e-002  -1.6246762765e-001  -1.6735043113e-001
  7.0340000000e+010  -2.2667405862e-002  -2.8001148070e-002   3.1258184851e-001   3.9747515660e-002   3.1442120081e-001   4.4971039328e-002  -1.6436094379e-001  -1.6400717941e-001
  7.0360000000e+010  -2.1848875460e-002  -2.8190515637e-002   3.1265873774e-001   3.9601907034e-002   3.1450813862e-001   4.4819842435e-002  -1.6613288678e-001  -1.6053903480e-001
  7.0380000000e+010  -2.1035524417e-002  -2.8391459141e-002   3.1273352951e-001   3.9442565945e-002   3.1459290688e-001   4.4654472478e-002  -1.6778004486e-001  -1.5694982272e-001
  7.0400000000e+010  -2.0228047715e-002  -2.8603634918e-002   3.1280619222e-001   3.9269500793e-002   3.1467547139e-001   4.4474938844e-002  -1.6929914577e-001  -1.5324353638e-001
  7.0420000000e+010  -1.9427131687e-002  -2.8826686025e-002   3.1287669387e-001   3.9082721254e-002   3.1475579752e-001   4.4281252268e-002  -1.7068706280e-001  -1.4942433192e-001
  7.0440000000e+010  -1.8633453264e-002  -2.9060242521e-002   3.1294500202e-001   3.8882238283e-002   3.1483385024e-001   4.4073424833e-002  -1.7194082064e-001  -1.4549652321e-001
  7.0460000000e+010  -1.7847679228e-002  -2.9303921773e-002   3.1301108384e-001   3.8668064108e-002   3.1490959410e-001   4.3851469967e-002  -1.7305760106e-001  -1.4146457640e-001
  7.0480000000e+010  -1.7070465474e-002  -2.9557328778e-002   3.1307490607e-001   3.8440212233e-002   3.1498299325e-001   4.3615402441e-002  -1.7403474840e-001  -1.3733310422e-001
  7.0500000000e+010  -1.6302456286e-002  -2.9820056508e-002   3.1313643506e-001   3.8198697431e-002   3.1505401148e-001   4.3365238370e-002  -1.7486977479e-001  -1.3310685999e-001
  7.0520000000e+010  -1.5544283619e-002  -3.0091686276e-002   3.1319563679e-001   3.7943535748e-002   3.1512261219e-001   4.3100995206e-002  -1.7556036523e-001  -1.2879073145e-001
  7.0540000000e+010  -1.4796566399e-002  -3.0371788125e-002   3.1325247684e-001   3.7674744496e-002   3.1518875839e-001   4.2822691740e-002  -1.7610438235e-001  -1.2438973428e-001
  7.0560000000e+010  -1.4059909830e-002  -3.0659921229e-002   3.1330692043e-001   3.7392342253e-002   3.1525241277e-001   4.2530348094e-002  -1.7649987099e-001  -1.1990900544e-001
  7.0580000000e+010  -1.3334904729e-002  -3.0955634320e-002   3.1335893240e-001   3.7096348860e-002   3.1531353764e-001   4.2223985724e-002  -1.7674506249e-001  -1.1535379630e-001
  7.0600000000e+010  -1.2622126856e-002  -3.1258466132e-002   3.1340847726e-001   3.6786785418e-002   3.1537209499e-001   4.1903627412e-002  -1.7683837877e-001  -1.1072946551e-001
  7.0620000000e+010  -1.1922136280e-002  -3.1567945866e-002   3.1345551916e-001   3.6463674287e-002   3.1542804645e-001   4.1569297267e-002  -1.7677843606e-001  -1.0604147173e-001
  7.0640000000e+010  -1.1235476755e-002  -3.1883593666e-002   3.1350002192e-001   3.6127039077e-002   3.1548135337e-001   4.1221020715e-002  -1.7656404841e-001  -1.0129536610e-001
  7.0660000000e+010  -1.0562675108e-002  -3.2204921122e-002   3.1354194902e-001   3.5776904654e-002   3.1553197675e-001   4.0858824504e-002  -1.7619423094e-001  -9.6496784665e-002
  7.0680000000e+010  -9.9042406586e-003  -3.2531431781e-002   3.1358126363e-001   3.5413297129e-002   3.1557987730e-001   4.0482736690e-002  -1.7566820270e-001  -9.1651440457e-002
  7.0700000000e+010  -9.2606646520e-003  -3.2862621682e-002   3.1361792860e-001   3.5036243856e-002   3.1562501543e-001   4.0092786642e-002  -1.7498538937e-001  -8.6765115574e-002
  7.0720000000e+010  -8.6324197127e-003  -3.3197979902e-002   3.1365190649e-001   3.4645773430e-002   3.1566735128e-001   3.9689005031e-002  -1.7414542548e-001  -8.1843653034e-002
  7.0740000000e+010  -8.0199593233e-003  -3.3536989115e-002   3.1368315956e-001   3.4241915682e-002   3.1570684470e-001   3.9271423831e-002  -1.7314815650e-001  -7.6892948533e-002
  7.0760000000e+010  -7.4237173244e-003  -3.3879126174e-002   3.1371164978e-001   3.3824701673e-002   3.1574345528e-001   3.8840076308e-002  -1.7199364049e-001  -7.1918942071e-002
  7.0780000000e+010  -6.8441074388e-003  -3.4223862697e-002   3.1373733886e-001   3.3394163693e-002   3.1577714234e-001   3.8394997019e-002  -1.7068214947e-001  -6.6927609486e-002
  7.0800000000e+010  -6.2815228200e-003  -3.4570665673e-002   3.1376018821e-001   3.2950335255e-002   3.1580786498e-001   3.7936221808e-002  -1.6921417048e-001  -6.1924953886e-002
  7.0820000000e+010  -5.7363356258e-003  -3.4918998074e-002   3.1378015902e-001   3.2493251086e-002   3.1583558202e-001   3.7463787796e-002  -1.6759040626e-001  -5.6916997007e-002
  7.0840000000e+010  -5.2088966177e-003  -3.5268319484e-002   3.1379721220e-001   3.2022947129e-002   3.1586025210e-001   3.6977733380e-002  -1.6581177567e-001  -5.1909770513e-002
  7.0860000000e+010  -4.6995347871e-003  -3.5618086733e-002   3.1381130843e-001   3.1539460535e-002   3.1588183360e-001   3.6478098224e-002  -1.6387941370e-001  -4.6909307231e-002
  7.0880000000e+010  -4.2085570084e-003  -3.5967754548e-002   3.1382240817e-001   3.1042829655e-002   3.1590028471e-001   3.5964923254e-002  -1.6179467119e-001  -4.1921632363e-002
  7.0900000000e+010  -3.7362477198e-003  -3.6316776201e-002   3.1383047164e-001   3.0533094038e-002   3.1591556341e-001   3.5438250655e-002  -1.5955911422e-001  -3.6952754669e-002
  7.0920000000e+010  -3.2828686328e-003  -3.6664604180e-002   3.1383545885e-001   3.0010294423e-002   3.1592762750e-001   3.4898123858e-002  -1.5717452308e-001  -3.2008657636e-002
  7.0940000000e+010  -2.8486584695e-003  -3.7010690853e-002   3.1383732959e-001   2.9474472737e-002   3.1593643458e-001   3.4344587539e-002  -1.5464289101e-001  -2.7095290663e-002
  7.0960000000e+010  -2.4338327305e-003  -3.7354489144e-002   3.1383604349e-001   2.8925672083e-002   3.1594194210e-001   3.3777687613e-002  -1.5196642253e-001  -2.2218560253e-002
  7.0980000000e+010  -2.0385834912e-003  -3.7695453218e-002   3.1383155995e-001   2.8363936739e-002   3.1594410733e-001   3.3197471221e-002  -1.4914753143e-001  -1.7384321250e-002
  7.1000000000e+010  -1.6630792288e-003  -3.8033039159e-002   3.1382383822e-001   2.7789312149e-002   3.1594288739e-001   3.2603986729e-002  -1.4618883843e-001  -1.2598368115e-002
  7.1020000000e+010  -1.3074646796e-003  -3.8366705665e-002   3.1381283737e-001   2.7201844916e-002   3.1593823925e-001   3.1997283717e-002  -1.4309316854e-001  -7.8664262691e-003
  7.1040000000e+010  -9.7186072722e-004  -3.8695914731e-002   3.1379851629e-001   2.6601582799e-002   3.1593011975e-001   3.1377412976e-002  -1.3986354802e-001  -3.1941435081e-003
  7.1060000000e+010  -6.5636432090e-004  -3.9020132345e-002   3.1378083375e-001   2.5988574701e-002   3.1591848561e-001   3.0744426494e-002  -1.3650320105e-001   1.4129184873e-003
  7.1080000000e+010  -3.6104842601e-004  -3.9338829175e-002   3.1375974835e-001   2.5362870667e-002   3.1590329341e-001   3.0098377454e-002  -1.3301554607e-001   5.9492925406e-003
  7.1100000000e+010  -8.5962005171e-005  -3.9651481261e-002   3.1373521856e-001   2.4724521873e-002   3.1588449966e-001   2.9439320223e-002  -1.2940419176e-001   1.0409614249e-002
  7.1120000000e+010   1.6886996898e-004  -3.9957570699e-002   3.1370720273e-001   2.4073580620e-002   3.1586206073e-001   2.8767310345e-002  -1.2567293274e-001   1.4788630122e-002
  7.1140000000e+010   4.0344646952e-004  -4.0256586332e-002   3.1367565909e-001   2.3410100327e-002   3.1583593293e-001   2.8082404534e-002  -1.2182574497e-001   1.9081205571e-002
  7.1160000000e+010   6.1779033955e-004  -4.0548024423e-002   3.1364054575e-001   2.2734135523e-002   3.1580607247e-001   2.7384660662e-002  -1.1786678075e-001   2.3282332742e-002
  7.1180000000e+010   8.1194818493e-004  -4.0831389336e-002   3.1360182073e-001   2.2045741839e-002   3.1577243551e-001   2.6674137754e-002  -1.1380036352e-001   2.7387138179e-002
  7.1200000000e+010   9.8599023563e-004  -4.1106194200e-002   3.1355944195e-001   2.1344976002e-002   3.1573497811e-001   2.5950895978e-002  -1.0963098231e-001   3.1390890293e-002
  7.1220000000e+010   1.1400101758e-003  -4.1371961573e-002   3.1351336725e-001   2.0631895822e-002   3.1569365632e-001   2.5214996635e-002  -1.0536328592e-001   3.5289006638e-002
  7.1240000000e+010   1.2741249426e-003  -4.1628224097e-002   3.1346355439e-001   1.9906560190e-002   3.1564842612e-001   2.4466502153e-002  -1.0100207679e-001   3.9077060978e-002
  7.1260000000e+010   1.3884744944e-003  -4.1874525139e-002   3.1340996107e-001   1.9169029066e-002   3.1559924346e-001   2.3705476074e-002  -9.6552304651e-002   4.2750790126e-002
  7.1280000000e+010   1.4832215478e-003  -4.2110419424e-002   3.1335254492e-001   1.8419363471e-002   3.1554606426e-001   2.2931983047e-002  -9.2019059851e-002   4.6306100548e-002
  7.1300000000e+010   1.5585512849e-003  -4.2335473660e-002   3.1329126354e-001   1.7657625477e-002   3.1548884442e-001   2.2146088820e-002  -8.7407566470e-002   4.9739074726e-002
  7.1320000000e+010   1.6146710298e-003  -4.2549267147e-002   3.1322607446e-001   1.6883878203e-002   3.1542753984e-001   2.1347860227e-002  -8.2723175176e-002   5.3045977251e-002
  7.1340000000e+010   1.6518098965e-003  -4.2751392372e-002   3.1315693519e-001   1.6098185802e-002   3.1536210640e-001   2.0537365180e-002  -7.7971355845e-002   5.6223260660e-002
  7.1360000000e+010   1.6702184067e-003  -4.2941455591e-002   3.1308380322e-001   1.5300613451e-002   3.1529250002e-001   1.9714672660e-002  -7.3157689960e-002   5.9267570986e-002
  7.1380000000e+010   1.6701680792e-003  -4.3119077397e-002   3.1300663601e-001   1.4491227346e-002   3.1521867661e-001   1.8879852705e-002  -6.8287862800e-002   6.2175753018e-002
  7.1400000000e+010   1.6519509912e-003  -4.3283893271e-002   3.1292539103e-001   1.3670094690e-002   3.1514059210e-001   1.8032976401e-002  -6.3367655423e-002   6.4944855266e-002
  7.1420000000e+010   1.6158793125e-003  -4.3435554112e-002   3.1284002573e-001   1.2837283684e-002   3.1505820248e-001   1.7174115874e-002  -5.8402936468e-002   6.7572134614e-002
  7.1440000000e+010   1.5622848116e-003  -4.3573726758e-002   3.1275049756e-001   1.1992863519e-002   3.1497146375e-001   1.6303344273e-002  -5.3399653775e-002   7.0055060657e-002
  7.1460000000e+010   1.4915183363e-003  -4.3698094475e-002   3.1265676402e-001   1.1136904364e-002   3.1488033198e-001   1.5420735769e-002  -4.8363825844e-002   7.2391319715e-002
  7.1480000000e+010   1.4039492689e-003  -4.3808357438e-002   3.1255878260e-001   1.0269477357e-002   3.1478476330e-001   1.4526365535e-002  -4.3301533144e-002   7.4578818508e-002
  7.1500000000e+010   1.2999649558e-003  -4.3904233188e-002   3.1245651082e-001   9.3906545959e-003   3.1468471389e-001   1.3620309742e-002  -3.8218909283e-002   7.6615687502e-002
  7.1520000000e+010   1.1799701133e-003  -4.3985457062e-002   3.1234990627e-001   8.5005091297e-003   3.1458014001e-001   1.2702645546e-002  -3.3122132060e-002   7.8500283893e-002
  7.1540000000e+010   1.0443862104e-003  -4.4051782608e-002   3.1223892654e-001   7.5991149457e-003   3.1447099801e-001   1.1773451075e-002  -2.8017414401e-002   8.0231194254e-002
  7.1560000000e+010   8.9365082907e-004  -4.4102981973e-002   3.1212352932e-001   6.6865469611e-003   3.1435724432e-001   1.0832805422e-002  -2.2910995206e-002   8.1807236812e-002
  7.1580000000e+010   7.2821700255e-004  -4.4138846272e-002   3.1200367233e-001   5.7628810122e-003   3.1423883548e-001   9.8807886300e-003  -1.7809130116e-002   8.3227463369e-002
  7.1600000000e+010   5.4855253357e-004  -4.4159185921e-002   3.1187931337e-001   4.8281938446e-003   3.1411572811e-001   8.9174816829e-003  -1.2718082207e-002   8.4491160853e-002
  7.1620000000e+010   3.5513929279e-004  -4.4163830963e-002   3.1175041031e-001   3.8825631022e-003   3.1398787898e-001   7.9429664940e-003  -7.6441126390e-003   8.5597852497e-002
  7.1640000000e+010   1.4847249838e-004  -4.4152631352e-002   3.1161692112e-001   2.9260673170e-003   3.1385524496e-001   6.9573258941e-003  -2.5934712728e-003   8.6547298646e-002
  7.1660000000e+010  -7.0940021810e-005  -4.4125457219e-002   3.1147880383e-001   1.9587858983e-003   3.1371778303e-001   5.9606436204e-003   2.4276127432e-003   8.7339497185e-002
  7.1680000000e+010  -3.0257858480e-004  -4.4082199110e-002   3.1133601660e-001   9.8079912243e-004   3.1357545034e-001   4.9530043043e-003   7.4129403846e-003   8.7974683592e-002
  7.1700000000e+010  -5.4591242257e-004  -4.4022768197e-002   3.1118851768e-001  -7.8118786174e-006   3.1342820416e-001   3.9344934603e-003   1.2356352155e-002   8.8453330606e-002
  7.1720000000e+010  -8.0040046643e-004  -4.3947096459e-002   3.1103626544e-001  -1.0069651276e-003   3.1327600193e-001   2.9051974740e-003   1.7251737464e-002   8.8776147518e-002
  7.1740000000e+010  -1.0654921449e-003  -4.3855136838e-002   3.1087921835e-001  -2.0165778129e-003   3.1311880123e-001   1.8652035903e-003   2.2093043966e-002   8.8944079084e-002
  7.1760000000e+010  -1.3406281935e-003  -4.3746863366e-002   3.1071733503e-001  -3.0365663001e-003   3.1295655980e-001   8.1459990121e-004   2.6874286840e-002   8.8958304051e-002
  7.1780000000e+010  -1.6252414759e-003  -4.3622271259e-002   3.1055057422e-001  -4.0668461421e-003   3.1278923558e-001  -2.4652466564e-004   3.1589558001e-002   8.8820233312e-002
  7.1800000000e+010  -1.9187578143e-003  -4.3481376989e-002   3.1037889481e-001  -5.1073320912e-003   3.1261678666e-001  -1.3180803595e-003   3.6233035223e-002   8.8531507680e-002
  7.1820000000e+010  -2.2205968289e-003  -4.3324218320e-002   3.1020225582e-001  -6.1579381098e-003   3.1243917133e-001  -2.3999766184e-003   4.0798991158e-002   8.8093995292e-002
  7.1840000000e+010  -2.5301727848e-003  -4.3150854320e-002   3.1002061644e-001  -7.2185773816e-003   3.1225634806e-001  -3.4921220814e-003   4.5281802240e-002   8.7509788635e-002
  7.1860000000e+010  -2.8468954446e-003  -4.2961365338e-002   3.0983393600e-001  -8.2891623230e-003   3.1206827554e-001  -4.5944246010e-003   4.9675957457e-002   8.6781201215e-002
  7.1880000000e+010  -3.1701709262e-003  -4.2755852955e-002   3.0964217403e-001  -9.3696045948e-003   3.1187491264e-001  -5.7067912549e-003   5.3976066976e-002   8.5910763858e-002
  7.1900000000e+010  -3.4994025643e-003  -4.2534439905e-002   3.0944529020e-001  -1.0459815113e-002   3.1167621847e-001  -6.8291283593e-003   5.8176870601e-002   8.4901220652e-002
  7.1920000000e+010  -3.8339917743e-003  -4.2297269962e-002   3.0924324437e-001  -1.1559704061e-002   3.1147215232e-001  -7.9613414803e-003   6.2273246060e-002   8.3755524544e-002
  7.1940000000e+010  -4.1733389171e-003  -4.2044507803e-002   3.0903599659e-001  -1.2669180901e-002   3.1126267374e-001  -9.1033354471e-003   6.6260217102e-002   8.2476832587e-002
  7.1960000000e+010  -4.5168441643e-003  -4.1776338836e-002   3.0882350710e-001  -1.3788154384e-002   3.1104774250e-001  -1.0255014364e-002   7.0132961384e-002   8.1068500850e-002
  7.1980000000e+010  -4.8639083612e-003  -4.1492969003e-002   3.0860573632e-001  -1.4916532563e-002   3.1082731860e-001  -1.1416281623e-002   7.3886818144e-002   7.9534078995e-002
  7.2000000000e+010  -5.2139338880e-003  -4.1194624546e-002   3.0838264491e-001  -1.6054222807e-002   3.1060136228e-001  -1.2587039918e-002   7.7517295640e-002   7.7877304541e-002
  7.2020000000e+010  -5.5663255167e-003  -4.0881551754e-002   3.0815419369e-001  -1.7201131806e-002   3.1036983404e-001  -1.3767191253e-002   8.1020078347e-002   7.6102096802e-002
  7.2040000000e+010  -5.9204912625e-003  -4.0554016673e-002   3.0792034375e-001  -1.8357165590e-002   3.1013269463e-001  -1.4956636961e-002   8.4391033889e-002   7.4212550528e-002
  7.2060000000e+010  -6.2758432293e-003  -4.0212304789e-002   3.0768105635e-001  -1.9522229536e-002   3.0988990505e-001  -1.6155277710e-002   8.7626219716e-002   7.2212929250e-002
  7.2080000000e+010  -6.6317984471e-003  -3.9856720683e-002   3.0743629300e-001  -2.0696228381e-002   3.0964142660e-001  -1.7363013523e-002   9.0721889480e-002   7.0107658338e-002
  7.2100000000e+010  -6.9877797011e-003  -3.9487587660e-002   3.0718601546e-001  -2.1879066234e-002   3.0938722079e-001  -1.8579743783e-002   9.3674499133e-002   6.7901317792e-002
  7.2120000000e+010  -7.3432163495e-003  -3.9105247346e-002   3.0693018568e-001  -2.3070646590e-002   3.0912724948e-001  -1.9805367251e-002   9.6480712716e-002   6.5598634764e-002
  7.2140000000e+010  -7.6975451312e-003  -3.8710059260e-002   3.0666876590e-001  -2.4270872337e-002   3.0886147474e-001  -2.1039782079e-002   9.9137407828e-002   6.3204475832e-002
  7.2160000000e+010  -8.0502109602e-003  -3.8302400363e-002   3.0640171858e-001  -2.5479645772e-002   3.0858985898e-001  -2.2282885818e-002   1.0164168078e-001   6.0723839038e-002
