# Hz S RI R 1.000000
! Metas.Vna.Tools, 2.4.7898.19887
! Metas.Vna.Data, 2.4.7898.19873
! Created: UTC 2021.09.30 14:31:00
! FREQ                re:S1,1             im:S1,1             re:S2,1             im:S2,1             re:S1,2             im:S1,2             re:S2,2             im:S2,2          
  7.0000000000e+010   4.2933972666e-002   3.5066874071e-002  -6.8832255200e-002   5.2156213222e-002  -7.0401167599e-002   5.1358517833e-002   9.8877937357e-002  -4.5455927727e-002
  7.0020000000e+010   4.4074514945e-002   3.4620132657e-002  -6.8847712309e-002   5.2167897182e-002  -7.0419409970e-002   5.1369584335e-002   9.6206797007e-002  -4.9248677973e-002
  7.0040000000e+010   4.5178992769e-002   3.4123505726e-002  -6.8860306502e-002   5.2181430880e-002  -7.0434744294e-002   5.1382584451e-002   9.3375021938e-002  -5.2902102484e-002
  7.0060000000e+010   4.6246391226e-002   3.3578091620e-002  -6.8870036203e-002   5.2196809295e-002  -7.0447168394e-002   5.1397513357e-002   9.0389173301e-002  -5.6409954955e-002
  7.0080000000e+010   4.7275735267e-002   3.2985029923e-002  -6.8876900012e-002   5.2214027181e-002  -7.0456680268e-002   5.1414365990e-002   8.7256059813e-002  -5.9766288565e-002
  7.0100000000e+010   4.8266090773e-002   3.2345499945e-002  -6.8880896708e-002   5.2233079076e-002  -7.0463278095e-002   5.1433137054e-002   8.3982724400e-002  -6.2965465595e-002
  7.0120000000e+010   4.9216565561e-002   3.1660719180e-002  -6.8882025247e-002   5.2253959299e-002  -7.0466960228e-002   5.1453821021e-002   8.0576430462e-002  -6.6002166459e-002
  7.0140000000e+010   5.0126310343e-002   3.0931941717e-002  -6.8880284766e-002   5.2276661953e-002  -7.0467725200e-002   5.1476412128e-002   7.7044647797e-002  -6.8871398140e-002
  7.0160000000e+010   5.0994519623e-002   3.0160456623e-002  -6.8875674579e-002   5.2301180931e-002  -7.0465571724e-002   5.1500904388e-002   7.3395038181e-002  -7.1568502006e-002
  7.0180000000e+010   5.1820432547e-002   2.9347586292e-002  -6.8868194179e-002   5.2327509911e-002  -7.0460498690e-002   5.1527291584e-002   6.9635440672e-002  -7.4089161000e-002
  7.0200000000e+010   5.2603333682e-002   2.8494684767e-002  -6.8857843240e-002   5.2355642366e-002  -7.0452505168e-002   5.1555567277e-002   6.5773856627e-002  -7.6429406193e-002
  7.0220000000e+010   5.3342553752e-002   2.7603136030e-002  -6.8844621613e-002   5.2385571560e-002  -7.0441590406e-002   5.1585724803e-002   6.1818434481e-002  -7.8585622690e-002
  7.0240000000e+010   5.4037470309e-002   2.6674352272e-002  -6.8828529330e-002   5.2417290554e-002  -7.0427753833e-002   5.1617757279e-002   5.7777454312e-002  -8.0554554875e-002
  7.0260000000e+010   5.4687508341e-002   2.5709772134e-002  -6.8809566598e-002   5.2450792206e-002  -7.0410995055e-002   5.1651657605e-002   5.3659312211e-002  -8.2333310991e-002
  7.0280000000e+010   5.5292140826e-002   2.4710858933e-002  -6.8787733809e-002   5.2486069174e-002  -7.0391313860e-002   5.1687418464e-002   4.9472504505e-002  -8.3919367052e-002
  7.0300000000e+010   5.5850889224e-002   2.3679098867e-002  -6.8763031528e-002   5.2523113921e-002  -7.0368710213e-002   5.1725032326e-002   4.5225611835e-002  -8.5310570078e-002
  7.0320000000e+010   5.6363323908e-002   2.2615999200e-002  -6.8735460501e-002   5.2561918710e-002  -7.0343184260e-002   5.1764491448e-002   4.0927283145e-002  -8.6505140640e-002
  7.0340000000e+010   5.6829064537e-002   2.1523086441e-002  -6.8705021655e-002   5.2602475616e-002  -7.0314736326e-002   5.1805787880e-002   3.6586219588e-002  -8.7501674734e-002
  7.0360000000e+010   5.7247780359e-002   2.0401904501e-002  -6.8671716090e-002   5.2644776519e-002  -7.0283366914e-002   5.1848913466e-002   3.2211158395e-002  -8.8299144957e-002
  7.0380000000e+010   5.7619190465e-002   1.9254012851e-002  -6.8635545087e-002   5.2688813113e-002  -7.0249076707e-002   5.1893859843e-002   2.7810856730e-002  -8.8896901007e-002
  7.0400000000e+010   5.7943063972e-002   1.8080984666e-002  -6.8596510105e-002   5.2734576907e-002  -7.0211866567e-002   5.1940618448e-002   2.3394075551e-002  -8.9294669489e-002
  7.0420000000e+010   5.8219220149e-002   1.6884404965e-002  -6.8554612778e-002   5.2782059223e-002  -7.0171737533e-002   5.1989180517e-002   1.8969563526e-002  -8.9492553041e-002
  7.0440000000e+010   5.8447528482e-002   1.5665868750e-002  -6.8509854919e-002   5.2831251205e-002  -7.0128690823e-002   5.2039537090e-002   1.4546041009e-002  -8.9491028782e-002
  7.0460000000e+010   5.8627908671e-002   1.4426979144e-002  -6.8462238514e-002   5.2882143815e-002  -7.0082727834e-002   5.2091679010e-002   1.0132184131e-002  -8.9290946078e-002
  7.0480000000e+010   5.8760330581e-002   1.3169345531e-002  -6.8411765728e-002   5.2934727842e-002  -7.0033850138e-002   5.2145596931e-002   5.7366090059e-003  -8.8893523643e-002
  7.0500000000e+010   5.8844814111e-002   1.1894581699e-002  -6.8358438900e-002   5.2988993897e-002  -6.9982059487e-002   5.2201281313e-002   1.3678561041e-003  -8.8300345977e-002
  7.0520000000e+010   5.8881429026e-002   1.0604303992e-002  -6.8302260543e-002   5.3044932423e-002  -6.9927357807e-002   5.2258722430e-002  -2.9656251928e-003  -8.7513359139e-002
  7.0540000000e+010   5.8870294710e-002   9.3001294648e-003  -6.8243233345e-002   5.3102533692e-002  -6.9869747203e-002   5.2317910372e-002  -7.2554918244e-003  -8.6534865887e-002
  7.0560000000e+010   5.8811579868e-002   7.9836740588e-003  -6.8181360168e-002   5.3161787807e-002  -6.9809229952e-002   5.2378835043e-002  -1.1493522044e-002  -8.5367520173e-002
  7.0580000000e+010   5.8705502175e-002   6.6565507795e-003  -6.8116644043e-002   5.3222684712e-002  -6.9745808509e-002   5.2441486170e-002  -1.5671630143e-002  -8.4014321016e-002
  7.0600000000e+010   5.8552327852e-002   5.3203678967e-003  -6.8049088177e-002   5.3285214182e-002  -6.9679485502e-002   5.2505853299e-002  -1.9781880887e-002  -8.2478605759e-002
  7.0620000000e+010   5.8352371199e-002   3.9767271589e-003  -6.7978695947e-002   5.3349365839e-002  -6.9610263734e-002   5.2571925803e-002  -2.3816503632e-002  -8.0764042738e-002
  7.0640000000e+010   5.8105994067e-002   2.6272220271e-003  -6.7905470900e-002   5.3415129144e-002  -6.9538146179e-002   5.2639692881e-002  -2.7767906097e-002  -7.8874623353e-002
  7.0660000000e+010   5.7813605270e-002   1.2734359313e-003  -6.7829416750e-002   5.3482493404e-002  -6.9463135986e-002   5.2709143561e-002  -3.1628687772e-002  -7.6814653579e-002
  7.0680000000e+010   5.7475659948e-002  -8.3059451574e-005  -6.7750537385e-002   5.3551447775e-002  -6.9385236474e-002   5.2780266703e-002  -3.5391652939e-002  -7.4588744926e-002
  7.0700000000e+010   5.7092658874e-002  -1.4407058928e-003  -6.7668836856e-002   5.3621981261e-002  -6.9304451133e-002   5.2853051003e-002  -3.9049823269e-002  -7.2201804862e-002
  7.0720000000e+010   5.6665147710e-002  -2.7979602805e-003  -6.7584319381e-002   5.3694082721e-002  -6.9220783623e-002   5.2927484992e-002  -4.2596450002e-002  -6.9659026721e-002
  7.0740000000e+010   5.6193716212e-002  -4.1532962594e-003  -6.7496989347e-002   5.3767740867e-002  -6.9134237774e-002   5.3003557042e-002  -4.6025025658e-002  -6.6965879113e-002
  7.0760000000e+010   5.5678997380e-002  -5.5052058387e-003  -6.7406851302e-002   5.3842944270e-002  -6.9044817583e-002   5.3081255365e-002  -4.9329295272e-002  -6.4128094864e-002
  7.0780000000e+010   5.5121666567e-002  -6.8522009684e-003  -6.7313909960e-002   5.3919681361e-002  -6.8952527216e-002   5.3160568019e-002  -5.2503267145e-002  -6.1151659498e-002
  7.0800000000e+010   5.4522440535e-002  -8.1928150801e-003  -6.7218170195e-002   5.3997940433e-002  -6.8857371002e-002   5.3241482908e-002  -5.5541223072e-002  -5.8042799284e-002
  7.0820000000e+010   5.3882076469e-002  -9.5256045924e-003  -6.7119637044e-002   5.4077709643e-002  -6.8759353439e-002   5.3323987786e-002  -5.8437728039e-002  -5.4807968877e-002
  7.0840000000e+010   5.3201370938e-002  -1.0849150378e-002  -6.7018315703e-002   5.4158977017e-002  -6.8658479186e-002   5.3408070258e-002  -6.1187639379e-002  -5.1453838569e-002
  7.0860000000e+010   5.2481158827e-002  -1.2162059192e-002  -6.6914211528e-002   5.4241730450e-002  -6.8554753069e-002   5.3493717786e-002  -6.3786115359e-002  -4.7987281185e-002
  7.0880000000e+010   5.1722312213e-002  -1.3462965058e-002  -6.6807330032e-002   5.4325957708e-002  -6.8448180072e-002   5.3580917684e-002  -6.6228623193e-002  -4.4415358627e-002
  7.0900000000e+010   5.0925739212e-002  -1.4750530615e-002  -6.6697676884e-002   5.4411646433e-002  -6.8338765342e-002   5.3669657129e-002  -6.8510946462e-002  -4.0745308119e-002
  7.0920000000e+010   5.0092382779e-002  -1.6023448416e-002  -6.6585257908e-002   5.4498784144e-002  -6.8226514185e-002   5.3759923160e-002  -7.0629191935e-002  -3.6984528159e-002
  7.0940000000e+010   4.9223219478e-002  -1.7280442187e-002  -6.6470079081e-002   5.4587358238e-002  -6.8111432066e-002   5.3851702678e-002  -7.2579795772e-002  -3.3140564211e-002
  7.0960000000e+010   4.8319258213e-002  -1.8520268032e-002  -6.6352146534e-002   5.4677355994e-002  -6.7993524607e-002   5.3944982452e-002  -7.4359529104e-002  -2.9221094159e-002
  7.0980000000e+010   4.7381538931e-002  -1.9741715602e-002  -6.6231466546e-002   5.4768764577e-002  -6.7872797584e-002   5.4039749119e-002  -7.5965502986e-002  -2.5233913562e-002
  7.1000000000e+010   4.6411131282e-002  -2.0943609203e-002  -6.6108045548e-002   5.4861571035e-002  -6.7749256931e-002   5.4135989190e-002  -7.7395172697e-002  -2.1186920723e-002
  7.1020000000e+010   4.5409133266e-002  -2.2124808862e-002  -6.5981890118e-002   5.4955762309e-002  -6.7622908733e-002   5.4233689047e-002  -7.8646341407e-002  -1.7088101607e-002
  7.1040000000e+010   4.4376669837e-002  -2.3284211343e-002  -6.5853006978e-002   5.5051325227e-002  -6.7493759226e-002   5.4332834951e-002  -7.9717163181e-002  -1.2945514635e-002
  7.1060000000e+010   4.3314891490e-002  -2.4420751103e-002  -6.5721402998e-002   5.5148246512e-002  -6.7361814799e-002   5.4433413040e-002  -8.0606145334e-002  -8.7672753835e-003
  7.1080000000e+010   4.2224972820e-002  -2.5533401207e-002  -6.5587085189e-002   5.5246512785e-002  -6.7227081988e-002   5.4535409335e-002  -8.1312150122e-002  -4.5615412119e-003
  7.1100000000e+010   4.1108111062e-002  -2.6621174181e-002  -6.5450060704e-002   5.5346110560e-002  -6.7089567477e-002   5.4638809738e-002  -8.1834395774e-002  -3.3649585477e-004
  7.1120000000e+010   3.9965524610e-002  -2.7683122816e-002  -6.5310336836e-002   5.5447026257e-002  -6.6949278096e-002   5.4743600039e-002  -8.2172456860e-002   3.8996660009e-003
  7.1140000000e+010   3.8798451513e-002  -2.8718340914e-002  -6.5167921018e-002   5.5549246194e-002  -6.6806220819e-002   5.4849765917e-002  -8.2326264002e-002   8.1387541207e-003
  7.1160000000e+010   3.7608147962e-002  -2.9725963982e-002  -6.5022820815e-002   5.5652756595e-002  -6.6660402764e-002   5.4957292940e-002  -8.2296102924e-002   1.2372598083e-002
  7.1180000000e+010   3.6395886758e-002  -3.0705169868e-002  -6.4875043932e-002   5.5757543593e-002  -6.6511831189e-002   5.5066166569e-002  -8.2082612843e-002   1.6593062564e-002
  7.1200000000e+010   3.5162955769e-002  -3.1655179343e-002  -6.4724598203e-002   5.5863593227e-002  -6.6360513493e-002   5.5176372161e-002  -8.1686784212e-002   2.0792062530e-002
  7.1220000000e+010   3.3910656377e-002  -3.2575256624e-002  -6.4571491595e-002   5.5970891450e-002  -6.6206457211e-002   5.5287894972e-002  -8.1109955816e-002   2.4961578288e-002
  7.1240000000e+010   3.2640301918e-002  -3.3464709842e-002  -6.4415732205e-002   5.6079424127e-002  -6.6049670017e-002   5.5400720155e-002  -8.0353811228e-002   2.9093670392e-002
  7.1260000000e+010   3.1353216110e-002  -3.4322891458e-002  -6.4257328257e-002   5.6189177040e-002  -6.5890159717e-002   5.5514832768e-002  -7.9420374632e-002   3.3180494362e-002
  7.1280000000e+010   3.0050731486e-002  -3.5149198610e-002  -6.4096288100e-002   5.6300135886e-002  -6.5727934253e-002   5.5630217770e-002  -7.8312006022e-002   3.7214315194e-002
  7.1300000000e+010   2.8734187814e-002  -3.5943073414e-002  -6.3932620208e-002   5.6412286285e-002  -6.5563001695e-002   5.5746860031e-002  -7.7031395793e-002   4.1187521632e-002
  7.1320000000e+010   2.7404930527e-002  -3.6704003204e-002  -6.3766333177e-002   5.6525613778e-002  -6.5395370246e-002   5.5864744326e-002  -7.5581558722e-002   4.5092640184e-002
  7.1340000000e+010   2.6064309144e-002  -3.7431520717e-002  -6.3597435723e-002   5.6640103828e-002  -6.5225048233e-002   5.5983855343e-002  -7.3965827370e-002   4.8922348843e-002
  7.1360000000e+010   2.4713675706e-002  -3.8125204215e-002  -6.3425936680e-002   5.6755741827e-002  -6.5052044111e-002   5.6104177683e-002  -7.2187844893e-002   5.2669490504e-002
  7.1380000000e+010   2.3354383208e-002  -3.8784677562e-002  -6.3251844998e-002   5.6872513093e-002  -6.4876366460e-002   5.6225695862e-002  -7.0251557304e-002   5.6327086043e-002
  7.1400000000e+010   2.1987784042e-002  -3.9409610230e-002  -6.3075169742e-002   5.6990402875e-002  -6.4698023981e-002   5.6348394313e-002  -6.8161205184e-002   5.9888347034e-002
  7.1420000000e+010   2.0615228449e-002  -3.9999717265e-002  -6.2895920090e-002   5.7109396353e-002  -6.4517025495e-002   5.6472257390e-002  -6.5921314855e-002   6.3346688086e-002
  7.1440000000e+010   1.9238062985e-002  -4.0554759186e-002  -6.2714105328e-002   5.7229478642e-002  -6.4333379941e-002   5.6597269366e-002  -6.3536689052e-002   6.6695738781e-002
  7.1460000000e+010   1.7857628993e-002  -4.1074541834e-002  -6.2529734851e-002   5.7350634791e-002  -6.4147096378e-002   5.6723414441e-002  -6.1012397091e-002   6.9929355174e-002
  7.1480000000e+010   1.6475261100e-002  -4.1558916165e-002  -6.2342818163e-002   5.7472849788e-002  -6.3958183976e-002   5.6850676738e-002  -5.8353764562e-002   7.3041630863e-002
  7.1500000000e+010   1.5092285719e-002  -4.2007777993e-002  -6.2153364870e-002   5.7596108561e-002  -6.3766652020e-002   5.6979040309e-002  -5.5566362566e-002   7.6026907583e-002
  7.1520000000e+010   1.3710019578e-002  -4.2421067675e-002  -6.1961384678e-002   5.7720395978e-002  -6.3572509905e-002   5.7108489134e-002  -5.2655996518e-002   7.8879785319e-002
  7.1540000000e+010   1.2329768267e-002  -4.2798769749e-002  -6.1766887398e-002   5.7845696850e-002  -6.3375767136e-002   5.7239007127e-002  -4.9628694534e-002   8.1595131915e-002
  7.1560000000e+010   1.0952824805e-002  -4.3140912514e-002  -6.1569882934e-002   5.7971995933e-002  -6.3176433322e-002   5.7370578135e-002  -4.6490695425e-002   8.4168092173e-002
  7.1580000000e+010   9.5804682305e-003  -4.3447567569e-002  -6.1370381290e-002   5.8099277931e-002  -6.2974518181e-002   5.7503185938e-002  -4.3248436324e-002   8.6594096401e-002
  7.1600000000e+010   8.2139622225e-003  -4.3718849294e-002  -6.1168392561e-002   5.8227527494e-002  -6.2770031531e-002   5.7636814257e-002  -3.9908539963e-002   8.8868868431e-002
  7.1620000000e+010   6.8545537393e-003  -4.3954914287e-002  -6.0963926936e-002   5.8356729223e-002  -6.2562983294e-002   5.7771446748e-002  -3.6477801630e-002   9.0988433057e-002
  7.1640000000e+010   5.5034716927e-003  -4.4155960752e-002  -6.0756994691e-002   5.8486867672e-002  -6.2353383487e-002   5.7907067012e-002  -3.2963175834e-002   9.2949122902e-002
  7.1660000000e+010   4.1619256487e-003  -4.4322227844e-002  -6.0547606191e-002   5.8617927344e-002  -6.2141242227e-002   5.8043658590e-002  -2.9371762688e-002   9.4747584704e-002
  7.1680000000e+010   2.8311045599e-003  -4.4453994962e-002  -6.0335771885e-002   5.8749892701e-002  -6.1926569725e-002   5.8181204968e-002  -2.5710794054e-002   9.6380784993e-002
  7.1700000000e+010   1.5121755311e-003  -4.4551581007e-002  -6.0121502308e-002   5.8882748160e-002  -6.1709376286e-002   5.8319689578e-002  -2.1987619463e-002   9.7846015163e-002
  7.1720000000e+010   2.0628261749e-004  -4.4615343588e-002  -5.9904808073e-002   5.9016478094e-002  -6.1489672303e-002   5.8459095802e-002  -1.8209691843e-002   9.9140895930e-002
  7.1740000000e+010  -1.0854543405e-003  -4.4645678197e-002  -5.9685699873e-002   5.9151066838e-002  -6.1267468262e-002   5.8599406969e-002  -1.4384553077e-002   1.0026338116e-001
  7.1760000000e+010  -2.3619408474e-003  -4.4643017335e-002  -5.9464188477e-002   5.9286498685e-002  -6.1042774733e-002   5.8740606360e-002  -1.0519819428e-002   1.0121176108e-001
  7.1780000000e+010  -3.6221088439e-003  -4.4607829604e-002  -5.9240284729e-002   5.9422757893e-002  -6.0815602370e-002   5.8882677209e-002  -6.6231668402e-003   1.0198466482e-001
  7.1800000000e+010  -4.8649177605e-003  -4.4540618760e-002  -5.9013999546e-002   5.9559828681e-002  -6.0585961912e-002   5.9025602705e-002  -2.7023161635e-003   1.0258106239e-001
  7.1820000000e+010  -6.0893555308e-003  -4.4441922734e-002  -5.8785343913e-002   5.9697695234e-002  -6.0353864178e-002   5.9169365991e-002   1.2349816843e-003   1.0300026589e-001
  7.1840000000e+010  -7.2944395638e-003  -4.4312312615e-002  -5.8554328886e-002   5.9836341703e-002  -6.0119320065e-002   5.9313950170e-002   5.1809605846e-003   1.0324193022e-001
  7.1860000000e+010  -8.4792176747e-003  -4.4152391598e-002  -5.8320965584e-002   5.9975752207e-002  -5.9882340546e-002   5.9459338303e-002   9.1278540880e-003   1.0330605305e-001
  7.1880000000e+010  -9.6427689733e-003  -4.3962793912e-002  -5.8085265191e-002   6.0115910834e-002  -5.9642936670e-002   5.9605513410e-002   1.3067910260e-002   1.0319297417e-001
  7.1900000000e+010  -1.0784204708e-002  -4.3744183704e-002  -5.7847238952e-002   6.0256801639e-002  -5.9401119558e-002   5.9752458474e-002   1.6993406475e-002   1.0290337422e-001
  7.1920000000e+010  -1.1902669067e-002  -4.3497253905e-002  -5.7606898173e-002   6.0398408652e-002  -5.9156900400e-002   5.9900156442e-002   2.0896664126e-002   1.0243827277e-001
  7.1940000000e+010  -1.2997339932e-002  -4.3222725068e-002  -5.7364254215e-002   6.0540715873e-002  -5.8910290456e-002   6.0048590225e-002   2.4770063239e-002   1.0179902574e-001
  7.1960000000e+010  -1.4067429590e-002  -4.2921344179e-002  -5.7119318494e-002   6.0683707276e-002  -5.8661301050e-002   6.0197742698e-002   2.8606056936e-002   1.0098732224e-001
  7.1980000000e+010  -1.5112185393e-002  -4.2593883447e-002  -5.6872102481e-002   6.0827366810e-002  -5.8409943573e-002   6.0347596707e-002   3.2397185755e-002   1.0000518077e-001
  7.2000000000e+010  -1.6130890380e-002  -4.2241139074e-002  -5.6622617696e-002   6.0971678399e-002  -5.8156229477e-002   6.0498135064e-002   3.6136091771e-002   9.8854944808e-002
  7.2020000000e+010  -1.7122863840e-002  -4.1863930001e-002  -5.6370875708e-002   6.1116625943e-002  -5.7900170273e-002   6.0649340550e-002   3.9815532513e-002   9.7539277765e-002
  7.2040000000e+010  -1.8087461838e-002  -4.1463096643e-002  -5.6116888133e-002   6.1262193321e-002  -5.7641777531e-002   6.0801195919e-002   4.3428394630e-002   9.6061157403e-002
  7.2060000000e+010  -1.9024077687e-002  -4.1039499601e-002  -5.5860666631e-002   6.1408364389e-002  -5.7381062877e-002   6.0953683896e-002   4.6967707311e-002   9.4423869627e-002
  7.2080000000e+010  -1.9932142375e-002  -4.0594018366e-002  -5.5602222904e-002   6.1555122983e-002  -5.7118037991e-002   6.1106787180e-002   5.0426655397e-002   9.2631001725e-002
  7.2100000000e+010  -2.0811124936e-002  -4.0127550006e-002  -5.5341568694e-002   6.1702452919e-002  -5.6852714606e-002   6.1260488443e-002   5.3798592201e-002   9.0686435045e-002
  7.2120000000e+010  -2.1660532787e-002  -3.9641007844e-002  -5.5078715783e-002   6.1850337996e-002  -5.6585104504e-002   6.1414770333e-002   5.7077051971e-002   8.8594337137e-002
  7.2140000000e+010  -2.2479911999e-002  -3.9135320129e-002  -5.4813675988e-002   6.1998761992e-002  -5.6315219514e-002   6.1569615476e-002   6.0255762016e-002   8.6359153354e-002
  7.2160000000e+010  -2.3268847532e-002  -3.8611428695e-002  -5.4546461158e-002   6.2147708670e-002  -5.6043071513e-002   6.1725006474e-002   6.3328654431e-002   8.3985597961e-002
