# Hz S RI R 1.000000
! Metas.Vna.Tools, 2.4.7898.19887
! Metas.Vna.Data, 2.4.7898.19873
! Created: UTC 2021.09.30 14:31:00
! FREQ                re:S1,1             im:S1,1             re:S2,1             im:S2,1             re:S1,2             im:S1,2             re:S2,2             im:S2,2          
  7.0000000000e+010   3.4728884482e-002   3.2057114332e-002   4.2118689885e-001   4.6404136665e-001   4.1898650790e-001   4.7299350127e-001  -2.7905421054e-002  -2.7728106324e-002
  7.0020000000e+010   3.4832689702e-002   3.1020810659e-002   4.2143834489e-001   4.6448449183e-001   4.1923790306e-001   4.7345577074e-001  -2.8562706642e-002  -2.7465883787e-002
  7.0040000000e+010   3.4922740235e-002   2.9969365858e-002   4.2170601344e-001   4.6489861566e-001   4.1950597388e-001   4.7388860590e-001  -2.9204831477e-002  -2.7171308384e-002
  7.0060000000e+010   3.4998695140e-002   2.8903335183e-002   4.2198984596e-001   4.6528363645e-001   4.1979066265e-001   4.7429190090e-001  -2.9830858661e-002  -2.6844609098e-002
  7.0080000000e+010   3.5060224187e-002   2.7823290108e-002   4.2228978057e-001   4.6563945493e-001   4.2009190816e-001   4.7466555229e-001  -3.0439860789e-002  -2.6486055449e-002
  7.0100000000e+010   3.5107008379e-002   2.6729817875e-002   4.2260575200e-001   4.6596597428e-001   4.2040964578e-001   4.7500945911e-001  -3.1030921384e-002  -2.6095957362e-002
  7.0120000000e+010   3.5138740458e-002   2.5623521018e-002   4.2293769166e-001   4.6626310015e-001   4.2074380741e-001   4.7532352287e-001  -3.1603136335e-002  -2.5674664978e-002
  7.0140000000e+010   3.5155125401e-002   2.4505016879e-002   4.2328552762e-001   4.6653074071e-001   4.2109432153e-001   4.7560764762e-001  -3.2155615330e-002  -2.5222568409e-002
  7.0160000000e+010   3.5155880909e-002   2.3374937090e-002   4.2364918467e-001   4.6676880662e-001   4.2146111321e-001   4.7586173995e-001  -3.2687483272e-002  -2.4740097424e-002
  7.0180000000e+010   3.5140737875e-002   2.2233927042e-002   4.2402858429e-001   4.6697721114e-001   4.2184410414e-001   4.7608570900e-001  -3.3197881695e-002  -2.4227721082e-002
  7.0200000000e+010   3.5109440845e-002   2.1082645335e-002   4.2442364472e-001   4.6715587009e-001   4.2224321264e-001   4.7627946655e-001  -3.3685970162e-002  -2.3685947305e-002
  7.0220000000e+010   3.5061748461e-002   1.9921763206e-002   4.2483428094e-001   4.6730470188e-001   4.2265835366e-001   4.7644292697e-001  -3.4150927646e-002  -2.3115322388e-002
  7.0240000000e+010   3.4997433896e-002   1.8751963943e-002   4.2526040471e-001   4.6742362759e-001   4.2308943886e-001   4.7657600732e-001  -3.4591953898e-002  -2.2516430447e-002
  7.0260000000e+010   3.4916285261e-002   1.7573942279e-002   4.2570192459e-001   4.6751257091e-001   4.2353637655e-001   4.7667862730e-001  -3.5008270794e-002  -2.1889892820e-002
  7.0280000000e+010   3.4818106012e-002   1.6388403769e-002   4.2615874595e-001   4.6757145824e-001   4.2399907178e-001   4.7675070934e-001  -3.5399123656e-002  -2.1236367394e-002
  7.0300000000e+010   3.4702715324e-002   1.5196064150e-002   4.2663077102e-001   4.6760021869e-001   4.2447742635e-001   4.7679217859e-001  -3.5763782553e-002  -2.0556547889e-002
  7.0320000000e+010   3.4569948461e-002   1.3997648690e-002   4.2711789890e-001   4.6759878406e-001   4.2497133878e-001   4.7680296293e-001  -3.6101543574e-002  -1.9851163072e-002
  7.0340000000e+010   3.4419657118e-002   1.2793891515e-002   4.2762002555e-001   4.6756708894e-001   4.2548070442e-001   4.7678299306e-001  -3.6411730072e-002  -1.9120975925e-002
  7.0360000000e+010   3.4251709753e-002   1.1585534929e-002   4.2813704389e-001   4.6750507066e-001   4.2600541540e-001   4.7673220244e-001  -3.6693693879e-002  -1.8366782754e-002
  7.0380000000e+010   3.4065991893e-002   1.0373328714e-002   4.2866884375e-001   4.6741266936e-001   4.2654536070e-001   4.7665052735e-001  -3.6946816480e-002  -1.7589412242e-002
  7.0400000000e+010   3.3862406425e-002   9.1580294227e-003   4.2921531194e-001   4.6728982798e-001   4.2710042617e-001   4.7653790694e-001  -3.7170510165e-002  -1.6789724454e-002
  7.0420000000e+010   3.3640873863e-002   7.9403996552e-003   4.2977633227e-001   4.6713649231e-001   4.2767049453e-001   4.7639428319e-001  -3.7364219131e-002  -1.5968609781e-002
  7.0440000000e+010   3.3401332598e-002   6.7212073278e-003   4.3035178558e-001   4.6695261097e-001   4.2825544543e-001   4.7621960099e-001  -3.7527420551e-002  -1.5126987850e-002
  7.0460000000e+010   3.3143739125e-002   5.5012249291e-003   4.3094154974e-001   4.6673813547e-001   4.2885515546e-001   4.7601380812e-001  -3.7659625599e-002  -1.4265806363e-002
  7.0480000000e+010   3.2868068249e-002   4.2812287678e-003   4.3154549971e-001   4.6649302022e-001   4.2946949820e-001   4.7577685529e-001  -3.7760380436e-002  -1.3386039911e-002
  7.0500000000e+010   3.2574313268e-002   3.0619982120e-003   4.3216350757e-001   4.6621722252e-001   4.3009834420e-001   4.7550869614e-001  -3.7829267144e-002  -1.2488688724e-002
  7.0520000000e+010   3.2262486136e-002   1.8443149200e-003   4.3279544253e-001   4.6591070260e-001   4.3074156108e-001   4.7520928730e-001  -3.7865904617e-002  -1.1574777386e-002
  7.0540000000e+010   3.1932617599e-002   6.2896206483e-004   4.3344117097e-001   4.6557342364e-001   4.3139901351e-001   4.7487858834e-001  -3.7869949405e-002  -1.0645353507e-002
  7.0560000000e+010   3.1584757317e-002  -5.8327644718e-004   4.3410055648e-001   4.6520535179e-001   4.3207056323e-001   4.7451656187e-001  -3.7841096503e-002  -9.7014863501e-003
  7.0580000000e+010   3.1218973950e-002  -1.7916167632e-003   4.3477345987e-001   4.6480645617e-001   4.3275606915e-001   4.7412317348e-001  -3.7779080090e-002  -8.7442654254e-003
  7.0600000000e+010   3.0835355233e-002  -2.9952758746e-003   4.3545973923e-001   4.6437670888e-001   4.3345538732e-001   4.7369839182e-001  -3.7683674214e-002  -7.7747990405e-003
  7.0620000000e+010   3.0434008016e-002  -4.1934724107e-003   4.3615924993e-001   4.6391608505e-001   4.3416837097e-001   4.7324218855e-001  -3.7554693423e-002  -6.7942128218e-003
  7.0640000000e+010   3.0015058291e-002  -5.3854274351e-003   4.3687184468e-001   4.6342456281e-001   4.3489487057e-001   4.7275453842e-001  -3.7391993341e-002  -5.8036482002e-003
  7.0660000000e+010   2.9578651185e-002  -6.5703652428e-003   4.3759737357e-001   4.6290212334e-001   4.3563473385e-001   4.7223541926e-001  -3.7195471176e-002  -4.8042608667e-003
  7.0680000000e+010   2.9124950937e-002  -7.7475141583e-003   4.3833568406e-001   4.6234875087e-001   4.3638780583e-001   4.7168481196e-001  -3.6965066186e-002  -3.7972192004e-003
  7.0700000000e+010   2.8654140843e-002  -8.9161073327e-003   4.3908662107e-001   4.6176443268e-001   4.3715392886e-001   4.7110270055e-001  -3.6700760068e-002  -2.7837026692e-003
  7.0720000000e+010   2.8166423184e-002  -1.0075383539e-002   4.3985002697e-001   4.6114915913e-001   4.3793294265e-001   4.7048907214e-001  -3.6402577300e-002  -1.7649002082e-003
  7.0740000000e+010   2.7662019123e-002  -1.1224587964e-002   4.4062574165e-001   4.6050292365e-001   4.3872468433e-001   4.6984391699e-001  -3.6070585408e-002  -7.4200857582e-004
  7.0760000000e+010   2.7141168584e-002  -1.2362973000e-002   4.4141360254e-001   4.5982572280e-001   4.3952898844e-001   4.6916722851e-001  -3.5704895180e-002   2.8376930846e-004
  7.0780000000e+010   2.6604130100e-002  -1.3489799029e-002   4.4221344464e-001   4.5911755619e-001   4.4034568702e-001   4.6845900323e-001  -3.5305660809e-002   1.3112260428e-003
  7.0800000000e+010   2.6051180638e-002  -1.4604335198e-002   4.4302510056e-001   4.5837842660e-001   4.4117460960e-001   4.6771924086e-001  -3.4873079978e-002   2.3391514353e-003
  7.0820000000e+010   2.5482615408e-002  -1.5705860199e-002   4.4384840058e-001   4.5760833988e-001   4.4201558328e-001   4.6694794429e-001  -3.4407393876e-002   3.3663342083e-003
  7.0840000000e+010   2.4898747636e-002  -1.6793663027e-002   4.4468317266e-001   4.5680730506e-001   4.4286843273e-001   4.6614511956e-001  -3.3908887149e-002   4.3915637098e-003
  7.0860000000e+010   2.4299908318e-002  -1.7867043744e-002   4.4552924250e-001   4.5597533426e-001   4.4373298026e-001   4.6531077592e-001  -3.3377887784e-002   5.4136316327e-003
  7.0880000000e+010   2.3686445953e-002  -1.8925314220e-002   4.4638643354e-001   4.5511244279e-001   4.4460904585e-001   4.6444492582e-001  -3.2814766930e-002   6.4313337362e-003
  7.0900000000e+010   2.3058726248e-002  -1.9967798875e-002   4.4725456705e-001   4.5421864907e-001   4.4549644716e-001   4.6354758489e-001  -3.2219938653e-002   7.4434715679e-003
  7.0920000000e+010   2.2417131804e-002  -2.0993835404e-002   4.4813346216e-001   4.5329397471e-001   4.4639499964e-001   4.6261877199e-001  -3.1593859619e-002   8.4488541846e-003
  7.0940000000e+010   2.1762061772e-002  -2.2002775487e-002   4.4902293585e-001   4.5233844445e-001   4.4730451648e-001   4.6165850918e-001  -3.0937028716e-002   9.4462998679e-003
  7.0960000000e+010   2.1093931495e-002  -2.2993985497e-002   4.4992280306e-001   4.5135208621e-001   4.4822480874e-001   4.6066682174e-001  -3.0249986613e-002   1.0434637832e-002
  7.0980000000e+010   2.0413172123e-002  -2.3966847181e-002   4.5083287668e-001   4.5033493109e-001   4.4915568532e-001   4.5964373820e-001  -2.9533315243e-002   1.1412709923e-002
  7.1000000000e+010   1.9720230203e-002  -2.4920758332e-002   4.5175296762e-001   4.4928701333e-001   4.5009695304e-001   4.5858929028e-001  -2.8787637230e-002   1.2379372302e-002
  7.1020000000e+010   1.9015567254e-002  -2.5855133449e-002   4.5268288481e-001   4.4820837038e-001   4.5104841667e-001   4.5750351295e-001  -2.8013615247e-002   1.3333497118e-002
  7.1040000000e+010   1.8299659318e-002  -2.6769404372e-002   4.5362243532e-001   4.4709904284e-001   4.5200987899e-001   4.5638644442e-001  -2.7211951311e-002   1.4273974157e-002
  7.1060000000e+010   1.7572996489e-002  -2.7663020908e-002   4.5457142432e-001   4.4595907450e-001   4.5298114081e-001   4.5523812612e-001  -2.6383386017e-002   1.5199712473e-002
  7.1080000000e+010   1.6836082424e-002  -2.8535451428e-002   4.5552965516e-001   4.4478851230e-001   4.5396200100e-001   4.5405860273e-001  -2.5528697699e-002   1.6109641998e-002
  7.1100000000e+010   1.6089433833e-002  -2.9386183461e-002   4.5649692942e-001   4.4358740639e-001   4.5495225658e-001   4.5284792215e-001  -2.4648701546e-002   1.7002715118e-002
  7.1120000000e+010   1.5333579951e-002  -3.0214724249e-002   4.5747304693e-001   4.4235581008e-001   4.5595170273e-001   4.5160613553e-001  -2.3744248642e-002   1.7877908229e-002
  7.1140000000e+010   1.4569061992e-002  -3.1020601297e-002   4.5845780583e-001   4.4109377984e-001   4.5696013283e-001   4.5033329726e-001  -2.2816224954e-002   1.8734223259e-002
  7.1160000000e+010   1.3796432583e-002  -3.1803362892e-002   4.5945100260e-001   4.3980137532e-001   4.5797733855e-001   4.4902946495e-001  -2.1865550262e-002   1.9570689152e-002
  7.1180000000e+010   1.3016255185e-002  -3.2562578607e-002   4.6045243212e-001   4.3847865935e-001   4.5900310981e-001   4.4769469944e-001  -2.0893177027e-002   2.0386363320e-002
  7.1200000000e+010   1.2229103493e-002  -3.3297839772e-002   4.6146188771e-001   4.3712569791e-001   4.6003723491e-001   4.4632906482e-001  -1.9900089211e-002   2.1180333056e-002
  7.1220000000e+010   1.1435560821e-002  -3.4008759937e-002   4.6247916116e-001   4.3574256013e-001   4.6107950054e-001   4.4493262839e-001  -1.8887301036e-002   2.1951716904e-002
  7.1240000000e+010   1.0636219479e-002  -3.4694975293e-002   4.6350404277e-001   4.3432931831e-001   4.6212969180e-001   4.4350546066e-001  -1.7855855693e-002   2.2699665988e-002
  7.1260000000e+010   9.8316801253e-003  -3.5356145083e-002   4.6453632144e-001   4.3288604788e-001   4.6318759230e-001   4.4204763538e-001  -1.6806824005e-002   2.3423365294e-002
  7.1280000000e+010   9.0225511103e-003  -3.5991951978e-002   4.6557578464e-001   4.3141282745e-001   4.6425298414e-001   4.4055922950e-001  -1.5741303030e-002   2.4122034900e-002
  7.1300000000e+010   8.2094478109e-003  -3.6602102435e-002   4.6662221854e-001   4.2990973871e-001   4.6532564802e-001   4.3904032317e-001  -1.4660414634e-002   2.4794931167e-002
  7.1320000000e+010   7.3929919474e-003  -3.7186327020e-002   4.6767540798e-001   4.2837686651e-001   4.6640536325e-001   4.3749099975e-001  -1.3565303999e-002   2.5441347864e-002
  7.1340000000e+010   6.5738108924e-003  -3.7744380712e-002   4.6873513656e-001   4.2681429882e-001   4.6749190779e-001   4.3591134576e-001  -1.2457138107e-002   2.6060617251e-002
  7.1360000000e+010   5.7525369692e-003  -3.8276043177e-002   4.6980118667e-001   4.2522212671e-001   4.6858505833e-001   4.3430145094e-001  -1.1337104172e-002   2.6652111097e-002
  7.1380000000e+010   4.9298067404e-003  -3.8781119009e-002   4.7087333953e-001   4.2360044434e-001   4.6968459029e-001   4.3266140818e-001  -1.0206408035e-002   2.7215241647e-002
  7.1400000000e+010   4.1062602888e-003  -3.9259437953e-002   4.7195137525e-001   4.2194934898e-001   4.7079027792e-001   4.3099131353e-001  -9.0662725279e-003   2.7749462526e-002
  7.1420000000e+010   3.2825404903e-003  -3.9710855090e-002   4.7303507287e-001   4.2026894096e-001   4.7190189429e-001   4.2929126622e-001  -7.9179358000e-003   2.8254269580e-002
  7.1440000000e+010   2.4592922806e-003  -4.0135251002e-002   4.7412421038e-001   4.1855932369e-001   4.7301921138e-001   4.2756136858e-001  -6.7626496122e-003   2.8729201658e-002
  7.1460000000e+010   1.6371619159e-003  -4.0532531897e-002   4.7521856482e-001   4.1682060361e-001   4.7414200011e-001   4.2580172611e-001  -5.6016776061e-003   2.9173841329e-002
  7.1480000000e+010   8.1679622917e-004  -4.0902629718e-002   4.7631791227e-001   4.1505289025e-001   4.7527003039e-001   4.2401244741e-001  -4.4362935446e-003   2.9587815532e-002
  7.1500000000e+010  -1.1581171156e-006  -4.1245502209e-002   4.7742202793e-001   4.1325629610e-001   4.7640307116e-001   4.2219364418e-001  -3.2677795294e-003   2.9970796161e-002
  7.1520000000e+010  -8.1605538162e-004  -4.1561132963e-002   4.7853068616e-001   4.1143093673e-001   4.7754089044e-001   4.2034543122e-001  -2.0974241987e-003   3.0322500578e-002
  7.1540000000e+010  -1.6272514960e-003  -4.1849531432e-002   4.7964366050e-001   4.0957693066e-001   4.7868325538e-001   4.1846792641e-001  -9.2652090582e-004   3.0642692062e-002
  7.1560000000e+010  -2.4341048181e-003  -4.2110732910e-002   4.8076072375e-001   4.0769439941e-001   4.7982993230e-001   4.1656125068e-001   2.4363411726e-004   3.0931180186e-002
  7.1580000000e+010  -3.2359768844e-003  -4.2344798489e-002   4.8188164801e-001   4.0578346748e-001   4.8098068677e-001   4.1462552803e-001   1.4117436081e-003   3.1187821123e-002
  7.1600000000e+010  -4.0322331621e-003  -4.2551814980e-002   4.8300620471e-001   4.0384426229e-001   4.8213528358e-001   4.1266088547e-001   2.5765111326e-003   3.1412517879e-002
  7.1620000000e+010  -4.8222437985e-003  -4.2731894808e-002   4.8413416466e-001   4.0187691423e-001   4.8329348689e-001   4.1066745304e-001   3.7366429494e-003   3.1605220455e-002
  7.1640000000e+010  -5.6053843677e-003  -4.2885175871e-002   4.8526529809e-001   3.9988155656e-001   4.8445506018e-001   4.0864536376e-001   4.8908498793e-003   3.1765925939e-002
  7.1660000000e+010  -6.3810366130e-003  -4.3011821381e-002   4.8639937473e-001   3.9785832549e-001   4.8561976637e-001   4.0659475366e-001   6.0378491744e-003   3.1894678522e-002
  7.1680000000e+010  -7.1485891842e-003  -4.3112019662e-002   4.8753616380e-001   3.9580736005e-001   4.8678736781e-001   4.0451576170e-001   7.1763663863e-003   3.1991569439e-002
  7.1700000000e+010  -7.9074383691e-003  -4.3185983926e-002   4.8867543411e-001   3.9372880218e-001   4.8795762638e-001   4.0240852980e-001   8.3051372283e-003   3.2056736841e-002
  7.1720000000e+010  -8.6569888182e-003  -4.3233952021e-002   4.8981695406e-001   3.9162279661e-001   4.8913030350e-001   4.0027320279e-001   9.4229094301e-003   3.2090365589e-002
  7.1740000000e+010  -9.3966542609e-003  -4.3256186142e-002   4.9096049173e-001   3.8948949093e-001   4.9030516017e-001   3.9810992842e-001   1.0528444582e-002   3.2092686982e-002
  7.1760000000e+010  -1.0125858213e-002  -4.3252972526e-002   4.9210581487e-001   3.8732903549e-001   4.9148195705e-001   3.9591885730e-001   1.1620519964e-002   3.2063978399e-002
  7.1780000000e+010  -1.0844034675e-002  -4.3224621104e-002   4.9325269100e-001   3.8514158343e-001   4.9266045450e-001   3.9370014292e-001   1.2697930360e-002   3.2004562884e-002
  7.1800000000e+010  -1.1550628817e-002  -4.3171465137e-002   4.9440088741e-001   3.8292729063e-001   4.9384041260e-001   3.9145394160e-001   1.3759489850e-002   3.1914808645e-002
  7.1820000000e+010  -1.2245097659e-002  -4.3093860816e-002   4.9555017124e-001   3.8068631572e-001   4.9502159120e-001   3.8918041247e-001   1.4804033583e-002   3.1795128491e-002
  7.1840000000e+010  -1.2926910726e-002  -4.2992186843e-002   4.9670030951e-001   3.7841881999e-001   4.9620375001e-001   3.8687971746e-001   1.5830419519e-002   3.1645979189e-002
  7.1860000000e+010  -1.3595550704e-002  -4.2866843977e-002   4.9785106915e-001   3.7612496746e-001   4.9738664860e-001   3.8455202126e-001   1.6837530147e-002   3.1467860760e-002
  7.1880000000e+010  -1.4250514069e-002  -4.2718254558e-002   4.9900221707e-001   3.7380492475e-001   4.9857004644e-001   3.8219749131e-001   1.7824274175e-002   3.1261315699e-002
  7.1900000000e+010  -1.4891311711e-002  -4.2546862006e-002   5.0015352019e-001   3.7145886116e-001   4.9975370300e-001   3.7981629777e-001   1.8789588172e-002   3.1026928130e-002
  7.1920000000e+010  -1.5517469534e-002  -4.2353130295e-002   5.0130474546e-001   3.6908694856e-001   5.0093737773e-001   3.7740861348e-001   1.9732438194e-002   3.0765322891e-002
  7.1940000000e+010  -1.6128529044e-002  -4.2137543398e-002   5.0245565998e-001   3.6668936141e-001   5.0212083015e-001   3.7497461397e-001   2.0651821351e-002   3.0477164558e-002
  7.1960000000e+010  -1.6724047916e-002  -4.1900604715e-002   5.0360603094e-001   3.6426627670e-001   5.0330381988e-001   3.7251447739e-001   2.1546767345e-002   3.0163156398e-002
  7.1980000000e+010  -1.7303600544e-002  -4.1642836472e-002   5.0475562575e-001   3.6181787397e-001   5.0448610669e-001   3.7002838452e-001   2.2416339956e-002   2.9824039264e-002
  7.2000000000e+010  -1.7866778574e-002  -4.1364779103e-002   5.0590421203e-001   3.5934433523e-001   5.0566745053e-001   3.6751651872e-001   2.3259638488e-002   2.9460590431e-002
  7.2020000000e+010  -1.8413191411e-002  -4.1066990602e-002   5.0705155768e-001   3.5684584498e-001   5.0684761159e-001   3.6497906591e-001   2.4075799154e-002   2.9073622360e-002
  7.2040000000e+010  -1.8942466709e-002  -4.0750045867e-002   5.0819743090e-001   3.5432259012e-001   5.0802635033e-001   3.6241621453e-001   2.4863996421e-002   2.8663981421e-002
  7.2060000000e+010  -1.9454250842e-002  -4.0414536011e-002   5.0934160026e-001   3.5177475999e-001   5.0920342754e-001   3.5982815554e-001   2.5623444297e-002   2.8232546550e-002
  7.2080000000e+010  -1.9948209347e-002  -4.0061067660e-002   5.1048383472e-001   3.4920254630e-001   5.1037860438e-001   3.5721508235e-001   2.6353397552e-002   2.7780227850e-002
  7.2100000000e+010  -2.0424027348e-002  -3.9690262232e-002   5.1162390367e-001   3.4660614309e-001   5.1155164239e-001   3.5457719083e-001   2.7053152900e-002   2.7307965148e-002
  7.2120000000e+010  -2.0881409957e-002  -3.9302755200e-002   5.1276157700e-001   3.4398574673e-001   5.1272230361e-001   3.5191467925e-001   2.7722050096e-002   2.6816726500e-002
  7.2140000000e+010  -2.1320082647e-002  -3.8899195333e-002   5.1389662509e-001   3.4134155588e-001   5.1389035052e-001   3.4922774826e-001   2.8359472993e-002   2.6307506642e-002
  7.2160000000e+010  -2.1739791607e-002  -3.8480243927e-002   5.1502881891e-001   3.3867377145e-001   5.1505554618e-001   3.4651660086e-001   2.8964850517e-002   2.5781325408e-002
