# Hz S RI R 1.000000
! Metas.Vna.Tools, 2.4.7898.19887
! Metas.Vna.Data, 2.4.7898.19873
! Created: UTC 2021.09.30 14:31:00
! FREQ                re:S1,1             im:S1,1             re:S2,1             im:S2,1             re:S1,2             im:S1,2             re:S2,2             im:S2,2          
  7.0000000000e+010  -4.2979497718e-002  -3.0445271384e-002   3.1782032826e-001   4.3489872510e-002   3.1742155710e-001   5.4788112051e-002  -1.1044287171e-001  -2.0002250783e-001
  7.0020000000e+010  -4.1989398716e-002  -3.0260659289e-002   3.1794289661e-001   4.3562239280e-002   3.1754360557e-001   5.4867786205e-002  -1.1374664738e-001  -1.9920409008e-001
  7.0040000000e+010  -4.0989144618e-002  -3.0094613648e-002   3.1806332009e-001   4.3620473691e-002   3.1766398687e-001   5.4933179734e-002  -1.1700458649e-001  -1.9822506356e-001
  7.0060000000e+010  -3.9979773996e-002  -2.9947106129e-002   3.1818157115e-001   4.3664566131e-002   3.1778267341e-001   5.4984281459e-002  -1.2021196038e-001  -1.9708589583e-001
  7.0080000000e+010  -3.8962325154e-002  -2.9818086276e-002   3.1829762181e-001   4.3694508350e-002   3.1789963708e-001   5.5021081564e-002  -1.2336405736e-001  -1.9578725984e-001
  7.0100000000e+010  -3.7937835147e-002  -2.9707481569e-002   3.1841144359e-001   4.3710293468e-002   3.1801484926e-001   5.5043571599e-002  -1.2645618997e-001  -1.9433003434e-001
  7.0120000000e+010  -3.6907338816e-002  -2.9615197492e-002   3.1852300759e-001   4.3711915973e-002   3.1812828082e-001   5.5051744475e-002  -1.2948370237e-001  -1.9271530390e-001
  7.0140000000e+010  -3.5871867808e-002  -2.9541117641e-002   3.1863228447e-001   4.3699371721e-002   3.1823990214e-001   5.5045594474e-002  -1.3244197769e-001  -1.9094435868e-001
  7.0160000000e+010  -3.4832449609e-002  -2.9485103848e-002   3.1873924445e-001   4.3672657940e-002   3.1834968310e-001   5.5025117241e-002  -1.3532644533e-001  -1.8901869387e-001
  7.0180000000e+010  -3.3790106579e-002  -2.9446996341e-002   3.1884385732e-001   4.3631773227e-002   3.1845759313e-001   5.4990309793e-002  -1.3813258838e-001  -1.8694000883e-001
  7.0200000000e+010  -3.2745854988e-002  -2.9426613914e-002   3.1894609246e-001   4.3576717549e-002   3.1856360115e-001   5.4941170513e-002  -1.4085595093e-001  -1.8471020587e-001
  7.0220000000e+010  -3.1700704063e-002  -2.9423754142e-002   3.1904591887e-001   4.3507492243e-002   3.1866767564e-001   5.4877699154e-002  -1.4349214532e-001  -1.8233138874e-001
  7.0240000000e+010  -3.0655655039e-002  -2.9438193609e-002   3.1914330511e-001   4.3424100020e-002   3.1876978462e-001   5.4799896839e-002  -1.4603685946e-001  -1.7980586086e-001
  7.0260000000e+010  -2.9611700217e-002  -2.9469688164e-002   3.1923821938e-001   4.3326544956e-002   3.1886989568e-001   5.4707766058e-002  -1.4848586396e-001  -1.7713612314e-001
  7.0280000000e+010  -2.8569822032e-002  -2.9517973205e-002   3.1933062948e-001   4.3214832498e-002   3.1896797596e-001   5.4601310671e-002  -1.5083501929e-001  -1.7432487159e-001
  7.0300000000e+010  -2.7530992134e-002  -2.9582763987e-002   3.1942050287e-001   4.3088969462e-002   3.1906399217e-001   5.4480535906e-002  -1.5308028284e-001  -1.7137499450e-001
  7.0320000000e+010  -2.6496170475e-002  -2.9663755952e-002   3.1950780661e-001   4.2948964029e-002   3.1915791061e-001   5.4345448357e-002  -1.5521771579e-001  -1.6828956943e-001
  7.0340000000e+010  -2.5466304414e-002  -2.9760625092e-002   3.1959250743e-001   4.2794825747e-002   3.1924969717e-001   5.4196055984e-002  -1.5724349004e-001  -1.6507185982e-001
  7.0360000000e+010  -2.4442327829e-002  -2.9873028326e-002   3.1967457171e-001   4.2626565528e-002   3.1933931734e-001   5.4032368115e-002  -1.5915389486e-001  -1.6172531133e-001
  7.0380000000e+010  -2.3425160250e-002  -3.0000603908e-002   3.1975396550e-001   4.2444195643e-002   3.1942673622e-001   5.3854395437e-002  -1.6094534354e-001  -1.5825354788e-001
  7.0400000000e+010  -2.2415706000e-002  -3.0142971858e-002   3.1983065452e-001   4.2247729727e-002   3.1951191852e-001   5.3662150001e-002  -1.6261437980e-001  -1.5466036737e-001
  7.0420000000e+010  -2.1414853362e-002  -3.0299734414e-002   3.1990460416e-001   4.2037182771e-002   3.1959482860e-001   5.3455645217e-002  -1.6415768409e-001  -1.5094973715e-001
  7.0440000000e+010  -2.0423473752e-002  -3.0470476508e-002   3.1997577952e-001   4.1812571120e-002   3.1967543043e-001   5.3234895853e-002  -1.6557207973e-001  -1.4712578919e-001
  7.0460000000e+010  -1.9442420920e-002  -3.0654766263e-002   3.2004414539e-001   4.1573912473e-002   3.1975368765e-001   5.2999918030e-002  -1.6685453886e-001  -1.4319281493e-001
  7.0480000000e+010  -1.8472530166e-002  -3.0852155517e-002   3.2010966629e-001   4.1321225878e-002   3.1982956353e-001   5.2750729225e-002  -1.6800218823e-001  -1.3915525998e-001
  7.0500000000e+010  -1.7514617575e-002  -3.1062180364e-002   3.2017230642e-001   4.1054531729e-002   3.1990302104e-001   5.2487348262e-002  -1.6901231472e-001  -1.3501771839e-001
  7.0520000000e+010  -1.6569479279e-002  -3.1284361712e-002   3.2023202975e-001   4.0773851762e-002   3.1997402280e-001   5.2209795312e-002  -1.6988237071e-001  -1.3078492682e-001
  7.0540000000e+010  -1.5637890733e-002  -3.1518205872e-002   3.2028879997e-001   4.0479209054e-002   3.2004253112e-001   5.1918091888e-002  -1.7060997927e-001  -1.2646175834e-001
  7.0560000000e+010  -1.4720606020e-002  -3.1763205155e-002   3.2034258051e-001   4.0170628016e-002   3.2010850800e-001   5.1612260846e-002  -1.7119293899e-001  -1.2205321608e-001
  7.0580000000e+010  -1.3818357181e-002  -3.2018838496e-002   3.2039333458e-001   3.9848134390e-002   3.2017191515e-001   5.1292326375e-002  -1.7162922870e-001  -1.1756442656e-001
  7.0600000000e+010  -1.2931853560e-002  -3.2284572094e-002   3.2044102512e-001   3.9511755247e-002   3.2023271400e-001   5.0958313998e-002  -1.7191701190e-001  -1.1300063290e-001
  7.0620000000e+010  -1.2061781189e-002  -3.2559860064e-002   3.2048561489e-001   3.9161518979e-002   3.2029086568e-001   5.0610250563e-002  -1.7205464089e-001  -1.0836718776e-001
  7.0640000000e+010  -1.1208802188e-002  -3.2844145117e-002   3.2052706639e-001   3.8797455296e-002   3.2034633107e-001   5.0248164246e-002  -1.7204066067e-001  -1.0366954601e-001
  7.0660000000e+010  -1.0373554195e-002  -3.3136859244e-002   3.2056534194e-001   3.8419595221e-002   3.2039907080e-001   4.9872084537e-002  -1.7187381258e-001  -9.8913257392e-002
  7.0680000000e+010  -9.5566498266e-003  -3.3437424423e-002   3.2060040367e-001   3.8027971084e-002   3.2044904522e-001   4.9482042245e-002  -1.7155303765e-001  -9.4103958784e-002
  7.0700000000e+010  -8.7586761649e-003  -3.3745253334e-002   3.2063221350e-001   3.7622616519e-002   3.2049621447e-001   4.9078069485e-002  -1.7107747963e-001  -8.9247366459e-002
  7.0720000000e+010  -7.9801942723e-003  -3.4059750098e-002   3.2066073318e-001   3.7203566457e-002   3.2054053845e-001   4.8660199676e-002  -1.7044648772e-001  -8.4349268107e-002
  7.0740000000e+010  -7.2217387384e-003  -3.4380311015e-002   3.2068592429e-001   3.6770857118e-002   3.2058197683e-001   4.8228467538e-002  -1.6965961910e-001  -7.9415514723e-002
  7.0760000000e+010  -6.4838172563e-003  -3.4706325322e-002   3.2070774827e-001   3.6324526009e-002   3.2062048909e-001   4.7782909081e-002  -1.6871664098e-001  -7.4452012366e-002
  7.0780000000e+010  -5.7669102296e-003  -3.5037175961e-002   3.2072616638e-001   3.5864611916e-002   3.2065603450e-001   4.7323561605e-002  -1.6761753250e-001  -6.9464713799e-002
  7.0800000000e+010  -5.0714704108e-003  -3.5372240355e-002   3.2074113975e-001   3.5391154898e-002   3.2068857214e-001   4.6850463688e-002  -1.6636248616e-001  -6.4459610009e-002
  7.0820000000e+010  -4.3979225723e-003  -3.5710891191e-002   3.2075262939e-001   3.4904196278e-002   3.2071806090e-001   4.6363655185e-002  -1.6495190910e-001  -5.9442721639e-002
  7.0840000000e+010  -3.7466632086e-003  -3.6052497218e-002   3.2076059617e-001   3.4403778642e-002   3.2074445951e-001   4.5863177220e-002  -1.6338642386e-001  -5.4420090330e-002
  7.0860000000e+010  -3.1180602722e-003  -3.6396424042e-002   3.2076500086e-001   3.3889945826e-002   3.2076772652e-001   4.5349072177e-002  -1.6166686895e-001  -4.9397770002e-002
  7.0880000000e+010  -2.5124529420e-003  -3.6742034934e-002   3.2076580411e-001   3.3362742912e-002   3.2078782036e-001   4.4821383695e-002  -1.5979429902e-001  -4.4381818073e-002
  7.0900000000e+010  -1.9301514256e-003  -3.7088691640e-002   3.2076296650e-001   3.2822216220e-002   3.2080469927e-001   4.4280156664e-002  -1.5776998472e-001  -3.9378286632e-002
  7.0920000000e+010  -1.3714367946e-003  -3.7435755195e-002   3.2075644850e-001   3.2268413301e-002   3.2081832141e-001   4.3725437211e-002  -1.5559541218e-001  -3.4393213592e-002
  7.0940000000e+010  -8.3656085458e-004  -3.7782586740e-002   3.2074621051e-001   3.1701382929e-002   3.2082864477e-001   4.3157272699e-002  -1.5327228222e-001  -2.9432613822e-002
  7.0960000000e+010  -3.2574604858e-004  -3.8128548340e-002   3.2073221286e-001   3.1121175092e-002   3.2083562724e-001   4.2575711716e-002  -1.5080250913e-001  -2.4502470286e-002
  7.0980000000e+010   1.6081460479e-004  -3.8473003804e-002   3.2071441584e-001   3.0527840985e-002   3.2083922662e-001   4.1980804069e-002  -1.4818821917e-001  -1.9608725185e-002
  7.1000000000e+010   6.2295753894e-004  -3.8815319499e-002   3.2069277966e-001   2.9921433005e-002   3.2083940059e-001   4.1372600773e-002  -1.4543174872e-001  -1.4757271137e-002
  7.1020000000e+010   1.0605486326e-003  -3.9154865174e-002   3.2066726450e-001   2.9302004734e-002   3.2083610676e-001   4.0751154049e-002  -1.4253564205e-001  -9.9539423955e-003
  7.1040000000e+010   1.4734831686e-003  -3.9491014767e-002   3.2063783052e-001   2.8669610940e-002   3.2082930265e-001   4.0116517308e-002  -1.3950264882e-001  -5.2045061268e-003
  7.1060000000e+010   1.8616857581e-003  -3.9823147220e-002   3.2060443784e-001   2.8024307562e-002   3.2081894571e-001   3.9468745149e-002  -1.3633572118e-001  -5.1465375552e-004
  7.1080000000e+010   2.2251102304e-003  -4.0150647280e-002   3.2056704658e-001   2.7366151703e-002   3.2080499335e-001   3.8807893347e-002  -1.3303801054e-001   4.1100076016e-003
  7.1100000000e+010   2.5637394890e-003  -4.0472906303e-002   3.2052561684e-001   2.6695201624e-002   3.2078740291e-001   3.8134018844e-002  -1.2961286405e-001   8.6639636035e-003
  7.1120000000e+010   2.8775853331e-003  -4.0789323041e-002   3.2048010873e-001   2.6011516726e-002   3.2076613169e-001   3.7447179742e-002  -1.2606382075e-001   1.3141801038e-002
  7.1140000000e+010   3.1666882453e-003  -4.1099304432e-002   3.2043048236e-001   2.5315157553e-002   3.2074113697e-001   3.6747435293e-002  -1.2239460730e-001   1.7538216050e-002
  7.1160000000e+010   3.4311171456e-003  -4.1402266370e-002   3.2037669788e-001   2.4606185770e-002   3.2071237600e-001   3.6034845890e-002  -1.1860913355e-001   2.1848022221e-002
  7.1180000000e+010   3.6709691125e-003  -4.1697634472e-002   3.2031871545e-001   2.3884664163e-002   3.2067980600e-001   3.5309473056e-002  -1.1471148767e-001   2.6066158504e-002
  7.1200000000e+010   3.8863690706e-003  -4.1984844829e-002   3.2025649527e-001   2.3150656623e-002   3.2064338422e-001   3.4571379436e-002  -1.1070593100e-001   3.0187696983e-002
  7.1220000000e+010   4.0774694456e-003  -4.2263344752e-002   3.2018999759e-001   2.2404228140e-002   3.2060306788e-001   3.3820628788e-002  -1.0659689266e-001   3.4207850447e-002
  7.1240000000e+010   4.2444497877e-003  -4.2532593493e-002   3.2011918270e-001   2.1645444789e-002   3.2055881422e-001   3.3057285971e-002  -1.0238896381e-001   3.8121979780e-002
  7.1260000000e+010   4.3875163622e-003  -4.2792062964e-002   3.2004401097e-001   2.0874373723e-002   3.2051058052e-001   3.2281416936e-002  -9.8086891608e-002   4.1925601133e-002
  7.1280000000e+010   4.5069017103e-003  -4.3041238431e-002   3.1996444282e-001   2.0091083160e-002   3.2045832405e-001   3.1493088715e-002  -9.3695572949e-002   4.5614392881e-002
  7.1300000000e+010   4.6028641777e-003  -4.3279619195e-002   3.1988043876e-001   1.9295642376e-002   3.2040200216e-001   3.0692369413e-002  -8.9220047903e-002   4.9184202347e-002
  7.1320000000e+010   4.6756874145e-003  -4.3506719260e-002   3.1979195938e-001   1.8488121690e-002   3.2034157222e-001   2.9879328194e-002  -8.4665492891e-002   5.2631052283e-002
  7.1340000000e+010   4.7256798444e-003  -4.3722067975e-002   3.1969896535e-001   1.7668592455e-002   3.2027699165e-001   2.9054035275e-002  -8.0037213622e-002   5.5951147089e-002
  7.1360000000e+010   4.7531741064e-003  -4.3925210661e-002   3.1960141746e-001   1.6837127048e-002   3.2020821795e-001   2.8216561909e-002  -7.5340637783e-002   5.9140878776e-002
  7.1380000000e+010   4.7585264677e-003  -4.4115709217e-002   3.1949927660e-001   1.5993798857e-002   3.2013520869e-001   2.7366980381e-002  -7.0581307508e-002   6.2196832641e-002
  7.1400000000e+010   4.7421162089e-003  -4.4293142708e-002   3.1939250377e-001   1.5138682272e-002   3.2005792151e-001   2.6505363992e-002  -6.5764871622e-002   6.5115792664e-002
  7.1420000000e+010   4.7043449841e-003  -4.4457107925e-002   3.1928106010e-001   1.4271852671e-002   3.1997631412e-001   2.5631787050e-002  -6.0897077679e-002   6.7894746599e-002
  7.1440000000e+010   4.6456361539e-003  -4.4607219926e-002   3.1916490685e-001   1.3393386411e-002   3.1989034437e-001   2.4746324858e-002  -5.5983763813e-002   7.0530890760e-002
  7.1460000000e+010   4.5664340941e-003  -4.4743112554e-002   3.1904400541e-001   1.2503360816e-002   3.1979997016e-001   2.3849053705e-002  -5.1030850403e-002   7.3021634499e-002
  7.1480000000e+010   4.4672034813e-003  -4.4864438932e-002   3.1891831732e-001   1.1601854161e-002   3.1970514955e-001   2.2940050849e-002  -4.6044331559e-002   7.5364604349e-002
  7.1500000000e+010   4.3484285536e-003  -4.4970871927e-002   3.1878780427e-001   1.0688945669e-002   3.1960584067e-001   2.2019394513e-002  -4.1030266472e-002   7.7557647840e-002
  7.1520000000e+010   4.2106123518e-003  -4.5062104592e-002   3.1865242812e-001   9.7647154902e-003   3.1950200181e-001   2.1087163866e-002  -3.5994770600e-002   7.9598836976e-002
  7.1540000000e+010   4.0542759370e-003  -4.5137850586e-002   3.1851215087e-001   8.8292446950e-003   3.1939359139e-001   2.0143439016e-002  -3.0944006740e-002   8.1486471363e-002
  7.1560000000e+010   3.8799575904e-003  -4.5197844560e-002   3.1836693471e-001   7.8826152609e-003   3.1928056795e-001   1.9188300998e-002  -2.5884175975e-002   8.3219080986e-002
  7.1580000000e+010   3.6882119927e-003  -4.5241842515e-002   3.1821674202e-001   6.9249100596e-003   3.1916289019e-001   1.8221831757e-002  -2.0821508525e-002   8.4795428626e-002
  7.1600000000e+010   3.4796093861e-003  -4.5269622142e-002   3.1806153534e-001   5.9562128455e-003   3.1904051697e-001   1.7244114144e-002  -1.5762254508e-002   8.6214511916e-002
  7.1620000000e+010   3.2547347202e-003  -4.5280983119e-002   3.1790127741e-001   4.9766082430e-003   3.1891340730e-001   1.6255231897e-002  -1.0712674633e-002   8.7475565025e-002
  7.1640000000e+010   3.0141867808e-003  -4.5275747391e-002   3.1773593119e-001   3.9861817340e-003   3.1878152037e-001   1.5255269630e-002  -5.6790308294e-003   8.8578059972e-002
  7.1660000000e+010   2.7585773059e-003  -4.5253759412e-002   3.1756545981e-001   2.9850196455e-003   3.1864481553e-001   1.4244312825e-002  -6.6757684181e-004   8.9521707565e-002
  7.1680000000e+010   2.4885300869e-003  -4.5214886361e-002   3.1738982664e-001   1.9732091372e-003   3.1850325234e-001   1.3222447814e-002   4.3154512098e-003   9.0306457956e-002
  7.1700000000e+010   2.2046800590e-003  -4.5159018327e-002   3.1720899524e-001   9.5083818826e-004   3.1835679053e-001   1.2189761770e-002   9.2638442761e-003   9.0932500826e-002
  7.1720000000e+010   1.9076723797e-003  -4.5086068465e-002   3.1702292943e-001  -8.2004414876e-005   3.1820539001e-001   1.1146342694e-002   1.4171429824e-002   9.1400265177e-002
  7.1740000000e+010   1.5981614982e-003  -4.4995973115e-002   3.1683159323e-001  -1.1252290915e-003   3.1804901093e-001   1.0092279400e-002   1.9032081261e-002   9.1710418744e-002
  7.1760000000e+010   1.2768102162e-003  -4.4888691895e-002   3.1663495090e-001  -2.1787454797e-003   3.1788761361e-001   9.0276615047e-003   2.3839727327e-002   9.1863867031e-002
  7.1780000000e+010   9.4428874121e-004  -4.4764207762e-002   3.1643296693e-001  -3.2424624488e-003   3.1772115862e-001   7.9525794153e-003   2.8588361435e-002   9.1861751952e-002
  7.1800000000e+010   6.0127373488e-004  -4.4622527040e-002   3.1622560609e-001  -4.3162881129e-003   3.1754960673e-001   6.8671243142e-003   3.3272050949e-002   9.1705450103e-002
  7.1820000000e+010   2.4844735555e-004  -4.4463679415e-002   3.1601283336e-001  -5.4001298435e-003   3.1737291895e-001   5.7713881478e-003   3.7884946371e-002   9.1396570638e-002
  7.1840000000e+010  -1.1350370178e-004  -4.4287717902e-002   3.1579461401e-001  -6.4938942827e-003   3.1719105649e-001   4.6654636130e-003   4.2421290449e-002   9.0936952788e-002
  7.1860000000e+010  -4.8388916785e-004  -4.4094718778e-002   3.1557091355e-001  -7.5974873565e-003   3.1700398085e-001   3.5494441445e-003   4.6875427157e-002   9.0328662985e-002
  7.1880000000e+010  -8.6201616221e-004  -4.3884781479e-002   3.1534169776e-001  -8.7108142877e-003   3.1681165373e-001   2.4234239016e-003   5.1241810556e-002   8.9573991626e-002
  7.1900000000e+010  -1.2471901558e-003  -4.3658028475e-002   3.1510693271e-001  -9.8337796093e-003   3.1661403711e-001   1.2874977552e-003   5.5515013513e-002   8.8675449471e-002
  7.1920000000e+010  -1.6387159318e-003  -4.3414605104e-002   3.1486658471e-001  -1.0966287177e-002   3.1641109320e-001   1.4176127449e-004   5.9689736260e-002   8.7635763670e-002
  7.1940000000e+010  -2.0358985431e-003  -4.3154679378e-002   3.1462062039e-001  -1.2108240185e-002   3.1620278451e-001  -1.0136892859e-003   6.3760814785e-002   8.6457873444e-002
  7.1960000000e+010  -2.4380442659e-003  -4.2878441760e-002   3.1436900664e-001  -1.3259541175e-002   3.1598907376e-001  -2.1787569991e-003   6.7723229038e-002   8.5144925408e-002
  7.1980000000e+010  -2.8444615469e-003  -4.2586104905e-002   3.1411171065e-001  -1.4420092054e-002   3.1576992400e-001  -3.3533442796e-003   7.1572110929e-002   8.3700268556e-002
  7.2000000000e+010  -3.2544619443e-003  -4.2277903376e-002   3.1384869991e-001  -1.5589794104e-002   3.1554529851e-001  -4.5373528961e-003   7.5302752124e-002   8.2127448903e-002
  7.2020000000e+010  -3.6673610600e-003  -4.1954093325e-002   3.1357994220e-001  -1.6768547998e-002   3.1531516088e-001  -5.7306839847e-003   7.8910611603e-002   8.0430203807e-002
  7.2040000000e+010  -4.0824794626e-003  -4.1614952144e-002   3.1330540561e-001  -1.7956253811e-002   3.1507947498e-001  -6.9332380627e-003   8.2391322985e-002   7.8612455963e-002
  7.2060000000e+010  -4.4991435997e-003  -4.1260778091e-002   3.1302505852e-001  -1.9152811037e-002   3.1483820496e-001  -8.1449150412e-003   8.5740701592e-002   7.6678307095e-002
  7.2080000000e+010  -4.9166866981e-003  -4.0891889881e-002   3.1273886964e-001  -2.0358118598e-002   3.1459131527e-001  -9.3656142390e-003   8.8954751254e-002   7.4632031337e-002
  7.2100000000e+010  -5.3344496507e-003  -4.0508626255e-002   3.1244680799e-001  -2.1572074860e-002   3.1433877068e-001  -1.0595234395e-002   9.2029670829e-002   7.2478068334e-002
  7.2120000000e+010  -5.7517818899e-003  -4.0111345511e-002   3.1214884292e-001  -2.2794577647e-002   3.1408053623e-001  -1.1833673684e-002   9.4961860438e-002   7.0221016053e-002
  7.2140000000e+010  -6.1680422441e-003  -3.9700425020e-002   3.1184494406e-001  -2.4025524251e-002   3.1381657729e-001  -1.3080829726e-002   9.7747927394e-002   6.7865623333e-002
  7.2160000000e+010  -6.5825997787e-003  -3.9276260705e-002   3.1153508143e-001  -2.5264811450e-002   3.1354685955e-001  -1.4336599602e-002   1.0038469182e-001   6.5416782172e-002
