# Hz S RI R 1.000000
! Metas.Vna.Tools, 2.4.7898.19887
! Metas.Vna.Data, 2.4.7898.19873
! Created: UTC 2021.09.30 14:30:59
! FREQ                re:S1,1             im:S1,1             re:S2,1             im:S2,1             re:S1,2             im:S1,2             re:S2,2             im:S2,2          
  7.0000000000e+010  -4.6030785289e-002  -2.3827630291e-002   1.0682086880e-001  -3.0567517606e-002   1.0767524600e-001  -2.8548662701e-002   9.1681659518e-002  -5.2850591316e-002
  7.0020000000e+010  -4.5656516122e-002  -2.2878709190e-002   1.0683676680e-001  -3.0543733788e-002   1.0769088497e-001  -2.8523028793e-002   8.8472992920e-002  -5.6352588539e-002
  7.0040000000e+010  -4.5237017253e-002  -2.1951504623e-002   1.0685083292e-001  -3.0523647164e-002   1.0770477961e-001  -2.8501127290e-002   8.5125500671e-002  -5.9693010461e-002
  7.0060000000e+010  -4.4773583785e-002  -2.1047221481e-002   1.0686306637e-001  -3.0507259738e-002   1.0771692914e-001  -2.8482960621e-002   8.1646597252e-002  -6.2866645594e-002
  7.0080000000e+010  -4.4267554216e-002  -2.0167014631e-002   1.0687346628e-001  -3.0494573207e-002   1.0772733273e-001  -2.8468530909e-002   7.8043895023e-002  -6.5868615079e-002
  7.0100000000e+010  -4.3720308162e-002  -1.9311987669e-002   1.0688203171e-001  -3.0485588967e-002   1.0773598944e-001  -2.8457839975e-002   7.4325189627e-002  -6.8694380080e-002
  7.0120000000e+010  -4.3133264036e-002  -1.8483191744e-002   1.0688876164e-001  -3.0480308105e-002   1.0774289828e-001  -2.8450889338e-002   7.0498445111e-002  -7.1339748533e-002
  7.0140000000e+010  -4.2507876697e-002  -1.7681624491e-002   1.0689365501e-001  -3.0478731407e-002   1.0774805813e-001  -2.8447680216e-002   6.6571778802e-002  -7.3800881254e-002
  7.0160000000e+010  -4.1845635064e-002  -1.6908229037e-002   1.0689671065e-001  -3.0480859357e-002   1.0775146782e-001  -2.8448213522e-002   6.2553445957e-002  -7.6074297397e-002
  7.0180000000e+010  -4.1148059701e-002  -1.6163893110e-002   1.0689792733e-001  -3.0486692134e-002   1.0775312607e-001  -2.8452489870e-002   5.8451824224e-002  -7.8156879249e-002
  7.0200000000e+010  -4.0416700377e-002  -1.5449448229e-002   1.0689730375e-001  -3.0496229616e-002   1.0775303153e-001  -2.8460509574e-002   5.4275397930e-002  -8.0045876360e-002
  7.0220000000e+010  -3.9653133606e-002  -1.4765668997e-002   1.0689483854e-001  -3.0509471379e-002   1.0775118276e-001  -2.8472272644e-002   5.0032742234e-002  -8.1738908994e-002
  7.0240000000e+010  -3.8858960169e-002  -1.4113272475e-002   1.0689053026e-001  -3.0526416698e-002   1.0774757822e-001  -2.8487778792e-002   4.5732507178e-002  -8.3233970913e-002
  7.0260000000e+010  -3.8035802624e-002  -1.3492917658e-002   1.0688437739e-001  -3.0547064547e-002   1.0774221631e-001  -2.8507027432e-002   4.1383401646e-002  -8.4529431467e-002
  7.0280000000e+010  -3.7185302801e-002  -1.2905205036e-002   1.0687637833e-001  -3.0571413602e-002   1.0773509532e-001  -2.8530017676e-002   3.6994177280e-002  -8.5624037016e-002
  7.0300000000e+010  -3.6309119299e-002  -1.2350676255e-002   1.0686653144e-001  -3.0599462237e-002   1.0772621348e-001  -2.8556748338e-002   3.2573612370e-002  -8.6516911657e-002
  7.0320000000e+010  -3.5408924972e-002  -1.1829813864e-002   1.0685483498e-001  -3.0631208529e-002   1.0771556891e-001  -2.8587217935e-002   2.8130495753e-002  -8.7207557269e-002
  7.0340000000e+010  -3.4486404425e-002  -1.1343041159e-002   1.0684128714e-001  -3.0666650258e-002   1.0770315966e-001  -2.8621424686e-002   2.3673610742e-002  -8.7695852889e-002
  7.0360000000e+010  -3.3543251506e-002  -1.0890722113e-002   1.0682588605e-001  -3.0705784904e-002   1.0768898369e-001  -2.8659366512e-002   1.9211719128e-002  -8.7982053391e-002
  7.0380000000e+010  -3.2581166816e-002  -1.0473161406e-002   1.0680862975e-001  -3.0748609653e-002   1.0767303887e-001  -2.8701041041e-002   1.4753545262e-002  -8.8066787506e-002
  7.0400000000e+010  -3.1601855221e-002  -1.0090604534e-002   1.0678951624e-001  -3.0795121394e-002   1.0765532299e-001  -2.8746445600e-002   1.0307760270e-002  -8.7951055167e-002
  7.0420000000e+010  -3.0607023392e-002  -9.7432380180e-003   1.0676854341e-001  -3.0845316721e-002   1.0763583376e-001  -2.8795577227e-002   5.8829664057e-003  -8.7636224188e-002
  7.0440000000e+010  -2.9598377350e-002  -9.4311896952e-003   1.0674570911e-001  -3.0899191933e-002   1.0761456879e-001  -2.8848432659e-002   1.4876815908e-003  -8.7124026296e-002
  7.0460000000e+010  -2.8577620048e-002  -9.1545290987e-003   1.0672101109e-001  -3.0956743037e-002   1.0759152562e-001  -2.8905008346e-002  -2.8696758520e-003  -8.6416552509e-002
  7.0480000000e+010  -2.7546448970e-002  -8.9132679252e-003   1.0669444706e-001  -3.1017965747e-002   1.0756670170e-001  -2.8965300439e-002  -7.1808022284e-003  -8.5516247885e-002
  7.0500000000e+010  -2.6506553764e-002  -8.7073605854e-003   1.0666601464e-001  -3.1082855483e-002   1.0754009439e-001  -2.9029304800e-002  -1.1437523247e-002  -8.4425905640e-002
  7.0520000000e+010  -2.5459613902e-002  -8.5367048389e-003   1.0663571138e-001  -3.1151407378e-002   1.0751170098e-001  -2.9097017000e-002  -1.5631808513e-002  -8.3148660656e-002
  7.0540000000e+010  -2.4407296386e-002  -8.4011425101e-003   1.0660353476e-001  -3.1223616270e-002   1.0748151865e-001  -2.9168432316e-002  -1.9755785707e-002  -8.1687982388e-002
  7.0560000000e+010  -2.3351253483e-002  -8.3004602844e-003   1.0656948219e-001  -3.1299476712e-002   1.0744954453e-001  -2.9243545738e-002  -2.3801754442e-002  -8.0047667187e-002
  7.0580000000e+010  -2.2293120509e-002  -8.2343905824e-003   1.0653355101e-001  -3.1378982965e-002   1.0741577565e-001  -2.9322351964e-002  -2.7762199748e-002  -7.8231830051e-002
  7.0600000000e+010  -2.1234513655e-002  -8.2026125100e-003   1.0649573850e-001  -3.1462129005e-002   1.0738020893e-001  -2.9404845405e-002  -3.1629805194e-002  -7.6244895823e-002
  7.0620000000e+010  -2.0177027864e-002  -8.2047528834e-003   1.0645604184e-001  -3.1548908521e-002   1.0734284126e-001  -2.9491020185e-002  -3.5397465591e-002  -7.4091589852e-002
  7.0640000000e+010  -1.9122234752e-002  -8.2403873248e-003   1.0641445818e-001  -3.1639314914e-002   1.0730366941e-001  -2.9580870138e-002  -3.9058299276e-002  -7.1776928137e-002
  7.0660000000e+010  -1.8071680593e-002  -8.3090414293e-003   1.0637098457e-001  -3.1733341304e-002   1.0726269006e-001  -2.9674388816e-002  -4.2605659954e-002  -6.9306206967e-002
  7.0680000000e+010  -1.7026884352e-002  -8.4101919977e-003   1.0632561799e-001  -3.1830980523e-002   1.0721989984e-001  -2.9771569482e-002  -4.6033148064e-002  -6.6684992089e-002
  7.0700000000e+010  -1.5989335778e-002  -8.5432683356e-003   1.0627835538e-001  -3.1932225125e-002   1.0717529528e-001  -2.9872405117e-002  -4.9334621668e-002  -6.3919107406e-002
  7.0720000000e+010  -1.4960493562e-002  -8.7076536141e-003   1.0622919358e-001  -3.2037067378e-002   1.0712887283e-001  -2.9976888417e-002  -5.2504206830e-002  -6.1014623253e-002
  7.0740000000e+010  -1.3941783551e-002  -8.9026862907e-003   1.0617812937e-001  -3.2145499271e-002   1.0708062884e-001  -3.0085011797e-002  -5.5536307471e-002  -5.7977844244e-002
  7.0760000000e+010  -1.2934597038e-002  -9.1276615875e-003   1.0612515947e-001  -3.2257512513e-002   1.0703055961e-001  -3.0196767389e-002  -5.8425614695e-002  -5.4815296733e-002
  7.0780000000e+010  -1.1940289108e-002  -9.3818330236e-003   1.0607028052e-001  -3.2373098535e-002   1.0697866134e-001  -3.0312147044e-002  -6.1167115547e-002  -5.1533715908e-002
  7.0800000000e+010  -1.0960177060e-002  -9.6644139994e-003   1.0601348910e-001  -3.2492248488e-002   1.0692493015e-001  -3.0431142333e-002  -6.3756101215e-002  -4.8140032539e-002
  7.0820000000e+010  -9.9955389012e-003  -9.9745794299e-003   1.0595478171e-001  -3.2614953250e-002   1.0686936208e-001  -3.0553744550e-002  -6.6188174642e-002  -4.4641359405e-002
  7.0840000000e+010  -9.0476119085e-003  -1.0311467423e-002   1.0589415481e-001  -3.2741203419e-002   1.0681195310e-001  -3.0679944708e-002  -6.8459257542e-002  -4.1044977433e-002
  7.0860000000e+010  -8.1175912691e-003  -1.0674181004e-002   1.0583160475e-001  -3.2870989321e-002   1.0675269909e-001  -3.0809733545e-002  -7.0565596819e-002  -3.7358321561e-002
  7.0880000000e+010  -7.2066287957e-003  -1.1061789874e-002   1.0576712785e-001  -3.3004301010e-002   1.0669159585e-001  -3.0943101523e-002  -7.2503770359e-002  -3.3588966367e-002
  7.0900000000e+010  -6.3158317181e-003  -1.1473332210e-002   1.0570072034e-001  -3.3141128263e-002   1.0662863910e-001  -3.1080038827e-002  -7.4270692201e-002  -2.9744611478e-002
  7.0920000000e+010  -5.4462615542e-003  -1.1907816501e-002   1.0563237841e-001  -3.3281460590e-002   1.0656382449e-001  -3.1220535370e-002  -7.5863617079e-002  -2.5833066794e-002
  7.0940000000e+010  -4.5989330594e-003  -1.2364223406e-002   1.0556209814e-001  -3.3425287229e-002   1.0649714758e-001  -3.1364580790e-002  -7.7280144315e-002  -2.1862237548e-002
  7.0960000000e+010  -3.7748132573e-003  -1.2841507649e-002   1.0548987559e-001  -3.3572597149e-002   1.0642860386e-001  -3.1512164454e-002  -7.8518221071e-002  -1.7840109235e-002
  7.0980000000e+010  -2.9748205509e-003  -1.3338599932e-002   1.0541570673e-001  -3.3723379052e-002   1.0635818875e-001  -3.1663275457e-002  -7.9576144955e-002  -1.3774732441e-002
  7.1000000000e+010  -2.1998239160e-003  -1.3854408875e-002   1.0533958747e-001  -3.3877621370e-002   1.0628589756e-001  -3.1817902625e-002  -8.0452565964e-002  -9.6742075815e-003
  7.1020000000e+010  -1.4506421766e-003  -1.4387822968e-002   1.0526151364e-001  -3.4035312274e-002   1.0621172557e-001  -3.1976034515e-002  -8.1146487778e-002  -5.5466696031e-003
  7.1040000000e+010  -7.2804336301e-004  -1.4937712539e-002   1.0518148104e-001  -3.4196439666e-002   1.0613566796e-001  -3.2137659413e-002  -8.1657268397e-002  -1.4002726582e-003
  7.1060000000e+010  -3.2744153644e-005  -1.5502931740e-002   1.0509948537e-001  -3.4360991188e-002   1.0605771981e-001  -3.2302765342e-002  -8.1984620121e-002   2.7568252137e-003
  7.1080000000e+010   6.3459060086e-004  -1.6082320534e-002   1.0501552229e-001  -3.4528954218e-002   1.0597787617e-001  -3.2471340056e-002  -8.2128608872e-002   6.9164773690e-003
  7.1100000000e+010   1.2733482698e-003  -1.6674706689e-002   1.0492958738e-001  -3.4700315874e-002   1.0589613199e-001  -3.2643371045e-002  -8.2089652872e-002   1.1070563781e-002
  7.1120000000e+010   1.8829687517e-003  -1.7278907779e-002   1.0484167618e-001  -3.4875063011e-002   1.0581248215e-001  -3.2818845537e-002  -8.1868520665e-002   1.5211006173e-002
  7.1140000000e+010   2.4629447006e-003  -1.7893733175e-002   1.0475178413e-001  -3.5053182230e-002   1.0572692146e-001  -3.2997750494e-002  -8.1466328500e-002   1.9329783026e-002
  7.1160000000e+010   3.0128216699e-003  -1.8517986041e-002   1.0465990665e-001  -3.5234659871e-002   1.0563944464e-001  -3.3180072618e-002  -8.0884537078e-002   2.3418944455e-002
  7.1180000000e+010   3.5321981746e-003  -1.9150465317e-002   1.0456603906e-001  -3.5419482018e-002   1.0555004637e-001  -3.3365798351e-002  -8.0124947665e-002   2.7470626901e-002
  7.1200000000e+010   4.0207256711e-003  -1.9789967694e-002   1.0447017665e-001  -3.5607634500e-002   1.0545872122e-001  -3.3554913873e-002  -7.9189697590e-002   3.1477067632e-002
  7.1220000000e+010   4.4781084575e-003  -2.0435289577e-002   1.0437231463e-001  -3.5799102894e-002   1.0536546372e-001  -3.3747405108e-002  -7.8081255126e-002   3.5430619015e-002
  7.1240000000e+010   4.9041034937e-003  -2.1085229025e-002   1.0427244815e-001  -3.5993872521e-002   1.0527026830e-001  -3.3943257721e-002  -7.6802413775e-002   3.9323762545e-002
  7.1260000000e+010   5.2985201416e-003  -2.1738587682e-002   1.0417057232e-001  -3.6191928452e-002   1.0517312936e-001  -3.4142457122e-002  -7.5356285960e-002   4.3149122590e-002
  7.1280000000e+010   5.6612198296e-003  -2.2394172677e-002   1.0406668216e-001  -3.6393255508e-002   1.0507404119e-001  -3.4344988464e-002  -7.3746296144e-002   4.6899479843e-002
  7.1300000000e+010   5.9921156383e-003  -2.3050798504e-002   1.0396077266e-001  -3.6597838258e-002   1.0497299802e-001  -3.4550836647e-002  -7.1976173384e-002   5.0567784446e-002
  7.1320000000e+010   6.2911718125e-003  -2.3707288873e-002   1.0385283873e-001  -3.6805661027e-002   1.0486999404e-001  -3.4759986319e-002  -7.0049943340e-002   5.4147168771e-002
  7.1340000000e+010   6.5584031982e-003  -2.4362478529e-002   1.0374287523e-001  -3.7016707890e-002   1.0476502333e-001  -3.4972421874e-002  -6.7971919752e-002   5.7630959825e-002
  7.1360000000e+010   6.7938746080e-003  -2.5015215043e-002   1.0363087696e-001  -3.7230962677e-002   1.0465807994e-001  -3.5188127457e-002  -6.5746695396e-002   6.1012691266e-002
  7.1380000000e+010   6.9977001154e-003  -2.5664360559e-002   1.0351683867e-001  -3.7448408974e-002   1.0454915783e-001  -3.5407086961e-002  -6.3379132557e-002   6.4286115008e-002
  7.1400000000e+010   7.1700422797e-003  -2.6308793512e-002   1.0340075505e-001  -3.7669030123e-002   1.0443825090e-001  -3.5629284032e-002  -6.0874353004e-002   6.7445212389e-002
  7.1420000000e+010   7.3111113043e-003  -2.6947410297e-002   1.0328262074e-001  -3.7892809226e-002   1.0432535299e-001  -3.5854702069e-002  -5.8237727525e-002   7.0484204882e-002
  7.1440000000e+010   7.4211641288e-003  -2.7579126904e-002   1.0316243031e-001  -3.8119729142e-002   1.0421045788e-001  -3.6083324224e-002  -5.5474865008e-002   7.3397564342e-002
  7.1460000000e+010   7.5005034583e-003  -2.8202880499e-002   1.0304017828e-001  -3.8349772491e-002   1.0409355926e-001  -3.6315133404e-002  -5.2591601111e-002   7.6180022756e-002
  7.1480000000e+010   7.5494767311e-003  -2.8817630966e-002   1.0291585913e-001  -3.8582921653e-002   1.0397465079e-001  -3.6550112270e-002  -4.9593986537e-002   7.8826581487e-002
  7.1500000000e+010   7.5684750272e-003  -2.9422362390e-002   1.0278946728e-001  -3.8819158774e-002   1.0385372606e-001  -3.6788243244e-002  -4.6488274927e-002   8.1332519994e-002
  7.1520000000e+010   7.5579319197e-003  -3.0016084502e-002   1.0266099708e-001  -3.9058465762e-002   1.0373077858e-001  -3.7029508501e-002  -4.3280910411e-002   8.3693404017e-002
  7.1540000000e+010   7.5183222715e-003  -3.0597834056e-002   1.0253044285e-001  -3.9300824289e-002   1.0360580183e-001  -3.7273889980e-002  -3.9978514828e-002   8.5905093204e-002
  7.1560000000e+010   7.4501609796e-003  -3.1166676162e-002   1.0239779886e-001  -3.9546215797e-002   1.0347878919e-001  -3.7521369378e-002  -3.6587874640e-002   8.7963748176e-002
  7.1580000000e+010   7.3540016699e-003  -3.1721705558e-002   1.0226305931e-001  -3.9794621490e-002   1.0334973403e-001  -3.7771928153e-002  -3.3115927571e-002   8.9865837010e-002
  7.1600000000e+010   7.2304353434e-003  -3.2262047822e-002   1.0212621836e-001  -4.0046022347e-002   1.0321862963e-001  -3.8025547526e-002  -2.9569748993e-002   9.1608141143e-002
  7.1620000000e+010   7.0800889788e-003  -3.2786860531e-002   1.0198727012e-001  -4.0300399112e-002   1.0308546922e-001  -3.8282208484e-002  -2.5956538084e-002   9.3187760665e-002
  7.1640000000e+010   6.9036240915e-003  -3.3295334351e-002   1.0184620867e-001  -4.0557732303e-002   1.0295024597e-001  -3.8541891775e-002  -2.2283603781e-002   9.4602119010e-002
  7.1660000000e+010   6.7017352538e-003  -3.3786694067e-002   1.0170302801e-001  -4.0818002209e-002   1.0281295301e-001  -3.8804577916e-002  -1.8558350561e-002   9.5848967040e-002
  7.1680000000e+010   6.4751485775e-003  -3.4260199554e-002   1.0155772211e-001  -4.1081188892e-002   1.0267358340e-001  -3.9070247189e-002  -1.4788264075e-002   9.6926386492e-002
  7.1700000000e+010   6.2246201618e-003  -3.4715146679e-002   1.0141028489e-001  -4.1347272192e-002   1.0253213016e-001  -3.9338879646e-002  -1.0980896657e-002   9.7832792813e-002
  7.1720000000e+010   5.9509345106e-003  -3.5150868134e-002   1.0126071024e-001  -4.1616231720e-002   1.0238858625e-001  -3.9610455108e-002  -7.1438527371e-003   9.8566937358e-002
  7.1740000000e+010   5.6549029199e-003  -3.5566734216e-002   1.0110899198e-001  -4.1888046867e-002   1.0224294457e-001  -3.9884953165e-002  -3.2847741935e-003   9.9127908950e-002
  7.1760000000e+010   5.3373618392e-003  -3.5962153521e-002   1.0095512391e-001  -4.2162696803e-002   1.0209519800e-001  -4.0162353179e-002   5.8867434394e-004   9.9515134817e-002
  7.1780000000e+010   4.9991712105e-003  -3.6336573586e-002   1.0079909977e-001  -4.2440160475e-002   1.0194533933e-001  -4.0442634286e-002   4.4688201974e-003   9.9728380879e-002
  7.1800000000e+010   4.6412127856e-003  -3.6689481458e-002   1.0064091327e-001  -4.2720416613e-002   1.0179336134e-001  -4.0725775396e-002   8.3479973329e-003   9.9767751406e-002
  7.1820000000e+010   4.2643884267e-003  -3.7020404189e-002   1.0048055806e-001  -4.3003443726e-002   1.0163925674e-001  -4.1011755191e-002   1.2218561010e-002   9.9633688047e-002
  7.1840000000e+010   3.8696183914e-003  -3.7328909271e-002   1.0031802778e-001  -4.3289220109e-002   1.0148301821e-001  -4.1300552132e-002   1.6072902362e-002   9.9326968216e-002
  7.1860000000e+010   3.4578396068e-003  -3.7614604994e-002   1.0015331600e-001  -4.3577723840e-002   1.0132463836e-001  -4.1592144456e-002   1.9903462885e-002   9.8848702863e-002
  7.1880000000e+010   3.0300039331e-003  -3.7877140741e-002   9.9986416274e-002  -4.3868932780e-002   1.0116410979e-001  -4.1886510177e-002   2.3702748795e-002   9.8200333611e-002
  7.1900000000e+010   2.5870764219e-003  -3.8116207212e-002   9.9817322112e-002  -4.4162824580e-002   1.0100142502e-001  -4.2183627092e-002   2.7463345250e-002   9.7383629292e-002
  7.1920000000e+010   2.1300335709e-003  -3.8331536577e-002   9.9646026985e-002  -4.4459376677e-002   1.0083657658e-001  -4.2483472775e-002   3.1177930383e-002   9.6400681860e-002
  7.1940000000e+010   1.6598615771e-003  -3.8522902562e-002   9.9472524330e-002  -4.4758566296e-002   1.0066955690e-001  -4.2786024582e-002   3.4839289144e-002   9.5253901714e-002
  7.1960000000e+010   1.1775545932e-003  -3.8690120470e-002   9.9296807549e-002  -4.5060370453e-002   1.0050035841e-001  -4.3091259654e-002   3.8440326914e-002   9.3946012429e-002
  7.1980000000e+010   6.8411298764e-004  -3.8833047129e-002   9.9118870014e-002  -4.5364765954e-002   1.0032897351e-001  -4.3399154913e-002   4.1974082862e-002   9.2480044902e-002
  7.2000000000e+010   1.8054161338e-004  -3.8951580775e-002   9.8938705062e-002  -4.5671729399e-002   1.0015539452e-001  -4.3709687067e-002   4.5433743037e-002   9.0859330939e-002
  7.2020000000e+010  -3.3215191426e-004  -3.9045660869e-002   9.8756306000e-002  -4.5981237180e-002   9.9979613774e-002  -4.4022832611e-002   4.8812653149e-002   8.9087496282e-002
  7.2040000000e+010  -8.5295892609e-004  -3.9115267851e-002   9.8571666104e-002  -4.6293265483e-002   9.9801623541e-002  -4.4338567827e-002   5.2104331036e-002   8.7168453094e-002
  7.2060000000e+010  -1.3808713925e-003  -3.9160422824e-002   9.8384778623e-002  -4.6607790291e-002   9.9621416067e-002  -4.4656868782e-002   5.5302478780e-002   8.5106391920e-002
  7.2080000000e+010  -1.9148835985e-003  -3.9181187176e-002   9.8195636777e-002  -4.6924787383e-002   9.9438983570e-002  -4.4977711336e-002   5.8400994459e-002   8.2905773137e-002
  7.2100000000e+010  -2.4539937989e-003  -3.9177662144e-002   9.8004233760e-002  -4.7244232335e-002   9.9254318233e-002  -4.5301071139e-002   6.1393983508e-002   8.0571317911e-002
  7.2120000000e+010  -2.9972058496e-003  -3.9149988309e-002   9.7810562740e-002  -4.7566100523e-002   9.9067412216e-002  -4.5626923631e-002   6.4275769670e-002   7.8107998671e-002
  7.2140000000e+010  -3.5435308141e-003  -3.9098345037e-002   9.7614616863e-002  -4.7890367123e-002   9.8878257647e-002  -4.5955244045e-002   6.7040905519e-002   7.5521029137e-002
  7.2160000000e+010  -4.0919885423e-003  -3.9022949858e-002   9.7416389249e-002  -4.8217007113e-002   9.8686846632e-002  -4.6286007408e-002   6.9684182532e-002   7.2815853896e-002
