# Hz S RI R 1.000000
! Metas.Vna.Tools, 2.4.7898.19887
! Metas.Vna.Data, 2.4.7898.19873
! Created: UTC 2021.09.30 14:30:59
! FREQ                re:S1,1             im:S1,1             re:S2,1             im:S2,1             re:S1,2             im:S1,2             re:S2,2             im:S2,2          
  7.0000000000e+010  -3.5039100665e-002  -2.8983700671e-002   1.6293150645e-001   6.0833776156e-001   1.5964132372e-001   6.1221017975e-001  -1.5079796232e-002   1.2902909136e-002
  7.0020000000e+010  -3.3861738640e-002  -2.9070785753e-002   1.6295062296e-001   6.0881956834e-001   1.5965493722e-001   6.1270317955e-001  -1.5248915043e-002   1.3183735354e-002
  7.0040000000e+010  -3.2688789551e-002  -2.9166082624e-002   1.6299649276e-001   6.0928364375e-001   1.5969567060e-001   6.1317839450e-001  -1.5410654634e-002   1.3473111512e-002
  7.0060000000e+010  -3.1520926807e-002  -2.9269636862e-002   1.6306911169e-001   6.0972987657e-001   1.5976352074e-001   6.1363571089e-001  -1.5564624943e-002   1.3770859854e-002
  7.0080000000e+010  -3.0358825076e-002  -2.9381478522e-002   1.6316847170e-001   6.1015815613e-001   1.5985848056e-001   6.1407501554e-001  -1.5710440498e-002   1.4076787587e-002
  7.0100000000e+010  -2.9203159492e-002  -2.9501621967e-002   1.6329456083e-001   6.1056837235e-001   1.5998053899e-001   6.1449619584e-001  -1.5847721052e-002   1.4390686947e-002
  7.0120000000e+010  -2.8054604868e-002  -2.9630065716e-002   1.6344736322e-001   6.1096041575e-001   1.6012968103e-001   6.1489913978e-001  -1.5976092223e-002   1.4712335313e-002
  7.0140000000e+010  -2.6913834892e-002  -2.9766792322e-002   1.6362685911e-001   6.1133417752e-001   1.6030588767e-001   6.1528373599e-001  -1.6095186129e-002   1.5041495331e-002
  7.0160000000e+010  -2.5781521325e-002  -2.9911768277e-002   1.6383302485e-001   6.1168954951e-001   1.6050913597e-001   6.1564987377e-001  -1.6204642019e-002   1.5377915071e-002
  7.0180000000e+010  -2.4658333197e-002  -3.0064943939e-002   1.6406583289e-001   6.1202642428e-001   1.6073939903e-001   6.1599744309e-001  -1.6304106906e-002   1.5721328207e-002
  7.0200000000e+010  -2.3544935999e-002  -3.0226253487e-002   1.6432525179e-001   6.1234469514e-001   1.6099664599e-001   6.1632633468e-001  -1.6393236192e-002   1.6071454232e-002
  7.0220000000e+010  -2.2441990873e-002  -3.0395614908e-002   1.6461124625e-001   6.1264425615e-001   1.6128084205e-001   6.1663643999e-001  -1.6471694287e-002   1.6427998684e-002
  7.0240000000e+010  -2.1350153809e-002  -3.0572930000e-002   1.6492377706e-001   6.1292500219e-001   1.6159194846e-001   6.1692765129e-001  -1.6539155225e-002   1.6790653412e-002
  7.0260000000e+010  -2.0270074833e-002  -3.0758084415e-002   1.6526280118e-001   6.1318682895e-001   1.6192992256e-001   6.1719986165e-001  -1.6595303268e-002   1.7159096860e-002
  7.0280000000e+010  -1.9202397212e-002  -3.0950947713e-002   1.6562827169e-001   6.1342963298e-001   1.6229471774e-001   6.1745296498e-001  -1.6639833499e-002   1.7532994377e-002
  7.0300000000e+010  -1.8147756651e-002  -3.1151373462e-002   1.6602013782e-001   6.1365331172e-001   1.6268628349e-001   6.1768685609e-001  -1.6672452417e-002   1.7911998560e-002
  7.0320000000e+010  -1.7106780502e-002  -3.1359199345e-002   1.6643834495e-001   6.1385776354e-001   1.6310456539e-001   6.1790143069e-001  -1.6692878503e-002   1.8295749611e-002
  7.0340000000e+010  -1.6080086977e-002  -3.1574247309e-002   1.6688283465e-001   6.1404288774e-001   1.6354950512e-001   6.1809658542e-001  -1.6700842791e-002   1.8683875726e-002
  7.0360000000e+010  -1.5068284369e-002  -3.1796323736e-002   1.6735354466e-001   6.1420858462e-001   1.6402104048e-001   6.1827221790e-001  -1.6696089412e-002   1.9075993507e-002
  7.0380000000e+010  -1.4071970284e-002  -3.2025219634e-002   1.6785040891e-001   6.1435475545e-001   1.6451910539e-001   6.1842822675e-001  -1.6678376132e-002   1.9471708396e-002
  7.0400000000e+010  -1.3091730878e-002  -3.2260710865e-002   1.6837335753e-001   6.1448130256e-001   1.6504362994e-001   6.1856451161e-001  -1.6647474870e-002   1.9870615135e-002
  7.0420000000e+010  -1.2128140112e-002  -3.2502558390e-002   1.6892231688e-001   6.1458812936e-001   1.6559454032e-001   6.1868097318e-001  -1.6603172203e-002   2.0272298249e-002
  7.0440000000e+010  -1.1181759012e-002  -3.2750508547e-002   1.6949720955e-001   6.1467514031e-001   1.6617175894e-001   6.1877751326e-001  -1.6545269851e-002   2.0676332546e-002
  7.0460000000e+010  -1.0253134948e-002  -3.3004293350e-002   1.7009795436e-001   6.1474224103e-001   1.6677520436e-001   6.1885403474e-001  -1.6473585141e-002   2.1082283647e-002
  7.0480000000e+010  -9.3428009270e-003  -3.3263630809e-002   1.7072446641e-001   6.1478933827e-001   1.6740479135e-001   6.1891044168e-001  -1.6387951458e-002   2.1489708530e-002
  7.0500000000e+010  -8.4512748949e-003  -3.3528225288e-002   1.7137665707e-001   6.1481633997e-001   1.6806043089e-001   6.1894663931e-001  -1.6288218671e-002   2.1898156100e-002
  7.0520000000e+010  -7.5790590641e-003  -3.3797767872e-002   1.7205443402e-001   6.1482315526e-001   1.6874203020e-001   6.1896253405e-001  -1.6174253536e-002   2.2307167772e-002
  7.0540000000e+010  -6.7266392535e-003  -3.4071936765e-002   1.7275770124e-001   6.1480969453e-001   1.6944949275e-001   6.1895803358e-001  -1.6045940081e-002   2.2716278078e-002
  7.0560000000e+010  -5.8944842479e-003  -3.4350397713e-002   1.7348635903e-001   6.1477586942e-001   1.7018271828e-001   6.1893304680e-001  -1.5903179964e-002   2.3125015292e-002
  7.0580000000e+010  -5.0830451775e-003  -3.4632804445e-002   1.7424030407e-001   6.1472159284e-001   1.7094160279e-001   6.1888748393e-001  -1.5745892811e-002   2.3532902068e-002
  7.0600000000e+010  -4.2927549184e-003  -3.4918799137e-002   1.7501942940e-001   6.1464677905e-001   1.7172603863e-001   6.1882125648e-001  -1.5574016525e-002   2.3939456096e-002
  7.0620000000e+010  -3.5240275137e-003  -3.5208012897e-002   1.7582362444e-001   6.1455134363e-001   1.7253591445e-001   6.1873427734e-001  -1.5387507570e-002   2.4344190778e-002
  7.0640000000e+010  -2.7772576174e-003  -3.5500066274e-002   1.7665277503e-001   6.1443520354e-001   1.7337111527e-001   6.1862646073e-001  -1.5186341231e-002   2.4746615907e-002
  7.0660000000e+010  -2.0528199625e-003  -3.5794569782e-002   1.7750676347e-001   6.1429827713e-001   1.7423152248e-001   6.1849772228e-001  -1.4970511845e-002   2.5146238373e-002
  7.0680000000e+010  -1.3510688516e-003  -3.6091124445e-002   1.7838546847e-001   6.1414048418e-001   1.7511701384e-001   6.1834797905e-001  -1.4740033007e-002   2.5542562870e-002
  7.0700000000e+010  -6.7233767457e-004  -3.6389322360e-002   1.7928876527e-001   6.1396174591e-001   1.7602746357e-001   6.1817714955e-001  -1.4494937742e-002   2.5935092618e-002
  7.0720000000e+010  -1.6938449923e-005  -3.6688747277e-002   1.8021652558e-001   6.1376198502e-001   1.7696274231e-001   6.1798515375e-001  -1.4235278653e-002   2.6323330099e-002
  7.0740000000e+010   6.1483860563e-004  -3.6988975200e-002   1.8116861767e-001   6.1354112570e-001   1.7792271718e-001   6.1777191314e-001  -1.3961128039e-002   2.6706777791e-002
  7.0760000000e+010   1.2227254812e-003  -3.7289574994e-002   1.8214490633e-001   6.1329909368e-001   1.7890725178e-001   6.1753735073e-001  -1.3672577983e-002   2.7084938925e-002
  7.0780000000e+010   1.8064767478e-003  -3.7590109015e-002   1.8314525298e-001   6.1303581623e-001   1.7991620625e-001   6.1728139107e-001  -1.3369740405e-002   2.7457318233e-002
  7.0800000000e+010   2.3658699052e-003  -3.7890133752e-002   1.8416951561e-001   6.1275122218e-001   1.8094943727e-001   6.1700396030e-001  -1.3052747095e-002   2.7823422711e-002
  7.0820000000e+010   2.9007057006e-003  -3.8189200478e-002   1.8521754886e-001   6.1244524196e-001   1.8200679810e-001   6.1670498617e-001  -1.2721749702e-002   2.8182762386e-002
  7.0840000000e+010   3.4108084172e-003  -3.8486855922e-002   1.8628920404e-001   6.1211780765e-001   1.8308813860e-001   6.1638439802e-001  -1.2376919702e-002   2.8534851076e-002
  7.0860000000e+010   3.8960261320e-003  -3.8782642935e-002   1.8738432915e-001   6.1176885292e-001   1.8419330527e-001   6.1604212688e-001  -1.2018448330e-002   2.8879207166e-002
  7.0880000000e+010   4.3562309438e-003  -3.9076101189e-002   1.8850276891e-001   6.1139831316e-001   1.8532214127e-001   6.1567810543e-001  -1.1646546479e-002   2.9215354371e-002
  7.0900000000e+010   4.7913191699e-003  -3.9366767860e-002   1.8964436479e-001   6.1100612540e-001   1.8647448645e-001   6.1529226804e-001  -1.1261444572e-002   2.9542822508e-002
  7.0920000000e+010   5.2012115106e-003  -3.9654178339e-002   1.9080895506e-001   6.1059222842e-001   1.8765017741e-001   6.1488455080e-001  -1.0863392398e-002   2.9861148258e-002
  7.0940000000e+010   5.5858531831e-003  -3.9937866937e-002   1.9199637479e-001   6.1015656270e-001   1.8884904747e-001   6.1445489157e-001  -1.0452658917e-002   3.0169875930e-002
  7.0960000000e+010   5.9452140224e-003  -4.0217367602e-002   1.9320645591e-001   6.0969907050e-001   1.9007092676e-001   6.1400322992e-001  -1.0029532036e-002   3.0468558217e-002
  7.0980000000e+010   6.2792885502e-003  -4.0492214637e-002   1.9443902720e-001   6.0921969583e-001   1.9131564223e-001   6.1352950725e-001  -9.5943183469e-003   3.0756756946e-002
  7.1000000000e+010   6.5880960114e-003  -4.0761943420e-002   1.9569391438e-001   6.0871838452e-001   1.9258301769e-001   6.1303366672e-001  -9.1473428420e-003   3.1034043822e-002
  7.1020000000e+010   6.8716803775e-003  -4.1026091132e-002   1.9697094011e-001   6.0819508418e-001   1.9387287383e-001   6.1251565337e-001  -8.6889485892e-003   3.1300001162e-002
  7.1040000000e+010   7.1301103181e-003  -4.1284197479e-002   1.9826992404e-001   6.0764974428e-001   1.9518502827e-001   6.1197541403e-001  -8.2194963817e-003   3.1554222619e-002
  7.1060000000e+010   7.3634791388e-003  -4.1535805422e-002   1.9959068280e-001   6.0708231615e-001   1.9651929558e-001   6.1141289743e-001  -7.7393643552e-003   3.1796313892e-002
  7.1080000000e+010   7.5719046864e-003  -4.1780461893e-002   2.0093303010e-001   6.0649275298e-001   1.9787548733e-001   6.1082805417e-001  -7.2489475742e-003   3.2025893431e-002
  7.1100000000e+010   7.7555292220e-003  -4.2017718523e-002   2.0229677673e-001   6.0588100983e-001   1.9925341212e-001   6.1022083675e-001  -6.7486575896e-003   3.2242593119e-002
  7.1120000000e+010   7.9145192608e-003  -4.2247132357e-002   2.0368173060e-001   6.0524704372e-001   2.0065287562e-001   6.0959119961e-001  -6.2389219659e-003   3.2446058944e-002
  7.1140000000e+010   8.0490653794e-003  -4.2468266566e-002   2.0508769677e-001   6.0459081354e-001   2.0207368059e-001   6.0893909912e-001  -5.7201837794e-003   3.2635951653e-002
  7.1160000000e+010   8.1593819917e-003  -4.2680691157e-002   2.0651447750e-001   6.0391228016e-001   2.0351562697e-001   6.0826449359e-001  -5.1929010886e-003   3.2811947388e-002
  7.1180000000e+010   8.2457070913e-003  -4.2883983668e-002   2.0796187229e-001   6.0321140640e-001   2.0497851183e-001   6.0756734332e-001  -4.6575463767e-003   3.2973738305e-002
  7.1200000000e+010   8.3083019633e-003  -4.3077729866e-002   2.0942967790e-001   6.0248815706e-001   2.0646212948e-001   6.0684761062e-001  -4.1146059668e-003   3.3121033169e-002
  7.1220000000e+010   8.3474508646e-003  -4.3261524423e-002   2.1091768842e-001   6.0174249893e-001   2.0796627151e-001   6.0610525978e-001  -3.5645794113e-003   3.3253557934e-002
  7.1240000000e+010   8.3634606723e-003  -4.3434971593e-002   2.1242569527e-001   6.0097440079e-001   2.0949072678e-001   6.0534025711e-001  -3.0079788551e-003   3.3371056295e-002
  7.1260000000e+010   8.3566605023e-003  -4.3597685871e-002   2.1395348726e-001   6.0018383347e-001   2.1103528149e-001   6.0455257099e-001  -2.4453283749e-003   3.3473290216e-002
  7.1280000000e+010   8.3274012978e-003  -4.3749292640e-002   2.1550085063e-001   5.9937076983e-001   2.1259971923e-001   6.0374217182e-001  -1.8771632946e-003   3.3560040442e-002
  7.1300000000e+010   8.2760553873e-003  -4.3889428808e-002   2.1706756910e-001   5.9853518475e-001   2.1418382101e-001   6.0290903210e-001  -1.3040294772e-003   3.3631106973e-002
  7.1320000000e+010   8.2030160152e-003  -4.4017743424e-002   2.1865342390e-001   5.9767705522e-001   2.1578736528e-001   6.0205312637e-001  -7.2648259607e-004   3.3686309525e-002
  7.1340000000e+010   8.1086968420e-003  -4.4133898287e-002   2.2025819379e-001   5.9679636028e-001   2.1741012802e-001   6.0117443131e-001  -1.4508738406e-004   3.3725487950e-002
  7.1360000000e+010   7.9935314186e-003  -4.4237568530e-002   2.2188165516e-001   5.9589308105e-001   2.1905188273e-001   6.0027292568e-001   4.3958313601e-004   3.3748502638e-002
  7.1380000000e+010   7.8579726319e-003  -4.4328443189e-002   2.2352358199e-001   5.9496720078e-001   2.2071240052e-001   5.9934859037e-001   1.0269484401e-003   3.3755234885e-002
  7.1400000000e+010   7.7024921258e-003  -4.4406225759e-002   2.2518374598e-001   5.9401870479e-001   2.2239145012e-001   5.9840140839e-001   1.6164213090e-003   3.3745587233e-002
  7.1420000000e+010   7.5275796949e-003  -4.4470634722e-002   2.2686191652e-001   5.9304758058e-001   2.2408879792e-001   5.9743136491e-001   2.2074086507e-003   3.3719483776e-002
  7.1440000000e+010   7.3337426549e-003  -4.4521404059e-002   2.2855786078e-001   5.9205381772e-001   2.2580420806e-001   5.9643844726e-001   2.7993123379e-003   3.3676870437e-002
  7.1460000000e+010   7.1215051885e-003  -4.4558283741e-002   2.3027134375e-001   5.9103740797e-001   2.2753744241e-001   5.9542264490e-001   3.3915300595e-003   3.3617715214e-002
  7.1480000000e+010   6.8914076681e-003  -4.4581040194e-002   2.3200212823e-001   5.8999834523e-001   2.2928826067e-001   5.9438394951e-001   3.9834561838e-003   3.3542008390e-002
  7.1500000000e+010   6.6440059573e-003  -4.4589456751e-002   2.3374997496e-001   5.8893662554e-001   2.3105642038e-001   5.9332235491e-001   4.5744826343e-003   3.3449762709e-002
  7.1520000000e+010   6.3798706903e-003  -4.4583334064e-002   2.3551464260e-001   5.8785224714e-001   2.3284167696e-001   5.9223785716e-001   5.1639997744e-003   3.3341013524e-002
  7.1540000000e+010   6.0995865322e-003  -4.4562490509e-002   2.3729588778e-001   5.8674521043e-001   2.3464378381e-001   5.9113045447e-001   5.7513973005e-003   3.3215818899e-002
  7.1560000000e+010   5.8037514195e-003  -4.4526762555e-002   2.3909346520e-001   5.8561551799e-001   2.3646249228e-001   5.9000014730e-001   6.3360651433e-003   3.3074259692e-002
  7.1580000000e+010   5.4929757830e-003  -4.4476005106e-002   2.4090712759e-001   5.8446317460e-001   2.3829755177e-001   5.8884693831e-001   6.9173943736e-003   3.2916439587e-002
  7.1600000000e+010   5.1678817541e-003  -4.4410091830e-002   2.4273662583e-001   5.8328818725e-001   2.4014870976e-001   5.8767083237e-001   7.4947781129e-003   3.2742485100e-002
  7.1620000000e+010   4.8291023542e-003  -4.4328915441e-002   2.4458170897e-001   5.8209056510e-001   2.4201571186e-001   5.8647183660e-001   8.0676124473e-003   3.2552545546e-002
  7.1640000000e+010   4.4772806707e-003  -4.4232387974e-002   2.4644212424e-001   5.8087031955e-001   2.4389830184e-001   5.8524996035e-001   8.6352973418e-003   3.2346792971e-002
  7.1660000000e+010   4.1130690189e-003  -4.4120441015e-002   2.4831761717e-001   5.7962746419e-001   2.4579622168e-001   5.8400521521e-001   9.1972375553e-003   3.2125422042e-002
  7.1680000000e+010   3.7371280916e-003  -4.3993025914e-002   2.5020793157e-001   5.7836201485e-001   2.4770921167e-001   5.8273761499e-001   9.7528435538e-003   3.1888649914e-002
  7.1700000000e+010   3.3501260976e-003  -4.3850113962e-002   2.5211280961e-001   5.7707398954e-001   2.4963701036e-001   5.8144717579e-001   1.0301532420e-002   3.1636716046e-002
  7.1720000000e+010   2.9527378905e-003  -4.3691696544e-002   2.5403199186e-001   5.7576340855e-001   2.5157935470e-001   5.8013391592e-001   1.0842728760e-002   3.1369881987e-002
  7.1740000000e+010   2.5456440887e-003  -4.3517785259e-002   2.5596521732e-001   5.7443029434e-001   2.5353598004e-001   5.7879785598e-001   1.1375865601e-002   3.1088431130e-002
  7.1760000000e+010   2.1295301879e-003  -4.3328412011e-002   2.5791222352e-001   5.7307467164e-001   2.5550662017e-001   5.7743901881e-001   1.1900385285e-002   3.0792668422e-002
  7.1780000000e+010   1.7050856676e-003  -4.3123629071e-002   2.5987274650e-001   5.7169656738e-001   2.5749100740e-001   5.7605742950e-001   1.2415740351e-002   3.0482920042e-002
  7.1800000000e+010   1.2730030925e-003  -4.2903509106e-002   2.6184652090e-001   5.7029601074e-001   2.5948887261e-001   5.7465311541e-001   1.2921394405e-002   3.0159533045e-002
  7.1820000000e+010   8.3397721078e-004  -4.2668145181e-002   2.6383328000e-001   5.6887303312e-001   2.6149994525e-001   5.7322610618e-001   1.3416822987e-002   2.9822874968e-002
  7.1840000000e+010   3.8870404961e-004  -4.2417650729e-002   2.6583275575e-001   5.6742766815e-001   2.6352395343e-001   5.7177643367e-001   1.3901514410e-002   2.9473333405e-002
  7.1860000000e+010  -6.2119990345e-005  -4.2152159490e-002   2.6784467885e-001   5.6595995169e-001   2.6556062398e-001   5.7030413203e-001   1.4374970596e-002   2.9111315540e-002
  7.1880000000e+010  -5.1779903981e-004  -4.1871825418e-002   2.6986877876e-001   5.6446992182e-001   2.6760968245e-001   5.6880923767e-001   1.4836707893e-002   2.8737247655e-002
  7.1900000000e+010  -9.7763866454e-004  -4.1576822561e-002   2.7190478380e-001   5.6295761888e-001   2.6967085320e-001   5.6729178924e-001   1.5286257869e-002   2.8351574602e-002
  7.1920000000e+010  -1.4409467659e-003  -4.1267344910e-002   2.7395242113e-001   5.6142308539e-001   2.7174385944e-001   5.6575182767e-001   1.5723168095e-002   2.7954759239e-002
  7.1940000000e+010  -1.9070344776e-003  -4.0943606214e-002   2.7601141686e-001   5.5986636611e-001   2.7382842326e-001   5.6418939613e-001   1.6147002900e-002   2.7547281835e-002
  7.1960000000e+010  -2.3752170563e-003  -4.0605839769e-002   2.7808149607e-001   5.5828750802e-001   2.7592426570e-001   5.6260454005e-001   1.6557344109e-002   2.7129639453e-002
  7.1980000000e+010  -2.8448147665e-003  -4.0254298175e-002   2.8016238284e-001   5.5668656031e-001   2.7803110681e-001   5.6099730708e-001   1.6953791754e-002   2.6702345288e-002
  7.2000000000e+010  -3.3151537565e-003  -3.9889253063e-002   2.8225380035e-001   5.5506357438e-001   2.8014866564e-001   5.5936774716e-001   1.7335964767e-002   2.6265927986e-002
  7.2020000000e+010  -3.7855669260e-003  -3.9510994796e-002   2.8435547089e-001   5.5341860384e-001   2.8227666038e-001   5.5771591244e-001   1.7703501639e-002   2.5820930932e-002
  7.2040000000e+010  -4.2553947821e-003  -3.9119832137e-002   2.8646711589e-001   5.5175170448e-001   2.8441480832e-001   5.5604185730e-001   1.8056061058e-002   2.5367911508e-002
  7.2060000000e+010  -4.7239862847e-003  -3.8716091893e-002   2.8858845603e-001   5.5006293430e-001   2.8656282596e-001   5.5434563837e-001   1.8393322515e-002   2.4907440329e-002
  7.2080000000e+010  -5.1906996787e-003  -3.8300118524e-002   2.9071921124e-001   5.4835235349e-001   2.8872042903e-001   5.5262731448e-001   1.8714986885e-002   2.4440100451e-002
  7.2100000000e+010  -5.6549033111e-003  -3.7872273734e-002   2.9285910075e-001   5.4662002440e-001   2.9088733255e-001   5.5088694670e-001   1.9020776976e-002   2.3966486552e-002
  7.2120000000e+010  -6.1159764345e-003  -3.7432936026e-002   2.9500784317e-001   5.4486601155e-001   2.9306325087e-001   5.4912459827e-001   1.9310438042e-002   2.3487204098e-002
  7.2140000000e+010  -6.5733099925e-003  -3.6982500236e-002   2.9716515650e-001   5.4309038166e-001   2.9524789774e-001   5.4734033468e-001   1.9583738271e-002   2.3002868477e-002
  7.2160000000e+010  -7.0263073887e-003  -3.6521377043e-002   2.9933075821e-001   5.4129320356e-001   2.9744098632e-001   5.4553422358e-001   1.9840469235e-002   2.2514104121e-002
