# Hz S RI R 1.000000
! Metas.Vna.Tools, 2.4.7898.19887
! Metas.Vna.Data, 2.4.7898.19873
! Created: UTC 2021.09.30 14:30:59
! FREQ                re:S1,1             im:S1,1             re:S2,1             im:S2,1             re:S1,2             im:S1,2             re:S2,2             im:S2,2          
  7.0000000000e+010   1.7361214464e-002  -6.9606189254e-002   7.7812803346e-002   5.7941657253e-001   5.6592773091e-002   5.8589473724e-001  -3.8259274002e-002  -1.6310180822e-002
  7.0020000000e+010   1.7603751868e-002  -6.9118299297e-002   7.7772192421e-002   5.7982198416e-001   5.6530635184e-002   5.8631001880e-001  -3.8861553212e-002  -1.5802411871e-002
  7.0040000000e+010   1.7837304478e-002  -6.8632582748e-002   7.7757456579e-002   5.8021484269e-001   5.6495164107e-002   5.8671344365e-001  -3.9437636807e-002  -1.5265794558e-002
  7.0060000000e+010   1.8061719744e-002  -6.8149164995e-002   7.7768603324e-002   5.8059505598e-001   5.6486372697e-002   5.8710491781e-001  -3.9986595441e-002  -1.4700930531e-002
  7.0080000000e+010   1.8276845821e-002  -6.7668166767e-002   7.7805636748e-002   5.8096253188e-001   5.6504270312e-002   5.8748434717e-001  -4.0507525121e-002  -1.4108461811e-002
  7.0100000000e+010   1.8482531794e-002  -6.7189703901e-002   7.7868557532e-002   5.8131717833e-001   5.6548862833e-002   5.8785163757e-001  -4.0999548741e-002  -1.3489070064e-002
  7.0120000000e+010   1.8678627904e-002  -6.6713887124e-002   7.7957362943e-002   5.8165890334e-001   5.6620152658e-002   5.8820669478e-001  -4.1461817590e-002  -1.2843475807e-002
  7.0140000000e+010   1.8864985790e-002  -6.6240821834e-002   7.8072046835e-002   5.8198761504e-001   5.6718138703e-002   5.8854942453e-001  -4.1893512826e-002  -1.2172437555e-002
  7.0160000000e+010   1.9041458726e-002  -6.5770607904e-002   7.8212599647e-002   5.8230322168e-001   5.6842816400e-002   5.8887973256e-001  -4.2293846922e-002  -1.1476750899e-002
  7.0180000000e+010   1.9207901876e-002  -6.5303339485e-002   7.8379008407e-002   5.8260563169e-001   5.6994177695e-002   5.8919752465e-001  -4.2662065066e-002  -1.0757247528e-002
  7.0200000000e+010   1.9364172542e-002  -6.4839104822e-002   7.8571256733e-002   5.8289475367e-001   5.7172211053e-002   5.8950270659e-001  -4.2997446531e-002  -1.0014794186e-002
  7.0220000000e+010   1.9510130430e-002  -6.4377986089e-002   7.8789324832e-002   5.8317049643e-001   5.7376901453e-002   5.8979518428e-001  -4.3299305997e-002  -9.2502915661e-003
  7.0240000000e+010   1.9645637906e-002  -6.3920059225e-002   7.9033189509e-002   5.8343276903e-001   5.7608230396e-002   5.9007486369e-001  -4.3566994836e-002  -8.4646731553e-003
  7.0260000000e+010   1.9770560271e-002  -6.3465393783e-002   7.9302824166e-002   5.8368148078e-001   5.7866175902e-002   5.9034165094e-001  -4.3799902342e-002  -7.6589040142e-003
  7.0280000000e+010   1.9884766026e-002  -6.3014052802e-002   7.9598198808e-002   5.8391654128e-001   5.8150712517e-002   5.9059545230e-001  -4.3997456922e-002  -6.8339795058e-003
  7.0300000000e+010   1.9988127152e-002  -6.2566092676e-002   7.9919280048e-002   5.8413786043e-001   5.8461811313e-002   5.9083617419e-001  -4.4159127226e-002  -5.9909239695e-003
  7.0320000000e+010   2.0080519381e-002  -6.2121563048e-002   8.0266031113e-002   5.8434534848e-001   5.8799439896e-002   5.9106372327e-001  -4.4284423236e-002  -5.1307893436e-003
  7.0340000000e+010   2.0161822478e-002  -6.1680506709e-002   8.0638411847e-002   5.8453891605e-001   5.9163562410e-002   5.9127800640e-001  -4.4372897286e-002  -4.2546537383e-003
  7.0360000000e+010   2.0231920520e-002  -6.1242959516e-002   8.1036378725e-002   5.8471847412e-001   5.9554139540e-002   5.9147893072e-001  -4.4424145035e-002  -3.3636199610e-003
  7.0380000000e+010   2.0290702179e-002  -6.0808950319e-002   8.1459884853e-002   5.8488393411e-001   5.9971128521e-002   5.9166640362e-001  -4.4437806382e-002  -2.4588139957e-003
  7.0400000000e+010   2.0338060997e-002  -6.0378500906e-002   8.1908879981e-002   5.8503520786e-001   6.0414483147e-002   5.9184033281e-001  -4.4413566307e-002  -1.5413834394e-003
  7.0420000000e+010   2.0373895675e-002  -5.9951625957e-002   8.2383310510e-002   5.8517220768e-001   6.0884153772e-002   5.9200062636e-001  -4.4351155667e-002  -6.1249589727e-004
  7.0440000000e+010   2.0398110347e-002  -5.9528333018e-002   8.2883119502e-002   5.8529484637e-001   6.1380087327e-002   5.9214719265e-001  -4.4250351913e-002   3.2666266125e-004
  7.0460000000e+010   2.0410614861e-002  -5.9108622480e-002   8.3408246690e-002   5.8540303722e-001   6.1902227320e-002   5.9227994047e-001  -4.4110979750e-002   1.2748895823e-003
  7.0480000000e+010   2.0411325057e-002  -5.8692487587e-002   8.3958628488e-002   5.8549669409e-001   6.2450513853e-002   5.9239877902e-001  -4.3932911722e-002   2.2309672417e-003
  7.0500000000e+010   2.0400163038e-002  -5.8279914441e-002   8.4534198004e-002   5.8557573137e-001   6.3024883628e-002   5.9250361793e-001  -4.3716068739e-002   3.1936647894e-003
  7.0520000000e+010   2.0377057443e-002  -5.7870882035e-002   8.5134885053e-002   5.8564006405e-001   6.3625269961e-002   5.9259436729e-001  -4.3460420518e-002   4.1617399242e-003
  7.0540000000e+010   2.0341943714e-002  -5.7465362295e-002   8.5760616164e-002   5.8568960775e-001   6.4251602789e-002   5.9267093766e-001  -4.3165985970e-002   5.1339406922e-003
  7.0560000000e+010   2.0294764358e-002  -5.7063320135e-002   8.6411314601e-002   5.8572427868e-001   6.4903808687e-002   5.9273324015e-001  -4.2832833500e-002   6.1090073105e-003
  7.0580000000e+010   2.0235469205e-002  -5.6664713530e-002   8.7086900372e-002   5.8574399375e-001   6.5581810879e-002   5.9278118635e-001  -4.2461081244e-002   7.0856740099e-003
  7.0600000000e+010   2.0164015662e-002  -5.6269493600e-002   8.7787290243e-002   5.8574867053e-001   6.6285529250e-002   5.9281468847e-001  -4.2050897223e-002   8.0626708951e-003
  7.0620000000e+010   2.0080368958e-002  -5.5877604712e-002   8.8512397757e-002   5.8573822730e-001   6.7014880361e-002   5.9283365926e-001  -4.1602499432e-002   9.0387258205e-003
  7.0640000000e+010   1.9984502383e-002  -5.5488984593e-002   8.9262133246e-002   5.8571258307e-001   6.7769777466e-002   5.9283801210e-001  -4.1116155843e-002   1.0012566276e-002
  7.0660000000e+010   1.9876397523e-002  -5.5103564459e-002   9.0036403851e-002   5.8567165761e-001   6.8550130523e-002   5.9282766100e-001  -4.0592184336e-002   1.0982921284e-002
  7.0680000000e+010   1.9756044482e-002  -5.4721269156e-002   9.0835113535e-002   5.8561537147e-001   6.9355846215e-002   5.9280252064e-001  -4.0030952560e-002   1.1948523297e-002
  7.0700000000e+010   1.9623442100e-002  -5.4342017316e-002   9.1658163102e-002   5.8554364598e-001   7.0186827962e-002   5.9276250637e-001  -3.9432877708e-002   1.2908110104e-002
  7.0720000000e+010   1.9478598158e-002  -5.3965721527e-002   9.2505450218e-002   5.8545640332e-001   7.1042975939e-002   5.9270753426e-001  -3.8798426215e-002   1.3860426734e-002
  7.0740000000e+010   1.9321529580e-002  -5.3592288516e-002   9.3376869425e-002   5.8535356649e-001   7.1924187099e-002   5.9263752111e-001  -3.8128113390e-002   1.4804227352e-002
  7.0760000000e+010   1.9152262619e-002  -5.3221619341e-002   9.4272312163e-002   5.8523505939e-001   7.2830355181e-002   5.9255238446e-001  -3.7422502961e-002   1.5738277155e-002
  7.0780000000e+010   1.8970833033e-002  -5.2853609604e-002   9.5191666790e-002   5.8510080678e-001   7.3761370742e-002   5.9245204266e-001  -3.6682206546e-002   1.6661354253e-002
  7.0800000000e+010   1.8777286255e-002  -5.2488149666e-002   9.6134818601e-002   5.8495073436e-001   7.4717121163e-002   5.9233641485e-001  -3.5907883048e-002   1.7572251540e-002
  7.0820000000e+010   1.8571677545e-002  -5.2125124884e-002   9.7101649851e-002   5.8478476874e-001   7.5697490681e-002   5.9220542098e-001  -3.5100237981e-002   1.8469778548e-002
  7.0840000000e+010   1.8354072135e-002  -5.1764415852e-002   9.8092039775e-002   5.8460283752e-001   7.6702360401e-002   5.9205898188e-001  -3.4260022707e-002   1.9352763284e-002
  7.0860000000e+010   1.8124545362e-002  -5.1405898658e-002   9.9105864609e-002   5.8440486925e-001   7.7731608323e-002   5.9189701924e-001  -3.3388033616e-002   2.0220054039e-002
  7.0880000000e+010   1.7883182782e-002  -5.1049445150e-002   1.0014299762e-001   5.8419079350e-001   7.8785109360e-002   5.9171945563e-001  -3.2485111217e-002   2.1070521181e-002
  7.0900000000e+010   1.7630080278e-002  -5.0694923208e-002   1.0120330911e-001   5.8396054085e-001   7.9862735364e-002   5.9152621458e-001  -3.1552139171e-002   2.1903058914e-002
  7.0920000000e+010   1.7365344151e-002  -5.0342197037e-002   1.0228666646e-001   5.8371404293e-001   8.0964355145e-002   5.9131722053e-001  -3.0590043239e-002   2.2716587003e-002
  7.0940000000e+010   1.7089091195e-002  -4.9991127457e-002   1.0339293416e-001   5.8345123243e-001   8.2089834497e-002   5.9109239888e-001  -2.9599790174e-002   2.3510052475e-002
  7.0960000000e+010   1.6801448765e-002  -4.9641572210e-002   1.0452197381e-001   5.8317204312e-001   8.3239036222e-002   5.9085167604e-001  -2.8582386532e-002   2.4282431274e-002
  7.0980000000e+010   1.6502554821e-002  -4.9293386275e-002   1.0567364415e-001   5.8287640989e-001   8.4411820154e-002   5.9059497941e-001  -2.7538877429e-002   2.5032729882e-002
  7.1000000000e+010   1.6192557965e-002  -4.8946422183e-002   1.0684780110e-001   5.8256426874e-001   8.5608043183e-002   5.9032223742e-001  -2.6470345218e-002   2.5759986890e-002
  7.1020000000e+010   1.5871617455e-002  -4.8600530349e-002   1.0804429778e-001   5.8223555682e-001   8.6827559285e-002   5.9003337956e-001  -2.5377908120e-002   2.6463274535e-002
  7.1040000000e+010   1.5539903213e-002  -4.8255559408e-002   1.0926298452e-001   5.8189021244e-001   8.8070219542e-002   5.8972833638e-001  -2.4262718774e-002   2.7141700180e-002
  7.1060000000e+010   1.5197595808e-002  -4.7911356550e-002   1.1050370893e-001   5.8152817508e-001   8.9335872172e-002   5.8940703953e-001  -2.3125962746e-002   2.7794407746e-002
  7.1080000000e+010   1.4844886429e-002  -4.7567767875e-002   1.1176631588e-001   5.8114938545e-001   9.0624362557e-002   5.8906942175e-001  -2.1968856967e-002   2.8420579095e-002
  7.1100000000e+010   1.4481976840e-002  -4.7224638734e-002   1.1305064756e-001   5.8075378546e-001   9.1935533271e-002   5.8871541696e-001  -2.0792648122e-002   2.9019435350e-002
  7.1120000000e+010   1.4109079317e-002  -4.6881814093e-002   1.1435654347e-001   5.8034131825e-001   9.3269224102e-002   5.8834496017e-001  -1.9598610984e-002   2.9590238161e-002
  7.1140000000e+010   1.3726416574e-002  -4.6539138888e-002   1.1568384052e-001   5.7991192824e-001   9.4625272090e-002   5.8795798762e-001  -1.8388046698e-002   3.0132290916e-002
  7.1160000000e+010   1.3334221664e-002  -4.6196458389e-002   1.1703237298e-001   5.7946556109e-001   9.6003511549e-002   5.8755443670e-001  -1.7162281019e-002   3.0644939880e-002
  7.1180000000e+010   1.2932737872e-002  -4.5853618561e-002   1.1840197257e-001   5.7900216378e-001   9.7403774101e-002   5.8713424602e-001  -1.5922662496e-002   3.1127575277e-002
  7.1200000000e+010   1.2522218583e-002  -4.5510466433e-002   1.1979246844e-001   5.7852168458e-001   9.8825888701e-002   5.8669735544e-001  -1.4670560626e-002   3.1579632301e-002
  7.1220000000e+010   1.2102927144e-002  -4.5166850464e-002   1.2120368725e-001   5.7802407308e-001   1.0026968167e-001   5.8624370604e-001  -1.3407363957e-002   3.2000592063e-002
  7.1240000000e+010   1.1675136698e-002  -4.4822620911e-002   1.2263545318e-001   5.7750928023e-001   1.0173497674e-001   5.8577324017e-001  -1.2134478156e-002   3.2389982464e-002
  7.1260000000e+010   1.1239130010e-002  -4.4477630193e-002   1.2408758794e-001   5.7697725832e-001   1.0322159504e-001   5.8528590147e-001  -1.0853324049e-002   3.2747378996e-002
  7.1280000000e+010   1.0795199269e-002  -4.4131733260e-002   1.2555991083e-001   5.7642796102e-001   1.0472935520e-001   5.8478163488e-001  -9.5653356187e-003   3.3072405477e-002
  7.1300000000e+010   1.0343645882e-002  -4.3784787956e-002   1.2705223879e-001   5.7586134336e-001   1.0625807332e-001   5.8426038666e-001  -8.2719579846e-003   3.3364734700e-002
  7.1320000000e+010   9.8847802436e-003  -4.3436655376e-002   1.2856438637e-001   5.7527736180e-001   1.0780756302e-001   5.8372210439e-001  -6.9746453487e-003   3.3624089013e-002
  7.1340000000e+010   9.4189214949e-003  -4.3087200231e-002   1.3009616582e-001   5.7467597421e-001   1.0937763549e-001   5.8316673701e-001  -5.6748589245e-003   3.3850240822e-002
  7.1360000000e+010   8.9463972644e-003  -4.2736291198e-002   1.3164738711e-001   5.7405713988e-001   1.1096809951e-001   5.8259423483e-001  -4.3740648451e-003   3.4043013012e-002
  7.1380000000e+010   8.4675433928e-003  -4.2383801269e-002   1.3321785794e-001   5.7342081956e-001   1.1257876149e-001   5.8200454953e-001  -3.0737320555e-003   3.4202279289e-002
  7.1400000000e+010   7.9827036432e-003  -4.2029608098e-002   1.3480738382e-001   5.7276697543e-001   1.1420942548e-001   5.8139763420e-001  -1.7753301927e-003   3.4327964448e-002
  7.1420000000e+010   7.4922293950e-003  -4.1673594338e-002   1.3641576805e-001   5.7209557116e-001   1.1585989325e-001   5.8077344334e-001  -4.8032745656e-004   3.4420044547e-002
  7.1440000000e+010   6.9964793242e-003  -4.1315647972e-002   1.3804281180e-001   5.7140657190e-001   1.1752996429e-001   5.8013193286e-001   8.0981152539e-004   3.4478547016e-002
  7.1460000000e+010   6.4958190678e-003  -4.0955662639e-002   1.3968831413e-001   5.7069994429e-001   1.1921943585e-001   5.7947306015e-001   2.0936278352e-003   3.4503550670e-002
  7.1480000000e+010   5.9906208747e-003  -4.0593537948e-002   1.4135207201e-001   5.6997565648e-001   1.2092810298e-001   5.7879678401e-001   3.3696704009e-003   3.4495185646e-002
  7.1500000000e+010   5.4812632426e-003  -4.0229179790e-002   1.4303388037e-001   5.6923367814e-001   1.2265575857e-001   5.7810306474e-001   4.6364981290e-003   3.4453633260e-002
  7.1520000000e+010   4.9681305412e-003  -3.9862500634e-002   1.4473353216e-001   5.6847398046e-001   1.2440219338e-001   5.7739186411e-001   5.8926820282e-003   3.4379125774e-002
  7.1540000000e+010   4.4516126225e-003  -3.9493419813e-002   1.4645081834e-001   5.6769653617e-001   1.2616719608e-001   5.7666314539e-001   7.1368073230e-003   3.4271946089e-002
  7.1560000000e+010   3.9321044191e-003  -3.9121863810e-002   1.4818552794e-001   5.6690131957e-001   1.2795055328e-001   5.7591687336e-001   8.3674755520e-003   3.4132427350e-002
  7.1580000000e+010   3.4100055290e-003  -3.8747766518e-002   1.4993744811e-001   5.6608830650e-001   1.2975204959e-001   5.7515301430e-001   9.5833066481e-003   3.3960952470e-002
  7.1600000000e+010   2.8857197907e-003  -3.8371069499e-002   1.5170636413e-001   5.6525747437e-001   1.3157146763e-001   5.7437153605e-001   1.0782940998e-002   3.3757953580e-002
  7.1620000000e+010   2.3596548460e-003  -3.7991722228e-002   1.5349205947e-001   5.6440880219e-001   1.3340858806e-001   5.7357240797e-001   1.1965041475e-002   3.3523911383e-002
  7.1640000000e+010   1.8322216926e-003  -3.7609682322e-002   1.5529431581e-001   5.6354227052e-001   1.3526318966e-001   5.7275560099e-001   1.3128295449e-002   3.3259354446e-002
  7.1660000000e+010   1.3038342273e-003  -3.7224915759e-002   1.5711291309e-001   5.6265786156e-001   1.3713504935e-001   5.7192108758e-001   1.4271416754e-002   3.2964858403e-002
  7.1680000000e+010   7.7490877930e-004  -3.6837397079e-002   1.5894762956e-001   5.6175555908e-001   1.3902394219e-001   5.7106884182e-001   1.5393147636e-002   3.2641045080e-002
  7.1700000000e+010   2.4586363558e-004  -3.6447109580e-002   1.6079824179e-001   5.6083534847e-001   1.4092964148e-001   5.7019883933e-001   1.6492260651e-002   3.2288581548e-002
  7.1720000000e+010  -2.8288144230e-004  -3.6054045485e-002   1.6266452472e-001   5.5989721676e-001   1.4285191876e-001   5.6931105736e-001   1.7567560523e-002   3.1908179098e-002
  7.1740000000e+010  -8.1090570837e-004  -3.5658206108e-002   1.6454625171e-001   5.5894115257e-001   1.4479054386e-001   5.6840547475e-001   1.8617885966e-002   3.1500592143e-002
  7.1760000000e+010  -1.3377879291e-003  -3.5259601993e-002   1.6644319457e-001   5.5796714617e-001   1.4674528493e-001   5.6748207194e-001   1.9642111453e-002   3.1066617047e-002
  7.1780000000e+010  -1.8631068862e-003  -3.4858253047e-002   1.6835512358e-001   5.5697518948e-001   1.4871590851e-001   5.6654083100e-001   2.0639148929e-002   3.0607090887e-002
  7.1800000000e+010  -2.3864418847e-003  -3.4454188651e-002   1.7028180759e-001   5.5596527604e-001   1.5070217954e-001   5.6558173562e-001   2.1607949484e-002   3.0122890140e-002
  7.1820000000e+010  -2.9073732653e-003  -3.4047447752e-002   1.7222301397e-001   5.5493740106e-001   1.5270386139e-001   5.6460477113e-001   2.2547504958e-002   2.9614929311e-002
  7.1840000000e+010  -3.4254829206e-003  -3.3638078946e-002   1.7417850874e-001   5.5389156137e-001   1.5472071593e-001   5.6360992450e-001   2.3456849495e-002   2.9084159491e-002
  7.1860000000e+010  -3.9403548142e-003  -3.3226140538e-002   1.7614805655e-001   5.5282775550e-001   1.5675250358e-001   5.6259718433e-001   2.4335061030e-002   2.8531566853e-002
  7.1880000000e+010  -4.4515755020e-003  -3.2811700584e-002   1.7813142072e-001   5.5174598361e-001   1.5879898329e-001   5.6156654089e-001   2.5181262714e-002   2.7958171092e-002
  7.1900000000e+010  -4.9587346551e-003  -3.2394836919e-002   1.8012836334e-001   5.5064624753e-001   1.6085991264e-001   5.6051798612e-001   2.5994624279e-002   2.7365023804e-002
  7.1920000000e+010  -5.4614255831e-003  -3.1975637168e-002   1.8213864522e-001   5.4952855076e-001   1.6293504787e-001   5.5945151359e-001   2.6774363317e-002   2.6753206810e-002
  7.1940000000e+010  -5.9592457573e-003  -3.1554198730e-002   1.8416202602e-001   5.4839289849e-001   1.6502414388e-001   5.5836711856e-001   2.7519746509e-002   2.6123830429e-002
  7.1960000000e+010  -6.4517973329e-003  -3.1130628758e-002   1.8619826422e-001   5.4723929754e-001   1.6712695434e-001   5.5726479797e-001   2.8230090765e-002   2.5478031701e-002
  7.1980000000e+010  -6.9386876696e-003  -3.0705044108e-002   1.8824711720e-001   5.4606775643e-001   1.6924323167e-001   5.5614455042e-001   2.8904764293e-002   2.4816972562e-002
  7.2000000000e+010  -7.4195298493e-003  -3.0277571274e-002   1.9030834127e-001   5.4487828537e-001   1.7137272710e-001   5.5500637619e-001   2.9543187595e-002   2.4141837976e-002
  7.2020000000e+010  -7.8939431907e-003  -2.9848346311e-002   1.9238169172e-001   5.4367089621e-001   1.7351519073e-001   5.5385027726e-001   3.0144834378e-002   2.3453834025e-002
  7.2040000000e+010  -8.3615537597e-003  -2.9417514731e-002   1.9446692282e-001   5.4244560250e-001   1.7567037154e-001   5.5267625729e-001   3.0709232384e-002   2.2754185964e-002
  7.2060000000e+010  -8.8219948744e-003  -2.8985231383e-002   1.9656378792e-001   5.4120241947e-001   1.7783801746e-001   5.5148432162e-001   3.1235964144e-002   2.2044136236e-002
  7.2080000000e+010  -9.2749076045e-003  -2.8551660316e-002   1.9867203944e-001   5.3994136402e-001   1.8001787539e-001   5.5027447728e-001   3.1724667643e-002   2.1324942457e-002
  7.2100000000e+010  -9.7199412645e-003  -2.8116974627e-002   2.0079142896e-001   5.3866245471e-001   1.8220969127e-001   5.4904673301e-001   3.2175036897e-002   2.0597875381e-002
  7.2120000000e+010  -1.0156753899e-002  -2.7681356283e-002   2.0292170719e-001   5.3736571181e-001   1.8441321007e-001   5.4780109923e-001   3.2586822451e-002   1.9864216823e-002
  7.2140000000e+010  -1.0585012758e-002  -2.7244995932e-002   2.0506262410e-001   5.3605115723e-001   1.8662817589e-001   5.4653758805e-001   3.2959831785e-002   1.9125257576e-002
  7.2160000000e+010  -1.1004394768e-002  -2.6808092694e-002   2.0721392888e-001   5.3471881456e-001   1.8885433196e-001   5.4525621329e-001   3.3293929631e-002   1.8382295302e-002
