# Hz S RI R 1.000000
! Metas.Vna.Tools, 2.4.7898.19887
! Metas.Vna.Data, 2.4.7898.19873
! Created: UTC 2021.09.30 14:30:59
! FREQ                re:S1,1             im:S1,1             re:S2,1             im:S2,1             re:S1,2             im:S1,2             re:S2,2             im:S2,2          
  7.0000000000e+010  -3.8409044947e-002  -1.2855152734e-002   1.0112804369e-001  -2.9413831731e-002   1.0140673020e-001  -3.0137110933e-002   9.6135345169e-002  -5.7657473709e-002
  7.0020000000e+010  -3.7727580961e-002  -1.2084644954e-002   1.0114596821e-001  -2.9383697462e-002   1.0142426047e-001  -3.0105887212e-002   9.2779369001e-002  -6.1224876455e-002
  7.0040000000e+010  -3.7016628403e-002  -1.1349031031e-002   1.0116231371e-001  -2.9357205411e-002   1.0144019539e-001  -3.0078285150e-002   8.9285551526e-002  -6.4622290272e-002
  7.0060000000e+010  -3.6277611739e-002  -1.0648839913e-002   1.0117707886e-001  -2.9334359517e-002   1.0145453388e-001  -3.0054308928e-002   8.5661590363e-002  -6.7844675454e-002
  7.0080000000e+010  -3.5511973279e-002  -9.9845488783e-003   1.0119026221e-001  -2.9315163404e-002   1.0146727472e-001  -3.0033962423e-002   8.1915371124e-002  -7.0887336055e-002
  7.0100000000e+010  -3.4721171177e-002  -9.3565832927e-003   1.0120186222e-001  -2.9299620389e-002   1.0147841660e-001  -3.0017249207e-002   7.8054952438e-002  -7.3745926743e-002
  7.0120000000e+010  -3.3906677426e-002  -8.7653164444e-003   1.0121187720e-001  -2.9287733478e-002   1.0148795809e-001  -3.0004172545e-002   7.4088550710e-002  -7.6416459014e-002
  7.0140000000e+010  -3.3069975844e-002  -8.2110694437e-003   1.0122030537e-001  -2.9279505366e-002   1.0149589764e-001  -2.9994735398e-002   7.0024524668e-002  -7.8895306741e-002
  7.0160000000e+010  -3.2212560072e-002  -7.6941111941e-003   1.0122714484e-001  -2.9274938437e-002   1.0150223358e-001  -2.9988940417e-002   6.5871359708e-002  -8.1179211068e-002
  7.0180000000e+010  -3.1335931561e-002  -7.2146584336e-003   1.0123239358e-001  -2.9274034764e-002   1.0150696412e-001  -2.9986789951e-002   6.1637652067e-002  -8.3265284625e-002
  7.0200000000e+010  -3.0441597569e-002  -6.7728758452e-003   1.0123604948e-001  -2.9276796110e-002   1.0151008735e-001  -2.9988286039e-002   5.7332092866e-002  -8.5151015077e-002
  7.0220000000e+010  -2.9531069174e-002  -6.3688762353e-003   1.0123811030e-001  -2.9283223926e-002   1.0151160126e-001  -2.9993430416e-002   5.2963452027e-002  -8.6834267982e-002
  7.0240000000e+010  -2.8605859283e-002  -6.0027207817e-003   1.0123857367e-001  -2.9293319353e-002   1.0151150371e-001  -3.0002224508e-002   4.8540562126e-002  -8.8313288969e-002
  7.0260000000e+010  -2.7667480664e-002  -5.6744193482e-003   1.0123743714e-001  -2.9307083220e-002   1.0150979244e-001  -3.0014669436e-002   4.4072302175e-002  -8.9586705236e-002
  7.0280000000e+010  -2.6717443990e-002  -5.3839308657e-003   1.0123469813e-001  -2.9324516045e-002   1.0150646508e-001  -3.0030766014e-002   3.9567581388e-002  -9.0653526350e-002
  7.0300000000e+010  -2.5757255901e-002  -5.1311637805e-003   1.0123035395e-001  -2.9345618035e-002   1.0150151915e-001  -3.0050514746e-002   3.5035322953e-002  -9.1513144369e-002
  7.0320000000e+010  -2.4788417088e-002  -4.9159765663e-003   1.0122440180e-001  -2.9370389087e-002   1.0149495204e-001  -3.0073915835e-002   3.0484447833e-002  -9.2165333278e-002
  7.0340000000e+010  -2.3812420397e-002  -4.7381783009e-003   1.0121683876e-001  -2.9398828786e-002   1.0148676103e-001  -3.0100969171e-002   2.5923858629e-002  -9.2610247741e-002
  7.0360000000e+010  -2.2830748961e-002  -4.5975293053e-003   1.0120766182e-001  -2.9430936407e-002   1.0147694328e-001  -3.0131674341e-002   2.1362423535e-002  -9.2848421175e-002
  7.0380000000e+010  -2.1844874358e-002  -4.4937418447e-003   1.0119686783e-001  -2.9466710915e-002   1.0146549585e-001  -3.0166030625e-002   1.6808960414e-002  -9.2880763154e-002
  7.0400000000e+010  -2.0856254799e-002  -4.4264808902e-003   1.0118445356e-001  -2.9506150963e-002   1.0145241567e-001  -3.0204036995e-002   1.2272221015e-002  -9.2708556147e-002
  7.0420000000e+010  -1.9866333349e-002  -4.3953649388e-003   1.0117041565e-001  -2.9549254894e-002   1.0143769956e-001  -3.0245692117e-002   7.7608753700e-003  -9.2333451592e-002
  7.0440000000e+010  -1.8876536180e-002  -4.3999668914e-003   1.0115475064e-001  -2.9596020744e-002   1.0142134421e-001  -3.0290994352e-002   3.2834963915e-003  -9.1757465330e-002
  7.0460000000e+010  -1.7888270866e-002  -4.4398149873e-003   1.0113745494e-001  -2.9646446235e-002   1.0140334623e-001  -3.0339941752e-002  -1.1514553025e-003  -9.0982972386e-002
  7.0480000000e+010  -1.6902924707e-002  -4.5143937926e-003   1.0111852490e-001  -2.9700528782e-002   1.0138370209e-001  -3.0392532066e-002  -5.5356463063e-003  -9.0012701138e-002
  7.0500000000e+010  -1.5921863103e-002  -4.6231452417e-003   1.0109795670e-001  -2.9758265492e-002   1.0136240814e-001  -3.0448762735e-002  -9.8608850631e-003  -8.8849726850e-002
  7.0520000000e+010  -1.4946427967e-002  -4.7654697302e-003   1.0107574647e-001  -2.9819653160e-002   1.0133946066e-001  -3.0508630896e-002  -1.4119136195e-002  -8.7497464618e-002
  7.0540000000e+010  -1.3977936179e-002  -4.9407272574e-003   1.0105189019e-001  -2.9884688275e-002   1.0131485576e-001  -3.0572133380e-002  -1.8302534501e-002  -8.5959661718e-002
  7.0560000000e+010  -1.3017678089e-002  -5.1482386155e-003   1.0102638375e-001  -2.9953367018e-002   1.0128858947e-001  -3.0639266712e-002  -2.2403398598e-002  -8.4240389381e-002
  7.0580000000e+010  -1.2066916072e-002  -5.3872866257e-003   1.0099922295e-001  -3.0025685260e-002   1.0126065772e-001  -3.0710027113e-002  -2.6414244184e-002  -8.2344034011e-002
  7.0600000000e+010  -1.1126883121e-002  -5.6571174173e-003   1.0097040346e-001  -3.0101638567e-002   1.0123105630e-001  -3.0784410501e-002  -3.0327796900e-002  -8.0275287865e-002
  7.0620000000e+010  -1.0198781506e-002  -5.9569417490e-003   1.0093992085e-001  -3.0181222197e-002   1.0119978090e-001  -3.0862412488e-002  -3.4137004761e-002  -7.8039139201e-002
  7.0640000000e+010  -9.2837814725e-003  -6.2859363692e-003   1.0090777061e-001  -3.0264431102e-002   1.0116682711e-001  -3.0944028383e-002  -3.7835050150e-002  -7.5640861939e-002
  7.0660000000e+010  -8.3830200014e-003  -6.6432454152e-003   1.0087394809e-001  -3.0351259929e-002   1.0113219041e-001  -3.1029253192e-002  -4.1415361341e-002  -7.3086004822e-002
  7.0680000000e+010  -7.4975996218e-003  -7.0279818470e-003   1.0083844856e-001  -3.0441703018e-002   1.0109586615e-001  -3.1118081617e-002  -4.4871623536e-002  -7.0380380121e-002
  7.0700000000e+010  -6.6285872807e-003  -7.4392289143e-003   1.0080126719e-001  -3.0535754405e-002   1.0105784959e-001  -3.1210508057e-002  -4.8197789403e-002  -6.7530051903e-002
  7.0720000000e+010  -5.7770132708e-003  -7.8760416555e-003   1.0076239904e-001  -3.0633407822e-002   1.0101813588e-001  -3.1306526612e-002  -5.1388089084e-002  -6.4541323870e-002
  7.0740000000e+010  -4.9438702163e-003  -8.3374484246e-003   1.0072183907e-001  -3.0734656696e-002   1.0097672007e-001  -3.1406131076e-002  -5.4437039674e-002  -6.1420726814e-002
  7.0760000000e+010  -4.1301121193e-003  -8.8224524458e-003   1.0067958214e-001  -3.0839494152e-002   1.0093359708e-001  -3.1509314946e-002  -5.7339454137e-002  -5.8175005687e-002
  7.0780000000e+010  -3.3366534666e-003  -9.3300333912e-003   1.0063562302e-001  -3.0947913013e-002   1.0088876175e-001  -3.1616071415e-002  -6.0090449662e-002  -5.4811106332e-002
  7.0800000000e+010  -2.5643683984e-003  -9.8591489815e-003   1.0058995638e-001  -3.1059905798e-002   1.0084220880e-001  -3.1726393378e-002  -6.2685455428e-002  -5.1336161886e-002
  7.0820000000e+010  -1.8140899383e-003  -1.0408736606e-002   1.0054257677e-001  -3.1175464726e-002   1.0079393285e-001  -3.1840273428e-002  -6.5120219777e-002  -4.7757478889e-002
  7.0840000000e+010  -1.0866092875e-003  -1.0977714959e-002   1.0049347868e-001  -3.1294581715e-002   1.0074392843e-001  -3.1957703862e-002  -6.7390816789e-002  -4.4082523114e-002
  7.0860000000e+010  -3.8267518188e-004  -1.1564985693e-002   1.0044265647e-001  -3.1417248385e-002   1.0069218993e-001  -3.2078676676e-002  -6.9493652223e-002  -4.0318905160e-002
  7.0880000000e+010   2.9700668758e-004  -1.2169435085e-002   1.0039010444e-001  -3.1543456054e-002   1.0063871169e-001  -3.2203183569e-002  -7.1425468849e-002  -3.6474365817e-002
  7.0900000000e+010   9.5177418899e-004  -1.2789935705e-002   1.0033581676e-001  -3.1673195744e-002   1.0058348791e-001  -3.2331215941e-002  -7.3183351136e-002  -3.2556761247e-002
  7.0920000000e+010   1.5810092000e-003  -1.3425348106e-002   1.0027978752e-001  -3.1806458176e-002   1.0052651269e-001  -3.2462764899e-002  -7.4764729303e-002  -2.8574047993e-002
  7.0940000000e+010   2.1841379932e-003  -1.4074522509e-002   1.0022201074e-001  -3.1943233778e-002   1.0046778006e-001  -3.2597821250e-002  -7.6167382719e-002  -2.4534267854e-002
  7.0960000000e+010   2.7606315566e-003  -1.4736300493e-002   1.0016248031e-001  -3.2083512679e-002   1.0040728392e-001  -3.2736375507e-002  -7.7389442662e-002  -2.0445532653e-002
  7.0980000000e+010   3.3100058500e-003  -1.5409516685e-002   1.0010119007e-001  -3.2227284713e-002   1.0034501810e-001  -3.2878417889e-002  -7.8429394408e-002  -1.6316008918e-002
  7.1000000000e+010   3.8318219952e-003  -1.6093000455e-002   1.0003813373e-001  -3.2374539422e-002   1.0028097631e-001  -3.3023938320e-002  -7.9286078678e-002  -1.2153902513e-002
  7.1020000000e+010   4.3256864033e-003  -1.6785577597e-002   9.9973304940e-002  -3.2525266050e-002   1.0021515217e-001  -3.3172926430e-002  -7.9958692419e-002  -7.9674432415e-003
  7.1040000000e+010   4.7912508368e-003  -1.7486072009e-002   9.9906697253e-002  -3.2679453552e-002   1.0014753922e-001  -3.3325371558e-002  -8.0446788926e-002  -3.7648694556e-003
  7.1060000000e+010   5.2282124075e-003  -1.8193307362e-002   9.9838304134e-002  -3.2837090589e-002   1.0007813089e-001  -3.3481262749e-002  -8.0750277317e-002   4.4558730935e-004
  7.1080000000e+010   5.6363135122e-003  -1.8906108763e-002   9.9768118966e-002  -3.2998165531e-002   1.0000692051e-001  -3.3640588759e-002  -8.0869421343e-002   4.6557176381e-003
  7.1100000000e+010   6.0153417041e-003  -1.9623304398e-002   9.9696135044e-002  -3.3162666459e-002   9.9933901347e-002  -3.3803338050e-002  -8.0804837555e-002   8.8573494543e-003
  7.1120000000e+010   6.3651295027e-003  -2.0343727160e-002   9.9622345582e-002  -3.3330581162e-002   9.9859066551e-002  -3.3969498799e-002  -8.0557492826e-002   1.3042363125e-002
  7.1140000000e+010   6.6855541418e-003  -2.1066216264e-002   9.9546743710e-002  -3.3501897144e-002   9.9782409195e-002  -3.4139058891e-002  -8.0128701229e-002   1.7202706427e-002
  7.1160000000e+010   6.9765372571e-003  -2.1789618841e-002   9.9469322477e-002  -3.3676601619e-002   9.9703922257e-002  -3.4312005923e-002  -7.9520120289e-002   2.1330409339e-002
  7.1180000000e+010   7.2380445130e-003  -2.2512791503e-002   9.9390074852e-002  -3.3854681517e-002   9.9623598631e-002  -3.4488327205e-002  -7.8733746608e-002   2.5417598650e-002
  7.1200000000e+010   7.4700851717e-003  -2.3234601893e-002   9.9308993725e-002  -3.4036123480e-002   9.9541431123e-002  -3.4668009762e-002  -7.7771910877e-002   2.9456512337e-002
  7.1220000000e+010   7.6727116030e-003  -2.3953930203e-002   9.9226071908e-002  -3.4220913867e-002   9.9457412455e-002  -3.4851040332e-002  -7.6637272284e-002   3.3439513701e-002
  7.1240000000e+010   7.8460187383e-003  -2.4669670664e-002   9.9141302134e-002  -3.4409038753e-002   9.9371535262e-002  -3.5037405368e-002  -7.5332812332e-002   3.7359105233e-002
  7.1260000000e+010   7.9901434682e-003  -2.5380733011e-002   9.9054677062e-002  -3.4600483930e-002   9.9283792099e-002  -3.5227091039e-002  -7.3861828076e-002   4.1207942180e-002
  7.1280000000e+010   8.1052639861e-003  -2.6086043908e-002   9.8966189277e-002  -3.4795234911e-002   9.9194175437e-002  -3.5420083233e-002  -7.2227924792e-002   4.4978845795e-002
  7.1300000000e+010   8.1915990789e-003  -2.6784548344e-002   9.8875831289e-002  -3.4993276926e-002   9.9102677666e-002  -3.5616367554e-002  -7.0435008105e-002   4.8664816238e-002
  7.1320000000e+010   8.2494073651e-003  -2.7475210996e-002   9.8783595537e-002  -3.5194594926e-002   9.9009291098e-002  -3.5815929325e-002  -6.8487275570e-002   5.2259045116e-002
  7.1340000000e+010   8.2789864836e-003  -2.8157017544e-002   9.8689474388e-002  -3.5399173586e-002   9.8914007966e-002  -3.6018753589e-002  -6.6389207738e-002   5.5754927628e-002
  7.1360000000e+010   8.2806722334e-003  -2.8828975960e-002   9.8593460140e-002  -3.5606997301e-002   9.8816820426e-002  -3.6224825111e-002  -6.4145558730e-002   5.9146074308e-002
  7.1380000000e+010   8.2548376658e-003  -2.9490117746e-002   9.8495545021e-002  -3.5818050191e-002   9.8717720559e-002  -3.6434128376e-002  -6.1761346315e-002   6.2426322326e-002
  7.1400000000e+010   8.2018921318e-003  -3.0139499135e-002   9.8395721194e-002  -3.6032316102e-002   9.8616700370e-002  -3.6646647592e-002  -5.9241841534e-002   6.5589746349e-002
  7.1420000000e+010   8.1222802850e-003  -3.0776202250e-002   9.8293980754e-002  -3.6249778606e-002   9.8513751792e-002  -3.6862366690e-002  -5.6592557877e-002   6.8630668927e-002
  7.1440000000e+010   8.0164810427e-003  -3.1399336209e-002   9.8190315733e-002  -3.6470421000e-002   9.8408866686e-002  -3.7081269327e-002  -5.3819240038e-002   7.1543670391e-002
  7.1460000000e+010   7.8850065066e-003  -3.2008038195e-002   9.8084718098e-002  -3.6694226314e-002   9.8302036843e-002  -3.7303338885e-002  -5.0927852273e-002   7.4323598250e-002
  7.1480000000e+010   7.7284008453e-003  -3.2601474468e-002   9.7977179756e-002  -3.6921177302e-002   9.8193253984e-002  -3.7528558472e-002  -4.7924566373e-002   7.6965576062e-002
  7.1500000000e+010   7.5472391397e-003  -3.3178841340e-002   9.7867692551e-002  -3.7151256454e-002   9.8082509763e-002  -3.7756910924e-002  -4.4815749286e-002   7.9465011773e-002
  7.1520000000e+010   7.3421261945e-003  -3.3739366085e-002   9.7756248269e-002  -3.7384445988e-002   9.7969795769e-002  -3.7988378806e-002  -4.1607950408e-002   8.1817605503e-002
  7.1540000000e+010   7.1136953162e-003  -3.4282307811e-002   9.7642838638e-002  -3.7620727858e-002   9.7855103524e-002  -3.8222944412e-002  -3.8307888559e-002   8.4019356771e-002
  7.1560000000e+010   6.8626070609e-003  -3.4806958276e-002   9.7527455330e-002  -3.7860083752e-002   9.7738424488e-002  -3.8460589768e-002  -3.4922438689e-002   8.6066571141e-002
  7.1580000000e+010   6.5895479533e-003  -3.5312642647e-002   9.7410089960e-002  -3.8102495091e-002   9.7619750058e-002  -3.8701296630e-002  -3.1458618310e-002   8.7955866282e-002
  7.1600000000e+010   6.2952291793e-003  -3.5798720211e-002   9.7290734091e-002  -3.8347943036e-002   9.7499071573e-002  -3.8945046488e-002  -2.7923573706e-002   8.9684177437e-002
  7.1620000000e+010   5.9803852537e-003  -3.6264585030e-002   9.7169379234e-002  -3.8596408484e-002   9.7376380312e-002  -3.9191820567e-002  -2.4324565934e-002   9.1248762275e-002
  7.1640000000e+010   5.6457726658e-003  -3.6709666540e-002   9.7046016848e-002  -3.8847872073e-002   9.7251667495e-002  -3.9441599824e-002  -2.0668956646e-002   9.2647205142e-002
  7.1660000000e+010   5.2921685045e-003  -3.7133430098e-002   9.6920638342e-002  -3.9102314179e-002   9.7124924288e-002  -3.9694364955e-002  -1.6964193748e-002   9.3877420683e-002
  7.1680000000e+010   4.9203690655e-003  -3.7535377466e-002   9.6793235080e-002  -3.9359714924e-002   9.6996141804e-002  -3.9950096393e-002  -1.3217796947e-002   9.4937656840e-002
  7.1700000000e+010   4.5311884425e-003  -3.7915047248e-002   9.6663798378e-002  -3.9620054168e-002   9.6865311101e-002  -4.0208774308e-002  -9.4373431855e-003   9.5826497229e-002
  7.1720000000e+010   4.1254571040e-003  -3.8272015264e-002   9.6532319506e-002  -3.9883311519e-002   9.6732423188e-002  -4.0470378610e-002  -5.6304520084e-003   9.6542862867e-002
  7.1740000000e+010   3.7040204596e-003  -3.8605894869e-002   9.6398789693e-002  -4.0149466329e-002   9.6597469023e-002  -4.0734888951e-002  -1.8047708830e-003   9.7086013285e-002
  7.1760000000e+010   3.2677374155e-003  -3.8916337218e-002   9.6263200125e-002  -4.0418497699e-002   9.6460439518e-002  -4.1002284724e-002   2.0320394999e-003   9.7455546984e-002
  7.1780000000e+010   2.8174789239e-003  -3.9203031469e-002   9.6125541948e-002  -4.0690384474e-002   9.6321325538e-002  -4.1272545064e-002   5.8723199153e-003   9.7651401273e-002
  7.1800000000e+010   2.3541265265e-003  -3.9465704931e-002   9.5985806270e-002  -4.0965105254e-002   9.6180117904e-002  -4.1545648853e-002   9.7084272583e-003   9.7673851465e-002
  7.1820000000e+010   1.8785708951e-003  -3.9704123160e-002   9.5843984162e-002  -4.1242638386e-002   9.6036807394e-002  -4.1821574715e-002   1.3532749135e-002   9.7523509439e-002
  7.1840000000e+010   1.3917103720e-003  -3.9918089992e-002   9.5700066660e-002  -4.1522961970e-002   9.5891384747e-002  -4.2100301023e-002   1.7337718364e-002   9.7201321582e-002
  7.1860000000e+010   8.9444951109e-004  -4.0107447525e-002   9.5554044764e-002  -4.1806053861e-002   9.5743840661e-002  -4.2381805898e-002   2.1115827361e-002   9.6708566103e-002
  7.1880000000e+010   3.8769762279e-004  -4.0272076038e-002   9.5405909445e-002  -4.2091891668e-002   9.5594165796e-002  -4.2666067208e-002   2.4859642379e-002   9.6046849732e-002
  7.1900000000e+010  -1.2763267565e-004  -4.0411893865e-002   9.5255651643e-002  -4.2380452754e-002   9.5442350779e-002  -4.2953062573e-002   2.8561817583e-002   9.5218103813e-002
  7.1920000000e+010  -6.5062690188e-004  -4.0526857205e-002   9.5103262269e-002  -4.2671714245e-002   9.5288386203e-002  -4.3242769365e-002   3.2215108927e-002   9.4224579789e-002
  7.1940000000e+010  -1.1803701407e-003  -4.0616959883e-002   9.4948732205e-002  -4.2965653021e-002   9.5132262626e-002  -4.3535164706e-002   3.5812387807e-002   9.3068844103e-002
  7.1960000000e+010  -1.7159484645e-003  -4.0682233054e-002   9.4792052312e-002  -4.3262245724e-002   9.4973970579e-002  -4.3830225474e-002   3.9346654478e-002   9.1753772514e-002
  7.1980000000e+010  -2.2564503394e-003  -4.0722744858e-002   9.4633213423e-002  -4.3561468759e-002   9.4813500565e-002  -4.4127928304e-002   4.2811051194e-002   9.0282543842e-002
  7.2000000000e+010  -2.8009680166e-003  -4.0738600021e-002   9.4472206354e-002  -4.3863298292e-002   9.4650843058e-002  -4.4428249584e-002   4.6198875051e-002   8.8658633164e-002
  7.2020000000e+010  -3.3485989051e-003  -4.0729939404e-002   9.4309021896e-002  -4.4167710256e-002   9.4485988511e-002  -4.4731165461e-002   4.9503590525e-002   8.6885804455e-002
  7.2040000000e+010  -3.8984469251e-003  -4.0696939503e-002   9.4143650826e-002  -4.4474680349e-002   9.4318927352e-002  -4.5036651843e-002   5.2718841657e-002   8.4968102710e-002
  7.2060000000e+010  -4.4496238403e-003  -4.0639811898e-002   9.3976083903e-002  -4.4784184035e-002   9.4149649989e-002  -4.5344684397e-002   5.5838463884e-002   8.2909845549e-002
  7.2080000000e+010  -5.0012505660e-003  -4.0558802661e-002   9.3806311870e-002  -4.5096196548e-002   9.3978146813e-002  -4.5655238551e-002   5.8856495480e-002   8.0715614324e-002
  7.2100000000e+010  -5.5524584534e-003  -4.0454191706e-002   9.3634325459e-002  -4.5410692893e-002   9.3804408197e-002  -4.5968289497e-002   6.1767188603e-002   7.8390244749e-002
  7.2120000000e+010  -6.1023905458e-003  -4.0326292105e-002   9.3460115392e-002  -4.5727647846e-002   9.3628424499e-002  -4.6283812192e-002   6.4565019906e-002   7.5938817069e-002
  7.2140000000e+010  -6.6502028073e-003  -4.0175449350e-002   9.3283672379e-002  -4.6047035955e-002   9.3450186066e-002  -4.6601781358e-002   6.7244700709e-002   7.3366645782e-002
  7.2160000000e+010  -7.1950653207e-003  -4.0002040575e-002   9.3104987126e-002  -4.6368831545e-002   9.3269683233e-002  -4.6922171484e-002   6.9801186718e-002   7.0679268944e-002
