# Hz S RI R 1.000000
! Metas.Vna.Tools, 2.4.7898.19887
! Metas.Vna.Data, 2.4.7898.19873
! Created: UTC 2021.09.30 14:31:00
! FREQ                re:S1,1             im:S1,1             re:S2,1             im:S2,1             re:S1,2             im:S1,2             re:S2,2             im:S2,2          
  7.0000000000e+010   3.5568233124e-002  -2.5920320607e-002   4.3543587536e-001   2.4410067958e-001   4.2926589150e-001   2.5988703170e-001  -8.0642937473e-002  -9.1176054523e-002
  7.0020000000e+010   3.5421250690e-002  -2.6073390652e-002   4.3566122180e-001   2.4435473407e-001   4.2948693646e-001   2.6015491766e-001  -8.2405378121e-002  -9.0388412691e-002
  7.0040000000e+010   3.5265711066e-002  -2.6234069541e-002   4.3589203843e-001   2.4458439210e-001   4.2971422771e-001   2.6039833231e-001  -8.4125848001e-002  -8.9515759621e-002
  7.0060000000e+010   3.5101531767e-002  -2.6402208591e-002   4.3612827281e-001   2.4478959967e-001   4.2994771392e-001   2.6061721859e-001  -8.5801747820e-002  -8.8558837836e-002
  7.0080000000e+010   3.4928631539e-002  -2.6577649379e-002   4.3636987063e-001   2.4497030499e-001   4.3018734181e-001   2.6081152166e-001  -8.7430508670e-002  -8.7518502870e-002
  7.0100000000e+010   3.4746930642e-002  -2.6760223790e-002   4.3661677571e-001   2.4512645858e-001   4.3043305614e-001   2.6098118889e-001  -8.9009596168e-002  -8.6395722724e-002
  7.0120000000e+010   3.4556351128e-002  -2.6949754077e-002   4.3686893003e-001   2.4525801321e-001   4.3068479971e-001   2.6112616994e-001  -9.0536514563e-002  -8.5191577143e-002
  7.0140000000e+010   3.4356817121e-002  -2.7146052939e-002   4.3712627374e-001   2.4536492396e-001   4.3094251342e-001   2.6124641670e-001  -9.2008810835e-002  -8.3907256718e-002
  7.0160000000e+010   3.4148255108e-002  -2.7348923612e-002   4.3738874517e-001   2.4544714822e-001   4.3120613625e-001   2.6134188337e-001  -9.3424078753e-002  -8.2544061817e-002
  7.0180000000e+010   3.3930594220e-002  -2.7558159972e-002   4.3765628087e-001   2.4550464567e-001   4.3147560528e-001   2.6141252642e-001  -9.4779962898e-002  -8.1103401340e-002
  7.0200000000e+010   3.3703766524e-002  -2.7773546658e-002   4.3792881559e-001   2.4553737836e-001   4.3175085573e-001   2.6145830463e-001  -9.6074162650e-002  -7.9586791299e-002
  7.0220000000e+010   3.3467707310e-002  -2.7994859203e-002   4.3820628233e-001   2.4554531066e-001   4.3203182095e-001   2.6147917912e-001  -9.7304436108e-002  -7.7995853229e-002
  7.0240000000e+010   3.3222355382e-002  -2.8221864182e-002   4.3848861234e-001   2.4552840931e-001   4.3231843243e-001   2.6147511330e-001  -9.8468603966e-002  -7.6332312425e-002
  7.0260000000e+010   3.2967653345e-002  -2.8454319378e-002   4.3877573515e-001   2.4548664339e-001   4.3261061987e-001   2.6144607295e-001  -9.9564553320e-002  -7.4597996011e-002
  7.0280000000e+010   3.2703547895e-002  -2.8691973957e-002   4.3906757857e-001   2.4541998439e-001   4.3290831115e-001   2.6139202619e-001  -1.0059024140e-001  -7.2794830846e-002
  7.0300000000e+010   3.2429990103e-002  -2.8934568662e-002   4.3936406874e-001   2.4532840615e-001   4.3321143235e-001   2.6131294351e-001  -1.0154369923e-001  -7.0924841256e-002
  7.0320000000e+010   3.2146935700e-002  -2.9181836014e-002   4.3966513010e-001   2.4521188495e-001   4.3351990778e-001   2.6120879779e-001  -1.0242303519e-001  -6.8990146615e-002
  7.0340000000e+010   3.1854345362e-002  -2.9433500537e-002   4.3997068546e-001   2.4507039943e-001   4.3383366003e-001   2.6107956425e-001  -1.0322643853e-001  -6.6992958754e-002
  7.0360000000e+010   3.1552184981e-002  -2.9689278989e-002   4.4028065600e-001   2.4490393067e-001   4.3415260993e-001   2.6092522054e-001  -1.0395218269e-001  -6.4935579228e-002
  7.0380000000e+010   3.1240425951e-002  -2.9948880612e-002   4.4059496127e-001   2.4471246216e-001   4.3447667661e-001   2.6074574671e-001  -1.0459862865e-001  -6.2820396418e-002
  7.0400000000e+010   3.0919045428e-002  -3.0212007388e-002   4.4091351925e-001   2.4449597984e-001   4.3480577750e-001   2.6054112521e-001  -1.0516422805e-001  -6.0649882488e-002
  7.0420000000e+010   3.0588026602e-002  -3.0478354320e-002   4.4123624633e-001   2.4425447207e-001   4.3513982837e-001   2.6031134091e-001  -1.0564752628e-001  -5.8426590199e-002
  7.0440000000e+010   3.0247358956e-002  -3.0747609715e-002   4.4156305736e-001   2.4398792966e-001   4.3547874335e-001   2.6005638111e-001  -1.0604716536e-001  -5.6153149581e-002
  7.0460000000e+010   2.9897038518e-002  -3.1019455486e-002   4.4189386566e-001   2.4369634586e-001   4.3582243493e-001   2.5977623555e-001  -1.0636188681e-001  -5.3832264466e-002
  7.0480000000e+010   2.9537068115e-002  -3.1293567465e-002   4.4222858305e-001   2.4337971640e-001   4.3617081399e-001   2.5947089641e-001  -1.0659053427e-001  -5.1466708890e-002
  7.0500000000e+010   2.9167457607e-002  -3.1569615729e-002   4.4256711985e-001   2.4303803946e-001   4.3652378984e-001   2.5914035830e-001  -1.0673205606e-001  -4.9059323372e-002
  7.0520000000e+010   2.8788224125e-002  -3.1847264934e-002   4.4290938492e-001   2.4267131568e-001   4.3688127020e-001   2.5878461832e-001  -1.0678550755e-001  -4.6613011067e-002
  7.0540000000e+010   2.8399392294e-002  -3.2126174668e-002   4.4325528570e-001   2.4227954819e-001   4.3724316130e-001   2.5840367600e-001  -1.0675005342e-001  -4.4130733803e-002
  7.0560000000e+010   2.8000994451e-002  -3.2405999807e-002   4.4360472819e-001   2.4186274259e-001   4.3760936779e-001   2.5799753334e-001  -1.0662496973e-001  -4.1615508012e-002
  7.0580000000e+010   2.7593070852e-002  -3.2686390890e-002   4.4395761700e-001   2.4142090695e-001   4.3797979289e-001   2.5756619483e-001  -1.0640964586e-001  -3.9070400552e-002
  7.0600000000e+010   2.7175669872e-002  -3.2966994493e-002   4.4431385537e-001   2.4095405186e-001   4.3835433829e-001   2.5710966740e-001  -1.0610358629e-001  -3.6498524432e-002
  7.0620000000e+010   2.6748848188e-002  -3.3247453629e-002   4.4467334519e-001   2.4046219035e-001   4.3873290428e-001   2.5662796048e-001  -1.0570641216e-001  -3.3903034444e-002
  7.0640000000e+010   2.6312670963e-002  -3.3527408140e-002   4.4503598703e-001   2.3994533797e-001   4.3911538970e-001   2.5612108598e-001  -1.0521786276e-001  -3.1287122714e-002
  7.0660000000e+010   2.5867212005e-002  -3.3806495112e-002   4.4540168014e-001   2.3940351276e-001   4.3950169200e-001   2.5558905830e-001  -1.0463779673e-001  -2.8654014167e-002
  7.0680000000e+010   2.5412553929e-002  -3.4084349290e-002   4.4577032253e-001   2.3883673524e-001   4.3989170724e-001   2.5503189429e-001  -1.0396619319e-001  -2.6006961927e-002
  7.0700000000e+010   2.4948788296e-002  -3.4360603503e-002   4.4614181092e-001   2.3824502844e-001   4.4028533016e-001   2.5444961334e-001  -1.0320315263e-001  -2.3349242645e-002
  7.0720000000e+010   2.4476015745e-002  -3.4634889102e-002   4.4651604082e-001   2.3762841788e-001   4.4068245413e-001   2.5384223730e-001  -1.0234889760e-001  -2.0684151776e-002
  7.0740000000e+010   2.3994346110e-002  -3.4906836394e-002   4.4689290654e-001   2.3698693156e-001   4.4108297127e-001   2.5320979050e-001  -1.0140377328e-001  -1.8014998799e-002
  7.0760000000e+010   2.3503898527e-002  -3.5176075093e-002   4.4727230120e-001   2.3632060001e-001   4.4148677239e-001   2.5255229978e-001  -1.0036824783e-001  -1.5345102401e-002
  7.0780000000e+010   2.3004801525e-002  -3.5442234769e-002   4.4765411678e-001   2.3562945621e-001   4.4189374704e-001   2.5186979447e-001  -9.9242912527e-002  -1.2677785617e-002
  7.0800000000e+010   2.2497193101e-002  -3.5704945307e-002   4.4803824412e-001   2.3491353566e-001   4.4230378359e-001   2.5116230639e-001  -9.8028481752e-002  -1.0016370952e-002
  7.0820000000e+010   2.1981220790e-002  -3.5963837370e-002   4.4842457296e-001   2.3417287635e-001   4.4271676916e-001   2.5042986984e-001  -9.6725792764e-002  -7.3641754713e-003
  7.0840000000e+010   2.1457041708e-002  -3.6218542861e-002   4.4881299196e-001   2.3340751876e-001   4.4313258972e-001   2.4967252162e-001  -9.5335805288e-002  -4.7245058892e-003
  7.0860000000e+010   2.0924822592e-002  -3.6468695394e-002   4.4920338875e-001   2.3261750584e-001   4.4355113011e-001   2.4889030100e-001  -9.3859600909e-002  -2.1006536457e-003
  7.0880000000e+010   2.0384739818e-002  -3.6713930767e-002   4.4959564990e-001   2.3180288304e-001   4.4397227402e-001   2.4808324976e-001  -9.2298382273e-002   5.0411000969e-004
  7.0900000000e+010   1.9836979403e-002  -3.6953887434e-002   4.4998966102e-001   2.3096369827e-001   4.4439590405e-001   2.4725141213e-001  -9.0653472092e-002   3.0865389245e-003
  7.0920000000e+010   1.9281737002e-002  -3.7188206979e-002   4.5038530672e-001   2.3010000193e-001   4.4482190174e-001   2.4639483484e-001  -8.8926311964e-002   5.6434169299e-003
  7.0940000000e+010   1.8719217876e-002  -3.7416534592e-002   4.5078247066e-001   2.2921184690e-001   4.4525014760e-001   2.4551356710e-001  -8.7118460993e-002   8.1715627000e-003
  7.0960000000e+010   1.8149636850e-002  -3.7638519546e-002   4.5118103560e-001   2.2829928850e-001   4.4568052109e-001   2.4460766056e-001  -8.5231594222e-002   1.0667834576e-002
  7.0980000000e+010   1.7573218262e-002  -3.7853815669e-002   4.5158088339e-001   2.2736238453e-001   4.4611290073e-001   2.4367716937e-001  -8.3267500877e-002   1.3129135348e-002
  7.1000000000e+010   1.6990195885e-002  -3.8062081820e-002   4.5198189503e-001   2.2640119523e-001   4.4654716404e-001   2.4272215011e-001  -8.1228082421e-002   1.5552416985e-002
  7.1020000000e+010   1.6400812837e-002  -3.8262982357e-002   4.5238395066e-001   2.2541578329e-001   4.4698318762e-001   2.4174266185e-001  -7.9115350422e-002   1.7934685302e-002
  7.1040000000e+010   1.5805321479e-002  -3.8456187608e-002   4.5278692963e-001   2.2440621385e-001   4.4742084717e-001   2.4073876608e-001  -7.6931424239e-002   2.0273004572e-002
  7.1060000000e+010   1.5203983296e-002  -3.8641374332e-002   4.5319071048e-001   2.2337255447e-001   4.4786001751e-001   2.3971052673e-001  -7.4678528530e-002   2.2564502046e-002
  7.1080000000e+010   1.4597068751e-002  -3.8818226184e-002   4.5359517101e-001   2.2231487515e-001   4.4830057261e-001   2.3865801019e-001  -7.2358990571e-002   2.4806372408e-002
  7.1100000000e+010   1.3984857143e-002  -3.8986434167e-002   4.5400018826e-001   2.2123324829e-001   4.4874238561e-001   2.3758128526e-001  -6.9975237417e-002   2.6995882127e-002
  7.1120000000e+010   1.3367636429e-002  -3.9145697082e-002   4.5440563861e-001   2.2012774871e-001   4.4918532885e-001   2.3648042316e-001  -6.7529792873e-002   2.9130373722e-002
  7.1140000000e+010   1.2745703043e-002  -3.9295721975e-002   4.5481139772e-001   2.1899845362e-001   4.4962927393e-001   2.3535549754e-001  -6.5025274317e-002   3.1207269910e-002
  7.1160000000e+010   1.2119361697e-002  -3.9436224566e-002   4.5521734062e-001   2.1784544263e-001   4.5007409167e-001   2.3420658443e-001  -6.2464389342e-002   3.3224077659e-002
  7.1180000000e+010   1.1488925159e-002  -3.9566929687e-002   4.5562334171e-001   2.1666879772e-001   4.5051965222e-001   2.3303376227e-001  -5.9849932255e-002   3.5178392104e-002
  7.1200000000e+010   1.0854714027e-002  -3.9687571694e-002   4.5602927480e-001   2.1546860324e-001   4.5096582501e-001   2.3183711187e-001  -5.7184780410e-002   3.7067900352e-002
  7.1220000000e+010   1.0217056476e-002  -3.9797894882e-002   4.5643501313e-001   2.1424494591e-001   4.5141247885e-001   2.3061671643e-001  -5.4471890401e-002   3.8890385146e-002
  7.1240000000e+010   9.5762880034e-003  -3.9897653887e-002   4.5684042939e-001   2.1299791477e-001   4.5185948188e-001   2.2937266150e-001  -5.1714294104e-002   4.0643728392e-002
  7.1260000000e+010   8.9327511428e-003  -3.9986614075e-002   4.5724539577e-001   2.1172760122e-001   4.5230670167e-001   2.2810503500e-001  -4.8915094591e-002   4.2325914544e-002
  7.1280000000e+010   8.2867951789e-003  -4.0064551920e-002   4.5764978397e-001   2.1043409896e-001   4.5275400522e-001   2.2681392716e-001  -4.6077461901e-002   4.3935033830e-002
  7.1300000000e+010   7.6387758387e-003  -4.0131255377e-002   4.5805346521e-001   2.0911750402e-001   4.5320125897e-001   2.2549943057e-001  -4.3204628694e-002   4.5469285333e-002
  7.1320000000e+010   6.9890549721e-003  -4.0186524235e-002   4.5845631031e-001   2.0777791472e-001   4.5364832886e-001   2.2416164013e-001  -4.0299885781e-002   4.6926979897e-002
  7.1340000000e+010   6.3380002180e-003  -4.0230170457e-002   4.5885818966e-001   2.0641543164e-001   4.5409508032e-001   2.2280065303e-001  -3.7366577544e-002   4.8306542870e-002
  7.1360000000e+010   5.6859846576e-003  -4.0262018514e-002   4.5925897329e-001   2.0503015767e-001   4.5454137834e-001   2.2141656877e-001  -3.4408097246e-002   4.9606516674e-002
  7.1380000000e+010   5.0333864547e-003  -4.0281905697e-002   4.5965853086e-001   2.0362219791e-001   4.5498708747e-001   2.2000948912e-001  -3.1427882246e-002   5.0825563199e-002
  7.1400000000e+010   4.3805884831e-003  -4.0289682417e-002   4.6005673174e-001   2.0219165973e-001   4.5543207187e-001   2.1857951810e-001  -2.8429409123e-002   5.1962466007e-002
  7.1420000000e+010   3.7279779427e-003  -4.0285212491e-002   4.6045344496e-001   2.0073865271e-001   4.5587619531e-001   2.1712676200e-001  -2.5416188709e-002   5.3016132357e-002
  7.1440000000e+010   3.0759459635e-003  -4.0268373413e-002   4.6084853933e-001   1.9926328865e-001   4.5631932122e-001   2.1565132934e-001  -2.2391761054e-002   5.3985595033e-002
  7.1460000000e+010   2.4248871991e-003  -4.0239056601e-002   4.6124188337e-001   1.9776568152e-001   4.5676131269e-001   2.1415333084e-001  -1.9359690318e-002   5.4870013981e-002
  7.1480000000e+010   1.7751994088e-003  -4.0197167639e-002   4.6163334542e-001   1.9624594749e-001   4.5720203256e-001   2.1263287945e-001  -1.6323559597e-002   5.5668677747e-002
  7.1500000000e+010   1.1272830305e-003  -4.0142626492e-002   4.6202279361e-001   1.9470420487e-001   4.5764134336e-001   2.1109009030e-001  -1.3286965709e-002   5.6381004710e-002
  7.1520000000e+010   4.8154074390e-004  -4.0075367709e-002   4.6241009594e-001   1.9314057412e-001   4.5807910742e-001   2.0952508068e-001  -1.0253513922e-002   5.7006544120e-002
  7.1540000000e+010  -1.6162297554e-004  -3.9995340603e-002   4.6279512023e-001   1.9155517783e-001   4.5851518685e-001   2.0793797004e-001  -7.2268126515e-003   5.7544976918e-002
  7.1560000000e+010  -8.0180231041e-004  -3.9902509420e-002   4.6317773422e-001   1.8994814069e-001   4.5894944355e-001   2.0632887997e-001  -4.2104681334e-003   5.7996116357e-002
  7.1580000000e+010  -1.4385905633e-003  -3.9796853479e-002   4.6355780558e-001   1.8831958947e-001   4.5938173932e-001   2.0469793418e-001  -1.2080790698e-003   5.8359908408e-002
  7.1600000000e+010  -2.0715806254e-003  -3.9678367301e-002   4.6393520189e-001   1.8666965301e-001   4.5981193579e-001   2.0304525848e-001   1.7767687299e-003   5.8636431958e-002
  7.1620000000e+010  -2.7003654522e-003  -3.9547060715e-002   4.6430979074e-001   1.8499846221e-001   4.6023989450e-001   2.0137098075e-001   4.7405077128e-003   5.8825898790e-002
  7.1640000000e+010  -3.3245385440e-003  -3.9402958942e-002   4.6468143968e-001   1.8330615000e-001   4.6066547694e-001   1.9967523097e-001   7.6795939398e-003   5.8928653354e-002
  7.1660000000e+010  -3.9436944324e-003  -3.9246102667e-002   4.6505001630e-001   1.8159285131e-001   4.6108854452e-001   1.9795814113e-001   1.0590512426e-002   5.8945172325e-002
  7.1680000000e+010  -4.5574291709e-003  -3.9076548076e-002   4.6541538825e-001   1.7985870307e-001   4.6150895867e-001   1.9621984526e-001   1.3469782461e-002   5.8876063945e-002
  7.1700000000e+010  -5.1653408288e-003  -3.8894366890e-002   4.6577742324e-001   1.7810384416e-001   4.6192658079e-001   1.9446047939e-001   1.6313962891e-002   5.8722067149e-002
  7.1720000000e+010  -5.7670299886e-003  -3.8699646364e-002   4.6613598908e-001   1.7632841544e-001   4.6234127234e-001   1.9268018155e-001   1.9119657362e-002   5.8484050489e-002
  7.1740000000e+010  -6.3621002460e-003  -3.8492489272e-002   4.6649095372e-001   1.7453255967e-001   4.6275289485e-001   1.9087909173e-001   2.1883519520e-002   5.8163010834e-002
  7.1760000000e+010  -6.9501587102e-003  -3.8273013868e-002   4.6684218523e-001   1.7271642154e-001   4.6316130990e-001   1.8905735185e-001   2.4602258138e-002   5.7760071866e-002
  7.1780000000e+010  -7.5308165065e-003  -3.8041353827e-002   4.6718955189e-001   1.7088014759e-001   4.6356637922e-001   1.8721510578e-001   2.7272642186e-002   5.7276482373e-002
  7.1800000000e+010  -8.1036892781e-003  -3.7797658169e-002   4.6753292217e-001   1.6902388627e-001   4.6396796467e-001   1.8535249928e-001   2.9891505828e-002   5.6713614326e-002
  7.1820000000e+010  -8.6683976870e-003  -3.7542091149e-002   4.6787216475e-001   1.6714778782e-001   4.6436592827e-001   1.8346967998e-001   3.2455753321e-002   5.6072960760e-002
  7.1840000000e+010  -9.2245679147e-003  -3.7274832143e-002   4.6820714858e-001   1.6525200433e-001   4.6476013223e-001   1.8156679738e-001   3.4962363838e-002   5.5356133451e-002
  7.1860000000e+010  -9.7718321589e-003  -3.6996075497e-002   4.6853774286e-001   1.6333668967e-001   4.6515043899e-001   1.7964400283e-001   3.7408396178e-002   5.4564860397e-002
  7.1880000000e+010  -1.0309829129e-002  -3.6706030364e-002   4.6886381712e-001   1.6140199949e-001   4.6553671122e-001   1.7770144946e-001   3.9790993371e-002   5.3700983108e-002
  7.1900000000e+010  -1.0838204537e-002  -3.6404920520e-002   4.6918524119e-001   1.5944809117e-001   4.6591881187e-001   1.7573929222e-001   4.2107387170e-002   5.2766453702e-002
  7.1920000000e+010  -1.1356611583e-002  -3.6092984151e-002   4.6950188525e-001   1.5747512384e-001   4.6629660416e-001   1.7375768782e-001   4.4354902415e-002   5.1763331816e-002
  7.1940000000e+010  -1.1864711439e-002  -3.5770473628e-002   4.6981361985e-001   1.5548325829e-001   4.6666995165e-001   1.7175679471e-001   4.6530961260e-002   5.0693781341e-002
  7.1960000000e+010  -1.2362173720e-002  -3.5437655258e-002   4.7012031594e-001   1.5347265703e-001   4.6703871823e-001   1.6973677306e-001   4.8633087272e-002   4.9560066974e-002
  7.1980000000e+010  -1.2848676958e-002  -3.5094809012e-002   4.7042184486e-001   1.5144348418e-001   4.6740276816e-001   1.6769778474e-001   5.0658909375e-002   4.8364550606e-002
  7.2000000000e+010  -1.3323909056e-002  -3.4742228238e-002   4.7071807842e-001   1.4939590550e-001   4.6776196610e-001   1.6563999329e-001   5.2606165640e-002   4.7109687540e-002
  7.2020000000e+010  -1.3787567749e-002  -3.4380219349e-002   4.7100888887e-001   1.4733008836e-001   4.6811617709e-001   1.6356356390e-001   5.4472706920e-002   4.5798022552e-002
  7.2040000000e+010  -1.4239361040e-002  -3.4009101495e-002   4.7129414895e-001   1.4524620169e-001   4.6846526664e-001   1.6146866338e-001   5.6256500311e-002   4.4432185798e-002
  7.2060000000e+010  -1.4679007639e-002  -3.3629206213e-002   4.7157373192e-001   1.4314441597e-001   4.6880910071e-001   1.5935546014e-001   5.7955632451e-002   4.3014888575e-002
  7.2080000000e+010  -1.5106237385e-002  -3.3240877062e-002   4.7184751153e-001   1.4102490321e-001   4.6914754575e-001   1.5722412416e-001   5.9568312623e-002   4.1548918940e-002
  7.2100000000e+010  -1.5520791657e-002  -3.2844469231e-002   4.7211536212e-001   1.3888783690e-001   4.6948046870e-001   1.5507482695e-001   6.1092875692e-002   4.0037137198e-002
  7.2120000000e+010  -1.5922423777e-002  -3.2440349145e-002   4.7237715856e-001   1.3673339203e-001   4.6980773705e-001   1.5290774158e-001   6.2527784834e-002   3.8482471264e-002
  7.2140000000e+010  -1.6310899396e-002  -3.2028894033e-002   4.7263277635e-001   1.3456174500e-001   4.7012921882e-001   1.5072304259e-001   6.3871634084e-002   3.6887911900e-002
  7.2160000000e+010  -1.6685996871e-002  -3.1610491494e-002   4.7288209158e-001   1.3237307364e-001   4.7044478263e-001   1.4852090598e-001   6.5123150675e-002   3.5256507853e-002
