# Hz S RI R 1.000000
! Metas.Vna.Tools, 2.4.7898.19887
! Metas.Vna.Data, 2.4.7898.19873
! Created: UTC 2021.09.30 14:31:00
! FREQ                re:S1,1             im:S1,1             re:S2,1             im:S2,1             re:S1,2             im:S1,2             re:S2,2             im:S2,2          
  7.0000000000e+010  -3.3337240794e-002  -2.3562525073e-002   7.1821984352e-002   5.7418991861e-001   7.2415856871e-002   5.7804748556e-001  -2.9965819307e-002  -1.1418894923e-003
  7.0020000000e+010  -3.2075358894e-002  -2.3730619811e-002   7.1786534044e-002   5.7459980666e-001   7.2376945900e-002   5.7846747749e-001  -3.0507596007e-002  -9.3117344672e-004
  7.0040000000e+010  -3.0821245831e-002  -2.3909418543e-002   7.1776908986e-002   5.7499731528e-001   7.2364149845e-002   5.7887483677e-001  -3.1039084447e-002  -6.9397541953e-004
  7.0060000000e+010  -2.9575607942e-002  -2.4098863473e-002   7.1793116224e-002   5.7538234964e-001   7.2377476526e-002   5.7926946632e-001  -3.1559306102e-002  -4.3040404111e-004
  7.0080000000e+010  -2.8339148835e-002  -2.4298879484e-002   7.1835159362e-002   5.7575481492e-001   7.2416930259e-002   5.7965126907e-001  -3.2067286007e-002  -1.4060941229e-004
  7.0100000000e+010  -2.7112568599e-002  -2.4509374123e-002   7.1903038562e-002   5.7611461637e-001   7.2482511861e-002   5.8002014805e-001  -3.2562054347e-002   1.7521685998e-004
  7.0120000000e+010  -2.5896563013e-002  -2.4730237622e-002   7.1996750544e-002   5.7646165930e-001   7.2574218641e-002   5.8037600634e-001  -3.3042648055e-002   5.1684169258e-004
  7.0140000000e+010  -2.4691822756e-002  -2.4961342929e-002   7.2116288581e-002   5.7679584916e-001   7.2692044404e-002   5.8071874715e-001  -3.3508112410e-002   8.8399062229e-004
  7.0160000000e+010  -2.3499032613e-002  -2.5202545778e-002   7.2261642504e-002   5.7711709153e-001   7.2835979450e-002   5.8104827384e-001  -3.3957502635e-002   1.2763479683e-003
  7.0180000000e+010  -2.2318870692e-002  -2.5453684775e-002   7.2432798698e-002   5.7742529215e-001   7.3006010575e-002   5.8136448993e-001  -3.4389885493e-002   1.6935570611e-003
  7.0200000000e+010  -2.1152007635e-002  -2.5714581517e-002   7.2629740108e-002   5.7772035694e-001   7.3202121075e-002   5.8166729914e-001  -3.4804340881e-002   2.1352205382e-003
  7.0220000000e+010  -1.9999105845e-002  -2.5985040731e-002   7.2852446241e-002   5.7800219206e-001   7.3424290741e-002   5.8195660542e-001  -3.5199963407e-002   2.6009007069e-003
  7.0240000000e+010  -1.8860818703e-002  -2.6264850442e-002   7.3100893165e-002   5.7827070390e-001   7.3672495871e-002   5.8223231296e-001  -3.5575863965e-002   3.0901199724e-003
  7.0260000000e+010  -1.7737789810e-002  -2.6553782166e-002   7.3375053515e-002   5.7852579912e-001   7.3946709267e-002   5.8249432623e-001  -3.5931171295e-002   3.6023613337e-003
  7.0280000000e+010  -1.6630652223e-002  -2.6851591126e-002   7.3674896499e-002   5.7876738469e-001   7.4246900243e-002   5.8274255001e-001  -3.6265033522e-002   4.1370689442e-003
  7.0300000000e+010  -1.5540027704e-002  -2.7158016496e-002   7.4000387900e-002   5.7899536789e-001   7.4573034627e-002   5.8297688941e-001  -3.6576619681e-002   4.6936487386e-003
  7.0320000000e+010  -1.4466525980e-002  -2.7472781667e-002   7.4351490083e-002   5.7920965634e-001   7.4925074769e-002   5.8319724989e-001  -3.6865121221e-002   5.2714691238e-003
  7.0340000000e+010  -1.3410744017e-002  -2.7795594540e-002   7.4728162001e-002   5.7941015806e-001   7.5302979547e-002   5.8340353730e-001  -3.7129753478e-002   5.8698617352e-003
  7.0360000000e+010  -1.2373265298e-002  -2.8126147844e-002   7.5130359202e-002   5.7959678147e-001   7.5706704372e-002   5.8359565792e-001  -3.7369757133e-002   6.4881222550e-003
  7.0380000000e+010  -1.1354659117e-002  -2.8464119474e-002   7.5558033837e-002   5.7976943539e-001   7.6136201199e-002   5.8377351844e-001  -3.7584399628e-002   7.1255112941e-003
  7.0400000000e+010  -1.0355479897e-002  -2.8809172857e-002   7.6011134668e-002   5.7992802913e-001   7.6591418534e-002   5.8393702603e-001  -3.7772976560e-002   7.7812553345e-003
  7.0420000000e+010  -9.3762665044e-003  -2.9160957337e-002   7.6489607077e-002   5.8007247245e-001   7.7072301440e-002   5.8408608835e-001  -3.7934813034e-002   8.4545477328e-003
  7.0440000000e+010  -8.4175415972e-003  -2.9519108588e-002   7.6993393073e-002   5.8020267566e-001   7.7578791551e-002   5.8422061359e-001  -3.8069264985e-002   9.1445497824e-003
  7.0460000000e+010  -7.4798109786e-003  -2.9883249044e-002   7.7522431310e-002   5.8031854956e-001   7.8110827083e-002   5.8434051046e-001  -3.8175720454e-002   9.8503918330e-003
  7.0480000000e+010  -6.5635629744e-003  -3.0252988351e-002   7.8076657087e-002   5.8042000553e-001   7.8668342839e-002   5.8444568827e-001  -3.8253600826e-002   1.0571174467e-002
  7.0500000000e+010  -5.6692678265e-003  -3.0627923848e-002   7.8656002370e-002   5.8050695554e-001   7.9251270226e-002   5.8453605691e-001  -3.8302362027e-002   1.1305969731e-002
  7.0520000000e+010  -4.7973771081e-003  -3.1007641058e-002   7.9260395797e-002   5.8057931215e-001   7.9859537269e-002   5.8461152691e-001  -3.8321495667e-002   1.2053822417e-002
  7.0540000000e+010  -3.9483231582e-003  -3.1391714204e-002   7.9889762694e-002   5.8063698858e-001   8.0493068616e-002   5.8467200943e-001  -3.8310530139e-002   1.2813751402e-002
  7.0560000000e+010  -3.1225185380e-003  -3.1779706743e-002   8.0544025087e-002   5.8067989870e-001   8.1151785561e-002   5.8471741633e-001  -3.8269031670e-002   1.3584751027e-002
  7.0580000000e+010  -2.3203555100e-003  -3.2171171925e-002   8.1223101721e-002   5.8070795707e-001   8.1835606052e-002   5.8474766015e-001  -3.8196605310e-002   1.4365792534e-002
  7.0600000000e+010  -1.5422055401e-003  -3.2565653356e-002   8.1926908066e-002   5.8072107897e-001   8.2544444709e-002   5.8476265417e-001  -3.8092895877e-002   1.5155825539e-002
  7.0620000000e+010  -7.8841882317e-004  -3.2962685593e-002   8.2655356341e-002   5.8071918040e-001   8.3278212838e-002   5.8476231243e-001  -3.7957588837e-002   1.5953779557e-002
  7.0640000000e+010  -5.9323833997e-005  -3.3361794745e-002   8.3408355525e-002   5.8070217814e-001   8.4036818449e-002   5.8474654974e-001  -3.7790411130e-002   1.6758565558e-002
  7.0660000000e+010   6.4477309696e-004  -3.3762499095e-002   8.4185811376e-002   5.8066998976e-001   8.4820166272e-002   5.8471528172e-001  -3.7591131932e-002   1.7569077574e-002
  7.0680000000e+010   1.3235881814e-003  -3.4164309732e-002   8.4987626448e-002   5.8062253362e-001   8.5628157775e-002   5.8466842481e-001  -3.7359563358e-002   1.8384194328e-002
  7.0700000000e+010   1.9768605446e-003  -3.4566731204e-002   8.5813700106e-002   5.8055972894e-001   8.6460691180e-002   5.8460589631e-001  -3.7095561097e-002   1.9202780913e-002
  7.0720000000e+010   2.6043525692e-003  -3.4969262178e-002   8.6663928552e-002   5.8048149578e-001   8.7317661486e-002   5.8452761440e-001  -3.6799024989e-002   2.0023690486e-002
  7.0740000000e+010   3.2058502115e-003  -3.5371396110e-002   8.7538204834e-002   5.8038775511e-001   8.8198960484e-002   5.8443349817e-001  -3.6469899529e-002   2.0845766005e-002
  7.0760000000e+010   3.7811632890e-003  -3.5772621933e-002   8.8436418875e-002   5.8027842880e-001   8.9104476780e-002   5.8432346763e-001  -3.6108174303e-002   2.1667841983e-002
  7.0780000000e+010   4.3301257393e-003  -3.6172424754e-002   8.9358457487e-002   5.8015343963e-001   9.0034095816e-002   5.8419744374e-001  -3.5713884360e-002   2.2488746267e-002
  7.0800000000e+010   4.8525958495e-003  -3.6570286551e-002   9.0304204396e-002   5.8001271137e-001   9.0987699889e-002   5.8405534844e-001  -3.5287110508e-002   2.3307301841e-002
  7.0820000000e+010   5.3484564559e-003  -3.6965686890e-002   9.1273540262e-002   5.7985616875e-001   9.1965168172e-002   5.8389710467e-001  -3.4827979546e-002   2.4122328644e-002
  7.0840000000e+010   5.8176151132e-003  -3.7358103645e-002   9.2266342700e-002   5.7968373750e-001   9.2966376742e-002   5.8372263640e-001  -3.4336664413e-002   2.4932645404e-002
  7.0860000000e+010   6.2600042342e-003  -3.7747013718e-002   9.3282486305e-002   5.7949534438e-001   9.3991198596e-002   5.8353186863e-001  -3.3813384279e-002   2.5737071482e-002
  7.0880000000e+010   6.6755811973e-003  -3.8131893773e-002   9.4321842674e-002   5.7929091721e-001   9.5039503680e-002   5.8332472744e-001  -3.3258404547e-002   2.6534428729e-002
  7.0900000000e+010   7.0643284243e-003  -3.8512220972e-002   9.5384280428e-002   5.7907038485e-001   9.6111158911e-002   5.8310113999e-001  -3.2672036794e-002   2.7323543344e-002
  7.0920000000e+010   7.4262534257e-003  -3.8887473707e-002   9.6469665242e-002   5.7883367728e-001   9.7206028200e-002   5.8286103458e-001  -3.2054638632e-002   2.8103247739e-002
  7.0940000000e+010   7.7613888161e-003  -3.9257132342e-002   9.7577859862e-002   5.7858072557e-001   9.8323972480e-002   5.8260434062e-001  -3.1406613492e-002   2.8872382402e-002
  7.0960000000e+010   8.0697922964e-003  -3.9620679954e-002   9.8708724139e-002   5.7831146195e-001   9.9464849733e-002   5.8233098869e-001  -3.0728410339e-002   2.9629797758e-002
  7.0980000000e+010   8.3515466059e-003  -3.9977603070e-002   9.9862115048e-002   5.7802581979e-001   1.0062851501e-001   5.8204091055e-001  -3.0020523312e-002   3.0374356026e-002
  7.1000000000e+010   8.6067594417e-003  -4.0327392408e-002   1.0103788672e-001   5.7772373362e-001   1.0181482047e-001   5.8173403915e-001  -2.9283491284e-002   3.1104933057e-002
  7.1020000000e+010   8.8355633471e-003  -4.0669543610e-002   1.0223589046e-001   5.7740513921e-001   1.0302361539e-001   5.8141030868e-001  -2.8517897352e-002   3.1820420177e-002
  7.1040000000e+010   9.0381155679e-003  -4.1003557974e-002   1.0345597479e-001   5.7706997350e-001   1.0425474621e-001   5.8106965456e-001  -2.7724368254e-002   3.2519725993e-002
  7.1060000000e+010   9.2145978780e-003  -4.1328943188e-002   1.0469798546e-001   5.7671817471e-001   1.0550805654e-001   5.8071201348e-001  -2.6903573711e-002   3.3201778205e-002
  7.1080000000e+010   9.3652163730e-003  -4.1645214041e-002   1.0596176549e-001   5.7634968228e-001   1.0678338724e-001   5.8033732340e-001  -2.6056225694e-002   3.3865525372e-002
  7.1100000000e+010   9.4902012329e-003  -4.1951893149e-002   1.0724715520e-001   5.7596443695e-001   1.0808057636e-001   5.7994552361e-001  -2.5183077627e-002   3.4509938673e-002
  7.1120000000e+010   9.5898064541e-003  -4.2248511654e-002   1.0855399222e-001   5.7556238075e-001   1.0939945927e-001   5.7953655468e-001  -2.4284923505e-002   3.5134013628e-002
  7.1140000000e+010   9.6643095503e-003  -4.2534609928e-002   1.0988211153e-001   5.7514345701e-001   1.1073986861e-001   5.7911035857e-001  -2.3362596959e-002   3.5736771797e-002
  7.1160000000e+010   9.7140112240e-003  -4.2809738256e-002   1.1123134552e-001   5.7470761042e-001   1.1210163437e-001   5.7866687857e-001  -2.2416970236e-002   3.6317262438e-002
  7.1180000000e+010   9.7392350071e-003  -4.3073457518e-002   1.1260152396e-001   5.7425478700e-001   1.1348458391e-001   5.7820605935e-001  -2.1448953125e-002   3.6874564135e-002
  7.1200000000e+010   9.7403268727e-003  -4.3325339853e-002   1.1399247410e-001   5.7378493414e-001   1.1488854198e-001   5.7772784699e-001  -2.0459491805e-002   3.7407786384e-002
  7.1220000000e+010   9.7176548176e-003  -4.3564969307e-002   1.1540402064e-001   5.7329800061e-001   1.1631333075e-001   5.7723218897e-001  -1.9449567636e-002   3.7916071134e-002
  7.1240000000e+010   9.6716084160e-003  -4.3791942477e-002   1.1683598581e-001   5.7279393659e-001   1.1775876987e-001   5.7671903421e-001  -1.8420195884e-002   3.8398594292e-002
  7.1260000000e+010   9.6025983462e-003  -4.4005869129e-002   1.1828818938e-001   5.7227269369e-001   1.1922467647e-001   5.7618833308e-001  -1.7372424382e-002   3.8854567167e-002
  7.1280000000e+010   9.5110558883e-003  -4.4206372808e-002   1.1976044869e-001   5.7173422494e-001   1.2071086523e-001   5.7564003741e-001  -1.6307332138e-002   3.9283237880e-002
  7.1300000000e+010   9.3974323968e-003  -4.4393091424e-002   1.2125257869e-001   5.7117848481e-001   1.2221714838e-001   5.7507410051e-001  -1.5226027880e-002   3.9683892707e-002
  7.1320000000e+010   9.2621987454e-003  -4.4565677829e-002   1.2276439198e-001   5.7060542927e-001   1.2374333574e-001   5.7449047719e-001  -1.4129648541e-002   4.0055857376e-002
  7.1340000000e+010   9.1058447481e-003  -4.4723800365e-002   1.2429569883e-001   5.7001501573e-001   1.2528923477e-001   5.7388912379e-001  -1.3019357705e-002   4.0398498302e-002
  7.1360000000e+010   8.9288785540e-003  -4.4867143399e-002   1.2584630723e-001   5.6940720313e-001   1.2685465061e-001   5.7326999814e-001  -1.1896343982e-002   4.0711223763e-002
  7.1380000000e+010   8.7318260193e-003  -4.4995407838e-002   1.2741602291e-001   5.6878195189e-001   1.2843938609e-001   5.7263305966e-001  -1.0761819356e-002   4.0993485017e-002
  7.1400000000e+010   8.5152300557e-003  -4.5108311615e-002   1.2900464941e-001   5.6813922400e-001   1.3004324178e-001   5.7197826928e-001  -9.6170174630e-003   4.1244777348e-002
  7.1420000000e+010   8.2796499565e-003  -4.5205590162e-002   1.3061198805e-001   5.6747898293e-001   1.3166601603e-001   5.7130558954e-001  -8.4631918471e-003   4.1464641053e-002
  7.1440000000e+010   8.0256607017e-003  -4.5286996856e-002   1.3223783803e-001   5.6680119374e-001   1.3330750500e-001   5.7061498453e-001  -7.3016141592e-003   4.1652662355e-002
  7.1460000000e+010   7.7538522420e-003  -4.5352303440e-002   1.3388199644e-001   5.6610582305e-001   1.3496750270e-001   5.6990641997e-001  -6.1335723255e-003   4.1808474250e-002
  7.1480000000e+010   7.4648287639e-003  -4.5401300421e-002   1.3554425829e-001   5.6539283904e-001   1.3664580104e-001   5.6917986317e-001  -4.9603686768e-003   4.1931757280e-002
  7.1500000000e+010   7.1592079360e-003  -4.5433797443e-002   1.3722441656e-001   5.6466221148e-001   1.3834218983e-001   5.6843528307e-001  -3.7833180467e-003   4.2022240234e-002
  7.1520000000e+010   6.8376201375e-003  -4.5449623635e-002   1.3892226225e-001   5.6391391176e-001   1.4005645685e-001   5.6767265024e-001  -2.6037458382e-003   4.2079700771e-002
  7.1540000000e+010   6.5007076705e-003  -4.5448627931e-002   1.4063758438e-001   5.6314791286e-001   1.4178838791e-001   5.6689193690e-001  -1.4229860646e-003   4.2103965970e-002
  7.1560000000e+010   6.1491239568e-003  -4.5430679365e-002   1.4237017004e-001   5.6236418938e-001   1.4353776682e-001   5.6609311692e-001  -2.4237936528e-004   4.2094912801e-002
  7.1580000000e+010   5.7835327199e-003  -4.5395667337e-002   1.4411980448e-001   5.6156271756e-001   1.4530437549e-001   5.6527616585e-001   9.3672899809e-004   4.2052468518e-002
  7.1600000000e+010   5.4046071543e-003  -4.5343501851e-002   1.4588627106e-001   5.6074347528e-001   1.4708799394e-001   5.6444106090e-001   2.1129911640e-003   4.1976610970e-002
  7.1620000000e+010   5.0130290824e-003  -4.5274113728e-002   1.4766935136e-001   5.5990644207e-001   1.4888840035e-001   5.6358778099e-001   3.2850587074e-003   4.1867368836e-002
  7.1640000000e+010   4.6094880996e-003  -4.5187454786e-002   1.4946882519e-001   5.5905159911e-001   1.5070537110e-001   5.6271630671e-001   4.4515846875e-003   4.1724821770e-002
  7.1660000000e+010   4.1946807112e-003  -4.5083497993e-002   1.5128447063e-001   5.5817892926e-001   1.5253868080e-001   5.6182662037e-001   5.6112257028e-003   4.1549100477e-002
  7.1680000000e+010   3.7693094588e-003  -4.4962237592e-002   1.5311606408e-001   5.5728841705e-001   1.5438810235e-001   5.6091870601e-001   6.7626439517e-003   4.1340386692e-002
  7.1700000000e+010   3.3340820400e-003  -4.4823689191e-002   1.5496338029e-001   5.5638004870e-001   1.5625340696e-001   5.5999254935e-001   7.9045092933e-003   4.1098913089e-002
  7.1720000000e+010   2.8897104223e-003  -4.4667889831e-002   1.5682619239e-001   5.5545381210e-001   1.5813436418e-001   5.5904813788e-001   9.0355013062e-003   4.0824963095e-002
  7.1740000000e+010   2.4369099508e-003  -4.4494898021e-002   1.5870427196e-001   5.5450969687e-001   1.6003074199e-001   5.5808546081e-001   1.0154311342e-002   4.0518870631e-002
  7.1760000000e+010   1.9763984528e-003  -4.4304793735e-002   1.6059738905e-001   5.5354769430e-001   1.6194230679e-001   5.5710450909e-001   1.1259644572e-002   4.0181019768e-002
  7.1780000000e+010   1.5088953392e-003  -4.4097678392e-002   1.6250531221e-001   5.5256779740e-001   1.6386882346e-001   5.5610527541e-001   1.2350222013e-002   3.9811844289e-002
  7.1800000000e+010   1.0351207052e-003  -4.3873674796e-002   1.6442780857e-001   5.5157000092e-001   1.6581005542e-001   5.5508775424e-001   1.3424782551e-002   3.9411827188e-002
  7.1820000000e+010   5.5579442973e-004  -4.3632927051e-002   1.6636464382e-001   5.5055430129e-001   1.6776576463e-001   5.5405194180e-001   1.4482084934e-002   3.8981500068e-002
  7.1840000000e+010   7.1635277298e-005  -4.3375600438e-002   1.6831558232e-001   5.4952069670e-001   1.6973571168e-001   5.5299783607e-001   1.5520909749e-002   3.8521442471e-002
  7.1860000000e+010  -4.1663999918e-004  -4.3101881275e-002   1.7028038709e-001   5.4846918703e-001   1.7171965578e-001   5.5192543679e-001   1.6540061368e-002   3.8032281118e-002
  7.1880000000e+010  -9.0831755122e-004  -4.2811976733e-002   1.7225881988e-001   5.4739977394e-001   1.7371735485e-001   5.5083474550e-001   1.7538369869e-002   3.7514689077e-002
  7.1900000000e+010  -1.4026873231e-003  -4.2506114629e-002   1.7425064117e-001   5.4631246077e-001   1.7572856553e-001   5.4972576550e-001   1.8514692926e-002   3.6969384846e-002
  7.1920000000e+010  -1.8990439342e-003  -4.2184543191e-002   1.7625561029e-001   5.4520725265e-001   1.7775304325e-001   5.4859850186e-001   1.9467917655e-002   3.6397131362e-002
  7.1940000000e+010  -2.3966875541e-003  -4.1847530787e-002   1.7827348536e-001   5.4408415642e-001   1.7979054223e-001   5.4745296145e-001   2.0396962433e-002   3.5798734933e-002
  7.1960000000e+010  -2.8949247692e-003  -4.1495365633e-002   1.8030402342e-001   5.4294318066e-001   1.8184081556e-001   5.4628915293e-001   2.1300778663e-002   3.5175044094e-002
  7.1980000000e+010  -3.3930694400e-003  -4.1128355463e-002   1.8234698044e-001   5.4178433571e-001   1.8390361523e-001   5.4510708672e-001   2.2178352502e-002   3.4526948391e-002
  7.2000000000e+010  -3.8904435469e-003  -4.0746827179e-002   1.8440211132e-001   5.4060763365e-001   1.8597869218e-001   5.4390677505e-001   2.3028706540e-002   3.3855377094e-002
  7.2020000000e+010  -4.3863780249e-003  -4.0351126468e-002   1.8646917001e-001   5.3941308829e-001   1.8806579633e-001   5.4268823192e-001   2.3850901423e-002   3.3161297839e-002
  7.2040000000e+010  -4.8802135843e-003  -3.9941617394e-002   1.8854790950e-001   5.3820071521e-001   1.9016467661e-001   5.4145147315e-001   2.4644037426e-002   3.2445715200e-002
  7.2060000000e+010  -5.3713015179e-003  -3.9518681959e-002   1.9063808185e-001   5.3697053172e-001   1.9227508105e-001   5.4019651631e-001   2.5407255971e-002   3.1709669203e-002
  7.2080000000e+010  -5.8590044918e-003  -3.9082719643e-002   1.9273943828e-001   5.3572255686e-001   1.9439675676e-001   5.3892338078e-001   2.6139741078e-002   3.0954233769e-002
  7.2100000000e+010  -6.3426973209e-003  -3.8634146914e-002   1.9485172919e-001   5.3445681145e-001   1.9652945004e-001   5.3763208773e-001   2.6840720765e-002   3.0180515097e-002
  7.2120000000e+010  -6.8217677256e-003  -3.8173396716e-002   1.9697470418e-001   5.3317331800e-001   1.9867290637e-001   5.3632266010e-001   2.7509468370e-002   2.9389649993e-002
  7.2140000000e+010  -7.2956170708e-003  -3.7700917930e-002   1.9910811213e-001   5.3187210081e-001   2.0082687046e-001   5.3499512262e-001   2.8145303817e-002   2.8582804137e-002
  7.2160000000e+010  -7.7636610845e-003  -3.7217174809e-002   2.0125170120e-001   5.3055318589e-001   2.0299108632e-001   5.3364950181e-001   2.8747594805e-002   2.7761170300e-002
