# Hz S RI R 1.000000
! Metas.Vna.Tools, 2.4.7898.19887
! Metas.Vna.Data, 2.4.7898.19873
! Created: UTC 2021.09.30 14:30:59
! FREQ                re:S1,1             im:S1,1             re:S2,1             im:S2,1             re:S1,2             im:S1,2             re:S2,2             im:S2,2          
  7.0000000000e+010   2.4406372417e-002   6.7697764935e-003  -6.9712965049e-002   5.4180763045e-002  -7.3994782737e-002   4.9699008830e-002   8.7374297027e-002  -6.4591094136e-002
  7.0020000000e+010   2.5072899218e-002   7.1037089385e-003  -6.9733283427e-002   5.4183952400e-002  -7.4020131673e-002   4.9699917753e-002   8.3792251257e-002  -6.7863202084e-002
  7.0040000000e+010   2.5731391305e-002   7.3935680654e-003  -6.9750778835e-002   5.4189177371e-002  -7.4042690435e-002   4.9703130974e-002   8.0084684432e-002  -7.0956683861e-002
  7.0060000000e+010   2.6380805992e-002   7.6396315449e-003  -6.9765449239e-002   5.4196435502e-002  -7.4062455822e-002   4.9708646639e-002   7.6259640816e-002  -7.3867019361e-002
  7.0080000000e+010   2.7020112212e-002   7.8422228694e-003  -6.9777292738e-002   5.4205724094e-002  -7.4079424750e-002   4.9716462612e-002   7.2325330107e-002  -7.6590046109e-002
  7.0100000000e+010   2.7648291925e-002   8.0017107451e-003  -6.9786307569e-002   5.4217040199e-002  -7.4093594255e-002   4.9726576477e-002   6.8290111900e-002  -7.9121965149e-002
  7.0120000000e+010   2.8264341509e-002   8.1185084303e-003  -6.9792492101e-002   5.4230380627e-002  -7.4104961496e-002   4.9738985542e-002   6.4162479943e-002  -8.1459346260e-002
  7.0140000000e+010   2.8867273124e-002   8.1930730219e-003  -6.9795844840e-002   5.4245741945e-002  -7.4113523750e-002   4.9753686836e-002   5.9951046213e-002  -8.3599132496e-002
  7.0160000000e+010   2.9456116046e-002   8.2259046903e-003  -6.9796364426e-002   5.4263120479e-002  -7.4119278417e-002   4.9770677114e-002   5.5664524832e-002  -8.5538644045e-002
  7.0180000000e+010   3.0029917978e-002   8.2175458640e-003  -6.9794049633e-002   5.4282512314e-002  -7.4122223017e-002   4.9789952854e-002   5.1311715866e-002  -8.7275581401e-002
  7.0200000000e+010   3.0587746331e-002   8.1685803653e-003  -6.9788899372e-002   5.4303913297e-002  -7.4122355193e-002   4.9811510262e-002   4.6901489020e-002  -8.8808027842e-002
  7.0220000000e+010   3.1128689469e-002   8.0796324987e-003  -6.9780912689e-002   5.4327319038e-002  -7.4119672709e-002   4.9835345274e-002   4.2442767276e-002  -9.0134451216e-002
  7.0240000000e+010   3.1651857931e-002   7.9513660924e-003  -6.9770088763e-002   5.4352724910e-002  -7.4114173453e-002   4.9861453551e-002   3.7944510488e-002  -9.1253705036e-002
  7.0260000000e+010   3.2156385608e-002   7.7844834950e-003  -6.9756426911e-002   5.4380126055e-002  -7.4105855434e-002   4.9889830489e-002   3.3415698970e-002  -9.2165028868e-002
  7.0280000000e+010   3.2641430889e-002   7.5797245290e-003  -6.9739926583e-002   5.4409517379e-002  -7.4094716785e-002   4.9920471214e-002   2.8865317112e-002  -9.2868048043e-002
  7.0300000000e+010   3.3106177773e-002   7.3378654015e-003  -6.9720587364e-002   5.4440893558e-002  -7.4080755762e-002   4.9953370585e-002   2.4302337038e-002  -9.3362772658e-002
  7.0320000000e+010   3.3549836935e-002   7.0597175754e-003  -6.9698408974e-002   5.4474249039e-002  -7.4063970743e-002   4.9988523197e-002   1.9735702350e-002  -9.3649595905e-002
  7.0340000000e+010   3.3971646759e-002   6.7461266006e-003  -6.9673391267e-002   5.4509578039e-002  -7.4044360232e-002   5.0025923382e-002   1.5174311981e-002  -9.3729291707e-002
  7.0360000000e+010   3.4370874322e-002   6.3979709090e-003  -6.9645534232e-002   5.4546874551e-002  -7.4021922853e-002   5.0065565209e-002   1.0627004184e-002  -9.3603011682e-002
  7.0380000000e+010   3.4746816348e-002   6.0161605730e-003  -6.9614837993e-002   5.4586132341e-002  -7.3996657357e-002   5.0107442487e-002   6.1025406865e-003  -9.3272281436e-002
  7.0400000000e+010   3.5098800102e-002   5.6016360311e-003  -6.9581302805e-002   5.4627344952e-002  -7.3968562617e-002   5.0151548765e-002   1.6095910383e-003  -9.2738996191e-002
  7.0420000000e+010   3.5426184254e-002   5.1553667803e-003  -6.9544929061e-002   5.4670505706e-002  -7.3937637632e-002   5.0197877337e-002  -2.8432828161e-003  -9.2005415768e-002
  7.0440000000e+010   3.5728359688e-002   4.6783500392e-003  -6.9505717284e-002   5.4715607705e-002  -7.3903881521e-002   5.0246421238e-002  -7.2476417202e-003  -9.1074158925e-002
  7.0460000000e+010   3.6004750268e-002   4.1716093822e-003  -6.9463668130e-002   5.4762643832e-002  -7.3867293531e-002   5.0297173251e-002  -1.1595184212e-002  -8.9948197065e-002
  7.0480000000e+010   3.6254813558e-002   3.6361933474e-003  -6.9418782390e-002   5.4811606753e-002  -7.3827873030e-002   5.0350125907e-002  -1.5877761129e-002  -8.8630847327e-002
  7.0500000000e+010   3.6478041486e-002   3.0731740193e-003  -6.9371060986e-002   5.4862488920e-002  -7.3785619513e-002   5.0405271484e-002  -2.0087389888e-002  -8.7125765082e-002
  7.0520000000e+010   3.6673960970e-002   2.4836455895e-003  -6.9320504972e-002   5.4915282569e-002  -7.3740532595e-002   5.0462602013e-002  -2.4216268412e-002  -8.5436935832e-002
  7.0540000000e+010   3.6842134486e-002   1.8687228960e-003  -6.9267115534e-002   5.4969979729e-002  -7.3692612019e-002   5.0522109276e-002  -2.8256788687e-002  -8.3568666542e-002
  7.0560000000e+010   3.6982160587e-002   1.2295399441e-003  -6.9210893988e-002   5.5026572214e-002  -7.3641857648e-002   5.0583784810e-002  -3.2201549909e-002  -8.1525576422e-002
  7.0580000000e+010   3.7093674373e-002   5.6724841045e-004  -6.9151841782e-002   5.5085051633e-002  -7.3588269471e-002   5.0647619908e-002  -3.6043371222e-002  -7.9312587166e-002
  7.0600000000e+010   3.7176347907e-002  -1.1698386820e-004  -6.9089960495e-002   5.5145409387e-002  -7.3531847600e-002   5.0713605621e-002  -3.9775304008e-002  -7.6934912681e-002
  7.0620000000e+010   3.7229890585e-002  -8.2197441837e-004  -6.9025251833e-002   5.5207636674e-002  -7.3472592271e-002   5.0781732758e-002  -4.3390643709e-002  -7.4398048311e-002
  7.0640000000e+010   3.7254049443e-002  -1.5465276644e-003  -6.8957717634e-002   5.5271724487e-002  -7.3410503841e-002   5.0851991892e-002  -4.6882941171e-002  -7.1707759589e-002
  7.0660000000e+010   3.7248609423e-002  -2.2894364715e-003  -6.8887359862e-002   5.5337663619e-002  -7.3345582792e-002   5.0924373357e-002  -5.0246013480e-002  -6.8870070541e-002
  7.0680000000e+010   3.7213393578e-002  -3.0494836959e-003  -6.8814180611e-002   5.5405444664e-002  -7.3277829728e-002   5.0998867253e-002  -5.3473954279e-002  -6.5891251539e-002
  7.0700000000e+010   3.7148263230e-002  -3.8254437389e-003  -6.8738182102e-002   5.5475058017e-002  -7.3207245376e-002   5.1075463447e-002  -5.6561143547e-002  -6.2777806764e-002
  7.0720000000e+010   3.7053118072e-002  -4.6160841043e-003  -6.8659366682e-002   5.5546493878e-002  -7.3133830585e-002   5.1154151574e-002  -5.9502256816e-002  -5.9536461273e-002
  7.0740000000e+010   3.6927896218e-002  -5.4201669557e-003  -6.8577736826e-002   5.5619742253e-002  -7.3057586326e-002   5.1234921039e-002  -6.2292273828e-002  -5.6174147702e-002
  7.0760000000e+010   3.6772574200e-002  -6.2364506732e-003  -6.8493295133e-002   5.5694792956e-002  -7.2978513691e-002   5.1317761022e-002  -6.4926486595e-002  -5.2697992644e-002
  7.0780000000e+010   3.6587166913e-002  -7.0636914055e-003  -6.8406044326e-002   5.5771635610e-002  -7.2896613895e-002   5.1402660475e-002  -6.7400506876e-002  -4.9115302699e-002
  7.0800000000e+010   3.6371727511e-002  -7.9006446175e-003  -6.8315987255e-002   5.5850259650e-002  -7.2811888272e-002   5.1489608126e-002  -6.9710273027e-002  -4.5433550258e-002
  7.0820000000e+010   3.6126347245e-002  -8.7460666297e-003  -6.8223126891e-002   5.5930654324e-002  -7.2724338278e-002   5.1578592485e-002  -7.1852056247e-002  -4.1660359011e-002
  7.0840000000e+010   3.5851155253e-002  -9.5987161485e-003  -6.8127466329e-002   5.6012808696e-002  -7.2633965489e-002   5.1669601836e-002  -7.3822466178e-002  -3.7803489236e-002
  7.0860000000e+010   3.5546318300e-002  -1.0457355785e-002  -6.8029008784e-002   5.6096711645e-002  -7.2540771601e-002   5.1762624251e-002  -7.5618455882e-002  -3.3870822879e-002
  7.0880000000e+010   3.5212040465e-002  -1.1320753560e-002  -6.7927757595e-002   5.6182351870e-002  -7.2444758430e-002   5.1857647583e-002  -7.7237326154e-002  -2.9870348454e-002
  7.0900000000e+010   3.4848562781e-002  -1.2187684395e-002  -6.7823716220e-002   5.6269717890e-002  -7.2345927910e-002   5.1954659471e-002  -7.8676729199e-002  -2.5810145799e-002
  7.0920000000e+010   3.4456162825e-002  -1.3056931585e-002  -6.7716888235e-002   5.6358798048e-002  -7.2244282093e-002   5.2053647342e-002  -7.9934671638e-002  -2.1698370709e-002
  7.0940000000e+010   3.4035154255e-002  -1.3927288250e-002  -6.7607277337e-002   5.6449580509e-002  -7.2139823150e-002   5.2154598414e-002  -8.1009516862e-002  -1.7543239478e-002
  7.0960000000e+010   3.3585886311e-002  -1.4797558773e-002  -6.7494887338e-002   5.6542053266e-002  -7.2032553371e-002   5.2257499697e-002  -8.1899986712e-002  -1.3353013374e-002
  7.0980000000e+010   3.3108743251e-002  -1.5666560205e-002  -6.7379722171e-002   5.6636204138e-002  -7.1922475160e-002   5.2362337993e-002  -8.2605162507e-002  -9.1359830812e-003
  7.1000000000e+010   3.2604143764e-002  -1.6533123656e-002  -6.7261785881e-002   5.6732020776e-002  -7.1809591040e-002   5.2469099902e-002  -8.3124485388e-002  -4.9004531306e-003
  7.1020000000e+010   3.2072540315e-002  -1.7396095652e-002  -6.7141082629e-002   5.6829490660e-002  -7.1693903650e-002   5.2577771821e-002  -8.3457756017e-002  -6.5472635722e-004
  7.1040000000e+010   3.1514418465e-002  -1.8254339466e-002  -6.7017616693e-002   5.6928601106e-002  -7.1575415742e-002   5.2688339946e-002  -8.3605133592e-002   3.5929115983e-003
  7.1060000000e+010   3.0930296139e-002  -1.9106736427e-002  -6.6891392461e-002   5.7029339264e-002  -7.1454130185e-002   5.2800790278e-002  -8.3567134225e-002   7.8342077080e-003
  7.1080000000e+010   3.0320722851e-002  -1.9952187186e-002  -6.6762414434e-002   5.7131692120e-002  -7.1330049962e-002   5.2915108618e-002  -8.3344628644e-002   1.2060956871e-002
  7.1100000000e+010   2.9686278894e-002  -2.0789612957e-002  -6.6630687225e-002   5.7235646500e-002  -7.1203178170e-002   5.3031280576e-002  -8.2938839261e-002   1.6265017093e-002
  7.1120000000e+010   2.9027574490e-002  -2.1617956727e-002  -6.6496215556e-002   5.7341189072e-002  -7.1073518017e-002   5.3149291569e-002  -8.2351336591e-002   2.0438324507e-002
  7.1140000000e+010   2.8345248901e-002  -2.2436184418e-002  -6.6359004261e-002   5.7448306345e-002  -7.0941072826e-002   5.3269126823e-002  -8.1584035038e-002   2.4572908209e-002
  7.1160000000e+010   2.7639969499e-002  -2.3243286030e-002  -6.6219058279e-002   5.7556984671e-002  -7.0805846031e-002   5.3390771378e-002  -8.0639188055e-002   2.8660904868e-002
  7.1180000000e+010   2.6912430812e-002  -2.4038276728e-002  -6.6076382658e-002   5.7667210251e-002  -7.0667841174e-002   5.3514210087e-002  -7.9519382693e-002   3.2694573114e-002
  7.1200000000e+010   2.6163353528e-002  -2.4820197906e-002  -6.5930982552e-002   5.7778969132e-002  -7.0527061913e-002   5.3639427618e-002  -7.8227533543e-002   3.6666307641e-002
  7.1220000000e+010   2.5393483466e-002  -2.5588118197e-002  -6.5782863219e-002   5.7892247210e-002  -7.0383512011e-002   5.3766408460e-002  -7.6766876086e-002   4.0568653033e-002
  7.1240000000e+010   2.4603590524e-002  -2.6341134448e-002  -6.5632030024e-002   5.8007030236e-002  -7.0237195342e-002   5.3895136921e-002  -7.5140959474e-002   4.4394317264e-002
  7.1260000000e+010   2.3794467593e-002  -2.7078372656e-002  -6.5478488431e-002   5.8123303809e-002  -7.0088115888e-002   5.4025597129e-002  -7.3353638739e-002   4.8136184860e-002
  7.1280000000e+010   2.2966929441e-002  -2.7798988849e-002  -6.5322244010e-002   5.8241053389e-002  -6.9936277739e-002   5.4157773038e-002  -7.1409066456e-002   5.1787329704e-002
  7.1300000000e+010   2.2121811580e-002  -2.8502169935e-002  -6.5163302428e-002   5.8360264287e-002  -6.9781685090e-002   5.4291648430e-002  -6.9311683886e-002   5.5341027446e-002
  7.1320000000e+010   2.1259969097e-002  -2.9187134494e-002  -6.5001669454e-002   5.8480921676e-002  -6.9624342244e-002   5.4427206912e-002  -6.7066211591e-002   5.8790767506e-002
  7.1340000000e+010   2.0382275477e-002  -2.9853133533e-002  -6.4837350956e-002   5.8603010589e-002  -6.9464253608e-002   5.4564431924e-002  -6.4677639566e-002   6.2130264656e-002
  7.1360000000e+010   1.9489621390e-002  -3.0499451190e-002  -6.4670352897e-002   5.8726515919e-002  -6.9301423695e-002   5.4703306736e-002  -6.2151216886e-002   6.5353470139e-002
  7.1380000000e+010   1.8582913472e-002  -3.1125405386e-002  -6.4500681339e-002   5.8851422425e-002  -6.9135857120e-002   5.4843814454e-002  -5.9492440910e-002   6.8454582330e-002
  7.1400000000e+010   1.7663073081e-002  -3.1730348436e-002  -6.4328342438e-002   5.8977714730e-002  -6.8967558601e-002   5.4985938020e-002  -5.6707046037e-002   7.1428056902e-002
  7.1420000000e+010   1.6731035040e-002  -3.2313667609e-002  -6.4153342443e-002   5.9105377325e-002  -6.8796532960e-002   5.5129660214e-002  -5.3800992059e-002   7.4268616492e-002
  7.1440000000e+010   1.5787746367e-002  -3.2874785630e-002  -6.3975687697e-002   5.9234394569e-002  -6.8622785119e-002   5.5274963657e-002  -5.0780452120e-002   7.6971259841e-002
  7.1460000000e+010   1.4834164994e-002  -3.3413161148e-002  -6.3795384636e-002   5.9364750691e-002  -6.8446320099e-002   5.5421830811e-002  -4.7651800306e-002   7.9531270395e-002
  7.1480000000e+010   1.3871258471e-002  -3.3928289139e-002  -6.3612439784e-002   5.9496429793e-002  -6.8267143023e-002   5.5570243983e-002  -4.4421598895e-002   8.1944224358e-002
  7.1500000000e+010   1.2900002669e-002  -3.4419701264e-002  -6.3426859757e-002   5.9629415851e-002  -6.8085259113e-002   5.5720185328e-002  -4.1096585284e-002   8.4205998174e-002
  7.1520000000e+010   1.1921380469e-002  -3.4886966180e-002  -6.3238651256e-002   5.9763692717e-002  -6.7900673686e-002   5.5871636846e-002  -3.7683658625e-002   8.6312775435e-002
  7.1540000000e+010   1.0936380455e-002  -3.5329689796e-002  -6.3047821073e-002   5.9899244117e-002  -6.7713392160e-002   5.6024580390e-002  -3.4189866187e-002   8.8261053191e-002
  7.1560000000e+010   9.9459955946e-003  -3.5747515474e-002  -6.2854376082e-002   6.0036053659e-002  -6.7523420047e-002   5.6178997665e-002  -3.0622389479e-002   9.0047647665e-002
  7.1580000000e+010   8.9512219283e-003  -3.6140124191e-002  -6.2658323244e-002   6.0174104829e-002  -6.7330762954e-002   5.6334870228e-002  -2.6988530152e-002   9.1669699356e-002
  7.1600000000e+010   7.9530572515e-003  -3.6507234636e-002  -6.2459669605e-002   6.0313380996e-002  -6.7135426584e-002   5.6492179494e-002  -2.3295695715e-002   9.3124677525e-002
  7.1620000000e+010   6.9524998036e-003  -3.6848603267e-002  -6.2258422289e-002   6.0453865413e-002  -6.6937416733e-002   5.6650906735e-002  -1.9551385077e-002   9.4410384050e-002
  7.1640000000e+010   5.9505469613e-003  -3.7164024314e-002  -6.2054588504e-002   6.0595541216e-002  -6.6736739291e-002   5.6811033086e-002  -1.5763173965e-002   9.5524956655e-002
  7.1660000000e+010   4.9481939360e-003  -3.7453329726e-002  -6.1848175539e-002   6.0738391429e-002  -6.6533400238e-002   5.6972539539e-002  -1.1938700220e-002   9.6466871500e-002
  7.1680000000e+010   3.9464324815e-003  -3.7716389080e-002  -6.1639190759e-002   6.0882398964e-002  -6.6327405647e-002   5.7135406954e-002  -8.0856490199e-003   9.7234945133e-002
  7.1700000000e+010   2.9462496098e-003  -3.7953109429e-002  -6.1427641609e-002   6.1027546622e-002  -6.6118761680e-002   5.7299616055e-002  -4.2117380438e-003   9.7828335797e-002
  7.1720000000e+010   1.9486263194e-003  -3.8163435109e-002  -6.1213535609e-002   6.1173817095e-002  -6.5907474589e-002   5.7465147433e-002  -3.2470260691e-004   9.8246544097e-002
  7.1740000000e+010   9.5453633566e-004  -3.8347347492e-002  -6.0996880355e-002   6.1321192969e-002  -6.5693550715e-002   5.7631981551e-002   3.5677191998e-003   9.8489413018e-002
  7.1760000000e+010  -3.5055133221e-005  -3.8504864693e-002  -6.0777683517e-002   6.1469656721e-002  -6.5476996485e-002   5.7800098740e-002   7.4578013446e-003   9.8557127309e-002
  7.1780000000e+010  -1.0191926240e-003  -3.8636041232e-002  -6.0555952839e-002   6.1619190727e-002  -6.5257818414e-002   5.7969479206e-002   1.1337844633e-002   9.8450212218e-002
  7.1800000000e+010  -1.9969316281e-003  -3.8740967646e-002  -6.0331696134e-002   6.1769777258e-002  -6.5036023104e-002   5.8140103032e-002   1.5200191406e-002   9.8169531600e-002
  7.1820000000e+010  -2.9673397821e-003  -3.8819770058e-002  -6.0104921289e-002   6.1921398483e-002  -6.4811617240e-002   5.8311950175e-002   1.9037240123e-002   9.7716285382e-002
  7.1840000000e+010  -3.9294980366e-003  -3.8872609699e-002  -5.9875636257e-002   6.2074036472e-002  -6.4584607592e-002   5.8485000473e-002   2.2841459811e-002   9.7092006411e-002
  7.1860000000e+010  -4.8825018022e-003  -3.8899682387e-002  -5.9643849064e-002   6.2227673195e-002  -6.4355001013e-002   5.8659233642e-002   2.6605404354e-002   9.6298556684e-002
  7.1880000000e+010  -5.8254620720e-003  -3.8901217963e-002  -5.9409567799e-002   6.2382290527e-002  -6.4122804440e-002   5.8834629283e-002   3.0321726584e-002   9.5338122956e-002
  7.1900000000e+010  -6.7575065181e-003  -3.8877479686e-002  -5.9172800619e-002   6.2537870243e-002  -6.3888024889e-002   5.9011166881e-002   3.3983192164e-002   9.4213211759e-002
  7.1920000000e+010  -7.6777805609e-003  -3.8828763582e-002  -5.8933555745e-002   6.2694394027e-002  -6.3650669460e-002   5.9188825806e-002   3.7582693227e-002   9.2926643821e-002
  7.1940000000e+010  -8.5854484102e-003  -3.8755397764e-002  -5.8691841464e-002   6.2851843467e-002  -6.3410745329e-002   5.9367585317e-002   4.1113261748e-002   9.1481547914e-002
  7.1960000000e+010  -9.4796940770e-003  -3.8657741698e-002  -5.8447666124e-002   6.3010200061e-002  -6.3168259755e-002   5.9547424560e-002   4.4568082626e-002   8.9881354121e-002
  7.1980000000e+010  -1.0359722354e-002  -3.8536185447e-002  -5.8201038136e-002   6.3169445215e-002  -6.2923220073e-002   5.9728322577e-002   4.7940506454e-002   8.8129786561e-002
  7.2000000000e+010  -1.1224759764e-002  -3.8391148867e-002  -5.7951965969e-002   6.3329560245e-002  -6.2675633695e-002   5.9910258298e-002   5.1224061946e-002   8.6230855573e-002
  7.2020000000e+010  -1.2074055475e-002  -3.8223080773e-002  -5.7700458154e-002   6.3490526380e-002  -6.2425508112e-002   6.0093210552e-002   5.4412468012e-002   8.4188849367e-002
  7.2040000000e+010  -1.2906882181e-002  -3.8032458076e-002  -5.7446523281e-002   6.3652324763e-002  -6.2172850887e-002   6.0277158062e-002   5.7499645442e-002   8.2008325177e-002
  7.2060000000e+010  -1.3722536948e-002  -3.7819784874e-002  -5.7190169996e-002   6.3814936449e-002  -6.1917669663e-002   6.0462079450e-002   6.0479728193e-002   7.9694099920e-002
  7.2080000000e+010  -1.4520342021e-002  -3.7585591529e-002  -5.6931407001e-002   6.3978342409e-002  -6.1659972152e-002   6.0647953239e-002   6.3347074247e-002   7.7251240380e-002
  7.2100000000e+010  -1.5299645597e-002  -3.7330433702e-002  -5.6670243055e-002   6.4142523533e-002  -6.1399766143e-002   6.0834757852e-002   6.6096276035e-002   7.4685052944e-002
  7.2120000000e+010  -1.6059822558e-002  -3.7054891366e-002  -5.6406686970e-002   6.4307460626e-002  -6.1137059497e-002   6.1022471618e-002   6.8722170382e-002   7.2001072902e-002
  7.2140000000e+010  -1.6800275165e-002  -3.6759567792e-002  -5.6140747614e-002   6.4473134415e-002  -6.0871860144e-002   6.1211072767e-002   7.1219847994e-002   6.9205053330e-002
  7.2160000000e+010  -1.7520433711e-002  -3.6445088507e-002  -5.5872433904e-002   6.4639525544e-002  -6.0604176090e-002   6.1400539439e-002   7.3584662428e-002   6.6302953593e-002
