# Hz S RI R 1.000000
! Metas.Vna.Tools, 2.4.7898.19887
! Metas.Vna.Data, 2.4.7898.19873
! Created: UTC 2021.09.30 14:30:59
! FREQ                re:S1,1             im:S1,1             re:S2,1             im:S2,1             re:S1,2             im:S1,2             re:S2,2             im:S2,2          
  7.0000000000e+010   1.2362666413e-002  -6.4453774006e-002  -6.5067510744e-003   5.2212059141e-001  -2.6051220719e-002   5.2514718325e-001  -5.8223894109e-002  -5.4578117314e-002
  7.0020000000e+010   1.2578095828e-002  -6.4026370699e-002  -6.5816363816e-003   5.2241449013e-001  -2.6143127336e-002   5.2546205932e-001  -5.9428767923e-002  -5.3900251828e-002
  7.0040000000e+010   1.2786998524e-002  -6.3601409709e-002  -6.6335109934e-003   5.2270120839e-001  -2.6211000571e-002   5.2577019973e-001  -6.0598629154e-002  -5.3164361218e-002
  7.0060000000e+010   1.2989241957e-002  -6.3179040105e-002  -6.6623621767e-003   5.2298067947e-001  -2.6254823855e-002   5.2607153281e-001  -6.1731668343e-002  -5.2371169303e-002
  7.0080000000e+010   1.3184691126e-002  -6.2759405110e-002  -6.6681798620e-003   5.2325283627e-001  -2.6274583424e-002   5.2636598643e-001  -6.2826105908e-002  -5.1521478665e-002
  7.0100000000e+010   1.3373208831e-002  -6.2342641835e-002  -6.6509566463e-003   5.2351761139e-001  -2.6270268327e-002   5.2665348801e-001  -6.3880195064e-002  -5.0616169921e-002
  7.0120000000e+010   1.3554655931e-002  -6.1928881026e-002  -6.6106877952e-003   5.2377493705e-001  -2.6241870425e-002   5.2693396456e-001  -6.4892224726e-002  -4.9656200882e-002
  7.0140000000e+010   1.3728891620e-002  -6.1518246815e-002  -6.5473712441e-003   5.2402474519e-001  -2.6189384394e-002   5.2720734268e-001  -6.5860522380e-002  -4.8642605576e-002
  7.0160000000e+010   1.3895773709e-002  -6.1110856491e-002  -6.4610075994e-003   5.2426696746e-001  -2.6112807729e-002   5.2747354861e-001  -6.6783456909e-002  -4.7576493160e-002
  7.0180000000e+010   1.4055158915e-002  -6.0706820278e-002  -6.3516001388e-003   5.2450153523e-001  -2.6012140744e-002   5.2773250819e-001  -6.7659441391e-002  -4.6459046703e-002
  7.0200000000e+010   1.4206903159e-002  -6.0306241126e-002  -6.2191548118e-003   5.2472837964e-001  -2.5887386570e-002   5.2798414696e-001  -6.8486935840e-002  -4.5291521848e-002
  7.0220000000e+010   1.4350861878e-002  -5.9909214523e-002  -6.0636802385e-003   5.2494743156e-001  -2.5738551160e-002   5.2822839011e-001  -6.9264449908e-002  -4.4075245361e-002
  7.0240000000e+010   1.4486890330e-002  -5.9515828307e-002  -5.8851877095e-003   5.2515862168e-001  -2.5565643284e-002   5.2846516255e-001  -6.9990545517e-002  -4.2811613553e-002
  7.0260000000e+010   1.4614843924e-002  -5.9126162506e-002  -5.6836911837e-003   5.2536188049e-001  -2.5368674533e-002   5.2869438889e-001  -7.0663839443e-002  -4.1502090594e-002
  7.0280000000e+010   1.4734578537e-002  -5.8740289181e-002  -5.4592072867e-003   5.2555713828e-001  -2.5147659313e-002   5.2891599350e-001  -7.1283005832e-002  -4.0148206710e-002
  7.0300000000e+010   1.4845950852e-002  -5.8358272294e-002  -5.2117553085e-003   5.2574432522e-001  -2.4902614845e-002   5.2912990050e-001  -7.1846778643e-002  -3.8751556268e-002
  7.0320000000e+010   1.4948818692e-002  -5.7980167582e-002  -4.9413572001e-003   5.2592337130e-001  -2.4633561163e-002   5.2933603380e-001  -7.2353954021e-002  -3.7313795752e-002
  7.0340000000e+010   1.5043041360e-002  -5.7606022453e-002  -4.6480375706e-003   5.2609420644e-001  -2.4340521112e-002   5.2953431711e-001  -7.2803392593e-002  -3.5836641631e-002
  7.0360000000e+010   1.5128479982e-002  -5.7235875896e-002  -4.3318236831e-003   5.2625676043e-001  -2.4023520341e-002   5.2972467396e-001  -7.3194021671e-002  -3.4321868127e-002
  7.0380000000e+010   1.5204997857e-002  -5.6869758402e-002  -3.9927454501e-003   5.2641096298e-001  -2.3682587303e-002   5.2990702772e-001  -7.3524837386e-002  -3.2771304876e-002
  7.0400000000e+010   1.5272460802e-002  -5.6507691908e-002  -3.6308354289e-003   5.2655674376e-001  -2.3317753248e-002   5.3008130165e-001  -7.3794906714e-002  -3.1186834500e-002
  7.0420000000e+010   1.5330737503e-002  -5.6149689756e-002  -3.2461288163e-003   5.2669403237e-001  -2.2929052219e-002   5.3024741886e-001  -7.4003369417e-002  -2.9570390071e-002
  7.0440000000e+010   1.5379699868e-002  -5.5795756662e-002  -2.8386634422e-003   5.2682275842e-001  -2.2516521045e-002   5.3040530241e-001  -7.4149439883e-002  -2.7923952501e-002
  7.0460000000e+010   1.5419223375e-002  -5.5445888712e-002  -2.4084797641e-003   5.2694285149e-001  -2.2080199338e-002   5.3055487524e-001  -7.4232408862e-002  -2.6249547830e-002
  7.0480000000e+010   1.5449187426e-002  -5.5100073363e-002  -1.9556208595e-003   5.2705424119e-001  -2.1620129482e-002   5.3069606027e-001  -7.4251645096e-002  -2.4549244439e-002
  7.0500000000e+010   1.5469475693e-002  -5.4758289471e-002  -1.4801324193e-003   5.2715685717e-001  -2.1136356631e-002   5.3082878039e-001  -7.4206596845e-002  -2.2825150180e-002
  7.0520000000e+010   1.5479976465e-002  -5.4420507331e-002  -9.8206273929e-004   5.2725062913e-001  -2.0628928697e-002   5.3095295847e-001  -7.4096793291e-002  -2.1079409435e-002
  7.0540000000e+010   1.5480582996e-002  -5.4086688732e-002  -4.6146271269e-004   5.2733548683e-001  -2.0097896344e-002   5.3106851740e-001  -7.3921845834e-002  -1.9314200098e-002
  7.0560000000e+010   1.5471193843e-002  -5.3756787029e-002   8.1614179096e-005   5.2741136015e-001  -1.9543312980e-002   5.3117538008e-001  -7.3681449270e-002  -1.7531730497e-002
  7.0580000000e+010   1.5451713203e-002  -5.3430747240e-002   6.4711187548e-004   5.2747817906e-001  -1.8965234747e-002   5.3127346950e-001  -7.3375382839e-002  -1.5734236250e-002
  7.0600000000e+010   1.5422051246e-002  -5.3108506144e-002   1.2349717463e-003   5.2753587368e-001  -1.8363720509e-002   5.3136270869e-001  -7.3003511157e-002  -1.3923977064e-002
  7.0620000000e+010   1.5382124445e-002  -5.2789992411e-002   1.8451326021e-003   5.2758437426e-001  -1.7738831848e-002   5.3144302079e-001  -7.2565785021e-002  -1.2103233486e-002
  7.0640000000e+010   1.5331855888e-002  -5.2475126737e-002   2.4775307044e-003   5.2762361124e-001  -1.7090633046e-002   5.3151432905e-001  -7.2062242083e-002  -1.0274303603e-002
  7.0660000000e+010   1.5271175601e-002  -5.2163822001e-002   3.1320997770e-003   5.2765351523e-001  -1.6419191081e-002   5.3157655687e-001  -7.1493007397e-002  -8.4394997024e-003
  7.0680000000e+010   1.5200020848e-002  -5.1855983435e-002   3.8087710174e-003   5.2767401706e-001  -1.5724575609e-002   5.3162962778e-001  -7.0858293827e-002  -6.6011448909e-003
  7.0700000000e+010   1.5118336435e-002  -5.1551508813e-002   4.5074731087e-003   5.2768504778e-001  -1.5006858957e-002   5.3167346551e-001  -7.0158402331e-002  -4.7615696887e-003
  7.0720000000e+010   1.5026074991e-002  -5.1250288649e-002   5.2281322319e-003   5.2768653868e-001  -1.4266116107e-002   5.3170799398e-001  -6.9393722106e-002  -2.9231085924e-003
  7.0740000000e+010   1.4923197257e-002  -5.0952206417e-002   5.9706720791e-003   5.2767842133e-001  -1.3502424686e-002   5.3173313732e-001  -6.8564730592e-002  -1.0880966190e-003
  7.0760000000e+010   1.4809672348e-002  -5.0657138782e-002   6.7350138661e-003   5.2766062755e-001  -1.2715864949e-002   5.3174881991e-001  -6.7671993347e-002   7.4113416602e-004
  7.0780000000e+010   1.4685478019e-002  -5.0364955843e-002   7.5210763469e-003   5.2763308950e-001  -1.1906519768e-002   5.3175496636e-001  -6.6716163781e-002   2.5622581300e-003
  7.0800000000e+010   1.4550600907e-002  -5.0075521397e-002   8.3287758273e-003   5.2759573962e-001  -1.1074474617e-002   5.3175150160e-001  -6.5697982748e-002   4.3729595586e-003
  7.0820000000e+010   1.4405036771e-002  -4.9788693209e-002   9.1580261795e-003   5.2754851071e-001  -1.0219817555e-002   5.3173835083e-001  -6.4618278012e-002   6.1709361405e-003
  7.0840000000e+010   1.4248790712e-002  -4.9504323299e-002   1.0008738858e-002   5.2749133591e-001  -9.3426392132e-003   5.3171543956e-001  -6.3477963557e-002   7.9539024441e-003
  7.0860000000e+010   1.4081877389e-002  -4.9222258240e-002   1.0880822912e-002   5.2742414875e-001  -8.4430327783e-003   5.3168269366e-001  -6.2278038776e-002   9.7195933822e-003
  7.0880000000e+010   1.3904321211e-002  -4.8942339472e-002   1.1774185007e-002   5.2734688312e-001  -7.5210939758e-003   5.3164003934e-001  -6.1019587512e-002   1.1465767658e-002
  7.0900000000e+010   1.3716156522e-002  -4.8664403620e-002   1.2688729435e-002   5.2725947335e-001  -6.5769210537e-003   5.3158740320e-001  -5.9703776964e-002   1.3190211186e-002
  7.0920000000e+010   1.3517427771e-002  -4.8388282830e-002   1.3624358135e-002   5.2716185417e-001  -5.6106147653e-003   5.3152471223e-001  -5.8331856463e-002   1.4890740485e-002
  7.0940000000e+010   1.3308189663e-002  -4.8113805111e-002   1.4580970708e-002   5.2705396077e-001  -4.6222783517e-003   5.3145189381e-001  -5.6905156106e-002   1.6565206037e-002
  7.0960000000e+010   1.3088507302e-002  -4.7840794692e-002   1.5558464436e-002   5.2693572878e-001  -3.6120175235e-003   5.3136887579e-001  -5.5425085259e-002   1.8211495598e-002
  7.0980000000e+010   1.2858456307e-002  -4.7569072383e-002   1.6556734297e-002   5.2680709432e-001  -2.5799404426e-003   5.3127558645e-001  -5.3893130934e-002   1.9827537471e-002
  7.1000000000e+010   1.2618122926e-002  -4.7298455945e-002   1.7575672990e-002   5.2666799401e-001  -1.5261577034e-003   5.3117195456e-001  -5.2310856024e-002   2.1411303722e-002
  7.1020000000e+010   1.2367604121e-002  -4.7028760473e-002   1.8615170945e-002   5.2651836495e-001  -4.5078231320e-004   5.3105790935e-001  -5.0679897425e-002   2.2960813337e-002
  7.1040000000e+010   1.2107007642e-002  -4.6759798781e-002   1.9675116347e-002   5.2635814480e-001   6.4607032714e-004   5.3093338058e-001  -4.9001964022e-002   2.4474135325e-002
  7.1060000000e+010   1.1836452084e-002  -4.6491381797e-002   2.0755395155e-002   5.2618727174e-001   1.7642824435e-003   5.3079829854e-001  -4.7278834555e-002   2.5949391737e-002
  7.1080000000e+010   1.1556066927e-002  -4.6223318962e-002   2.1855891122e-002   5.2600568453e-001   2.9037339091e-003   5.3065259404e-001  -4.5512355371e-002   2.7384760631e-002
  7.1100000000e+010   1.1265992553e-002  -4.5955418635e-002   2.2976485813e-002   5.2581332248e-001   4.0643022649e-003   5.3049619848e-001  -4.3704438046e-002   2.8778478938e-002
  7.1120000000e+010   1.0966380252e-002  -4.5687488503e-002   2.4117058627e-002   5.2561012550e-001   5.2458627415e-003   5.3032904382e-001  -4.1857056909e-002   3.0128845264e-002
  7.1140000000e+010   1.0657392209e-002  -4.5419335994e-002   2.5277486820e-002   5.2539603412e-001   6.4482882805e-003   5.3015106262e-001  -3.9972246441e-002   3.1434222588e-002
  7.1160000000e+010   1.0339201463e-002  -4.5150768695e-002   2.6457645520e-002   5.2517098948e-001   7.6714495565e-003   5.2996218805e-001  -3.8052098578e-002   3.2693040873e-002
  7.1180000000e+010   1.0011991867e-002  -4.4881594771e-002   2.7657407755e-002   5.2493493336e-001   8.9152149996e-003   5.2976235394e-001  -3.6098759905e-002   3.3903799584e-002
  7.1200000000e+010   9.6759580056e-003  -4.4611623384e-002   2.8876644474e-002   5.2468780818e-001   1.0179450818e-002   5.2955149473e-001  -3.4114428753e-002   3.5065070092e-002
  7.1220000000e+010   9.3313051174e-003  -4.4340665114e-002   3.0115224563e-002   5.2442955704e-001   1.1464021022e-002   5.2932954554e-001  -3.2101352201e-002   3.6175497984e-002
  7.1240000000e+010   8.9782489807e-003  -4.4068532384e-002   3.1373014877e-002   5.2416012373e-001   1.2768787445e-002   5.2909644218e-001  -3.0061822986e-002   3.7233805250e-002
  7.1260000000e+010   8.6170157910e-003  -4.3795039879e-002   3.2649880254e-002   5.2387945271e-001   1.4093609772e-002   5.2885212115e-001  -2.7998176330e-002   3.8238792367e-002
  7.1280000000e+010   8.2478420165e-003  -4.3520004965e-002   3.3945683544e-002   5.2358748918e-001   1.5438345558e-002   5.2859651966e-001  -2.5912786683e-002   3.9189340252e-002
  7.1300000000e+010   7.8709742355e-003  -4.3243248105e-002   3.5260285631e-002   5.2328417904e-001   1.6802850257e-002   5.2832957565e-001  -2.3808064390e-002   4.0084412104e-002
  7.1320000000e+010   7.4866689554e-003  -4.2964593279e-002   3.6593545455e-002   5.2296946893e-001   1.8186977245e-002   5.2805122781e-001  -2.1686452289e-002   4.0923055113e-002
  7.1340000000e+010   7.0951924141e-003  -4.2683868388e-002   3.7945320038e-002   5.2264330627e-001   1.9590577845e-002   5.2776141559e-001  -1.9550422239e-002   4.1704402042e-002
  7.1360000000e+010   6.6968203627e-003  -4.2400905663e-002   3.9315464507e-002   5.2230563921e-001   2.1013501353e-002   5.2746007921e-001  -1.7402471588e-002   4.2427672676e-002
  7.1380000000e+010   6.2918378307e-003  -4.2115542066e-002   4.0703832122e-002   5.2195641669e-001   2.2455595065e-002   5.2714715967e-001  -1.5245119589e-002   4.3092175136e-002
  7.1400000000e+010   5.8805388736e-003  -4.1827619685e-002   4.2110274296e-002   5.2159558844e-001   2.3916704298e-002   5.2682259881e-001  -1.3080903761e-002   4.3697307057e-002
  7.1420000000e+010   5.4632263031e-003  -4.1536986119e-002   4.3534640622e-002   5.2122310501e-001   2.5396672425e-002   5.2648633924e-001  -1.0912376208e-002   4.4242556627e-002
  7.1440000000e+010   5.0402114002e-003  -4.1243494862e-002   4.4976778900e-002   5.2083891774e-001   2.6895340894e-002   5.2613832445e-001  -8.7420999007e-003   4.4727503476e-002
  7.1460000000e+010   4.6118136115e-003  -4.0947005673e-002   4.6436535161e-002   5.2044297880e-001   2.8412549256e-002   5.2577849874e-001  -6.5726449217e-003   4.5151819428e-002
  7.1480000000e+010   4.1783602297e-003  -4.0647384942e-002   4.7913753694e-002   5.2003524122e-001   2.9948135198e-002   5.2540680728e-001  -4.4065846868e-003   4.5515269110e-002
  7.1500000000e+010   3.7401860573e-003  -4.0344506037e-002   4.9408277073e-002   5.1961565887e-001   3.1501934564e-002   5.2502319614e-001  -2.2464921450e-003   4.5817710400e-002
  7.1520000000e+010   3.2976330555e-003  -4.0038249654e-002   5.0919946178e-002   5.1918418646e-001   3.3073781384e-002   5.2462761223e-001  -9.4935962401e-005   4.6059094741e-002
  7.1540000000e+010   2.8510499770e-003  -3.9728504145e-002   5.2448600229e-002   5.1874077962e-001   3.4663507906e-002   5.2422000340e-001   2.0455233011e-003   4.6239467297e-002
  7.1560000000e+010   2.4007919858e-003  -3.9415165841e-002   5.3994076810e-002   5.1828539482e-001   3.6270944619e-002   5.2380031840e-001   4.1723370188e-003   4.6358966961e-002
  7.1580000000e+010   1.9472202609e-003  -3.9098139356e-002   5.5556211893e-002   5.1781798946e-001   3.7895920284e-002   5.2336850688e-001   6.2829723199e-003   4.6417826210e-002
  7.1600000000e+010   1.4907015878e-003  -3.8777337884e-002   5.7134839870e-002   5.1733852180e-001   3.9538261964e-002   5.2292451945e-001   8.3749159027e-003   4.6416370810e-002
  7.1620000000e+010   1.0316079367e-003  -3.8452683482e-002   5.8729793577e-002   5.1684695107e-001   4.1197795049e-002   5.2246830767e-001   1.0445677831e-002   4.6355019373e-002
  7.1640000000e+010   5.7031602759e-004  -3.8124107334e-002   6.0340904324e-002   5.1634323738e-001   4.2874343290e-002   5.2199982405e-001   1.2492795311e-002   4.6234282757e-002
  7.1660000000e+010   1.0720688439e-004  -3.7791550004e-002   6.1968001922e-002   5.1582734179e-001   4.4567728824e-002   5.2151902207e-001   1.4513836434e-002   4.6054763319e-002
  7.1680000000e+010  -3.5733462284e-004  -3.7454961673e-002   6.3610914709e-002   5.1529922631e-001   4.6277772205e-002   5.2102585618e-001   1.6506403889e-002   4.5817154016e-002
  7.1700000000e+010  -8.2292024585e-004  -3.7114302361e-002   6.5269469581e-002   5.1475885389e-001   4.8004292436e-002   5.2052028185e-001   1.8468138637e-002   4.5522237361e-002
  7.1720000000e+010  -1.2891588362e-003  -3.6769542130e-002   6.6943492022e-002   5.1420618846e-001   4.9747106995e-002   5.2000225553e-001   2.0396723530e-002   4.5170884230e-002
  7.1740000000e+010  -1.7556568326e-003  -3.6420661273e-002   6.8632806126e-002   5.1364119488e-001   5.1506031869e-002   5.1947173468e-001   2.2289886882e-002   4.4764052519e-002
  7.1760000000e+010  -2.2220187559e-003  -3.6067650487e-002   7.0337234632e-002   5.1306383904e-001   5.3280881580e-002   5.1892867779e-001   2.4145405983e-002   4.4302785663e-002
  7.1780000000e+010  -2.6878477134e-003  -3.5710511019e-002   7.2056598949e-002   5.1247408776e-001   5.5071469219e-002   5.1837304437e-001   2.5961110544e-002   4.3788211010e-002
  7.1800000000e+010  -3.1527459084e-003  -3.5349254809e-002   7.3790719187e-002   5.1187190890e-001   5.6877606475e-002   5.1780479498e-001   2.7734886073e-002   4.3221538054e-002
  7.1820000000e+010  -3.6163151571e-003  -3.4983904602e-002   7.5539414185e-002   5.1125727128e-001   5.8699103666e-002   5.1722389122e-001   2.9464677173e-002   4.2604056532e-002
  7.1840000000e+010  -4.0781574103e-003  -3.4614494046e-002   7.7302501542e-002   5.1063014477e-001   6.0535769770e-002   5.1663029576e-001   3.1148490760e-002   4.1937134388e-002
  7.1860000000e+010  -4.5378752804e-003  -3.4241067774e-002   7.9079797642e-002   5.0999050020e-001   6.2387412454e-002   5.1602397231e-001   3.2784399191e-002   4.1222215603e-002
  7.1880000000e+010  -4.9950725714e-003  -3.3863681460e-002   8.0871117689e-002   5.0933830946e-001   6.4253838109e-002   5.1540488568e-001   3.4370543302e-002   4.0460817898e-002
  7.1900000000e+010  -5.4493548122e-003  -3.3482401860e-002   8.2676275731e-002   5.0867354546e-001   6.6134851877e-002   5.1477300173e-001   3.5905135339e-002   3.9654530309e-002
  7.1920000000e+010  -5.9003297925e-003  -3.3097306836e-002   8.4495084695e-002   5.0799618211e-001   6.8030257686e-002   5.1412828744e-001   3.7386461801e-002   3.8805010648e-002
  7.1940000000e+010  -6.3476080991e-003  -3.2708485350e-002   8.6327356411e-002   5.0730619441e-001   6.9939858280e-002   5.1347071086e-001   3.8812886155e-002   3.7913982841e-002
  7.1960000000e+010  -6.7908036536e-003  -3.2316037450e-002   8.8172901647e-002   5.0660355835e-001   7.1863455247e-002   5.1280024115e-001   4.0182851456e-002   3.6983234149e-002
  7.1980000000e+010  -7.2295342488e-003  -3.1920074228e-002   9.0031530136e-002   5.0588825099e-001   7.3800849057e-002   5.1211684857e-001   4.1494882835e-002   3.6014612294e-002
  7.2000000000e+010  -7.6634220846e-003  -3.1520717762e-002   9.1903050605e-002   5.0516025045e-001   7.5751839089e-002   5.1142050449e-001   4.2747589871e-002   3.5010022464e-002
  7.2020000000e+010  -8.0920943011e-003  -3.1118101034e-002   9.3787270807e-002   5.0441953588e-001   7.7716223665e-002   5.1071118142e-001   4.3939668836e-002   3.3971424232e-002
  7.2040000000e+010  -8.5151835094e-003  -3.0712367832e-002   9.5683997550e-002   5.0366608752e-001   7.9693800080e-002   5.0998885298e-001   4.5069904807e-002   3.2900828369e-002
  7.2060000000e+010  -8.9323283177e-003  -3.0303672628e-002   9.7593036727e-002   5.0289988665e-001   8.1684364634e-002   5.0925349390e-001   4.6137173645e-002   3.1800293580e-002
  7.2080000000e+010  -9.3431738534e-003  -2.9892180439e-002   9.9514193347e-002   5.0212091563e-001   8.3687712666e-002   5.0850508008e-001   4.7140443834e-002   3.0671923141e-002
  7.2100000000e+010  -9.7473722792e-003  -2.9478066668e-002   1.0144727156e-001   5.0132915787e-001   8.5703638584e-002   5.0774358853e-001   4.8078778179e-002   2.9517861470e-002
  7.2120000000e+010  -1.0144583303e-002  -2.9061516919e-002   1.0339207470e-001   5.0052459789e-001   8.7731935896e-002   5.0696899742e-001   4.8951335358e-002   2.8340290615e-002
  7.2140000000e+010  -1.0534474680e-002  -2.8642726806e-002   1.0534840530e-001   4.9970722124e-001   8.9772397247e-002   5.0618128606e-001   4.9757371327e-002   2.7141426682e-002
  7.2160000000e+010  -1.0916722707e-002  -2.8221901725e-002   1.0731606513e-001   4.9887701459e-001   9.1824814443e-002   5.0538043489e-001   5.0496240575e-002   2.5923516192e-002
