# Hz S RI R 1.000000
! Metas.Vna.Tools, 2.4.7898.19887
! Metas.Vna.Data, 2.4.7898.19873
! Created: UTC 2021.09.30 14:30:59
! FREQ                re:S1,1             im:S1,1             re:S2,1             im:S2,1             re:S1,2             im:S1,2             re:S2,2             im:S2,2          
  7.0000000000e+010  -1.6081336658e-002  -1.0736849885e-002   1.1095533335e-002  -9.3620032493e-003   1.1202804497e-002  -9.4069315912e-003   9.4328705735e-002  -6.4488054439e-002
  7.0020000000e+010  -1.5976986305e-002  -1.0174567422e-002   1.1088559025e-002  -9.3521972021e-003   1.1195930479e-002  -9.3970987853e-003   9.0874327883e-002  -6.7983705452e-002
  7.0040000000e+010  -1.5838655326e-002  -9.6276349965e-003   1.1081494500e-002  -9.3425927172e-003   1.1188962008e-002  -9.3874682723e-003   8.7279359693e-002  -7.1307202281e-002
  7.0060000000e+010  -1.5667250436e-002  -9.0970978360e-003   1.1074342406e-002  -9.3331915085e-003   1.1181901703e-002  -9.3780417654e-003   8.3551635693e-002  -7.4453315817e-002
  7.0080000000e+010  -1.5463719065e-002  -8.5839648193e-003   1.1067105339e-002  -9.3239953105e-003   1.1174752140e-002  -9.3688209978e-003   7.9699188582e-002  -7.7417167035e-002
  7.0100000000e+010  -1.5229047631e-002  -8.0892070098e-003   1.1059785851e-002  -9.3150058779e-003   1.1167515847e-002  -9.3598077229e-003   7.5730233918e-002  -8.0194234336e-002
  7.0120000000e+010  -1.4964259759e-002  -7.6137562619e-003   1.1052386447e-002  -9.3062249857e-003   1.1160195309e-002  -9.3510037137e-003   7.1653154541e-002  -8.2780360230e-002
  7.0140000000e+010  -1.4670414457e-002  -7.1585039021e-003   1.1044909584e-002  -9.2976544284e-003   1.1152792958e-002  -9.3424107626e-003   6.7476484735e-002  -8.5171757350e-002
  7.0160000000e+010  -1.4348604232e-002  -6.7242994847e-003   1.1037357669e-002  -9.2892960201e-003   1.1145311182e-002  -9.3340306809e-003   6.3208894194e-002  -8.7365013780e-002
  7.0180000000e+010  -1.3999953178e-002  -6.3119496252e-003   1.1029733059e-002  -9.2811515937e-003   1.1137752317e-002  -9.3258652987e-003   5.8859171778e-002  -8.9357097696e-002
  7.0200000000e+010  -1.3625615011e-002  -5.9222169121e-003   1.1022038063e-002  -9.2732230009e-003   1.1130118650e-002  -9.3179164645e-003   5.4436209128e-002  -9.1145361312e-002
  7.0220000000e+010  -1.3226771078e-002  -5.5558188990e-003   1.1014274936e-002  -9.2655121117e-003   1.1122412415e-002  -9.3101860447e-003   4.9948984144e-002  -9.2727544122e-002
  7.0240000000e+010  -1.2804628325e-002  -5.2134271785e-003   1.1006445880e-002  -9.2580208139e-003   1.1114635798e-002  -9.3026759230e-003   4.5406544360e-002  -9.4101775443e-002
  7.0260000000e+010  -1.2360417243e-002  -4.8956665376e-003   1.0998553046e-002  -9.2507510128e-003   1.1106790928e-002  -9.2953880007e-003   4.0817990261e-002  -9.5266576241e-002
  7.0280000000e+010  -1.1895389777e-002  -4.6031141971e-003   1.0990598531e-002  -9.2437046309e-003   1.1098879882e-002  -9.2883241954e-003   3.6192458549e-002  -9.6220860260e-002
  7.0300000000e+010  -1.1410817227e-002  -4.3362991354e-003   1.0982584374e-002  -9.2368836070e-003   1.1090904683e-002  -9.2814864413e-003   3.1539105410e-002  -9.6963934428e-002
  7.0320000000e+010  -1.0907988116e-002  -4.0957014965e-003   1.0974512563e-002  -9.2302898961e-003   1.1082867299e-002  -9.2748766882e-003   2.6867089789e-002  -9.7495498568e-002
  7.0340000000e+010  -1.0388206055e-002  -3.8817520837e-003   1.0966385026e-002  -9.2239254690e-003   1.1074769642e-002  -9.2684969012e-003   2.2185556729e-002  -9.7815644393e-002
  7.0360000000e+010  -9.8527875860e-003  -3.6948319391e-003   1.0958203635e-002  -9.2177923116e-003   1.1066613566e-002  -9.2623490607e-003   1.7503620778e-002  -9.7924853804e-002
  7.0380000000e+010  -9.3030600241e-003  -3.5352720090e-003   1.0949970206e-002  -9.2118924244e-003   1.1058400870e-002  -9.2564351609e-003   1.2830349517e-002  -9.7823996488e-002
  7.0400000000e+010  -8.7403592915e-003  -3.4033528949e-003   1.0941686493e-002  -9.2062278220e-003   1.1050133292e-002  -9.2507572103e-003   8.1747472130e-003  -9.7514326826e-002
  7.0420000000e+010  -8.1660277519e-003  -3.2993046913e-003   1.0933354195e-002  -9.2008005327e-003   1.1041812513e-002  -9.2453172305e-003   3.5457386523e-003  -9.6997480116e-002
  7.0440000000e+010  -7.5814120472e-003  -3.2233069080e-003   1.0924974946e-002  -9.1956125978e-003   1.1033440155e-002  -9.2401172559e-003  -1.0478468377e-003  -9.6275468116e-002
  7.0460000000e+010  -6.9878609402e-003  -3.1754884789e-003   1.0916550323e-002  -9.1906660711e-003   1.1025017777e-002  -9.2351593332e-003  -5.5972911396e-003  -9.5350673933e-002
  7.0480000000e+010  -6.3867231672e-003  -3.1559278551e-003   1.0908081840e-002  -9.1859630183e-003   1.1016546879e-002  -9.2304455208e-003  -1.0094002847e-002  -9.4225846240e-002
  7.0500000000e+010  -5.7793453042e-003  -3.1646531818e-003   1.0899570950e-002  -9.1815055164e-003   1.1008028901e-002  -9.2259778881e-003  -1.4529532483e-002  -9.2904092862e-002
  7.0520000000e+010  -5.1670696483e-003  -3.2016425599e-003   1.0891019043e-002  -9.1772956531e-003   1.0999465217e-002  -9.2217585149e-003  -1.8895587418e-002  -9.1388873728e-002
  7.0540000000e+010  -4.5512321208e-003  -3.2668243886e-003   1.0882427445e-002  -9.1733355263e-003   1.0990857141e-002  -9.2177894909e-003  -2.3184046452e-002  -8.9683993206e-002
  7.0560000000e+010  -3.9331601923e-003  -3.3600777901e-003   1.0873797419e-002  -9.1696272433e-003   1.0982205922e-002  -9.2140729151e-003  -2.7386974038e-002  -8.7793591836e-002
  7.0580000000e+010  -3.3141708351e-003  -3.4812331154e-003   1.0865130162e-002  -9.1661729201e-003   1.0973512745e-002  -9.2106108951e-003  -3.1496634131e-002  -8.5722137483e-002
  7.0600000000e+010  -2.6955685050e-003  -3.6300725273e-003   1.0856426808e-002  -9.1629746810e-003   1.0964778732e-002  -9.2074055464e-003  -3.5505503622e-002  -8.3474415918e-002
  7.0620000000e+010  -2.0786431564e-003  -3.8063306624e-003   1.0847688424e-002  -9.1600346577e-003   1.0956004937e-002  -9.2044589917e-003  -3.9406285349e-002  -8.1055520854e-002
  7.0640000000e+010  -1.4646682928e-003  -4.0096953685e-003   1.0838916011e-002  -9.1573549888e-003   1.0947192351e-002  -9.2017733603e-003  -4.3191920655e-002  -7.8470843448e-002
  7.0660000000e+010  -8.5489905733e-004  -4.2398085163e-003   1.0830110503e-002  -9.1549378188e-003   1.0938341896e-002  -9.1993507876e-003  -4.6855601470e-002  -7.5726061298e-002
  7.0680000000e+010  -2.5057036438e-004  -4.4962668835e-003   1.0821272767e-002  -9.1527852978e-003   1.0929454430e-002  -9.1971934139e-003  -5.0390781908e-002  -7.2827126952e-002
  7.0700000000e+010   3.4710492381e-004  -4.7786231098e-003   1.0812403603e-002  -9.1508995805e-003   1.0920530740e-002  -9.1953033843e-003  -5.3791189337e-002  -6.9780255944e-002
  7.0720000000e+010   9.3693777279e-004  -5.0863867202e-003   1.0803503742e-002  -9.1492828254e-003   1.0911571550e-002  -9.1936828474e-003  -5.7050834930e-002  -6.6591914393e-002
  7.0740000000e+010   1.5177647016e-003  -5.4190252145e-003   1.0794573846e-002  -9.1479371944e-003   1.0902577511e-002  -9.1923339549e-003  -6.0164023656e-002  -6.3268806181e-002
  7.0760000000e+010   2.0884494557e-003  -5.7759652221e-003   1.0785614508e-002  -9.1468648516e-003   1.0893549208e-002  -9.1912588607e-003  -6.3125363715e-002  -5.9817859731e-002
  7.0780000000e+010   2.6478846245e-003  -6.1565937171e-003   1.0776626252e-002  -9.1460679630e-003   1.0884487156e-002  -9.1904597203e-003  -6.5929775376e-002  -5.6246214416e-002
  7.0800000000e+010   3.1949932019e-003  -6.5602592943e-003   1.0767609531e-002  -9.1455486953e-003   1.0875391801e-002  -9.1899386899e-003  -6.8572499235e-002  -5.2561206626e-002
  7.0820000000e+010   3.7287300865e-003  -6.9862735016e-003   1.0758564730e-002  -9.1453092154e-003   1.0866263518e-002  -9.1896979255e-003  -7.1049103845e-002  -4.8770355505e-002
  7.0840000000e+010   4.2480835204e-003  -7.4339122267e-003   1.0749492159e-002  -9.1453516893e-003   1.0857102612e-002  -9.1897395824e-003  -7.3355492739e-002  -4.4881348408e-002
  7.0860000000e+010   4.7520764638e-003  -7.9024171363e-003   1.0740392061e-002  -9.1456782818e-003   1.0847909318e-002  -9.1900658142e-003  -7.5487910808e-002  -4.0902026079e-002
  7.0880000000e+010   5.2397679039e-003  -8.3909971632e-003   1.0731264606e-002  -9.1462911550e-003   1.0838683799e-002  -9.1906787719e-003  -7.7442950036e-002  -3.6840367602e-002
  7.0900000000e+010   5.7102540965e-003  -8.8988300410e-003   1.0722109892e-002  -9.1471924680e-003   1.0829426148e-002  -9.1915806033e-003  -7.9217554588e-002  -3.2704475130e-002
  7.0920000000e+010   6.1626697382e-003  -9.4250638810e-003   1.0712927946e-002  -9.1483843759e-003   1.0820136384e-002  -9.1927734521e-003  -8.0809025232e-002  -2.8502558440e-002
  7.0940000000e+010   6.5961890678e-003  -9.9688187906e-003   1.0703718720e-002  -9.1498690289e-003   1.0810814458e-002  -9.1942594568e-003  -8.2215023090e-002  -2.4242919330e-002
  7.0960000000e+010   7.0100268960e-003  -1.0529188529e-002   1.0694482098e-002  -9.1516485714e-003   1.0801460244e-002  -9.1960407502e-003  -8.3433572726e-002  -1.9933935888e-002
  7.0980000000e+010   7.4034395612e-003  -1.1105242195e-002   1.0685217886e-002  -9.1537251411e-003   1.0792073547e-002  -9.1981194583e-003  -8.4463064549e-002  -1.5584046672e-002
  7.1000000000e+010   7.7757258112e-003  -1.1696025954e-002   1.0675925822e-002  -9.1561008686e-003   1.0782654099e-002  -9.2004976997e-003  -8.5302256537e-002  -1.1201734815e-002
  7.1020000000e+010   8.1262276093e-003  -1.2300564781e-002   1.0666605567e-002  -9.1587778758e-003   1.0773201557e-002  -9.2031775842e-003  -8.5950275286e-002  -6.7955120913e-003
  7.1040000000e+010   8.4543308642e-003  -1.2917864241e-002   1.0657256710e-002  -9.1617582753e-003   1.0763715508e-002  -9.2061612125e-003  -8.6406616367e-002  -2.3739029809e-003
  7.1060000000e+010   8.7594660819e-003  -1.3546912283e-002   1.0647878767e-002  -9.1650441698e-003   1.0754195465e-002  -9.2094506750e-003  -8.6671144013e-002   2.0545712554e-003
  7.1080000000e+010   9.0411089414e-003  -1.4186681059e-002   1.0638471180e-002  -9.1686376507e-003   1.0744640865e-002  -9.2130480508e-003  -8.6744090119e-002   6.4814084475e-003
  7.1100000000e+010   9.2987807904e-003  -1.4836128756e-002   1.0629033316e-002  -9.1725407976e-003   1.0735051075e-002  -9.2169554070e-003  -8.6626052571e-002   1.0898141311e-002
  7.1120000000e+010   9.5320490643e-003  -1.5494201438e-002   1.0619564471e-002  -9.1767556770e-003   1.0725425388e-002  -9.2211747977e-003  -8.6317992901e-002   1.5296353139e-002
  7.1140000000e+010   9.7405276247e-003  -1.6159834901e-002   1.0610063864e-002  -9.1812843416e-003   1.0715763021e-002  -9.2257082632e-003  -8.5821233281e-002   1.9667693352e-002
  7.1160000000e+010   9.9238770204e-003  -1.6831956538e-002   1.0600530642e-002  -9.1861288295e-003   1.0706063120e-002  -9.2305578286e-003  -8.5137452852e-002   2.4003892897e-002
  7.1180000000e+010   1.0081804669e-002  -1.7509487195e-002   1.0590963877e-002  -9.1912911627e-003   1.0696324757e-002  -9.2357255037e-003  -8.4268683412e-002   2.8296779446e-002
  7.1200000000e+010   1.0214064960e-002  -1.8191343042e-002   1.0581362568e-002  -9.1967733470e-003   1.0686546929e-002  -9.2412132810e-003  -8.3217304454e-002   3.2538292383e-002
  7.1220000000e+010   1.0320459278e-002  -1.8876437428e-002   1.0571725639e-002  -9.2025773702e-003   1.0676728561e-002  -9.2470231357e-003  -8.1986037578e-002   3.6720497539e-002
  7.1240000000e+010   1.0400835954e-002  -1.9563682736e-002   1.0562051940e-002  -9.2087052016e-003   1.0666868503e-002  -9.2531570243e-003  -8.0577940286e-002   4.0835601672e-002
  7.1260000000e+010   1.0455090130e-002  -2.0251992229e-002   1.0552340249e-002  -9.2151587911e-003   1.0656965532e-002  -9.2596168836e-003  -7.8996399168e-002   4.4875966627e-002
  7.1280000000e+010   1.0483163556e-002  -2.0940281881e-002   1.0542589267e-002  -9.2219400680e-003   1.0647018352e-002  -9.2664046297e-003  -7.7245122493e-002   4.8834123197e-002
  7.1300000000e+010   1.0485044305e-002  -2.1627472195e-002   1.0532797624e-002  -9.2290509400e-003   1.0637025594e-002  -9.2735221575e-003  -7.5328132229e-002   5.2702784618e-002
  7.1320000000e+010   1.0460766416e-002  -2.2312489997e-002   1.0522963876e-002  -9.2364932925e-003   1.0626985813e-002  -9.2809713392e-003  -7.3249755494e-002   5.6474859708e-002
  7.1340000000e+010   1.0410409466e-002  -2.2994270217e-002   1.0513086504e-002  -9.2442689874e-003   1.0616897495e-002  -9.2887540233e-003  -7.1014615468e-002   6.0143465599e-002
  7.1360000000e+010   1.0334098062e-002  -2.3671757639e-002   1.0503163918e-002  -9.2523798622e-003   1.0606759050e-002  -9.2968720343e-003  -6.8627621775e-002   6.3701940063e-002
  7.1380000000e+010   1.0232001268e-002  -2.4343908629e-002   1.0493194453e-002  -9.2608277289e-003   1.0596568816e-002  -9.3053271708e-003  -6.6093960353e-002   6.7143853393e-002
  7.1400000000e+010   1.0104331961e-002  -2.5009692826e-002   1.0483176372e-002  -9.2696143732e-003   1.0586325060e-002  -9.3141212051e-003  -6.3419082843e-002   7.0463019825e-002
  7.1420000000e+010   9.9513461171e-003  -2.5668094807e-002   1.0473107866e-002  -9.2787415535e-003   1.0576025974e-002  -9.3232558824e-003  -6.0608695503e-002   7.3653508481e-002
  7.1440000000e+010   9.7733420328e-003  -2.6318115719e-002   1.0462987053e-002  -9.2882109995e-003   1.0565669681e-002  -9.3327329189e-003  -5.7668747677e-002   7.6709653816e-002
  7.1460000000e+010   9.5706594787e-003  -2.6958774860e-002   1.0452811977e-002  -9.2980244120e-003   1.0555254230e-002  -9.3425540020e-003  -5.4605419838e-002   7.9626065544e-002
  7.1480000000e+010   9.3436787926e-003  -2.7589111239e-002   1.0442580615e-002  -9.3081834610e-003   1.0544777599e-002  -9.3527207881e-003  -5.1425111232e-002   8.2397638029e-002
  7.1500000000e+010   9.0928199106e-003  -2.8208185076e-002   1.0432290867e-002  -9.3186897854e-003   1.0534237696e-002  -9.3632349028e-003  -4.8134427138e-002   8.5019559131e-002
  7.1520000000e+010   8.8185413381e-003  -2.8815079268e-002   1.0421940567e-002  -9.3295449917e-003   1.0523632356e-002  -9.3740979389e-003  -4.4740165779e-002   8.7487318481e-002
  7.1540000000e+010   8.5213390649e-003  -2.9408900805e-002   1.0411527474e-002  -9.3407506530e-003   1.0512959346e-002  -9.3853114560e-003  -4.1249304898e-002   8.9796715177e-002
  7.1560000000e+010   8.2017454245e-003  -2.9988782136e-002   1.0401049280e-002  -9.3523083082e-003   1.0502216362e-002  -9.3968769794e-003  -3.7668988032e-002   9.1943864890e-002
  7.1580000000e+010   7.8603279009e-003  -3.0553882484e-002   1.0390503604e-002  -9.3642194607e-003   1.0491401029e-002  -9.4087959988e-003  -3.4006510511e-002   9.3925206361e-002
  7.1600000000e+010   7.4976878852e-003  -3.1103389107e-002   1.0379887998e-002  -9.3764855778e-003   1.0480510905e-002  -9.4210699678e-003  -3.0269305196e-002   9.5737507282e-002
  7.1620000000e+010   7.1144593838e-003  -3.1636518510e-002   1.0369199944e-002  -9.3891080891e-003   1.0469543479e-002  -9.4337003025e-003  -2.6464928002e-002   9.7377869556e-002
  7.1640000000e+010   6.7113076819e-003  -3.2152517593e-002   1.0358436856e-002  -9.4020883863e-003   1.0458496169e-002  -9.4466883809e-003  -2.2601043212e-002   9.8843733918e-002
  7.1660000000e+010   6.2889279629e-003  -3.2650664742e-002   1.0347596078e-002  -9.4154278216e-003   1.0447366330e-002  -9.4600355414e-003  -1.8685408629e-002   1.0013288392e-001
  7.1680000000e+010   5.8480438883e-003  -3.3130270867e-002   1.0336674889e-002  -9.4291277070e-003   1.0436151244e-002  -9.4737430822e-003  -1.4725860581e-002   1.0124344925e-001
  7.1700000000e+010   5.3894061392e-003  -3.3590680371e-002   1.0325670500e-002  -9.4431893132e-003   1.0424848132e-002  -9.4878122604e-003  -1.0730298810e-002   1.0217390843e-001
  7.1720000000e+010   4.9137909236e-003  -3.4031272059e-002   1.0314580054e-002  -9.4576138688e-003   1.0413454145e-002  -9.5022442906e-003  -6.7066712775e-003   1.0292309084e-001
  7.1740000000e+010   4.4219984499e-003  -3.4451459987e-002   1.0303400631e-002  -9.4724025588e-003   1.0401966369e-002  -9.5170403443e-003  -2.6629589041e-003   1.0349017807e-001
  7.1760000000e+010   3.9148513725e-003  -3.4850694243e-002   1.0292129243e-002  -9.4875565245e-003   1.0390381826e-002  -9.5322015488e-003   1.3928397121e-003   1.0387470462e-001
  7.1780000000e+010   3.3931932091e-003  -3.5228461662e-002   1.0280762840e-002  -9.5030768618e-003   1.0378697474e-002  -9.5477289862e-003   5.4527235860e-003   1.0407655795e-001
  7.1800000000e+010   2.8578867346e-003  -3.5584286477e-002   1.0269298306e-002  -9.5189646206e-003   1.0366910207e-002  -9.5636236924e-003   9.5087046076e-003   1.0409597787e-001
  7.1820000000e+010   2.3098123546e-003  -3.5917730902e-002   1.0257732463e-002  -9.5352208035e-003   1.0355016854e-002  -9.5798866564e-003   1.3552822750e-002   1.0393355528e-001
  7.1840000000e+010   1.7498664591e-003  -3.6228395647e-002   1.0246062069e-002  -9.5518463653e-003   1.0343014184e-002  -9.5965188190e-003   1.7577161194e-002   1.0359023017e-001
  7.1860000000e+010   1.1789597619e-003  -3.6515920367e-002   1.0234283821e-002  -9.5688422117e-003   1.0330898904e-002  -9.6135210720e-003   2.1573861345e-002   1.0306728914e-001
  7.1880000000e+010   5.9801562744e-004  -3.6779984039e-002   1.0222394356e-002  -9.5862091988e-003   1.0318667660e-002  -9.6308942575e-003   2.5535137710e-002   1.0236636211e-001
  7.1900000000e+010   7.9683871900e-006  -3.7020305274e-002   1.0210390248e-002  -9.6039481313e-003   1.0306317037e-002  -9.6486391666e-003   2.9453292608e-002   1.0148941845e-001
  7.1920000000e+010  -5.9023834977e-004  -3.7236642556e-002   1.0198268013e-002  -9.6220597627e-003   1.0293843561e-002  -9.6667565384e-003   3.3320730690e-002   1.0043876258e-001
  7.1940000000e+010  -1.1956533907e-003  -3.7428794419e-002   1.0186024108e-002  -9.6405447934e-003   1.0281243702e-002  -9.6852470596e-003   3.7129973243e-002   9.9217028752e-002
  7.1960000000e+010  -1.8073196537e-003  -3.7596599550e-002   1.0173654932e-002  -9.6594038704e-003   1.0268513867e-002  -9.7041113632e-003   4.0873672241e-002   9.7827175410e-002
  7.1980000000e+010  -2.4242758610e-003  -3.7739936824e-002   1.0161156827e-002  -9.6786375861e-003   1.0255650412e-002  -9.7233500277e-003   4.4544624134e-002   9.6272478848e-002
  7.2000000000e+010  -3.0455582270e-003  -3.7858725270e-002   1.0148526077e-002  -9.6982464776e-003   1.0242649632e-002  -9.7429635760e-003   4.8135783333e-002   9.4556526312e-002
  7.2020000000e+010  -3.6702021387e-003  -3.7952923977e-002   1.0135758914e-002  -9.7182310256e-003   1.0229507769e-002  -9.7629524748e-003   5.1640275380e-002   9.2683208536e-002
  7.2040000000e+010  -4.2972438271e-003  -3.8022531923e-002   1.0122851512e-002  -9.7385916537e-003   1.0216221012e-002  -9.7833171338e-003   5.5051409773e-002   9.0656711713e-002
  7.2060000000e+010  -4.9257220240e-003  -3.8067587743e-002   1.0109799992e-002  -9.7593287273e-003   1.0202785495e-002  -9.8040579042e-003   5.8362692419e-002   8.8481508929e-002
  7.2080000000e+010  -5.5546796044e-003  -3.8088169434e-002   1.0096600425e-002  -9.7804425531e-003   1.0189197299e-002  -9.8251750787e-003   6.1567837700e-002   8.6162351069e-002
  7.2100000000e+010  -6.1831652100e-003  -3.8084393987e-002   1.0083248827e-002  -9.8019333778e-003   1.0175452454e-002  -9.8466688900e-003   6.4660780127e-002   8.3704257226e-002
  7.2120000000e+010  -6.8102348518e-003  -3.8056416962e-002   1.0069741165e-002  -9.8238013879e-003   1.0161546941e-002  -9.8685395102e-003   6.7635685557e-002   8.1112504610e-002
  7.2140000000e+010  -7.4349534893e-003  -3.8004432002e-002   1.0056073355e-002  -9.8460467080e-003   1.0147476690e-002  -9.8907870500e-003   7.0486961960e-002   7.8392617997e-002
  7.2160000000e+010  -8.0563965841e-003  -3.7928670279e-002   1.0042241265e-002  -9.8686694007e-003   1.0133237583e-002  -9.9134115579e-003   7.3209269712e-002   7.5550358724e-002
