# Hz S RI R 1.000000
! Metas.Vna.Tools, 2.4.7898.19887
! Metas.Vna.Data, 2.4.7898.19873
! Created: UTC 2021.09.30 14:31:00
! FREQ                re:S1,1             im:S1,1             re:S2,1             im:S2,1             re:S1,2             im:S1,2             re:S2,2             im:S2,2          
  7.0000000000e+010  -1.8492441563e-002  -4.1576760495e-002  -9.6766202055e-003   5.1677804294e-001  -1.5221740411e-002   5.2039470529e-001  -3.9608616863e-002  -7.2960992021e-002
  7.0020000000e+010  -1.7559152531e-002  -4.1395873442e-002  -9.7457276642e-003   5.1709296183e-001  -1.5298765771e-002   5.2071056737e-001  -4.0987468188e-002  -7.2623915619e-002
  7.0040000000e+010  -1.6633396155e-002  -4.1224839039e-002  -9.7915101588e-003   5.1740061256e-001  -1.5352243889e-002   5.2101925038e-001  -4.2347418619e-002  -7.2219865539e-002
  7.0060000000e+010  -1.5715685769e-002  -4.1063711608e-002  -9.8139553320e-003   5.1770092138e-001  -1.5382160609e-002   5.2132068079e-001  -4.3686493757e-002  -7.1749045061e-002
  7.0080000000e+010  -1.4806534062e-002  -4.0912530172e-002  -9.8130536245e-003   5.1799381416e-001  -1.5388504576e-002   5.2161478467e-001  -4.5002726416e-002  -7.1211742917e-002
  7.0100000000e+010  -1.3906452460e-002  -4.0771318350e-002  -9.7887982776e-003   5.1827921647e-001  -1.5371267245e-002   5.2190148774e-001  -4.6294159669e-002  -7.0608333424e-002
  7.0120000000e+010  -1.3015950501e-002  -4.0640084267e-002  -9.7411853357e-003   5.1855705356e-001  -1.5330442883e-002   5.2218071537e-001  -4.7558849907e-002  -6.9939276483e-002
  7.0140000000e+010  -1.2135535213e-002  -4.0518820499e-002  -9.6702136479e-003   5.1882725039e-001  -1.5266028568e-002   5.2245239261e-001  -4.8794869903e-002  -6.9205117453e-002
  7.0160000000e+010  -1.1265710481e-002  -4.0407504028e-002  -9.5758848691e-003   5.1908973166e-001  -1.5178024195e-002   5.2271644419e-001  -5.0000311879e-002  -6.8406486893e-002
  7.0180000000e+010  -1.0406976418e-002  -4.0306096229e-002  -9.4582034609e-003   5.1934442182e-001  -1.5066432474e-002   5.2297279458e-001  -5.1173290560e-002  -6.7544100177e-002
  7.0200000000e+010  -9.5598287371e-003  -4.0214542875e-002  -9.3171766918e-003   5.1959124510e-001  -1.4931258930e-002   5.2322136796e-001  -5.2311946229e-002  -6.6618756978e-002
  7.0220000000e+010  -8.7247581151e-003  -4.0132774163e-002  -9.1528146361e-003   5.1983012555e-001  -1.4772511905e-002   5.2346208830e-001  -5.3414447757e-002  -6.5631340622e-002
  7.0240000000e+010  -7.9022495675e-003  -4.0060704770e-002  -8.9651301738e-003   5.2006098700e-001  -1.4590202557e-002   5.2369487934e-001  -5.4478995624e-002  -6.4582817306e-002
  7.0260000000e+010  -7.0927818193e-003  -3.9998233926e-002  -8.7541389885e-003   5.2028375316e-001  -1.4384344859e-002   5.2391966461e-001  -5.5503824904e-002  -6.3474235200e-002
  7.0280000000e+010  -6.2968266803e-003  -3.9945245512e-002  -8.5198595656e-003   5.2049834758e-001  -1.4154955595e-002   5.2413636747e-001  -5.6487208228e-002  -6.2306723406e-002
  7.0300000000e+010  -5.5148484245e-003  -3.9901608181e-002  -8.2623131896e-003   5.2070469371e-001  -1.3902054362e-002   5.2434491114e-001  -5.7427458705e-002  -6.1081490794e-002
  7.0320000000e+010  -4.7473031745e-003  -3.9867175504e-002  -7.9815239411e-003   5.2090271489e-001  -1.3625663562e-002   5.2454521868e-001  -5.8322932813e-002  -5.9799824713e-002
  7.0340000000e+010  -3.9946382908e-003  -3.9841786133e-002  -7.6775186928e-003   5.2109233441e-001  -1.3325808404e-002   5.2473721306e-001  -5.9172033233e-002  -5.8463089574e-002
  7.0360000000e+010  -3.2572917691e-003  -3.9825263994e-002  -7.3503271056e-003   5.2127347550e-001  -1.3002516898e-002   5.2492081716e-001  -5.9973211640e-002  -5.7072725305e-002
  7.0380000000e+010  -2.5356916437e-003  -3.9817418501e-002  -6.9999816239e-003   5.2144606135e-001  -1.2655819849e-002   5.2509595377e-001  -6.0724971439e-002  -5.5630245691e-002
  7.0400000000e+010  -1.8302554006e-003  -3.9818044783e-002  -6.6265174701e-003   5.2161001517e-001  -1.2285750855e-002   5.2526254566e-001  -6.1425870435e-002  -5.4137236581e-002
  7.0420000000e+010  -1.1413893990e-003  -3.9826923949e-002  -6.2299726387e-003   5.2176526016e-001  -1.1892346298e-002   5.2542051555e-001  -6.2074523447e-002  -5.2595353989e-002
  7.0440000000e+010  -4.6948830435e-004  -3.9843823365e-002  -5.8103878901e-003   5.2191171957e-001  -1.1475645344e-002   5.2556978618e-001  -6.2669604845e-002  -5.1006322070e-002
  7.0460000000e+010   1.8506546911e-004  -3.9868496949e-002  -5.3678067439e-003   5.2204931671e-001  -1.1035689930e-002   5.2571028028e-001  -6.3209851015e-002  -4.9371930983e-002
  7.0480000000e+010   8.2190230207e-004  -3.9900685500e-002  -4.9022754710e-003   5.2217797497e-001  -1.0572524761e-002   5.2584192065e-001  -6.3694062749e-002  -4.7694034641e-002
  7.0500000000e+010   1.4406659021e-003  -3.9940117034e-002  -4.4138430861e-003   5.2229761783e-001  -1.0086197301e-002   5.2596463013e-001  -6.4121107547e-002  -4.5974548362e-002
  7.0520000000e+010   2.0410138214e-003  -3.9986507151e-002  -3.9025613389e-003   5.2240816892e-001  -9.5767577655e-003   5.2607833164e-001  -6.4489921831e-002  -4.4215446396e-002
  7.0540000000e+010   2.6226179599e-003  -4.0039559418e-002  -3.3684847054e-003   5.2250955199e-001  -9.0442591127e-003   5.2618294823e-001  -6.4799513073e-002  -4.2418759370e-002
  7.0560000000e+010   3.1851650530e-003  -4.0098965767e-002  -2.8116703779e-003   5.2260169097e-001  -8.4887570345e-003   5.2627840304e-001  -6.5048961820e-002  -4.0586571620e-002
  7.0580000000e+010   3.7283571433e-003  -4.0164406919e-002  -2.2321782556e-003   5.2268450997e-001  -7.9103099470e-003   5.2636461939e-001  -6.5237423624e-002  -3.8721018433e-002
  7.0600000000e+010   4.2519120353e-003  -4.0235552828e-002  -1.6300709335e-003   5.2275793332e-001  -7.3089789803e-003   5.2644152075e-001  -6.5364130869e-002  -3.6824283196e-002
  7.0620000000e+010   4.7555637318e-003  -4.0312063130e-002  -1.0054136915e-003   5.2282188557e-001  -6.6848279678e-003   5.2650903078e-001  -6.5428394481e-002  -3.4898594462e-002
  7.0640000000e+010   5.2390628526e-003  -4.0393587625e-002  -3.5827448310e-004   5.2287629154e-001  -6.0379234351e-003   5.2656707336e-001  -6.5429605544e-002  -3.2946222928e-002
  7.0660000000e+010   5.7021770335e-003  -4.0479766765e-002   3.1127607723e-004   5.2292107630e-001  -5.3683345884e-003   5.2661557258e-001  -6.5367236781e-002  -3.0969478334e-002
  7.0680000000e+010   6.1446913059e-003  -4.0570232165e-002   1.0031647262e-003   5.2295616524e-001  -4.6761333026e-003   5.2665445282e-001  -6.5240843940e-002  -2.8970706293e-002
  7.0700000000e+010   6.5664084548e-003  -4.0664607122e-002   1.7173155651e-003   5.2298148404e-001  -3.9613941080e-003   5.2668363870e-001  -6.5050067036e-002  -2.6952285043e-002
  7.0720000000e+010   6.9671493572e-003  -4.0762507156e-002   2.4536500732e-003   5.2299695873e-001  -3.2241941781e-003   5.2670305516e-001  -6.4794631489e-002  -2.4916622146e-002
  7.0740000000e+010   7.3467532971e-003  -4.0863540558e-002   3.2120871218e-003   5.2300251569e-001  -2.4646133150e-003   5.2671262744e-001  -6.4474349127e-002  -2.2866151113e-002
  7.0760000000e+010   7.7050782595e-003  -4.0967308959e-002   3.9925429890e-003   5.2299808170e-001  -1.6827339360e-003   5.2671228112e-001  -6.4089119056e-002  -2.0803327986e-002
  7.0780000000e+010   8.0420012003e-003  -4.1073407902e-002   4.7949313747e-003   5.2298358392e-001  -8.7864105874e-004   5.2670194214e-001  -6.3638928413e-002  -1.8730627862e-002
  7.0800000000e+010   8.3574182940e-003  -4.1181427433e-002   5.6191634160e-003   5.2295894991e-001  -5.2422286099e-005   5.2668153681e-001  -6.3123852969e-002  -1.6650541379e-002
  7.0820000000e+010   8.6512451561e-003  -4.1290952702e-002   6.4651477035e-003   5.2292410771e-001   7.9583220934e-004   5.2665099186e-001  -6.2544057613e-002  -1.4565571158e-002
  7.0840000000e+010   8.9234170422e-003  -4.1401564566e-002   7.3327902975e-003   5.2287898580e-001   1.6660297013e-003   5.2661023442e-001  -6.1899796685e-002  -1.2478228213e-002
  7.0860000000e+010   9.1738890221e-003  -4.1512840212e-002   8.2219947451e-003   5.2282351312e-001   2.5580749263e-003   5.2655919205e-001  -6.1191414186e-002  -1.0391028333e-002
  7.0880000000e+010   9.4026361284e-003  -4.1624353778e-002   9.1326620978e-003   5.2275761914e-001   3.4718701007e-003   5.2649779279e-001  -6.0419343836e-002  -8.3064884465e-003
  7.0900000000e+010   9.6096534797e-003  -4.1735676992e-002   1.0064690929e-002   5.2268123383e-001   4.4073149380e-003   5.2642596515e-001  -5.9584108998e-002  -6.2271229569e-003
  7.0920000000e+010   9.7949563781e-003  -4.1846379805e-002   1.1017977353e-002   5.2259428770e-001   5.3643066667e-003   5.2634363814e-001  -5.8686322463e-002  -4.1554400808e-003
  7.0940000000e+010   9.9585803809e-003  -4.1956031039e-002   1.1992415042e-002   5.2249671183e-001   6.3427400488e-003   5.2625074127e-001  -5.7726686087e-002  -2.0939381721e-003
  7.0960000000e+010   1.0100581345e-002  -4.2064199033e-002   1.2987895249e-002   5.2238843786e-001   7.3425073985e-003   5.2614720461e-001  -5.6705990295e-002  -4.5102051263e-005
  7.0980000000e+010   1.0221035445e-002  -4.2170452297e-002   1.4004306824e-002   5.2226939802e-001   8.3634986013e-003   5.2603295877e-001  -5.5625113434e-002   1.9886006613e-003
  7.1000000000e+010   1.0320039168e-002  -4.2274360167e-002   1.5041536233e-002   5.2213952519e-001   9.4056011337e-003   5.2590793496e-001  -5.4485020991e-002   4.0047231977e-003
  7.1020000000e+010   1.0397709272e-002  -4.2375493458e-002   1.6099467585e-002   5.2199875283e-001   1.0468700083e-002   5.2577206494e-001  -5.3286764670e-002   6.0008432773e-003
  7.1040000000e+010   1.0454182732e-002  -4.2473425121e-002   1.7177982647e-002   5.2184701509e-001   1.1552678169e-002   5.2562528112e-001  -5.2031481324e-002   7.9745667174e-003
  7.1060000000e+010   1.0489616646e-002  -4.2567730901e-002   1.8276960865e-002   5.2168424679e-001   1.2657415763e-002   5.2546751653e-001  -5.0720391751e-002   9.9235310130e-003
  7.1080000000e+010   1.0504188118e-002  -4.2657989989e-002   1.9396279391e-002   5.2151038340e-001   1.3782790910e-002   5.2529870484e-001  -4.9354799349e-002   1.1845408881e-002
  7.1100000000e+010   1.0498094119e-002  -4.2743785673e-002   2.0535813100e-002   5.2132536114e-001   1.4928679352e-002   5.2511878040e-001  -4.7936088639e-002   1.3737911762e-002
  7.1120000000e+010   1.0471551317e-002  -4.2824705989e-002   2.1695434617e-002   5.2112911691e-001   1.6094954547e-002   5.2492767823e-001  -4.6465723646e-002   1.5598793275e-002
  7.1140000000e+010   1.0424795878e-002  -4.2900344361e-002   2.2875014334e-002   5.2092158838e-001   1.7281487694e-002   5.2472533407e-001  -4.4945246149e-002   1.7425852619e-002
  7.1160000000e+010   1.0358083243e-002  -4.2970300241e-002   2.4074420442e-002   5.2070271397e-001   1.8488147755e-002   5.2451168435e-001  -4.3376273804e-002   1.9216937912e-002
  7.1180000000e+010   1.0271687883e-002  -4.3034179740e-002   2.5293518945e-002   5.2047243286e-001   1.9714801479e-002   5.2428666627e-001  -4.1760498130e-002   2.0969949472e-002
  7.1200000000e+010   1.0165903018e-002  -4.3091596252e-002   2.6532173692e-002   5.2023068503e-001   2.0961313423e-002   5.2405021777e-001  -4.0099682372e-002   2.2682843018e-002
  7.1220000000e+010   1.0041040320e-002  -4.3142171070e-002   2.7790246397e-002   5.1997741127e-001   2.2227545980e-002   5.2380227755e-001  -3.8395659243e-002   2.4353632807e-002
  7.1240000000e+010   9.8974295839e-003  -4.3185533993e-002   2.9067596665e-002   5.1971255317e-001   2.3513359402e-002   5.2354278512e-001  -3.6650328538e-002   2.5980394678e-002
  7.1260000000e+010   9.7354183748e-003  -4.3221323918e-002   3.0364082018e-002   5.1943605319e-001   2.4818611823e-002   5.2327168076e-001  -3.4865654639e-002   2.7561269018e-002
  7.1280000000e+010   9.5553716533e-003  -4.3249189431e-002   3.1679557921e-002   5.1914785461e-001   2.6143159284e-002   5.2298890560e-001  -3.3043663898e-002   2.9094463634e-002
  7.1300000000e+010   9.3576713729e-003  -4.3268789371e-002   3.3013877806e-002   5.1884790161e-001   2.7486855764e-002   5.2269440158e-001  -3.1186441912e-002   3.0578256524e-002
  7.1320000000e+010   9.1427160551e-003  -4.3279793399e-002   3.4366893097e-002   5.1853613922e-001   2.8849553197e-002   5.2238811151e-001  -2.9296130696e-002   3.2010998557e-002
  7.1340000000e+010   8.9109203406e-003  -4.3281882532e-002   3.5738453242e-002   5.1821251339e-001   3.0231101507e-002   5.2206997905e-001  -2.7374925741e-002   3.3391116034e-002
  7.1360000000e+010   8.6627145186e-003  -4.3274749685e-002   3.7128405733e-002   5.1787697099e-001   3.1631348625e-002   5.2173994874e-001  -2.5425072990e-002   3.4717113150e-002
  7.1380000000e+010   8.3985440324e-003  -4.3258100175e-002   3.8536596141e-002   5.1752945978e-001   3.3050140526e-002   5.2139796602e-001  -2.3448865704e-002   3.5987574334e-002
  7.1400000000e+010   8.1188689642e-003  -4.3231652226e-002   3.9962868135e-002   5.1716992851e-001   3.4487321248e-002   5.2104397725e-001  -2.1448641249e-002   3.7201166469e-002
  7.1420000000e+010   7.8241634993e-003  -4.3195137446e-002   4.1407063516e-002   5.1679832683e-001   3.5942732923e-002   5.2067792968e-001  -1.9426777791e-002   3.8356640996e-002
  7.1440000000e+010   7.5149153689e-003  -4.3148301289e-002   4.2869022241e-002   5.1641460540e-001   3.7416215804e-002   5.2029977152e-001  -1.7385690920e-002   3.9452835882e-002
  7.1460000000e+010   7.1916252739e-003  -4.3090903503e-002   4.4348582456e-002   5.1601871583e-001   3.8907608293e-002   5.1990945194e-001  -1.5327830189e-002   4.0488677465e-002
  7.1480000000e+010   6.8548062900e-003  -4.3022718547e-002   4.5845580520e-002   5.1561061076e-001   4.0416746969e-002   5.1950692104e-001  -1.3255675589e-002   4.1463182158e-002
  7.1500000000e+010   6.5049832540e-003  -4.2943535997e-002   4.7359851035e-002   5.1519024379e-001   4.1943466616e-002   5.1909212992e-001  -1.1171733962e-002   4.2375458020e-002
  7.1520000000e+010   6.1426921340e-003  -4.2853160931e-002   4.8891226878e-002   5.1475756956e-001   4.3487600253e-002   5.1866503066e-001  -9.0785353462e-003   4.3224706182e-002
  7.1540000000e+010   5.7684793817e-003  -4.2751414283e-002   5.0439539226e-002   5.1431254374e-001   4.5048979163e-002   5.1822557635e-001  -6.9786292819e-003   4.4010222140e-002
  7.1560000000e+010   5.3829012702e-003  -4.2638133187e-002   5.2004617590e-002   5.1385512303e-001   4.6627432920e-002   5.1777372108e-001  -4.8745810566e-003   4.4731396885e-002
  7.1580000000e+010   4.9865232167e-003  -4.2513171289e-002   5.3586289840e-002   5.1338526520e-001   4.8222789420e-002   5.1730941996e-001  -2.7689679168e-003   4.5387717902e-002
  7.1600000000e+010   4.5799190914e-003  -4.2376399039e-002   5.5184382240e-002   5.1290292906e-001   4.9834874913e-002   5.1683262916e-001  -6.6437524231e-004   4.5978770007e-002
  7.1620000000e+010   4.1636705135e-003  -4.2227703958e-002   5.6798719474e-002   5.1240807450e-001   5.1463514028e-002   5.1634330588e-001   1.4366073097e-003   4.6504236036e-002
  7.1640000000e+010   3.7383661357e-003  -4.2066990882e-002   5.8429124682e-002   5.1190066250e-001   5.3108529808e-002   5.1584140837e-001   3.5313896825e-003   4.6963897382e-002
  7.1660000000e+010   3.3046009171e-003  -4.1894182176e-002   6.0075419483e-002   5.1138065511e-001   5.4769743736e-002   5.1532689597e-001   5.6173853158e-003   4.7357634370e-002
  7.1680000000e+010   2.8629753866e-003  -4.1709217935e-002   6.1737424012e-002   5.1084801552e-001   5.6446975770e-002   5.1479972907e-001   7.6920150518e-003   4.7685426486e-002
  7.1700000000e+010   2.4140948978e-003  -4.1512056139e-002   6.3414956949e-002   5.1030270799e-001   5.8140044370e-002   5.1425986917e-001   9.7527110460e-003   4.7947352438e-002
  7.1720000000e+010   1.9585688748e-003  -4.1302672805e-002   6.5107835551e-002   5.0974469793e-001   5.9848766531e-002   5.1370727886e-001   1.1796920676e-002   4.8143590064e-002
  7.1740000000e+010   1.4970100528e-003  -4.1081062093e-002   6.6815875683e-002   5.0917395185e-001   6.1572957814e-002   5.1314192184e-001   1.3822110443e-002   4.8274416086e-002
  7.1760000000e+010   1.0300337113e-003  -4.0847236396e-002   6.8538891847e-002   5.0859043742e-001   6.3312432377e-002   5.1256376293e-001   1.5825769855e-002   4.8340205696e-002
  7.1780000000e+010   5.5825690395e-004  -4.0601226403e-002   7.0276697220e-002   5.0799412345e-001   6.5067003004e-002   5.1197276804e-001   1.7805415297e-002   4.8341431994e-002
  7.1800000000e+010   8.2297683807e-005  -4.0343081128e-002   7.2029103678e-002   5.0738497989e-001   6.6836481142e-002   5.1136890426e-001   1.9758593863e-002   4.8278665257e-002
  7.1820000000e+010  -3.9722567325e-004  -4.0072867920e-002   7.3795921834e-002   5.0676297786e-001   6.8620676928e-002   5.1075213980e-001   2.1682887163e-002   4.8152572067e-002
  7.1840000000e+010  -8.7969544690e-004  -3.9790672439e-002   7.5576961070e-002   5.0612808963e-001   7.0419399222e-002   5.1012244400e-001   2.3575915086e-002   4.7963914264e-002
  7.1860000000e+010  -1.3644952511e-003  -3.9496598610e-002   7.7372029563e-002   5.0548028866e-001   7.2232455641e-002   5.0947978737e-001   2.5435339518e-002   4.7713547762e-002
  7.1880000000e+010  -1.8510108116e-003  -3.9190768544e-002   7.9180934326e-002   5.0481954959e-001   7.4059652588e-002   5.0882414159e-001   2.7258868005e-002   4.7402421197e-002
  7.1900000000e+010  -2.3386307425e-003  -3.8873322437e-002   8.1003481234e-002   5.0414584821e-001   7.5900795288e-002   5.0815547950e-001   2.9044257360e-002   4.7031574435e-002
  7.1920000000e+010  -2.8267473184e-003  -3.8544418440e-002   8.2839475058e-002   5.0345916154e-001   7.7755687816e-002   5.0747377511e-001   3.0789317204e-002   4.6602136922e-002
  7.1940000000e+010  -3.3147572441e-003  -3.8204232497e-002   8.4688719501e-002   5.0275946778e-001   7.9624133132e-002   5.0677900361e-001   3.2491913433e-002   4.6115325895e-002
  7.1960000000e+010  -3.8020624176e-003  -3.7852958165e-002   8.6551017226e-002   5.0204674630e-001   8.1505933114e-002   5.0607114137e-001   3.4149971616e-002   4.5572444440e-002
  7.1980000000e+010  -4.2880706878e-003  -3.7490806397e-002   8.8426169892e-002   5.0132097772e-001   8.3400888589e-002   5.0535016598e-001   3.5761480300e-002   4.4974879414e-002
  7.2000000000e+010  -4.7721966042e-003  -3.7118005310e-002   9.0313978184e-002   5.0058214384e-001   8.5308799365e-002   5.0461605618e-001   3.7324494232e-002   4.4324099225e-002
  7.2020000000e+010  -5.2538621588e-003  -3.6734799913e-002   9.2214241851e-002   4.9983022768e-001   8.7229464268e-002   5.0386879195e-001   3.8837137491e-002   4.3621651480e-002
  7.2040000000e+010  -5.7324975176e-003  -3.6341451820e-002   9.4126759731e-002   4.9906521346e-001   8.9162681169e-002   5.0310835445e-001   4.0297606509e-002   4.2869160499e-002
  7.2060000000e+010  -6.2075417423e-003  -3.5938238933e-002   9.6051329792e-002   4.9828708662e-001   9.1108247021e-002   5.0233472606e-001   4.1704172998e-002   4.2068324696e-002
  7.2080000000e+010  -6.6784434996e-003  -3.5525455099e-002   9.7987749161e-002   4.9749583385e-001   9.3065957889e-002   5.0154789037e-001   4.3055186761e-002   4.1220913848e-002
  7.2100000000e+010  -7.1446617583e-003  -3.5103409743e-002   9.9935814155e-002   4.9669144301e-001   9.5035608987e-002   5.0074783217e-001   4.4349078391e-002   4.0328766230e-002
  7.2120000000e+010  -7.6056664730e-003  -3.4672427478e-002   1.0189532032e-001   4.9587390323e-001   9.7016994705e-002   4.9993453748e-001   4.5584361846e-002   3.9393785644e-002
  7.2140000000e+010  -8.0609392517e-003  -3.4232847689e-002   1.0386606246e-001   4.9504320485e-001   9.9009908646e-002   4.9910799355e-001   4.6759636903e-002   3.8417938331e-002
  7.2160000000e+010  -8.5099740097e-003  -3.3785024092e-002   1.0584783466e-001   4.9419933942e-001   1.0101414366e-001   4.9826818883e-001   4.7873591484e-002   3.7403249785e-002
