# Hz S RI R 1.000000
! Metas.Vna.Tools, 2.4.7898.19887
! Metas.Vna.Data, 2.4.7898.19873
! Created: UTC 2021.09.30 14:31:00
! FREQ                re:S1,1             im:S1,1             re:S2,1             im:S2,1             re:S1,2             im:S1,2             re:S2,2             im:S2,2          
  7.0000000000e+010   2.8356207293e-002  -3.0260248004e-002   4.3643114167e-001   2.5181833519e-001   4.3957796471e-001   2.5318859421e-001  -5.8137360081e-002  -9.8907224215e-002
  7.0020000000e+010   2.8306614427e-002  -3.0378243426e-002   4.3665648166e-001   2.5207744131e-001   4.3981106775e-001   2.5345309208e-001  -5.9942092844e-002  -9.8424288383e-002
  7.0040000000e+010   2.8248806718e-002  -3.0502338118e-002   4.3688765793e-001   2.5231204394e-001   4.4004991599e-001   2.5369268462e-001  -6.1720036402e-002  -9.7853949833e-002
  7.0060000000e+010   2.8182681535e-002  -3.0632424562e-002   4.3712461783e-001   2.5252208741e-001   4.4029445506e-001   2.5390731523e-001  -6.3468591567e-002  -9.7196523249e-002
  7.0080000000e+010   2.8108137462e-002  -3.0768386053e-002   4.3736730679e-001   2.5270751829e-001   4.4054462865e-001   2.5409692967e-001  -6.5185170806e-002  -9.6452435953e-002
  7.0100000000e+010   2.8025074573e-002  -3.0910096720e-002   4.3761566830e-001   2.5286828543e-001   4.4080037852e-001   2.5426147597e-001  -6.6867202281e-002  -9.5622228011e-002
  7.0120000000e+010   2.7933394705e-002  -3.1057421567e-002   4.3786964399e-001   2.5300433997e-001   4.4106164454e-001   2.5440090454e-001  -6.8512133890e-002  -9.4706552170e-002
  7.0140000000e+010   2.7833001731e-002  -3.1210216518e-002   4.3812917358e-001   2.5311563533e-001   4.4132836466e-001   2.5451516811e-001  -7.0117437328e-002  -9.3706173619e-002
  7.0160000000e+010   2.7723801847e-002  -3.1368328479e-002   4.3839419494e-001   2.5320212722e-001   4.4160047496e-001   2.5460422180e-001  -7.1680612131e-002  -9.2621969591e-002
  7.0180000000e+010   2.7605703845e-002  -3.1531595422e-002   4.3866464407e-001   2.5326377370e-001   4.4187790968e-001   2.5466802310e-001  -7.3199189717e-002  -9.1454928777e-002
  7.0200000000e+010   2.7478619401e-002  -3.1699846467e-002   4.3894045516e-001   2.5330053514e-001   4.4216060118e-001   2.5470653188e-001  -7.4670737415e-002  -9.0206150579e-002
  7.0220000000e+010   2.7342463356e-002  -3.1872901991e-002   4.3922156058e-001   2.5331237428e-001   4.4244848004e-001   2.5471971043e-001  -7.6092862464e-002  -8.8876844186e-002
  7.0240000000e+010   2.7197153999e-002  -3.2050573747e-002   4.3950789089e-001   2.5329925619e-001   4.4274147500e-001   2.5470752344e-001  -7.7463215987e-002  -8.7468327481e-002
  7.0260000000e+010   2.7042613353e-002  -3.2232664994e-002   4.3979937491e-001   2.5326114832e-001   4.4303951303e-001   2.5466993804e-001  -7.8779496931e-002  -8.5982025770e-002
  7.0280000000e+010   2.6878767455e-002  -3.2418970643e-002   4.4009593964e-001   2.5319802050e-001   4.4334251932e-001   2.5460692380e-001  -8.0039455957e-002  -8.4419470348e-002
  7.0300000000e+010   2.6705546640e-002  -3.2609277419e-002   4.4039751040e-001   2.5310984495e-001   4.4365041731e-001   2.5451845273e-001  -8.1240899289e-002  -8.2782296890e-002
  7.0320000000e+010   2.6522885819e-002  -3.2803364032e-002   4.4070401075e-001   2.5299659630e-001   4.4396312873e-001   2.5440449930e-001  -8.2381692504e-002  -8.1072243679e-002
  7.0340000000e+010   2.6330724758e-002  -3.3001001366e-002   4.4101536255e-001   2.5285825157e-001   4.4428057358e-001   2.5426504044e-001  -8.3459764256e-002  -7.9291149661e-002
  7.0360000000e+010   2.6129008352e-002  -3.3201952677e-002   4.4133148599e-001   2.5269479021e-001   4.4460267018e-001   2.5410005559e-001  -8.4473109932e-002  -7.7440952343e-002
  7.0380000000e+010   2.5917686894e-002  -3.3405973811e-002   4.4165229961e-001   2.5250619411e-001   4.4492933517e-001   2.5390952664e-001  -8.5419795236e-002  -7.5523685523e-002
  7.0400000000e+010   2.5696716349e-002  -3.3612813428e-002   4.4197772027e-001   2.5229244759e-001   4.4526048357e-001   2.5369343800e-001  -8.6297959687e-002  -7.3541476863e-002
  7.0420000000e+010   2.5466058609e-002  -3.3822213243e-002   4.4230766325e-001   2.5205353741e-001   4.4559602873e-001   2.5345177657e-001  -8.7105820029e-002  -7.1496545307e-002
  7.0440000000e+010   2.5225681758e-002  -3.4033908279e-002   4.4264204221e-001   2.5178945278e-001   4.4593588244e-001   2.5318453177e-001  -8.7841673546e-002  -6.9391198345e-002
  7.0460000000e+010   2.4975560319e-002  -3.4247627135e-002   4.4298076923e-001   2.5150018539e-001   4.4627995489e-001   2.5289169552e-001  -8.8503901276e-002  -6.7227829123e-002
  7.0480000000e+010   2.4715675505e-002  -3.4463092259e-002   4.4332375484e-001   2.5118572938e-001   4.4662815469e-001   2.5257326229e-001  -8.9090971119e-002  -6.5008913411e-002
  7.0500000000e+010   2.4446015456e-002  -3.4680020243e-002   4.4367090804e-001   2.5084608136e-001   4.4698038895e-001   2.5222922906e-001  -8.9601440831e-002  -6.2737006430e-002
  7.0520000000e+010   2.4166575474e-002  -3.4898122124e-002   4.4402213633e-001   2.5048124044e-001   4.4733656324e-001   2.5185959537e-001  -9.0033960898e-002  -6.0414739535e-002
  7.0540000000e+010   2.3877358248e-002  -3.5117103696e-002   4.4437734569e-001   2.5009120819e-001   4.4769658164e-001   2.5146436326e-001  -9.0387277290e-002  -5.8044816769e-002
  7.0560000000e+010   2.3578374070e-002  -3.5336665834e-002   4.4473644066e-001   2.4967598869e-001   4.4806034677e-001   2.5104353736e-001  -9.0660234081e-002  -5.5630011289e-002
  7.0580000000e+010   2.3269641045e-002  -3.5556504832e-002   4.4509932432e-001   2.4923558851e-001   4.4842775980e-001   2.5059712482e-001  -9.0851775935e-002  -5.3173161661e-002
  7.0600000000e+010   2.2951185292e-002  -3.5776312747e-002   4.4546589837e-001   2.4877001669e-001   4.4879872049e-001   2.5012513537e-001  -9.0960950456e-002  -5.0677168047e-002
  7.0620000000e+010   2.2623041133e-002  -3.5995777756e-002   4.4583606306e-001   2.4827928482e-001   4.4917312719e-001   2.4962758127e-001  -9.0986910388e-002  -4.8144988266e-002
  7.0640000000e+010   2.2285251273e-002  -3.6214584521e-002   4.4620971732e-001   2.4776340696e-001   4.4955087688e-001   2.4910447735e-001  -9.0928915668e-002  -4.5579633761e-002
  7.0660000000e+010   2.1937866970e-002  -3.6432414560e-002   4.4658675870e-001   2.4722239968e-001   4.4993186521e-001   2.4855584101e-001  -9.0786335326e-002  -4.2984165452e-002
  7.0680000000e+010   2.1580948197e-002  -3.6648946640e-002   4.4696708344e-001   2.4665628208e-001   4.5031598650e-001   2.4798169222e-001  -9.0558649228e-002  -4.0361689499e-002
  7.0700000000e+010   2.1214563786e-002  -3.6863857156e-002   4.4735058649e-001   2.4606507573e-001   4.5070313375e-001   2.4738205348e-001  -9.0245449652e-002  -3.7715352979e-002
  7.0720000000e+010   2.0838791568e-002  -3.7076820542e-002   4.4773716152e-001   2.4544880475e-001   4.5109319873e-001   2.4675694989e-001  -8.9846442707e-002  -3.5048339468e-002
  7.0740000000e+010   2.0453718492e-002  -3.7287509668e-002   4.4812670095e-001   2.4480749577e-001   4.5148607193e-001   2.4610640912e-001  -8.9361449574e-002  -3.2363864560e-002
  7.0760000000e+010   2.0059440745e-002  -3.7495596261e-002   4.4851909600e-001   2.4414117790e-001   4.5188164264e-001   2.4543046137e-001  -8.8790407582e-002  -2.9665171311e-002
  7.0780000000e+010   1.9656063842e-002  -3.7700751321e-002   4.4891423667e-001   2.4344988279e-001   4.5227979894e-001   2.4472913945e-001  -8.8133371107e-002  -2.6955525613e-002
  7.0800000000e+010   1.9243702719e-002  -3.7902645545e-002   4.4931201180e-001   2.4273364460e-001   4.5268042776e-001   2.4400247869e-001  -8.7390512289e-002  -2.4238211526e-002
  7.0820000000e+010   1.8822481802e-002  -3.8100949758e-002   4.4971230909e-001   2.4199249999e-001   4.5308341489e-001   2.4325051703e-001  -8.6562121576e-002  -2.1516526550e-002
  7.0840000000e+010   1.8392535067e-002  -3.8295335353e-002   4.5011501512e-001   2.4122648813e-001   4.5348864498e-001   2.4247329494e-001  -8.5648608083e-002  -1.8793776862e-002
  7.0860000000e+010   1.7954006084e-002  -3.8485474720e-002   4.5052001538e-001   2.4043565070e-001   4.5389600163e-001   2.4167085544e-001  -8.4650499765e-002  -1.6073272514e-002
  7.0880000000e+010   1.7507048051e-002  -3.8671041697e-002   4.5092719428e-001   2.3962003188e-001   4.5430536733e-001   2.4084324415e-001  -8.3568443409e-002  -1.3358322612e-002
  7.0900000000e+010   1.7051823803e-002  -3.8851712008e-002   4.5133643522e-001   2.3877967835e-001   4.5471662360e-001   2.3999050919e-001  -8.2403204434e-002  -1.0652230471e-002
  7.0920000000e+010   1.6588505821e-002  -3.9027163714e-002   4.5174762057e-001   2.3791463930e-001   4.5512965089e-001   2.3911270127e-001  -8.1155666512e-002  -7.9582887583e-003
  7.0940000000e+010   1.6117276214e-002  -3.9197077659e-002   4.5216063173e-001   2.3702496638e-001   4.5554432870e-001   2.3820987360e-001  -7.9826830991e-002  -5.2797746387e-003
  7.0960000000e+010   1.5638326693e-002  -3.9361137920e-002   4.5257534912e-001   2.3611071375e-001   4.5596053560e-001   2.3728208198e-001  -7.8417816139e-002  -2.6199449184e-003
  7.0980000000e+010   1.5151858524e-002  -3.9519032255e-002   4.5299165225e-001   2.3517193806e-001   4.5637814920e-001   2.3632938470e-001  -7.6929856195e-002   1.7968794177e-005
  7.1000000000e+010   1.4658082472e-002  -3.9670452550e-002   4.5340941972e-001   2.3420869843e-001   4.5679704622e-001   2.3535184260e-001  -7.5364300233e-002   2.6307649098e-003
  7.1020000000e+010   1.4157218726e-002  -3.9815095272e-002   4.5382852925e-001   2.3322105643e-001   4.5721710252e-001   2.3434951904e-001  -7.3722610840e-002   5.2152766511e-003
  7.1040000000e+010   1.3649496806e-002  -3.9952661905e-002   4.5424885773e-001   2.3220907612e-001   4.5763819313e-001   2.3332247987e-001  -7.2006362608e-002   7.7683768091e-003
  7.1060000000e+010   1.3135155461e-002  -4.0082859404e-002   4.5467028122e-001   2.3117282401e-001   4.5806019224e-001   2.3227079348e-001  -7.0217240439e-002   1.0286982456e-002
  7.1080000000e+010   1.2614442548e-002  -4.0205400623e-002   4.5509267497e-001   2.3011236905e-001   4.5848297328e-001   2.3119453074e-001  -6.8357037673e-002   1.2768059607e-002
  7.1100000000e+010   1.2087614890e-002  -4.0320004761e-002   4.5551591349e-001   2.2902778265e-001   4.5890640890e-001   2.3009376500e-001  -6.6427654029e-002   1.5208627824e-002
  7.1120000000e+010   1.1554938130e-002  -4.0426397786e-002   4.5593987055e-001   2.2791913863e-001   4.5933037105e-001   2.2896857213e-001  -6.4431093368e-002   1.7605764746e-002
  7.1140000000e+010   1.1016686559e-002  -4.0524312864e-002   4.5636441920e-001   2.2678651327e-001   4.5975473095e-001   2.2781903042e-001  -6.2369461285e-002   1.9956610555e-002
  7.1160000000e+010   1.0473142936e-002  -4.0613490780e-002   4.5678943181e-001   2.2562998522e-001   4.6017935917e-001   2.2664522067e-001  -6.0244962520e-002   2.2258372352e-002
  7.1180000000e+010   9.9245982850e-003  -4.0693680348e-002   4.5721478011e-001   2.2444963557e-001   4.6060412563e-001   2.2544722609e-001  -5.8059898209e-002   2.4508328448e-002
  7.1200000000e+010   9.3713516861e-003  -4.0764638819e-002   4.5764033520e-001   2.2324554778e-001   4.6102889963e-001   2.2422513238e-001  -5.5816662956e-002   2.6703832552e-002
  7.1220000000e+010   8.8137100435e-003  -4.0826132282e-002   4.5806596756e-001   2.2201780773e-001   4.6145354988e-001   2.2297902762e-001  -5.3517741757e-002   2.8842317864e-002
  7.1240000000e+010   8.2519878426e-003  -4.0877936048e-002   4.5849154714e-001   2.2076650363e-001   4.6187794455e-001   2.2170900234e-001  -5.1165706750e-002   3.0921301050e-002
  7.1260000000e+010   7.6865068925e-003  -4.0919835036e-002   4.5891694331e-001   2.1949172609e-001   4.6230195126e-001   2.2041514948e-001  -4.8763213825e-002   3.2938386100e-002
  7.1280000000e+010   7.1175960523e-003  -4.0951624140e-002   4.5934202497e-001   2.1819356804e-001   4.6272543714e-001   2.1909756434e-001  -4.6312999072e-002   3.4891268067e-002
  7.1300000000e+010   6.5455909452e-003  -4.0973108592e-002   4.5976666049e-001   2.1687212476e-001   4.6314826885e-001   2.1775634465e-001  -4.3817875099e-002   3.6777736663e-002
  7.1320000000e+010   5.9708336570e-003  -4.0984104308e-002   4.6019071782e-001   2.1552749385e-001   4.6357031258e-001   2.1639159047e-001  -4.1280727195e-002   3.8595679733e-002
  7.1340000000e+010   5.3936724225e-003  -4.0984438230e-002   4.6061406446e-001   2.1415977524e-001   4.6399143414e-001   2.1500340423e-001  -3.8704509367e-002   4.0343086570e-002
  7.1360000000e+010   4.8144612977e-003  -4.0973948646e-002   4.6103656752e-001   2.1276907112e-001   4.6441149892e-001   2.1359189070e-001  -3.6092240256e-002   4.2018051094e-002
  7.1380000000e+010   4.2335598198e-003  -4.0952485506e-002   4.6145809372e-001   2.1135548600e-001   4.6483037198e-001   2.1215715697e-001  -3.3446998915e-002   4.3618774862e-002
  7.1400000000e+010   3.6513326540e-003  -4.0919910719e-002   4.6187850947e-001   2.0991912664e-001   4.6524791802e-001   2.1069931245e-001  -3.0771920484e-002   4.5143569929e-002
  7.1420000000e+010   3.0681492291e-003  -4.0876098441e-002   4.6229768082e-001   2.0846010205e-001   4.6566400146e-001   2.0921846882e-001  -2.8070191751e-002   4.6590861535e-002
  7.1440000000e+010   2.4843833610e-003  -4.0820935341e-002   4.6271547356e-001   2.0697852348e-001   4.6607848643e-001   2.0771474008e-001  -2.5345046610e-002   4.7959190628e-002
  7.1460000000e+010   1.9004128646e-003  -4.0754320860e-002   4.6313175321e-001   2.0547450442e-001   4.6649123681e-001   2.0618824247e-001  -2.2599761425e-002   4.9247216200e-002
  7.1480000000e+010   1.3166191563e-003  -4.0676167448e-002   4.6354638507e-001   2.0394816052e-001   4.6690211628e-001   2.0463909445e-001  -1.9837650303e-002   5.0453717456e-002
  7.1500000000e+010   7.3338684431e-004  -4.0586400792e-002   4.6395923420e-001   2.0239960968e-001   4.6731098832e-001   2.0306741676e-001  -1.7062060285e-002   5.1577595788e-002
  7.1520000000e+010   1.5110331140e-004  -4.0484960019e-002   4.6437016552e-001   2.0082897191e-001   4.6771771623e-001   2.0147333231e-001  -1.4276366469e-002   5.2617876566e-002
  7.1540000000e+010  -4.2984171313e-004  -4.0371797889e-002   4.6477904377e-001   1.9923636943e-001   4.6812216321e-001   1.9985696622e-001  -1.1483967058e-002   5.3573710736e-002
  7.1560000000e+010  -1.0090565893e-003  -4.0246880969e-002   4.6518573359e-001   1.9762192655e-001   4.6852419232e-001   1.9821844579e-001  -8.6882783543e-003   5.4444376221e-002
  7.1580000000e+010  -1.5861482105e-003  -4.0110189786e-002   4.6559009950e-001   1.9598576972e-001   4.6892366655e-001   1.9655790046e-001  -5.8927297015e-003   5.5229279127e-002
  7.1600000000e+010  -2.1607224551e-003  -3.9961718967e-002   4.6599200597e-001   1.9432802749e-001   4.6932044885e-001   1.9487546182e-001  -3.1007583855e-003   5.5927954744e-002
  7.1620000000e+010  -2.7323846449e-003  -3.9801477358e-002   4.6639131741e-001   1.9264883049e-001   4.6971440213e-001   1.9317126357e-001  -3.1580449722e-004   5.6540068349e-002
  7.1640000000e+010  -3.3007400093e-003  -3.9629488121e-002   4.6678789824e-001   1.9094831139e-001   4.7010538930e-001   1.9144544151e-001   2.4586942280e-003   5.7065415797e-002
  7.1660000000e+010  -3.8653941560e-003  -3.9445788822e-002   4.6718161287e-001   1.8922660493e-001   4.7049327331e-001   1.8969813351e-001   5.2193075912e-003   5.7503923914e-002
  7.1680000000e+010  -4.4259535457e-003  -3.9250431485e-002   4.6757232575e-001   1.8748384786e-001   4.7087791716e-001   1.8792947951e-001   7.9626181198e-003   5.7855650671e-002
  7.1700000000e+010  -4.9820259714e-003  -3.9043482642e-002   4.6795990140e-001   1.8572017891e-001   4.7125918394e-001   1.8613962148e-001   1.0685226259e-002   5.8120785163e-002
  7.1720000000e+010  -5.5332210416e-003  -3.8825023352e-002   4.6834420444e-001   1.8393573882e-001   4.7163693683e-001   1.8432870339e-001   1.3383755556e-002   5.8299647359e-002
  7.1740000000e+010  -6.0791506659e-003  -3.8595149203e-002   4.6872509958e-001   1.8213067026e-001   4.7201103917e-001   1.8249687122e-001   1.6054857830e-002   5.8392687664e-002
  7.1760000000e+010  -6.6194295427e-003  -3.8353970299e-002   4.6910245170e-001   1.8030511787e-001   4.7238135445e-001   1.8064427291e-001   1.8695218317e-002   5.8400486255e-002
  7.1780000000e+010  -7.1536756493e-003  -3.8101611218e-002   4.6947612583e-001   1.7845922817e-001   4.7274774635e-001   1.7877105836e-001   2.1301560781e-002   5.8323752210e-002
  7.1800000000e+010  -7.6815107313e-003  -3.7838210960e-002   4.6984598721e-001   1.7659314959e-001   4.7311007876e-001   1.7687737938e-001   2.3870652589e-002   5.8163322438e-002
  7.1820000000e+010  -8.2025607937e-003  -3.7563922861e-002   4.7021190128e-001   1.7470703243e-001   4.7346821580e-001   1.7496338968e-001   2.6399309729e-002   5.7920160387e-002
  7.1840000000e+010  -8.7164565897e-003  -3.7278914503e-002   4.7057373375e-001   1.7280102883e-001   4.7382202189e-001   1.7302924488e-001   2.8884401778e-002   5.7595354558e-002
  7.1860000000e+010  -9.2228341091e-003  -3.6983367592e-002   4.7093135059e-001   1.7087529276e-001   4.7417136171e-001   1.7107510241e-001   3.1322856798e-002   5.7190116811e-002
  7.1880000000e+010  -9.7213350645e-003  -3.6677477815e-002   4.7128461804e-001   1.6892997998e-001   4.7451610027e-001   1.6910112157e-001   3.3711666161e-002   5.6705780462e-002
  7.1900000000e+010  -1.0211607374e-002  -3.6361454687e-002   4.7163340270e-001   1.6696524804e-001   4.7485610290e-001   1.6710746343e-001   3.6047889290e-002   5.6143798191e-002
  7.1920000000e+010  -1.0693305640e-002  -3.6035521367e-002   4.7197757149e-001   1.6498125623e-001   4.7519123533e-001   1.6509429089e-001   3.8328658307e-002   5.5505739749e-002
  7.1940000000e+010  -1.1166091625e-002  -3.5699914459e-002   4.7231699171e-001   1.6297816558e-001   4.7552136365e-001   1.6306176855e-001   4.0551182588e-002   5.4793289470e-002
  7.1960000000e+010  -1.1629634723e-002  -3.5354883794e-002   4.7265153104e-001   1.6095613881e-001   4.7584635438e-001   1.6101006280e-001   4.2712753206e-002   5.4008243594e-002
  7.1980000000e+010  -1.2083612420e-002  -3.5000692186e-002   4.7298105757e-001   1.5891534034e-001   4.7616607447e-001   1.5893934169e-001   4.4810747261e-002   5.3152507405e-002
  7.2000000000e+010  -1.2527710752e-002  -3.4637615177e-002   4.7330543986e-001   1.5685593621e-001   4.7648039135e-001   1.5684977497e-001   4.6842632092e-002   5.2228092188e-002
  7.2020000000e+010  -1.2961624759e-002  -3.4265940758e-002   4.7362454691e-001   1.5477809412e-001   4.7678917290e-001   1.5474153406e-001   4.8805969351e-002   5.1237112008e-002
  7.2040000000e+010  -1.3385058921e-002  -3.3885969067e-002   4.7393824821e-001   1.5268198336e-001   4.7709228755e-001   1.5261479199e-001   5.0698418954e-002   5.0181780311e-002
  7.2060000000e+010  -1.3797727596e-002  -3.3498012077e-002   4.7424641376e-001   1.5056777479e-001   4.7738960423e-001   1.5046972339e-001   5.2517742874e-002   4.9064406371e-002
  7.2080000000e+010  -1.4199355441e-002  -3.3102393259e-002   4.7454891408e-001   1.4843564083e-001   4.7768099244e-001   1.4830650448e-001   5.4261808795e-002   4.7887391562e-002
  7.2100000000e+010  -1.4589677826e-002  -3.2699447228e-002   4.7484562027e-001   1.4628575542e-001   4.7796632227e-001   1.4612531303e-001   5.5928593603e-002   4.6653225481e-002
  7.2120000000e+010  -1.4968441237e-002  -3.2289519372e-002   4.7513640398e-001   1.4411829400e-001   4.7824546438e-001   1.4392632831e-001   5.7516186718e-002   4.5364481918e-002
  7.2140000000e+010  -1.5335403665e-002  -3.1872965468e-002   4.7542113747e-001   1.4193343347e-001   4.7851829008e-001   1.4170973111e-001   5.9022793256e-002   4.4023814687e-002
  7.2160000000e+010  -1.5690334989e-002  -3.1450151270e-002   4.7569969361e-001   1.3973135219e-001   4.7878467130e-001   1.3947570368e-001   6.0446737010e-002   4.2633953314e-002
