# Hz S RI R 1.000000
! Metas.Vna.Tools, 2.4.7898.19887
! Metas.Vna.Data, 2.4.7898.19873
! Created: UTC 2021.09.30 14:31:00
! FREQ                re:S1,1             im:S1,1             re:S2,1             im:S2,1             re:S1,2             im:S1,2             re:S2,2             im:S2,2          
  7.0000000000e+010  -3.5814945022e-002   3.0388811489e-003   1.7459919560e-001   5.9878516635e-001   1.6440102004e-001   6.0771715099e-001  -1.2247517802e-002   6.7304128156e-003
  7.0020000000e+010  -3.4510594091e-002   2.3987164025e-003   1.7463088633e-001   5.9926622705e-001   1.6442566955e-001   6.0822136401e-001  -1.2527698914e-002   6.9636399843e-003
  7.0040000000e+010  -3.3214026644e-002   1.7461103263e-003   1.7468877929e-001   5.9972919277e-001   1.6447741427e-001   6.0870722747e-001  -1.2802157251e-002   7.2093114249e-003
  7.0060000000e+010  -3.1926035289e-002   1.0813086612e-003   1.7477286764e-001   6.0017395194e-001   1.6455624951e-001   6.0917462494e-001  -1.3070384355e-002   7.4672833549e-003
  7.0080000000e+010  -3.0647407686e-002   4.0457612145e-004   1.7488314064e-001   6.0060039366e-001   1.6466216655e-001   6.0962344058e-001  -1.3331875668e-002   7.7373932976e-003
  7.0100000000e+010  -2.9378925669e-002  -2.8380375610e-004   1.7501958368e-001   6.0100840767e-001   1.6479515262e-001   6.1005355921e-001  -1.3586131258e-002   8.0194601466e-003
  7.0120000000e+010  -2.8121364369e-002  -9.8352878867e-004   1.7518217827e-001   6.0139788443e-001   1.6495519095e-001   6.1046486631e-001  -1.3832656550e-002   8.3132842584e-003
  7.0140000000e+010  -2.6875491340e-002  -1.6942783525e-003   1.7537090203e-001   6.0176871511e-001   1.6514226075e-001   6.1085724810e-001  -1.4070963053e-002   8.6186475735e-003
  7.0160000000e+010  -2.5642065700e-002  -2.4157136146e-003   1.7558572874e-001   6.0212079164e-001   1.6535633721e-001   6.1123059150e-001  -1.4300569084e-002   8.9353137643e-003
  7.0180000000e+010  -2.4421837263e-002  -3.1474777922e-003   1.7582662828e-001   6.0245400676e-001   1.6559739150e-001   6.1158478425e-001  -1.4521000495e-002   9.2630284129e-003
  7.0200000000e+010  -2.3215545695e-002  -3.8891964381e-003   1.7609356669e-001   6.0276825401e-001   1.6586539079e-001   6.1191971486e-001  -1.4731791391e-002   9.6015192159e-003
  7.0220000000e+010  -2.2023919668e-002  -4.6404777539e-003   1.7638650616e-001   6.0306342779e-001   1.6616029824e-001   6.1223527268e-001  -1.4932484846e-002   9.9504962183e-003
  7.0240000000e+010  -2.0847676029e-002  -5.4009129285e-003   1.7670540502e-001   6.0333942337e-001   1.6648207302e-001   6.1253134795e-001  -1.5122633609e-002   1.0309652075e-002
  7.0260000000e+010  -1.9687518978e-002  -6.1700765038e-003   1.7705021777e-001   6.0359613696e-001   1.6683067032e-001   6.1280783178e-001  -1.5301800809e-002   1.0678662343e-002
  7.0280000000e+010  -1.8544139260e-002  -6.9475267650e-003   1.7742089507e-001   6.0383346567e-001   1.6720604133e-001   6.1306461623e-001  -1.5469560647e-002   1.1057185794e-002
  7.0300000000e+010  -1.7418213367e-002  -7.7328061569e-003   1.7781738377e-001   6.0405130762e-001   1.6760813329e-001   6.1330159432e-001  -1.5625499077e-002   1.1444864766e-002
  7.0320000000e+010  -1.6310402765e-002  -8.5254417252e-003   1.7823962690e-001   6.0424956190e-001   1.6803688947e-001   6.1351866005e-001  -1.5769214481e-002   1.1841325535e-002
  7.0340000000e+010  -1.5221353118e-002  -9.3249455819e-003   1.7868756369e-001   6.0442812865e-001   1.6849224919e-001   6.1371570844e-001  -1.5900318332e-002   1.2246178714e-002
  7.0360000000e+010  -1.4151693549e-002  -1.0130815394e-002   1.7916112959e-001   6.0458690907e-001   1.6897414783e-001   6.1389263559e-001  -1.6018435834e-002   1.2659019682e-002
  7.0380000000e+010  -1.3102035905e-002  -1.0942534898e-002   1.7966025628e-001   6.0472580542e-001   1.6948251686e-001   6.1404933866e-001  -1.6123206564e-002   1.3079429036e-002
  7.0400000000e+010  -1.2072974047e-002  -1.1759574434e-002   1.8018487165e-001   6.0484472113e-001   1.7001728381e-001   6.1418571592e-001  -1.6214285085e-002   1.3506973075e-002
  7.0420000000e+010  -1.1065083154e-002  -1.2581391502e-002   1.8073489988e-001   6.0494356073e-001   1.7057837233e-001   6.1430166681e-001  -1.6291341549e-002   1.3941204302e-002
  7.0440000000e+010  -1.0078919058e-002  -1.3407431344e-002   1.8131026138e-001   6.0502222995e-001   1.7116570219e-001   6.1439709192e-001  -1.6354062281e-002   1.4381661958e-002
  7.0460000000e+010  -9.1150175900e-003  -1.4237127544e-002   1.8191087286e-001   6.0508063571e-001   1.7177918927e-001   6.1447189306e-001  -1.6402150346e-002   1.4827872574e-002
  7.0480000000e+010  -8.1738939533e-003  -1.5069902644e-002   1.8253664733e-001   6.0511868619e-001   1.7241874562e-001   6.1452597326e-001  -1.6435326092e-002   1.5279350553e-002
  7.0500000000e+010  -7.2560421219e-003  -1.5905168787e-002   1.8318749412e-001   6.0513629080e-001   1.7308427944e-001   6.1455923682e-001  -1.6453327676e-002   1.5735598770e-002
  7.0520000000e+010  -6.3619342601e-003  -1.6742328376e-002   1.8386331887e-001   6.0513336026e-001   1.7377569511e-001   6.1457158934e-001  -1.6455911570e-002   1.6196109199e-002
  7.0540000000e+010  -5.4920201690e-003  -1.7580774743e-002   1.8456402359e-001   6.0510980659e-001   1.7449289322e-001   6.1456293773e-001  -1.6442853039e-002   1.6660363560e-002
  7.0560000000e+010  -4.6467267587e-003  -1.8419892850e-002   1.8528950666e-001   6.0506554317e-001   1.7523577058e-001   6.1453319026e-001  -1.6413946597e-002   1.7127833981e-002
  7.0580000000e+010  -3.8264575475e-003  -1.9259059991e-002   1.8603966284e-001   6.0500048475e-001   1.7600422023e-001   6.1448225656e-001  -1.6369006441e-002   1.7597983695e-002
  7.0600000000e+010  -3.0315921882e-003  -2.0097646517e-002   1.8681438331e-001   6.0491454745e-001   1.7679813147e-001   6.1441004767e-001  -1.6307866860e-002   1.8070267735e-002
  7.0620000000e+010  -2.2624860232e-003  -2.0935016576e-002   1.8761355568e-001   6.0480764886e-001   1.7761738990e-001   6.1431647610e-001  -1.6230382610e-002   1.8544133670e-002
  7.0640000000e+010  -1.5194696680e-003  -2.1770528859e-002   1.8843706401e-001   6.0467970799e-001   1.7846187741e-001   6.1420145577e-001  -1.6136429272e-002   1.9019022341e-002
  7.0660000000e+010  -8.0284862473e-004  -2.2603537368e-002   1.8928478886e-001   6.0453064533e-001   1.7933147221e-001   6.1406490212e-001  -1.6025903575e-002   1.9494368618e-002
  7.0680000000e+010  -1.1290292558e-004  -2.3433392186e-002   1.9015660725e-001   6.0436038289e-001   1.8022604888e-001   6.1390673211e-001  -1.5898723690e-002   1.9969602180e-002
  7.0700000000e+010   5.5011319322e-004  -2.4259440262e-002   1.9105239275e-001   6.0416884419e-001   1.8114547835e-001   6.1372686422e-001  -1.5754829503e-002   2.0444148295e-002
  7.0720000000e+010   1.1859715859e-003  -2.5081026206e-002   1.9197201549e-001   6.0395595431e-001   1.8208962798e-001   6.1352521851e-001  -1.5594182846e-002   2.0917428628e-002
  7.0740000000e+010   1.7944704600e-003  -2.5897493088e-002   1.9291534215e-001   6.0372163991e-001   1.8305836154e-001   6.1330171665e-001  -1.5416767706e-002   2.1388862047e-002
  7.0760000000e+010   2.3754346076e-003  -2.6708183247e-002   1.9388223603e-001   6.0346582925e-001   1.8405153924e-001   6.1305628190e-001  -1.5222590397e-002   2.1857865452e-002
  7.0780000000e+010   2.9287156033e-003  -2.7512439107e-002   1.9487255704e-001   6.0318845223e-001   1.8506901779e-001   6.1278883921e-001  -1.5011679703e-002   2.2323854604e-002
  7.0800000000e+010   3.4541919700e-003  -2.8309603991e-002   1.9588616175e-001   6.0288944037e-001   1.8611065041e-001   6.1249931516e-001  -1.4784086992e-002   2.2786244967e-002
  7.0820000000e+010   3.9517693112e-003  -2.9099022949e-002   1.9692290344e-001   6.0256872690e-001   1.8717628683e-001   6.1218763806e-001  -1.4539886288e-002   2.3244452555e-002
  7.0840000000e+010   4.4213804103e-003  -2.9880043576e-002   1.9798263207e-001   6.0222624673e-001   1.8826577337e-001   6.1185373790e-001  -1.4279174315e-002   2.3697894790e-002
  7.0860000000e+010   4.8629852957e-003  -3.0652016846e-002   1.9906519435e-001   6.0186193648e-001   1.8937895293e-001   6.1149754647e-001  -1.4002070511e-002   2.4145991354e-002
  7.0880000000e+010   5.2765712730e-003  -3.1414297933e-002   2.0017043376e-001   6.0147573454e-001   1.9051566505e-001   6.1111899728e-001  -1.3708717003e-002   2.4588165055e-002
  7.0900000000e+010   5.6621529223e-003  -3.2166247037e-002   2.0129819059e-001   6.0106758103e-001   1.9167574592e-001   6.1071802565e-001  -1.3399278546e-002   2.5023842687e-002
  7.0920000000e+010   6.0197720628e-003  -3.2907230209e-002   2.0244830196e-001   6.0063741790e-001   1.9285902841e-001   6.1029456873e-001  -1.3073942435e-002   2.5452455897e-002
  7.0940000000e+010   6.3494976825e-003  -3.3636620170e-002   2.0362060185e-001   6.0018518885e-001   1.9406534213e-001   6.0984856548e-001  -1.2732918375e-002   2.5873442044e-002
  7.0960000000e+010   6.6514258343e-003  -3.4353797126e-002   2.0481492115e-001   5.9971083947e-001   1.9529451341e-001   6.0937995675e-001  -1.2376438321e-002   2.6286245061e-002
  7.0980000000e+010   6.9256794984e-003  -3.5058149579e-002   2.0603108766e-001   5.9921431714e-001   1.9654636541e-001   6.0888868523e-001  -1.2004756285e-002   2.6690316311e-002
  7.1000000000e+010   7.1724084110e-003  -3.5749075129e-002   2.0726892616e-001   5.9869557117e-001   1.9782071808e-001   6.0837469556e-001  -1.1618148100e-002   2.7085115439e-002
  7.1020000000e+010   7.3917888589e-003  -3.6425981271e-002   2.0852825843e-001   5.9815455269e-001   1.9911738825e-001   6.0783793427e-001  -1.1216911157e-002   2.7470111217e-002
  7.1040000000e+010   7.5840234417e-003  -3.7088286178e-002   2.0980890326e-001   5.9759121479e-001   2.0043618961e-001   6.0727834985e-001  -1.0801364110e-002   2.7844782380e-002
  7.1060000000e+010   7.7493408002e-003  -3.7735419483e-002   2.1111067654e-001   5.9700551247e-001   2.0177693282e-001   6.0669589274e-001  -1.0371846538e-002   2.8208618458e-002
  7.1080000000e+010   7.8879953121e-003  -3.8366823035e-002   2.1243339123e-001   5.9639740267e-001   2.0313942547e-001   6.0609051537e-001  -9.9287185779e-003   2.8561120589e-002
  7.1100000000e+010   8.0002667558e-003  -3.8981951661e-002   2.1377685745e-001   5.9576684428e-001   2.0452347216e-001   6.0546217218e-001  -9.4723605274e-003   2.8901802324e-002
  7.1120000000e+010   8.0864599414e-003  -3.9580273896e-002   2.1514088251e-001   5.9511379819e-001   2.0592887455e-001   6.0481081961e-001  -9.0031724082e-003   2.9230190424e-002
  7.1140000000e+010   8.1469043111e-003  -4.0161272715e-002   2.1652527090e-001   5.9443822728e-001   2.0735543134e-001   6.0413641618e-001  -8.5215735007e-003   2.9545825634e-002
  7.1160000000e+010   8.1819535075e-003  -4.0724446236e-002   2.1792982437e-001   5.9374009644e-001   2.0880293839e-001   6.0343892241e-001  -8.0280018454e-003   2.9848263444e-002
  7.1180000000e+010   8.1919849121e-003  -4.1269308413e-002   2.1935434199e-001   5.9301937259e-001   2.1027118867e-001   6.0271830095e-001  -7.5229137121e-003   3.0137074835e-002
  7.1200000000e+010   8.1773991535e-003  -4.1795389714e-002   2.2079862012e-001   5.9227602469e-001   2.1175997238e-001   6.0197451650e-001  -7.0067830391e-003   3.0411847004e-002
  7.1220000000e+010   8.1386195865e-003  -4.2302237769e-002   2.2226245251e-001   5.9151002375e-001   2.1326907694e-001   6.0120753588e-001  -6.4801008413e-003   3.0672184068e-002
  7.1240000000e+010   8.0760917420e-003  -4.2789418014e-002   2.2374563031e-001   5.9072134288e-001   2.1479828705e-001   6.0041732804e-001  -5.9433745886e-003   3.0917707748e-002
  7.1260000000e+010   7.9902827496e-003  -4.3256514298e-002   2.2524794212e-001   5.8990995726e-001   2.1634738472e-001   5.9960386406e-001  -5.3971275560e-003   3.1148058034e-002
  7.1280000000e+010   7.8816807324e-003  -4.3703129484e-002   2.2676917401e-001   5.8907584416e-001   2.1791614932e-001   5.9876711718e-001  -4.8418981451e-003   3.1362893819e-002
  7.1300000000e+010   7.7507941756e-003  -4.4128886015e-002   2.2830910962e-001   5.8821898298e-001   2.1950435764e-001   5.9790706281e-001  -4.2782391783e-003   3.1561893516e-002
  7.1320000000e+010   7.5981512695e-003  -4.4533426459e-002   2.2986753011e-001   5.8733935526e-001   2.2111178388e-001   5.9702367851e-001  -3.7067171675e-003   3.1744755641e-002
  7.1340000000e+010   7.4242992274e-003  -4.4916414041e-002   2.3144421429e-001   5.8643694464e-001   2.2273819976e-001   5.9611694408e-001  -3.1279115564e-003   3.1911199379e-002
  7.1360000000e+010   7.2298035801e-003  -4.5277533132e-002   2.3303893861e-001   5.8551173693e-001   2.2438337450e-001   5.9518684150e-001  -2.5424139396e-003   3.2060965109e-002
  7.1380000000e+010   7.0152474468e-003  -4.5616489726e-002   2.3465147720e-001   5.8456372012e-001   2.2604707492e-001   5.9423335497e-001  -1.9508272578e-003   3.2193814913e-002
  7.1400000000e+010   6.7812307847e-003  -4.5933011885e-002   2.3628160197e-001   5.8359288434e-001   2.2772906543e-001   5.9325647093e-001  -1.3537649710e-003   3.2309533044e-002
  7.1420000000e+010   6.5283696170e-003  -4.6226850157e-002   2.3792908257e-001   5.8259922192e-001   2.2942910812e-001   5.9225617805e-001  -7.5185021111e-004   3.2407926370e-002
  7.1440000000e+010   6.2572952412e-003  -4.6497777967e-002   2.3959368650e-001   5.8158272737e-001   2.3114696279e-001   5.9123246727e-001  -1.4571491441e-004   3.2488824784e-002
  7.1460000000e+010   5.9686534183e-003  -4.6745591977e-002   2.4127517913e-001   5.8054339742e-001   2.3288238697e-001   5.9018533178e-001   4.6400106410e-004   3.2552081577e-002
  7.1480000000e+010   5.6631035442e-003  -4.6970112420e-002   2.4297332373e-001   5.7948123097e-001   2.3463513602e-001   5.8911476704e-001   1.0766508539e-003   3.2597573782e-002
  7.1500000000e+010   5.3413178047e-003  -4.7171183405e-002   2.4468788154e-001   5.7839622918e-001   2.3640496311e-001   5.8802077081e-001   1.6915814877e-003   3.2625202484e-002
  7.1520000000e+010   5.0039803139e-003  -4.7348673184e-002   2.4641861180e-001   5.7728839540e-001   2.3819161932e-001   5.8690334312e-001   2.3081348352e-003   3.2634893092e-002
  7.1540000000e+010   4.6517862392e-003  -4.7502474400e-002   2.4816527180e-001   5.7615773523e-001   2.3999485367e-001   5.8576248631e-001   2.9256485492e-003   3.2626595573e-002
  7.1560000000e+010   4.2854409125e-003  -4.7632504293e-002   2.4992761692e-001   5.7500425650e-001   2.4181441314e-001   5.8459820501e-001   3.5434570244e-003   3.2600284655e-002
  7.1580000000e+010   3.9056589291e-003  -4.7738704882e-002   2.5170540069e-001   5.7382796929e-001   2.4365004276e-001   5.8341050619e-001   4.1608923660e-003   3.2555959993e-002
  7.1600000000e+010   3.5131632361e-003  -4.7821043109e-002   2.5349837481e-001   5.7262888591e-001   2.4550148564e-001   5.8219939911e-001   4.7772853668e-003   3.2493646288e-002
  7.1620000000e+010   3.1086842108e-003  -4.7879510959e-002   2.5530628923e-001   5.7140702093e-001   2.4736848300e-001   5.8096489538e-001   5.3919664925e-003   3.2413393379e-002
  7.1640000000e+010   2.6929587311e-003  -4.7914125536e-002   2.5712889216e-001   5.7016239118e-001   2.4925077424e-001   5.7970700892e-001   6.0042668718e-003   3.2315276294e-002
  7.1660000000e+010   2.2667292384e-003  -4.7924929118e-002   2.5896593015e-001   5.6889501576e-001   2.5114809699e-001   5.7842575599e-001   6.6135192919e-003   3.2199395258e-002
  7.1680000000e+010   1.8307427942e-003  -4.7911989171e-002   2.6081714811e-001   5.6760491601e-001   2.5306018714e-001   5.7712115519e-001   7.2190591952e-003   3.2065875662e-002
  7.1700000000e+010   1.3857501331e-003  -4.7875398335e-002   2.6268228938e-001   5.6629211555e-001   2.5498677889e-001   5.7579322747e-001   7.8202256793e-003   3.1914868003e-002
  7.1720000000e+010   9.3250471168e-004  -4.7815274373e-002   2.6456109576e-001   5.6495664026e-001   2.5692760484e-001   5.7444199611e-001   8.4163624942e-003   3.1746547772e-002
  7.1740000000e+010   4.7176175552e-004  -4.7731760088e-002   2.6645330755e-001   5.6359851830e-001   2.5888239596e-001   5.7306748675e-001   9.0068190395e-003   3.1561115309e-002
  7.1760000000e+010   4.2773053844e-006  -4.7625023212e-002   2.6835866363e-001   5.6221778009e-001   2.6085088173e-001   5.7166972736e-001   9.5909513569e-003   3.1358795616e-002
  7.1780000000e+010  -4.6919273585e-004  -4.7495256252e-002   2.7027690149e-001   5.6081445833e-001   2.6283279012e-001   5.7024874830e-001   1.0168123118e-002   3.1139838138e-002
  7.1800000000e+010  -9.4789355463e-004  -4.7342676315e-002   2.7220775725e-001   5.5938858796e-001   2.6482784767e-001   5.6880458224e-001   1.0737706603e-002   3.0904516494e-002
  7.1820000000e+010  -1.4310723749e-003  -4.7167524888e-002   2.7415096577e-001   5.5794020623e-001   2.6683577952e-001   5.6733726423e-001   1.1299083680e-002   3.0653128173e-002
  7.1840000000e+010  -1.9179794022e-003  -4.6970067598e-002   2.7610626063e-001   5.5646935263e-001   2.6885630950e-001   5.6584683165e-001   1.1851646756e-002   3.0385994200e-002
  7.1860000000e+010  -2.4078687612e-003  -4.6750593926e-002   2.7807337422e-001   5.5497606893e-001   2.7088916014e-001   5.6433332424e-001   1.2394799740e-002   3.0103458748e-002
  7.1880000000e+010  -2.8999994277e-003  -4.6509416906e-002   2.8005203779e-001   5.5346039915e-001   2.7293405273e-001   5.6279678410e-001   1.2927958973e-002   2.9805888726e-002
  7.1900000000e+010  -3.3936361510e-003  -4.6246872773e-002   2.8204198147e-001   5.5192238959e-001   2.7499070738e-001   5.6123725566e-001   1.3450554153e-002   2.9493673321e-002
  7.1920000000e+010  -3.8880503675e-003  -4.5963320596e-002   2.8404293434e-001   5.5036208878e-001   2.7705884306e-001   5.5965478570e-001   1.3962029244e-002   2.9167223505e-002
  7.1940000000e+010  -4.3825211032e-003  -4.5659141875e-002   2.8605462448e-001   5.4877954752e-001   2.7913817766e-001   5.5804942335e-001   1.4461843362e-002   2.8826971507e-002
  7.1960000000e+010  -4.8763358650e-003  -4.5334740101e-002   2.8807677900e-001   5.4717481886e-001   2.8122842802e-001   5.5642122006e-001   1.4949471647e-002   2.8473370252e-002
  7.1980000000e+010  -5.3687915177e-003  -4.4990540295e-002   2.9010912412e-001   5.4554795809e-001   2.8332931001e-001   5.5477022963e-001   1.5424406113e-002   2.8106892752e-002
  7.2000000000e+010  -5.8591951474e-003  -4.4626988518e-002   2.9215138516e-001   5.4389902273e-001   2.8544053855e-001   5.5309650818e-001   1.5886156472e-002   2.7728031483e-002
  7.2020000000e+010  -6.3468649092e-003  -4.4244551343e-002   2.9420328666e-001   5.4222807253e-001   2.8756182770e-001   5.5140011416e-001   1.6334250939e-002   2.7337297710e-002
  7.2040000000e+010  -6.8311308582e-003  -4.3843715311e-002   2.9626455239e-001   5.4053516949e-001   2.8969289065e-001   5.4968110833e-001   1.6768237011e-002   2.6935220788e-002
  7.2060000000e+010  -7.3113357624e-003  -4.3424986351e-002   2.9833490539e-001   5.3882037780e-001   2.9183343984e-001   5.4793955376e-001   1.7187682219e-002   2.6522347432e-002
  7.2080000000e+010  -7.7868358973e-003  -4.2988889176e-002   3.0041406804e-001   5.3708376386e-001   2.9398318695e-001   5.4617551583e-001   1.7592174850e-002   2.6099240953e-002
  7.2100000000e+010  -8.2570018196e-003  -4.2535966658e-002   3.0250176209e-001   5.3532539628e-001   2.9614184300e-001   5.4438906221e-001   1.7981324643e-002   2.5666480467e-002
  7.2120000000e+010  -8.7212191208e-003  -4.2066779168e-002   3.0459770875e-001   5.3354534588e-001   2.9830911835e-001   5.4258026287e-001   1.8354763457e-002   2.5224660069e-002
  7.2140000000e+010  -9.1788891582e-003  -4.1581903906e-002   3.0670162866e-001   5.3174368562e-001   3.0048472279e-001   5.4074919005e-001   1.8712145898e-002   2.4774387995e-002
  7.2160000000e+010  -9.6294297625e-003  -4.1081934192e-002   3.0881324202e-001   5.2992049067e-001   3.0266836559e-001   5.3889591825e-001   1.9053149926e-002   2.4316285737e-002
