# Hz S RI R 1.000000
! Metas.Vna.Tools, 2.4.7898.19887
! Metas.Vna.Data, 2.4.7898.19873
! Created: UTC 2021.09.30 14:31:00
! FREQ                re:S1,1             im:S1,1             re:S2,1             im:S2,1             re:S1,2             im:S1,2             re:S2,2             im:S2,2          
  7.0000000000e+010   1.5491884457e-002   4.4472117958e-002   3.4929640273e-001   5.5120293354e-001   3.3666543761e-001   5.6355674471e-001  -9.5735062116e-003   3.0343374330e-003
  7.0020000000e+010   1.5821728879e-002   4.3207104930e-002   3.4948035689e-001   5.5171405541e-001   3.3683426115e-001   5.6408143843e-001  -9.8472397382e-003   3.1407136653e-003
  7.0040000000e+010   1.6141448295e-002   4.1926959482e-002   3.4968614118e-001   5.5219824506e-001   3.3702571285e-001   5.6457948535e-001  -1.0114159308e-002   3.2598033431e-003
  7.0060000000e+010   1.6450556096e-002   4.0632248241e-002   3.4991371336e-001   5.5265538349e-001   3.3723975444e-001   5.6505076339e-001  -1.0373866067e-002   3.3915246119e-003
  7.0080000000e+010   1.6748574639e-002   3.9323556203e-002   3.5016302724e-001   5.5308535359e-001   3.3747634363e-001   5.6549515227e-001  -1.0625964506e-002   3.5357790085e-003
  7.0100000000e+010   1.7035035925e-002   3.8001486291e-002   3.5043403272e-001   5.5348804019e-001   3.3773543411e-001   5.6591253357e-001  -1.0870063070e-002   3.6924514749e-003
  7.0120000000e+010   1.7309482259e-002   3.6666658878e-002   3.5072667574e-001   5.5386333007e-001   3.3801697551e-001   5.6630279071e-001  -1.1105774769e-002   3.8614103962e-003
  7.0140000000e+010   1.7571466903e-002   3.5319711294e-002   3.5104089833e-001   5.5421111202e-001   3.3832091350e-001   5.6666580903e-001  -1.1332717787e-002   4.0425076642e-003
  7.0160000000e+010   1.7820554721e-002   3.3961297308e-002   3.5137663866e-001   5.5453127685e-001   3.3864718973e-001   5.6700147579e-001  -1.1550516089e-002   4.2355787650e-003
  7.0180000000e+010   1.8056322804e-002   3.2592086578e-002   3.5173383096e-001   5.5482371743e-001   3.3899574186e-001   5.6730968022e-001  -1.1758800028e-002   4.4404428917e-003
  7.0200000000e+010   1.8278361087e-002   3.1212764092e-002   3.5211240564e-001   5.5508832873e-001   3.3936650362e-001   5.6759031358e-001  -1.1957206948e-002   4.6569030823e-003
  7.0220000000e+010   1.8486272949e-002   2.9824029574e-002   3.5251228924e-001   5.5532500783e-001   3.3975940475e-001   5.6784326910e-001  -1.2145381775e-002   4.8847463823e-003
  7.0240000000e+010   1.8679675798e-002   2.8426596872e-002   3.5293340444e-001   5.5553365396e-001   3.4017437108e-001   5.6806844213e-001  -1.2322977613e-002   5.1237440318e-003
  7.0260000000e+010   1.8858201640e-002   2.7021193330e-002   3.5337567016e-001   5.5571416856e-001   3.4061132450e-001   5.6826573009e-001  -1.2489656323e-002   5.3736516777e-003
  7.0280000000e+010   1.9021497632e-002   2.5608559131e-002   3.5383900146e-001   5.5586645524e-001   3.4107018303e-001   5.6843503251e-001  -1.2645089107e-002   5.6342096107e-003
  7.0300000000e+010   1.9169226615e-002   2.4189446627e-002   3.5432330967e-001   5.5599041990e-001   3.4155086078e-001   5.6857625111e-001  -1.2788957068e-002   5.9051430259e-003
  7.0320000000e+010   1.9301067631e-002   2.2764619643e-002   3.5482850233e-001   5.5608597067e-001   3.4205326801e-001   5.6868928976e-001  -1.2920951773e-002   6.1861623086e-003
  7.0340000000e+010   1.9416716418e-002   2.1334852773e-002   3.5535448326e-001   5.5615301801e-001   3.4257731114e-001   5.6877405456e-001  -1.3040775797e-002   6.4769633433e-003
  7.0360000000e+010   1.9515885884e-002   1.9900930646e-002   3.5590115256e-001   5.5619147470e-001   3.4312289276e-001   5.6883045387e-001  -1.3148143264e-002   6.7772278468e-003
  7.0380000000e+010   1.9598306567e-002   1.8463647184e-002   3.5646840664e-001   5.5620125587e-001   3.4368991166e-001   5.6885839831e-001  -1.3242780367e-002   7.0866237241e-003
  7.0400000000e+010   1.9663727063e-002   1.7023804842e-002   3.5705613825e-001   5.5618227904e-001   3.4427826288e-001   5.6885780078e-001  -1.3324425879e-002   7.4048054476e-003
  7.0420000000e+010   1.9711914439e-002   1.5582213831e-002   3.5766423646e-001   5.5613446415e-001   3.4488783767e-001   5.6882857654e-001  -1.3392831648e-002   7.7314144590e-003
  7.0440000000e+010   1.9742654624e-002   1.4139691328e-002   3.5829258676e-001   5.5605773357e-001   3.4551852358e-001   5.6877064321e-001  -1.3447763082e-002   8.0660795926e-003
  7.0460000000e+010   1.9755752769e-002   1.2697060677e-002   3.5894107104e-001   5.5595201212e-001   3.4617020443e-001   5.6868392078e-001  -1.3488999607e-002   8.4084175208e-003
  7.0480000000e+010   1.9751033592e-002   1.1255150566e-002   3.5960956759e-001   5.5581722715e-001   3.4684276038e-001   5.6856833165e-001  -1.3516335123e-002   8.7580332199e-003
  7.0500000000e+010   1.9728341688e-002   9.8147942094e-003   3.6029795120e-001   5.5565330848e-001   3.4753606793e-001   5.6842380067e-001  -1.3529578425e-002   9.1145204573e-003
  7.0520000000e+010   1.9687541828e-002   8.3768285048e-003   3.6100609313e-001   5.5546018850e-001   3.4824999996e-001   5.6825025514e-001  -1.3528553624e-002   9.4774622977e-003
  7.0540000000e+010   1.9628519217e-002   6.9420931896e-003   3.6173386115e-001   5.5523780216e-001   3.4898442576e-001   5.6804762488e-001  -1.3513100532e-002   9.8464316285e-003
  7.0560000000e+010   1.9551179734e-002   5.5114299860e-003   3.6248111959e-001   5.5498608700e-001   3.4973921102e-001   5.6781584218e-001  -1.3483075036e-002   1.0220991705e-002
  7.0580000000e+010   1.9455450150e-002   4.0856817395e-003   3.6324772934e-001   5.5470498315e-001   3.5051421793e-001   5.6755484192e-001  -1.3438349451e-002   1.0600696710e-002
  7.0600000000e+010   1.9341278306e-002   2.6656915506e-003   3.6403354791e-001   5.5439443340e-001   3.5130930515e-001   5.6726456150e-001  -1.3378812848e-002   1.0985092337e-002
  7.0620000000e+010   1.9208633277e-002   1.2523019025e-003   3.6483842945e-001   5.5405438320e-001   3.5212432787e-001   5.6694494094e-001  -1.3304371360e-002   1.1373716381e-002
  7.0640000000e+010   1.9057505500e-002  -1.5364621665e-004   3.6566222476e-001   5.5368478065e-001   3.5295913782e-001   5.6659592284e-001  -1.3214948470e-002   1.1766099351e-002
  7.0660000000e+010   1.8887906878e-002  -1.5513141933e-003   3.6650478136e-001   5.5328557658e-001   3.5381358334e-001   5.6621745247e-001  -1.3110485267e-002   1.2161765097e-002
  7.0680000000e+010   1.8699870854e-002  -2.9398666707e-003   3.6736594351e-001   5.5285672452e-001   3.5468750936e-001   5.6580947771e-001  -1.2990940688e-002   1.2560231447e-002
  7.0700000000e+010   1.8493452461e-002  -4.3184724314e-003   3.6824555221e-001   5.5239818076e-001   3.5558075748e-001   5.6537194916e-001  -1.2856291724e-002   1.2961010859e-002
  7.0720000000e+010   1.8268728335e-002  -5.6863052796e-003   3.6914344531e-001   5.5190990433e-001   3.5649316599e-001   5.6490482009e-001  -1.2706533610e-002   1.3363611086e-002
  7.0740000000e+010   1.8025796709e-002  -7.0425449224e-003   3.7005945746e-001   5.5139185705e-001   3.5742456988e-001   5.6440804650e-001  -1.2541679988e-002   1.3767535849e-002
  7.0760000000e+010   1.7764777374e-002  -8.3863778475e-003   3.7099342021e-001   5.5084400353e-001   3.5837480092e-001   5.6388158712e-001  -1.2361763037e-002   1.4172285524e-002
  7.0780000000e+010   1.7485811610e-002  -9.7169981985e-003   3.7194516201e-001   5.5026631122e-001   3.5934368766e-001   5.6332540345e-001  -1.2166833582e-002   1.4577357833e-002
  7.0800000000e+010   1.7189062092e-002  -1.1033608645e-002   3.7291450827e-001   5.4965875037e-001   3.6033105548e-001   5.6273945974e-001  -1.1956961180e-002   1.4982248550e-002
  7.0820000000e+010   1.6874712762e-002  -1.2335421244e-002   3.7390128139e-001   5.4902129409e-001   3.6133672663e-001   5.6212372306e-001  -1.1732234167e-002   1.5386452205e-002
  7.0840000000e+010   1.6542968681e-002  -1.3621658303e-002   3.7490530077e-001   5.4835391838e-001   3.6236052026e-001   5.6147816329e-001  -1.1492759689e-002   1.5789462800e-002
  7.0860000000e+010   1.6194055845e-002  -1.4891553220e-002   3.7592638290e-001   5.4765660209e-001   3.6340225247e-001   5.6080275311e-001  -1.1238663698e-002   1.6190774530e-002
  7.0880000000e+010   1.5828220975e-002  -1.6144351331e-002   3.7696434137e-001   5.4692932698e-001   3.6446173634e-001   5.6009746808e-001  -1.0970090926e-002   1.6589882505e-002
  7.0900000000e+010   1.5445731283e-002  -1.7379310736e-002   3.7801898691e-001   5.4617207772e-001   3.6553878197e-001   5.5936228661e-001  -1.0687204823e-002   1.6986283474e-002
  7.0920000000e+010   1.5046874200e-002  -1.8595703116e-002   3.7909012743e-001   5.4538484189e-001   3.6663319652e-001   5.5859718997e-001  -1.0390187471e-002   1.7379476554e-002
  7.0940000000e+010   1.4631957092e-002  -1.9792814540e-002   3.8017756808e-001   5.4456761004e-001   3.6774478426e-001   5.5780216234e-001  -1.0079239475e-002   1.7768963959e-002
  7.0960000000e+010   1.4201306933e-002  -2.0969946256e-002   3.8128111126e-001   5.4372037564e-001   3.6887334660e-001   5.5697719079e-001  -9.7545798116e-003   1.8154251722e-002
  7.0980000000e+010   1.3755269963e-002  -2.2126415468e-002   3.8240055669e-001   5.4284313513e-001   3.7001868215e-001   5.5612226533e-001  -9.4164456663e-003   1.8534850426e-002
  7.1000000000e+010   1.3294211312e-002  -2.3261556100e-002   3.8353570144e-001   5.4193588793e-001   3.7118058671e-001   5.5523737888e-001  -9.0650922278e-003   1.8910275919e-002
  7.1020000000e+010   1.2818514602e-002  -2.4374719538e-002   3.8468633997e-001   5.4099863643e-001   3.7235885340e-001   5.5432252730e-001  -8.7007924628e-003   1.9280050040e-002
  7.1040000000e+010   1.2328581525e-002  -2.5465275359e-002   3.8585226418e-001   5.4003138602e-001   3.7355327263e-001   5.5337770943e-001  -8.3238368591e-003   1.9643701323e-002
  7.1060000000e+010   1.1824831389e-002  -2.6532612041e-002   3.8703326346e-001   5.3903414510e-001   3.7476363216e-001   5.5240292705e-001  -7.9345331423e-003   2.0000765708e-002
  7.1080000000e+010   1.1307700649e-002  -2.7576137649e-002   3.8822912471e-001   5.3800692506e-001   3.7598971718e-001   5.5139818493e-001  -7.5332059636e-003   2.0350787241e-002
  7.1100000000e+010   1.0777642405e-002  -2.8595280507e-002   3.8943963241e-001   5.3694974034e-001   3.7723131030e-001   5.5036349082e-001  -7.1201965618e-003   2.0693318757e-002
  7.1120000000e+010   1.0235125884e-002  -2.9589489844e-002   3.9066456867e-001   5.3586260839e-001   3.7848819164e-001   5.4929885546e-001  -6.6958623965e-003   2.1027922567e-002
  7.1140000000e+010   9.6806358955e-003  -3.0558236419e-002   3.9190371323e-001   5.3474554967e-001   3.7976013886e-001   5.4820429260e-001  -6.2605767563e-003   2.1354171122e-002
  7.1160000000e+010   9.1146722644e-003  -3.1501013125e-002   3.9315684357e-001   5.3359858772e-001   3.8104692720e-001   5.4707981901e-001  -5.8147283394e-003   2.1671647675e-002
  7.1180000000e+010   8.5377492471e-003  -3.2417335564e-002   3.9442373490e-001   5.3242174911e-001   3.8234832952e-001   5.4592545445e-001  -5.3587208095e-003   2.1979946919e-002
  7.1200000000e+010   7.9503949225e-003  -3.3306742601e-002   3.9570416025e-001   5.3121506343e-001   3.8366411638e-001   5.4474122172e-001  -4.8929723259e-003   2.2278675620e-002
  7.1220000000e+010   7.3531505654e-003  -3.4168796897e-002   3.9699789047e-001   5.2997856337e-001   3.8499405606e-001   5.4352714666e-001  -4.4179150492e-003   2.2567453231e-002
  7.1240000000e+010   6.7465700010e-003  -3.5003085402e-002   3.9830469434e-001   5.2871228465e-001   3.8633791459e-001   5.4228325813e-001  -3.9339946223e-003   2.2845912491e-002
  7.1260000000e+010   6.1312189405e-003  -3.5809219837e-002   3.9962433856e-001   5.2741626604e-001   3.8769545585e-001   5.4100958804e-001  -3.4416696290e-003   2.3113700003e-002
  7.1280000000e+010   5.5076743004e-003  -3.6586837135e-002   4.0095658782e-001   5.2609054940e-001   3.8906644157e-001   5.3970617131e-001  -2.9414110290e-003   2.3370476797e-002
  7.1300000000e+010   4.8765235049e-003  -3.7335599866e-002   4.0230120486e-001   5.2473517962e-001   3.9045063142e-001   5.3837304596e-001  -2.4337015710e-003   2.3615918876e-002
  7.1320000000e+010   4.2383637728e-003  -3.8055196620e-002   4.0365795051e-001   5.2335020469e-001   3.9184778301e-001   5.3701025301e-001  -1.9190351849e-003   2.3849717737e-002
  7.1340000000e+010   3.5938013904e-003  -3.8745342375e-002   4.0502658373e-001   5.2193567562e-001   3.9325765199e-001   5.3561783656e-001  -1.3979163532e-003   2.4071580869e-002
  7.1360000000e+010   2.9434509704e-003  -3.9405778818e-002   4.0640686165e-001   5.2049164652e-001   3.9467999205e-001   5.3419584375e-001  -8.7085946276e-004   2.4281232241e-002
  7.1380000000e+010   2.2879346981e-003  -4.0036274655e-002   4.0779853967e-001   5.1901817453e-001   3.9611455502e-001   5.3274432477e-001  -3.3838813782e-004   2.4478412748e-002
  7.1400000000e+010   1.6278815665e-003  -4.0636625873e-002   4.0920137144e-001   5.1751531988e-001   3.9756109088e-001   5.3126333286e-001   1.9896544452e-004   2.4662880654e-002
  7.1420000000e+010   9.6392660056e-004  -4.1206655978e-002   4.1061510897e-001   5.1598314583e-001   3.9901934784e-001   5.2975292432e-001   7.4066125617e-004   2.4834411993e-002
  7.1440000000e+010   2.9671007158e-004  -4.1746216207e-002   4.1203950264e-001   5.1442171870e-001   4.0048907236e-001   5.2821315848e-001   1.2861521356e-003   2.4992800957e-002
  7.1460000000e+010  -3.7312329646e-004  -4.2255185694e-002   4.1347430128e-001   5.1283110788e-001   4.0197000922e-001   5.2664409774e-001   1.8348845204e-003   2.5137860248e-002
  7.1480000000e+010  -1.0449251283e-003  -4.2733471616e-002   4.1491925219e-001   5.1121138576e-001   4.0346190158e-001   5.2504580752e-001   2.3862991936e-003   2.5269421412e-002
  7.1500000000e+010  -1.7180442051e-003  -4.3181009302e-002   4.1637410120e-001   5.0956262780e-001   4.0496449102e-001   5.2341835630e-001   2.9398320429e-003   2.5387335141e-002
  7.1520000000e+010  -2.3918272778e-003  -4.3597762309e-002   4.1783859275e-001   5.0788491250e-001   4.0647751756e-001   5.2176181558e-001   3.4949148317e-003   2.5491471546e-002
  7.1540000000e+010  -3.0656198839e-003  -4.3983722463e-002   4.1931246991e-001   5.0617832136e-001   4.0800071979e-001   5.2007625990e-001   4.0509759807e-003   2.5581720405e-002
  7.1560000000e+010  -3.7387671687e-003  -4.4338909871e-002   4.2079547442e-001   5.0444293891e-001   4.0953383483e-001   5.1836176682e-001   4.6074413587e-003   2.5657991379e-002
  7.1580000000e+010  -4.4106147071e-003  -4.4663372899e-002   4.2228734679e-001   5.0267885269e-001   4.1107659845e-001   5.1661841692e-001   5.1637350819e-003   2.5720214199e-002
  7.1600000000e+010  -5.0805093279e-003  -4.4957188114e-002   4.2378782629e-001   5.0088615323e-001   4.1262874510e-001   5.1484629379e-001   5.7192803206e-003   2.5768338827e-002
  7.1620000000e+010  -5.7477999362e-003  -4.5220460194e-002   4.2529665106e-001   4.9906493409e-001   4.1419000795e-001   5.1304548402e-001   6.2735001114e-003   2.5802335576e-002
  7.1640000000e+010  -6.4118383365e-003  -4.5453321807e-002   4.2681355811e-001   4.9721529176e-001   4.1576011894e-001   5.1121607721e-001   6.8258181739e-003   2.5822195214e-002
  7.1660000000e+010  -7.0719800516e-003  -4.5655933457e-002   4.2833828340e-001   4.9533732573e-001   4.1733880887e-001   5.0935816592e-001   7.3756597319e-003   2.5827929023e-002
  7.1680000000e+010  -7.7275851392e-003  -4.5828483292e-002   4.2987056191e-001   4.9343113845e-001   4.1892580742e-001   5.0747184572e-001   7.9224523352e-003   2.5819568837e-002
  7.1700000000e+010  -8.3780190034e-003  -4.5971186883e-002   4.3141012765e-001   4.9149683530e-001   4.2052084319e-001   5.0555721512e-001   8.4656266842e-003   2.5797167040e-002
  7.1720000000e+010  -9.0226532010e-003  -4.6084286972e-002   4.3295671371e-001   4.8953452462e-001   4.2212364380e-001   5.0361437560e-001   9.0046174525e-003   2.5760796542e-002
  7.1740000000e+010  -9.6608662400e-003  -4.6168053188e-002   4.3451005237e-001   4.8754431766e-001   4.2373393588e-001   5.0164343158e-001   9.5388641091e-003   2.5710550714e-002
  7.1760000000e+010  -1.0292044371e-002  -4.6222781724e-002   4.3606987509e-001   4.8552632856e-001   4.2535144519e-001   4.9964449039e-001   1.0067811737e-002   2.5646543294e-002
  7.1780000000e+010  -1.0915582371e-002  -4.6248794990e-002   4.3763591258e-001   4.8348067438e-001   4.2697589662e-001   4.9761766233e-001   1.0590911849e-002   2.5568908267e-002
  7.1800000000e+010  -1.1530884314e-002  -4.6246441233e-002   4.3920789487e-001   4.8140747505e-001   4.2860701427e-001   4.9556306055e-001   1.1107623195e-002   2.5477799704e-002
  7.1820000000e+010  -1.2137364331e-002  -4.6216094125e-002   4.4078555135e-001   4.7930685334e-001   4.3024452148e-001   4.9348080113e-001   1.1617412568e-002   2.5373391575e-002
  7.1840000000e+010  -1.2734447363e-002  -4.6158152320e-002   4.4236861079e-001   4.7717893490e-001   4.3188814091e-001   4.9137100300e-001   1.2119755594e-002   2.5255877529e-002
  7.1860000000e+010  -1.3321569895e-002  -4.6073038984e-002   4.4395680145e-001   4.7502384817e-001   4.3353759458e-001   4.8923378798e-001   1.2614137523e-002   2.5125470645e-002
  7.1880000000e+010  -1.3898180676e-002  -4.5961201296e-002   4.4554985110e-001   4.7284172444e-001   4.3519260391e-001   4.8706928070e-001   1.3100054000e-002   2.4982403146e-002
  7.1900000000e+010  -1.4463741429e-002  -4.5823109912e-002   4.4714748705e-001   4.7063269777e-001   4.3685288978e-001   4.8487760864e-001   1.3577011831e-002   2.4826926087e-002
  7.1920000000e+010  -1.5017727539e-002  -4.5659258416e-002   4.4874943624e-001   4.6839690498e-001   4.3851817261e-001   4.8265890208e-001   1.4044529729e-002   2.4659309016e-002
  7.1940000000e+010  -1.5559628730e-002  -4.5470162730e-002   4.5035542527e-001   4.6613448567e-001   4.4018817237e-001   4.8041329411e-001   1.4502139057e-002   2.4479839592e-002
  7.1960000000e+010  -1.6088949714e-002  -4.5256360504e-002   4.5196518046e-001   4.6384558215e-001   4.4186260864e-001   4.7814092058e-001   1.4949384541e-002   2.4288823191e-002
  7.1980000000e+010  -1.6605210836e-002  -4.5018410480e-002   4.5357842788e-001   4.6153033947e-001   4.4354120069e-001   4.7584192009e-001   1.5385824979e-002   2.4086582467e-002
  7.2000000000e+010  -1.7107948685e-002  -4.4756891828e-002   4.5519489344e-001   4.5918890533e-001   4.4522366751e-001   4.7351643400e-001   1.5811033929e-002   2.3873456895e-002
  7.2020000000e+010  -1.7596716690e-002  -4.4472403461e-002   4.5681430289e-001   4.5682143014e-001   4.4690972785e-001   4.7116460635e-001   1.6224600368e-002   2.3649802283e-002
  7.2040000000e+010  -1.8071085702e-002  -4.4165563325e-002   4.5843638193e-001   4.5442806692e-001   4.4859910030e-001   4.6878658390e-001   1.6626129348e-002   2.3415990252e-002
  7.2060000000e+010  -1.8530644535e-002  -4.3837007665e-002   4.6006085619e-001   4.5200897136e-001   4.5029150333e-001   4.6638251608e-001   1.7015242617e-002   2.3172407699e-002
  7.2080000000e+010  -1.8975000507e-002  -4.3487390273e-002   4.6168745133e-001   4.4956430169e-001   4.5198665533e-001   4.6395255496e-001   1.7391579227e-002   2.2919456224e-002
  7.2100000000e+010  -1.9403779938e-002  -4.3117381712e-002   4.6331589309e-001   4.4709421876e-001   4.5368427467e-001   4.6149685524e-001   1.7754796110e-002   2.2657551540e-002
  7.2120000000e+010  -1.9816628635e-002  -4.2727668521e-002   4.6494590730e-001   4.4459888596e-001   4.5538407976e-001   4.5901557424e-001   1.8104568637e-002   2.2387122857e-002
  7.2140000000e+010  -2.0213212346e-002  -4.2318952403e-002   4.6657721997e-001   4.4207846919e-001   4.5708578907e-001   4.5650887185e-001   1.8440591148e-002   2.2108612235e-002
  7.2160000000e+010  -2.0593217192e-002  -4.1891949392e-002   4.6820955733e-001   4.3953313687e-001   4.5878912121e-001   4.5397691050e-001   1.8762577457e-002   2.1822473927e-002
