# Hz S RI R 1.000000
! Metas.Vna.Tools, 2.4.7898.19887
! Metas.Vna.Data, 2.4.7898.19873
! Created: UTC 2021.09.30 14:30:59
! FREQ                re:S1,1             im:S1,1             re:S2,1             im:S2,1             re:S1,2             im:S1,2             re:S2,2             im:S2,2          
  7.0000000000e+010   5.1329918280e-002  -1.2345501485e-002  -1.1920849312e-001   1.3443549511e-001  -1.2197649173e-001   1.3375444446e-001   8.4971894083e-002  -5.1420351717e-002
  7.0020000000e+010   5.2207289643e-002  -1.2500872827e-002  -1.1924831489e-001   1.3444660741e-001  -1.2202026240e-001   1.3376767536e-001   8.1580766608e-002  -5.4587635224e-002
  7.0040000000e+010   5.3046111214e-002  -1.2679786423e-002  -1.1928189110e-001   1.3446075994e-001  -1.2205763589e-001   1.3378405012e-001   7.8072390195e-002  -5.7587912224e-002
  7.0060000000e+010   5.3845901235e-002  -1.2881732742e-002  -1.1930921826e-001   1.3447794762e-001  -1.2208860785e-001   1.3380356312e-001   7.4454301819e-002  -6.0416973842e-002
  7.0080000000e+010   5.4606208293e-002  -1.3106177080e-002  -1.1933029323e-001   1.3449816492e-001  -1.2211317432e-001   1.3382620824e-001   7.0734191021e-002  -6.3070944896e-002
  7.0100000000e+010   5.5326611845e-002  -1.3352560362e-002  -1.1934511319e-001   1.3452140585e-001  -1.2213133166e-001   1.3385197891e-001   6.6919885413e-002  -6.5546289289e-002
  7.0120000000e+010   5.6006722708e-002  -1.3620299965e-002  -1.1935367567e-001   1.3454766400e-001  -1.2214307661e-001   1.3388086810e-001   6.3019336001e-002  -6.7839814790e-002
  7.0140000000e+010   5.6646183518e-002  -1.3908790566e-002  -1.1935597854e-001   1.3457693252e-001  -1.2214840626e-001   1.3391286831e-001   5.9040602336e-002  -6.9948677172e-002
  7.0160000000e+010   5.7244669155e-002  -1.4217405014e-002  -1.1935202000e-001   1.3460920411e-001  -1.2214731806e-001   1.3394797161e-001   5.4991837533e-002  -7.1870383728e-002
  7.0180000000e+010   5.7801887133e-002  -1.4545495224e-002  -1.1934179859e-001   1.3464447104e-001  -1.2213980981e-001   1.3398616959e-001   5.0881273169e-002  -7.3602796141e-002
  7.0200000000e+010   5.8317577960e-002  -1.4892393090e-002  -1.1932531320e-001   1.3468272517e-001  -1.2212587968e-001   1.3402745340e-001   4.6717204108e-002  -7.5144132717e-002
  7.0220000000e+010   5.8791515456e-002  -1.5257411421e-002  -1.1930256302e-001   1.3472395791e-001  -1.2210552618e-001   1.3407181374e-001   4.2507973257e-002  -7.6492969965e-002
  7.0240000000e+010   5.9223507044e-002  -1.5639844893e-002  -1.1927354762e-001   1.3476816025e-001  -1.2207874818e-001   1.3411924087e-001   3.8261956306e-002  -7.7648243542e-002
  7.0260000000e+010   5.9613393997e-002  -1.6038971019e-002  -1.1923826688e-001   1.3481532276e-001  -1.2204554492e-001   1.3416972461e-001   3.3987546447e-002  -7.8609248544e-002
  7.0280000000e+010   5.9961051655e-002  -1.6454051135e-002  -1.1919672102e-001   1.3486543560e-001  -1.2200591598e-001   1.3422325433e-001   2.9693139135e-002  -7.9375639162e-002
  7.0300000000e+010   6.0266389602e-002  -1.6884331402e-002  -1.1914891059e-001   1.3491848849e-001  -1.2195986130e-001   1.3427981898e-001   2.5387116891e-002  -7.9947427684e-002
  7.0320000000e+010   6.0529351809e-002  -1.7329043820e-002  -1.1909483648e-001   1.3497447077e-001  -1.2190738118e-001   1.3433940707e-001   2.1077834184e-002  -8.0324982872e-002
  7.0340000000e+010   6.0749916738e-002  -1.7787407255e-002  -1.1903449992e-001   1.3503337135e-001  -1.2184847625e-001   1.3440200668e-001   1.6773602418e-002  -8.0509027696e-002
  7.0360000000e+010   6.0928097410e-002  -1.8258628475e-002  -1.1896790245e-001   1.3509517872e-001  -1.2178314754e-001   1.3446760546e-001   1.2482675055e-002  -8.0500636445e-002
  7.0380000000e+010   6.1063941437e-002  -1.8741903202e-002  -1.1889504597e-001   1.3515988098e-001  -1.2171139638e-001   1.3453619066e-001   8.2132328893e-003  -8.0301231218e-002
  7.0400000000e+010   6.1157531016e-002  -1.9236417163e-002  -1.1881593269e-001   1.3522746584e-001  -1.2163322448e-001   1.3460774908e-001   3.9733695112e-003  -7.9912577794e-002
  7.0420000000e+010   6.1208982880e-002  -1.9741347159e-002  -1.1873056515e-001   1.3529792060e-001  -1.2154863390e-001   1.3468226712e-001  -2.2892302567e-004  -7.9336780912e-002
  7.0440000000e+010   6.1218448227e-002  -2.0255862128e-002  -1.1863894624e-001   1.3537123215e-001  -1.2145762705e-001   1.3475973078e-001  -4.3857682991e-003  -7.8576278944e-002
  7.0460000000e+010   6.1186112594e-002  -2.0779124222e-002  -1.1854107915e-001   1.3544738701e-001  -1.2136020668e-001   1.3484012562e-001  -8.4894193558e-003  -7.7633837994e-002
  7.0480000000e+010   6.1112195703e-002  -2.1310289883e-002  -1.1843696742e-001   1.3552637129e-001  -1.2125637590e-001   1.3492343681e-001  -1.2532272266e-002  -7.6512545420e-002
  7.0500000000e+010   6.0996951273e-002  -2.1848510919e-002  -1.1832661489e-001   1.3560817075e-001  -1.2114613815e-001   1.3500964913e-001  -1.6506879374e-002  -7.5215802808e-002
  7.0520000000e+010   6.0840666789e-002  -2.2392935587e-002  -1.1821002575e-001   1.3569277072e-001  -1.2102949723e-001   1.3509874695e-001  -2.0405962212e-002  -7.3747318392e-002
  7.0540000000e+010   6.0643663238e-002  -2.2942709669e-002  -1.1808720450e-001   1.3578015618e-001  -1.2090645728e-001   1.3519071423e-001  -2.4222424077e-002  -7.2111098951e-002
  7.0560000000e+010   6.0406294806e-002  -2.3496977546e-002  -1.1795815597e-001   1.3587031174e-001  -1.2077702279e-001   1.3528553455e-001  -2.7949362216e-002  -7.0311441198e-002
  7.0580000000e+010   6.0128948542e-002  -2.4054883275e-002  -1.1782288530e-001   1.3596322160e-001  -1.2064119858e-001   1.3538319111e-001  -3.1580079636e-002  -6.8352922665e-002
  7.0600000000e+010   5.9812043988e-002  -2.4615571652e-002  -1.1768139795e-001   1.3605886963e-001  -1.2049898982e-001   1.3548366672e-001  -3.5108096485e-002  -6.6240392117e-002
  7.0620000000e+010   5.9456032768e-002  -2.5178189275e-002  -1.1753369971e-001   1.3615723930e-001  -1.2035040202e-001   1.3558694379e-001  -3.8527161008e-002  -6.3978959503e-002
  7.0640000000e+010   5.9061398147e-002  -2.5741885604e-002  -1.1737979668e-001   1.3625831375e-001  -1.2019544102e-001   1.3569300438e-001  -4.1831260052e-002  -6.1573985470e-002
  7.0660000000e+010   5.8628654558e-002  -2.6305813997e-002  -1.1721969526e-001   1.3636207574e-001  -1.2003411300e-001   1.3580183016e-001  -4.5014629093e-002  -5.9031070454e-002
  7.0680000000e+010   5.8158347086e-002  -2.6869132754e-002  -1.1705340219e-001   1.3646850766e-001  -1.1986642448e-001   1.3591340242e-001  -4.8071761785e-002  -5.6356043377e-002
  7.0700000000e+010   5.7651050933e-002  -2.7431006139e-002  -1.1688092451e-001   1.3657759157e-001  -1.1969238231e-001   1.3602770210e-001  -5.0997419003e-002  -5.3554949960e-002
  7.0720000000e+010   5.7107370836e-002  -2.7990605395e-002  -1.1670226955e-001   1.3668930918e-001  -1.1951199367e-001   1.3614470977e-001  -5.3786637370e-002  -5.0634040683e-002
  7.0740000000e+010   5.6527940466e-002  -2.8547109739e-002  -1.1651744498e-001   1.3680364182e-001  -1.1932526607e-001   1.3626440563e-001  -5.6434737251e-002  -4.7599758417e-002
  7.0760000000e+010   5.5913421786e-002  -2.9099707352e-002  -1.1632645876e-001   1.3692057052e-001  -1.1913220735e-001   1.3638676954e-001  -5.8937330204e-002  -4.4458725737e-002
  7.0780000000e+010   5.5264504386e-002  -2.9647596344e-002  -1.1612931916e-001   1.3704007593e-001  -1.1893282568e-001   1.3651178098e-001  -6.1290325874e-002  -4.1217731956e-002
  7.0800000000e+010   5.4581904786e-002  -3.0189985710e-002  -1.1592603475e-001   1.3716213840e-001  -1.1872712955e-001   1.3663941912e-001  -6.3489938322e-002  -3.7883719897e-002
  7.0820000000e+010   5.3866365707e-002  -3.0726096260e-002  -1.1571661439e-001   1.3728673791e-001  -1.1851512777e-001   1.3676966275e-001  -6.5532691771e-002  -3.4463772420e-002
  7.0840000000e+010   5.3118655319e-002  -3.1255161539e-002  -1.1550106726e-001   1.3741385414e-001  -1.1829682949e-001   1.3690249033e-001  -6.7415425769e-002  -3.0965098750e-002
  7.0860000000e+010   5.2339566461e-002  -3.1776428717e-002  -1.1527940282e-001   1.3754346642e-001  -1.1807224414e-001   1.3703787998e-001  -6.9135299765e-002  -2.7395020604e-002
  7.0880000000e+010   5.1529915833e-002  -3.2289159465e-002  -1.1505163085e-001   1.3767555376e-001  -1.1784138151e-001   1.3717580948e-001  -7.0689797066e-002  -2.3760958168e-002
  7.0900000000e+010   5.0690543163e-002  -3.2792630810e-002  -1.1481776138e-001   1.3781009487e-001  -1.1760425168e-001   1.3731625628e-001  -7.2076728211e-002  -2.0070415931e-002
  7.0920000000e+010   4.9822310353e-002  -3.3286135959e-002  -1.1457780478e-001   1.3794706811e-001  -1.1736086505e-001   1.3745919752e-001  -7.3294233710e-002  -1.6330968414e-002
  7.0940000000e+010   4.8926100600e-002  -3.3768985105e-002  -1.1433177167e-001   1.3808645155e-001  -1.1711123233e-001   1.3760460999e-001  -7.4340786189e-002  -1.2550245813e-002
  7.0960000000e+010   4.8002817489e-002  -3.4240506208e-002  -1.1407967298e-001   1.3822822295e-001  -1.1685536453e-001   1.3775247016e-001  -7.5215191905e-002  -8.7359195855e-003
  7.0980000000e+010   4.7053384079e-002  -3.4700045750e-002  -1.1382151991e-001   1.3837235974e-001  -1.1659327298e-001   1.3790275421e-001  -7.5916591649e-002  -4.8956880097e-003
  7.1000000000e+010   4.6078741953e-002  -3.5146969458e-002  -1.1355732396e-001   1.3851883906e-001  -1.1632496932e-001   1.3805543797e-001  -7.6444461028e-002  -1.0372617339e-003
  7.1020000000e+010   4.5079850259e-002  -3.5580663009e-002  -1.1328709689e-001   1.3866763776e-001  -1.1605046546e-001   1.3821049699e-001  -7.6798610131e-002   2.8316506483e-003
  7.1040000000e+010   4.4057684734e-002  -3.6000532700e-002  -1.1301085074e-001   1.3881873237e-001  -1.1576977365e-001   1.3836790649e-001  -7.6979182582e-002   6.7033569760e-003
  7.1060000000e+010   4.3013236701e-002  -3.6406006090e-002  -1.1272859785e-001   1.3897209915e-001  -1.1548290640e-001   1.3852764141e-001  -7.6986653978e-002   1.0570195824e-002
  7.1080000000e+010   4.1947512062e-002  -3.6796532615e-002  -1.1244035081e-001   1.3912771405e-001  -1.1518987654e-001   1.3868967637e-001  -7.6821829720e-002   1.4424550708e-002
  7.1100000000e+010   4.0861530271e-002  -3.7171584172e-002  -1.1214612249e-001   1.3928555273e-001  -1.1489069719e-001   1.3885398571e-001  -7.6485842247e-002   1.8258864160e-002
  7.1120000000e+010   3.9756323295e-002  -3.7530655670e-002  -1.1184592601e-001   1.3944559059e-001  -1.1458538174e-001   1.3902054346e-001  -7.5980147667e-002   2.2065651653e-002
  7.1140000000e+010   3.8632934561e-002  -3.7873265553e-002  -1.1153977479e-001   1.3960780272e-001  -1.1427394390e-001   1.3918932338e-001  -7.5306521807e-002   2.5837515358e-002
  7.1160000000e+010   3.7492417896e-002  -3.8198956287e-002  -1.1122768249e-001   1.3977216395e-001  -1.1395639763e-001   1.3936029893e-001  -7.4467055678e-002   2.9567157687e-002
  7.1180000000e+010   3.6335836455e-002  -3.8507294820e-002  -1.1090966303e-001   1.3993864883e-001  -1.1363275720e-001   1.3953344331e-001  -7.3464150377e-002   3.3247394619e-002
  7.1200000000e+010   3.5164261638e-002  -3.8797873006e-002  -1.1058573061e-001   1.4010723163e-001  -1.1330303714e-001   1.3970872940e-001  -7.2300511425e-002   3.6871168776e-002
  7.1220000000e+010   3.3978772009e-002  -3.9070307996e-002  -1.1025589965e-001   1.4027788638e-001  -1.1296725227e-001   1.3988612985e-001  -7.0979142557e-002   4.0431562223e-002
  7.1240000000e+010   3.2780452197e-002  -3.9324242593e-002  -1.0992018486e-001   1.4045058680e-001  -1.1262541769e-001   1.4006561702e-001  -6.9503338985e-002   4.3921808982e-002
  7.1260000000e+010   3.1570391801e-002  -3.9559345582e-002  -1.0957860119e-001   1.4062530639e-001  -1.1227754875e-001   1.4024716300e-001  -6.7876680133e-002   4.7335307214e-002
  7.1280000000e+010   3.0349684291e-002  -3.9775312015e-002  -1.0923116383e-001   1.4080201836e-001  -1.1192366110e-001   1.4043073961e-001  -6.6103021868e-002   5.0665631076e-002
  7.1300000000e+010   2.9119425902e-002  -3.9971863469e-002  -1.0887788821e-001   1.4098069569e-001  -1.1156377062e-001   1.4061631842e-001  -6.4186488240e-002   5.3906542210e-002
  7.1320000000e+010   2.7880714531e-002  -4.0148748268e-002  -1.0851879004e-001   1.4116131109e-001  -1.1119789348e-001   1.4080387074e-001  -6.2131462748e-002   5.7052000858e-002
  7.1340000000e+010   2.6634648637e-002  -4.0305741666e-002  -1.0815388522e-001   1.4134383703e-001  -1.1082604611e-001   1.4099336763e-001  -5.9942579147e-002   6.0096176567e-002
  7.1360000000e+010   2.5382326133e-002  -4.0442646006e-002  -1.0778318993e-001   1.4152824571e-001  -1.1044824519e-001   1.4118477989e-001  -5.7624711820e-002   6.3033458488e-002
  7.1380000000e+010   2.4124843293e-002  -4.0559290828e-002  -1.0740672056e-001   1.4171450913e-001  -1.1006450766e-001   1.4137807808e-001  -5.5182965720e-002   6.5858465230e-002
  7.1400000000e+010   2.2863293657e-002  -4.0655532963e-002  -1.0702449376e-001   1.4190259901e-001  -1.0967485072e-001   1.4157323250e-001  -5.2622665920e-002   6.8566054266e-002
  7.1420000000e+010   2.1598766939e-002  -4.0731256570e-002  -1.0663652637e-001   1.4209248685e-001  -1.0927929180e-001   1.4177021324e-001  -4.9949346778e-002   7.1151330862e-002
  7.1440000000e+010   2.0332347946e-002  -4.0786373156e-002  -1.0624283549e-001   1.4228414391e-001  -1.0887784860e-001   1.4196899011e-001  -4.7168740740e-002   7.3609656529e-002
  7.1460000000e+010   1.9065115505e-002  -4.0820821555e-002  -1.0584343845e-001   1.4247754123e-001  -1.0847053905e-001   1.4216953273e-001  -4.4286766803e-002   7.5936656969e-002
  7.1480000000e+010   1.7798141397e-002  -4.0834567869e-002  -1.0543835276e-001   1.4267264960e-001  -1.0805738134e-001   1.4237181046e-001  -4.1309518667e-002   7.8128229514e-002
  7.1500000000e+010   1.6532489300e-002  -4.0827605383e-002  -1.0502759620e-001   1.4286943961e-001  -1.0763839387e-001   1.4257579244e-001  -3.8243252586e-002   8.0180550029e-002
  7.1520000000e+010   1.5269213748e-002  -4.0799954436e-002  -1.0461118674e-001   1.4306788160e-001  -1.0721359531e-001   1.4278144759e-001  -3.5094374949e-002   8.2090079291e-002
  7.1540000000e+010   1.4009359099e-002  -4.0751662272e-002  -1.0418914256e-001   1.4326794572e-001  -1.0678300453e-001   1.4298874459e-001  -3.1869429616e-002   8.3853568808e-002
  7.1560000000e+010   1.2753958518e-002  -4.0682802843e-002  -1.0376148207e-001   1.4346960187e-001  -1.0634664067e-001   1.4319765192e-001  -2.8575085023e-002   8.5468066086e-002
  7.1580000000e+010   1.1504032973e-002  -4.0593476590e-002  -1.0332822388e-001   1.4367281976e-001  -1.0590452306e-001   1.4340813785e-001  -2.5218121094e-002   8.6930919330e-002
  7.1600000000e+010   1.0260590251e-002  -4.0483810188e-002  -1.0288938680e-001   1.4387756888e-001  -1.0545667128e-001   1.4362017042e-001  -2.1805415977e-002   8.8239781569e-002
  7.1620000000e+010   9.0246239911e-003  -4.0353956256e-002  -1.0244498985e-001   1.4408381851e-001  -1.0500310512e-001   1.4383371746e-001  -1.8343932622e-002   8.9392614205e-002
  7.1640000000e+010   7.7971127266e-003  -4.0204093042e-002  -1.0199505225e-001   1.4429153773e-001  -1.0454384459e-001   1.4404874662e-001  -1.4840705242e-002   9.0387689967e-002
  7.1660000000e+010   6.5790189593e-003  -4.0034424071e-002  -1.0153959342e-001   1.4450069542e-001  -1.0407890993e-001   1.4426522531e-001  -1.1302825670e-002   9.1223595289e-002
  7.1680000000e+010   5.3712882459e-003  -3.9845177766e-002  -1.0107863298e-001   1.4471126023e-001  -1.0360832158e-001   1.4448312077e-001  -7.7374296432e-003   9.1899232083e-002
  7.1700000000e+010   4.1748483079e-003  -3.9636607037e-002  -1.0061219072e-001   1.4492320066e-001  -1.0313210019e-001   1.4470240002e-001  -4.1516830347e-003   9.2413818922e-002
  7.1720000000e+010   2.9906081632e-003  -3.9408988847e-002  -1.0014028666e-001   1.4513648498e-001  -1.0265026663e-001   1.4492302991e-001  -5.5276806502e-004   9.2766891627e-002
  7.1740000000e+010   1.8194572817e-003  -3.9162623736e-002  -9.9662940970e-002   1.4535108127e-001  -1.0216284197e-001   1.4514497707e-001   3.0521304857e-003   9.2958303258e-002
  7.1760000000e+010   6.6226476421e-004  -3.8897835336e-002  -9.9180174021e-002   1.4556695744e-001  -1.0166984748e-001   1.4536820797e-001   6.6558390383e-003   9.2988223506e-002
  7.1780000000e+010  -4.8012145381e-004  -3.8614969839e-002  -9.8692006367e-002   1.4578408119e-001  -1.0117130463e-001   1.4559268887e-001   1.0251208922e-002   9.2857137501e-002
  7.1800000000e+010  -1.6068753723e-003  -3.8314395457e-002  -9.8198458740e-002   1.4600242004e-001  -1.0066723509e-001   1.4581838587e-001   1.3831130001e-002   9.2565844017e-002
  7.1820000000e+010  -2.7171936701e-003  -3.7996501843e-002  -9.7699552047e-002   1.4622194134e-001  -1.0015766073e-001   1.4604526486e-001   1.7388544206e-002   9.2115453109e-002
  7.1840000000e+010  -3.8102964220e-003  -3.7661699494e-002  -9.7195307373e-002   1.4644261225e-001  -9.9642603594e-002   1.4627329159e-001   2.0916458923e-002   9.1507383158e-002
  7.1860000000e+010  -4.8854277860e-003  -3.7310419129e-002  -9.6685745973e-002   1.4666439976e-001  -9.9122085936e-002   1.4650243159e-001   2.4407960245e-002   9.0743357343e-002
  7.1880000000e+010  -5.9418566636e-003  -3.6943111043e-002  -9.6170889272e-002   1.4688727067e-001  -9.8596130184e-002   1.4673265027e-001   2.7856226033e-002   8.9825399560e-002
  7.1900000000e+010  -6.9788773296e-003  -3.6560244440e-002  -9.5650758860e-002   1.4711119163e-001  -9.8064758951e-002   1.4696391282e-001   3.1254538789e-002   8.8755829770e-002
  7.1920000000e+010  -7.9958100316e-003  -3.6162306742e-002  -9.5125376496e-002   1.4733612909e-001  -9.7527995034e-002   1.4719618431e-001   3.4596298287e-002   8.7537258807e-002
  7.1940000000e+010  -8.9920015597e-003  -3.5749802886e-002  -9.4594764095e-002   1.4756204936e-001  -9.6985861405e-002   1.4742942960e-001   3.7875033977e-002   8.6172582650e-002
  7.1960000000e+010  -9.9668257841e-003  -3.5323254591e-002  -9.4058943737e-002   1.4778891858e-001  -9.6438381214e-002   1.4766361343e-001   4.1084417098e-002   8.4664976167e-002
  7.1980000000e+010  -1.0919684161e-002  -3.4883199613e-002  -9.3517937656e-002   1.4801670270e-001  -9.5885577782e-002   1.4789870036e-001   4.4218272516e-002   8.3017886352e-002
  7.2000000000e+010  -1.1850006208e-002  -3.4430190982e-002  -9.2971768241e-002   1.4824536755e-001  -9.5327474603e-002   1.4813465479e-001   4.7270590236e-002   8.1235025053e-002
  7.2020000000e+010  -1.2757249941e-002  -3.3964796223e-002  -9.2420458033e-002   1.4847487877e-001  -9.4764095335e-002   1.4837144097e-001   5.0235536583e-002   7.9320361227e-002
  7.2040000000e+010  -1.3640902289e-002  -3.3487596560e-002  -9.1864029723e-002   1.4870520186e-001  -9.4195463806e-002   1.4860902302e-001   5.3107465029e-002   7.7278112723e-002
  7.2060000000e+010  -1.4500479460e-002  -3.2999186110e-002  -9.1302506151e-002   1.4893630215e-001  -9.3621604002e-002   1.4884736487e-001   5.5880926647e-002   7.5112737600e-002
  7.2080000000e+010  -1.5335527291e-002  -3.2500171055e-002  -9.0735910301e-002   1.4916814484e-001  -9.3042540073e-002   1.4908643033e-001   5.8550680164e-002   7.2828925031e-002
  7.2100000000e+010  -1.6145621545e-002  -3.1991168816e-002  -9.0164265299e-002   1.4940069496e-001  -9.2458296325e-002   1.4932618308e-001   6.1111701611e-002   7.0431585766e-002
  7.2120000000e+010  -1.6930368191e-002  -3.1472807202e-002  -8.9587594414e-002   1.4963391741e-001  -9.1868897220e-002   1.4956658662e-001   6.3559193538e-002   6.7925842207e-002
  7.2140000000e+010  -1.7689403636e-002  -3.0945723559e-002  -8.9005921050e-002   1.4986777692e-001  -9.1274367372e-002   1.4980760434e-001   6.5888593786e-002   6.5317018104e-002
  7.2160000000e+010  -1.8422394932e-002  -3.0410563905e-002  -8.8419268752e-002   1.5010223811e-001  -9.0674731547e-002   1.5004919948e-001   6.8095583800e-002   6.2610627879e-002
