# Hz S RI R 1.000000
! Metas.Vna.Tools, 2.4.7898.19887
! Metas.Vna.Data, 2.4.7898.19873
! Created: UTC 2021.09.30 14:31:00
! FREQ                re:S1,1             im:S1,1             re:S2,1             im:S2,1             re:S1,2             im:S1,2             re:S2,2             im:S2,2          
  7.0000000000e+010   3.0293561452e-002  -4.0267543596e-002  -1.1634533874e-001   3.3981108418e-001  -1.2656073969e-001   3.3971315877e-001  -1.0134327962e-001  -1.6245877729e-001
  7.0020000000e+010   2.9951346405e-002  -4.0572419019e-002  -1.1640636863e-001   3.3993012140e-001  -1.2663458496e-001   3.3983088114e-001  -1.0411218634e-001  -1.6160486322e-001
  7.0040000000e+010   2.9609800057e-002  -4.0877695444e-002  -1.1645252433e-001   3.4004926950e-001  -1.2669330035e-001   3.3994905924e-001  -1.0683462530e-001  -1.6061647754e-001
  7.0060000000e+010   2.9268789140e-002  -4.1183101679e-002  -1.1648379894e-001   3.4016849784e-001  -1.2673687630e-001   3.4006766343e-001  -1.0950659785e-001  -1.5949425568e-001
  7.0080000000e+010   2.8928177787e-002  -4.1488364877e-002  -1.1650018686e-001   3.4028777523e-001  -1.2676530462e-001   3.4018666342e-001  -1.1212413004e-001  -1.5823900693e-001
  7.0100000000e+010   2.8587827836e-002  -4.1793210651e-002  -1.1650168387e-001   3.4040706992e-001  -1.2677857841e-001   3.4030602834e-001  -1.1468327881e-001  -1.5685171437e-001
  7.0120000000e+010   2.8247599155e-002  -4.2097363191e-002  -1.1648828707e-001   3.4052634964e-001  -1.2677669215e-001   3.4042572667e-001  -1.1718013826e-001  -1.5533353451e-001
  7.0140000000e+010   2.7907349955e-002  -4.2400545390e-002  -1.1645999488e-001   3.4064558158e-001  -1.2675964163e-001   3.4054572633e-001  -1.1961084590e-001  -1.5368579672e-001
  7.0160000000e+010   2.7566937120e-002  -4.2702478978e-002  -1.1641680710e-001   3.4076473242e-001  -1.2672742398e-001   3.4066599463e-001  -1.2197158884e-001  -1.5191000237e-001
  7.0180000000e+010   2.7226216532e-002  -4.3002884653e-002  -1.1635872483e-001   3.4088376833e-001  -1.2668003769e-001   3.4078649830e-001  -1.2425861005e-001  -1.5000782366e-001
  7.0200000000e+010   2.6885043403e-002  -4.3301482222e-002  -1.1628575054e-001   3.4100265498e-001  -1.2661748257e-001   3.4090720351e-001  -1.2646821445e-001  -1.4798110231e-001
  7.0220000000e+010   2.6543272606e-002  -4.3597990751e-002  -1.1619788800e-001   3.4112135756e-001  -1.2653975977e-001   3.4102807587e-001  -1.2859677514e-001  -1.4583184779e-001
  7.0240000000e+010   2.6200759012e-002  -4.3892128713e-002  -1.1609514235e-001   3.4123984078e-001  -1.2644687179e-001   3.4114908045e-001  -1.3064073939e-001  -1.4356223549e-001
  7.0260000000e+010   2.5857357822e-002  -4.4183614146e-002  -1.1597752005e-001   3.4135806888e-001  -1.2633882246e-001   3.4127018176e-001  -1.3259663467e-001  -1.4117460450e-001
  7.0280000000e+010   2.5512924908e-002  -4.4472164813e-002  -1.1584502890e-001   3.4147600566e-001  -1.2621561695e-001   3.4139134379e-001  -1.3446107458e-001  -1.3867145515e-001
  7.0300000000e+010   2.5167317144e-002  -4.4757498374e-002  -1.1569767803e-001   3.4159361445e-001  -1.2607726175e-001   3.4151253003e-001  -1.3623076470e-001  -1.3605544632e-001
  7.0320000000e+010   2.4820392744e-002  -4.5039332553e-002  -1.1553547789e-001   3.4171085817e-001  -1.2592376471e-001   3.4163370344e-001  -1.3790250835e-001  -1.3332939245e-001
  7.0340000000e+010   2.4472011597e-002  -4.5317385320e-002  -1.1535844027e-001   3.4182769930e-001  -1.2575513499e-001   3.4175482648e-001  -1.3947321219e-001  -1.3049626035e-001
  7.0360000000e+010   2.4122035602e-002  -4.5591375069e-002  -1.1516657829e-001   3.4194409991e-001  -1.2557138309e-001   3.4187586115e-001  -1.4093989177e-001  -1.2755916573e-001
  7.0380000000e+010   2.3770328994e-002  -4.5861020814e-002  -1.1495990637e-001   3.4206002167e-001  -1.2537252085e-001   3.4199676893e-001  -1.4229967693e-001  -1.2452136947e-001
  7.0400000000e+010   2.3416758675e-002  -4.6126042372e-002  -1.1473844028e-001   3.4217542586e-001  -1.2515856142e-001   3.4211751088e-001  -1.4354981707e-001  -1.2138627366e-001
  7.0420000000e+010   2.3061194544e-002  -4.6386160568e-002  -1.1450219708e-001   3.4229027336e-001  -1.2492951929e-001   3.4223804756e-001  -1.4468768624e-001  -1.1815741741e-001
  7.0440000000e+010   2.2703509809e-002  -4.6641097435e-002  -1.1425119515e-001   3.4240452471e-001  -1.2468541024e-001   3.4235833912e-001  -1.4571078811e-001  -1.1483847245e-001
  7.0460000000e+010   2.2343581313e-002  -4.6890576420e-002  -1.1398545421e-001   3.4251814006e-001  -1.2442625140e-001   3.4247834525e-001  -1.4661676079e-001  -1.1143323845e-001
  7.0480000000e+010   2.1981289840e-002  -4.7134322599e-002  -1.1370499523e-001   3.4263107923e-001  -1.2415206120e-001   3.4259802522e-001  -1.4740338141e-001  -1.0794563815e-001
  7.0500000000e+010   2.1616520429e-002  -4.7372062889e-002  -1.1340984054e-001   3.4274330169e-001  -1.2386285939e-001   3.4271733790e-001  -1.4806857059e-001  -1.0437971227e-001
  7.0520000000e+010   2.1249162668e-002  -4.7603526269e-002  -1.1310001372e-001   3.4285476658e-001  -1.2355866702e-001   3.4283624175e-001  -1.4861039669e-001  -1.0073961425e-001
  7.0540000000e+010   2.0879110993e-002  -4.7828444007e-002  -1.1277553967e-001   3.4296543274e-001  -1.2323950644e-001   3.4295469482e-001  -1.4902707982e-001  -9.7029604719e-002
  7.0560000000e+010   2.0506264977e-002  -4.8046549884e-002  -1.1243644458e-001   3.4307525868e-001  -1.2290540131e-001   3.4307265479e-001  -1.4931699574e-001  -9.3254045825e-002
  7.0580000000e+010   2.0130529608e-002  -4.8257580429e-002  -1.1208275590e-001   3.4318420264e-001  -1.2255637659e-001   3.4319007897e-001  -1.4947867943e-001  -8.9417395373e-002
  7.0600000000e+010   1.9751815563e-002  -4.8461275151e-002  -1.1171450238e-001   3.4329222254e-001  -1.2219245850e-001   3.4330692432e-001  -1.4951082854e-001  -8.5524200774e-002
  7.0620000000e+010   1.9370039472e-002  -4.8657376779e-002  -1.1133171403e-001   3.4339927605e-001  -1.2181367457e-001   3.4342314741e-001  -1.4941230653e-001  -8.1579092835e-002
  7.0640000000e+010   1.8985124177e-002  -4.8845631500e-002  -1.1093442214e-001   3.4350532058e-001  -1.2142005361e-001   3.4353870452e-001  -1.4918214560e-001  -7.7586779391e-002
  7.0660000000e+010   1.8596998972e-002  -4.9025789206e-002  -1.1052265924e-001   3.4361031326e-001  -1.2101162571e-001   3.4365355156e-001  -1.4881954943e-001  -7.3552038786e-002
  7.0680000000e+010   1.8205599846e-002  -4.9197603739e-002  -1.1009645913e-001   3.4371421101e-001  -1.2058842221e-001   3.4376764414e-001  -1.4832389558e-001  -6.9479713214e-002
  7.0700000000e+010   1.7810869704e-002  -4.9360833137e-002  -1.0965585685e-001   3.4381697049e-001  -1.2015047572e-001   3.4388093756e-001  -1.4769473768e-001  -6.5374701937e-002
  7.0720000000e+010   1.7412758587e-002  -4.9515239886e-002  -1.0920088870e-001   3.4391854815e-001  -1.1969782011e-001   3.4399338683e-001  -1.4693180738e-001  -6.1241954377e-002
  7.0740000000e+010   1.7011223876e-002  -4.9660591172e-002  -1.0873159219e-001   3.4401890023e-001  -1.1923049052e-001   3.4410494664e-001  -1.4603501603e-001  -5.7086463100e-002
  7.0760000000e+010   1.6606230483e-002  -4.9796659128e-002  -1.0824800606e-001   3.4411798277e-001  -1.1874852331e-001   3.4421557145e-001  -1.4500445599e-001  -5.2913256708e-002
  7.0780000000e+010   1.6197751036e-002  -4.9923221096e-002  -1.0775017030e-001   3.4421575161e-001  -1.1825195608e-001   3.4432521542e-001  -1.4384040185e-001  -4.8727392638e-002
  7.0800000000e+010   1.5785766044e-002  -5.0040059875e-002  -1.0723812607e-001   3.4431216241e-001  -1.1774082767e-001   3.4443383247e-001  -1.4254331122e-001  -4.4533949886e-002
  7.0820000000e+010   1.5370264059e-002  -5.0146963975e-002  -1.0671191576e-001   3.4440717069e-001  -1.1721517815e-001   3.4454137627e-001  -1.4111382529e-001  -4.0338021665e-002
  7.0840000000e+010   1.4951241817e-002  -5.0243727875e-002  -1.0617158297e-001   3.4450073177e-001  -1.1667504881e-001   3.4464780024e-001  -1.3955276912e-001  -3.6144708019e-002
  7.0860000000e+010   1.4528704369e-002  -5.0330152273e-002  -1.0561717245e-001   3.4459280084e-001  -1.1612048212e-001   3.4475305761e-001  -1.3786115163e-001  -3.1959108379e-002
  7.0880000000e+010   1.4102665201e-002  -5.0406044341e-002  -1.0504873017e-001   3.4468333295e-001  -1.1555152178e-001   3.4485710137e-001  -1.3604016529e-001  -2.7786314104e-002
  7.0900000000e+010   1.3673146334e-002  -5.0471217976e-002  -1.0446630325e-001   3.4477228302e-001  -1.1496821269e-001   3.4495988431e-001  -1.3409118558e-001  -2.3631400997e-002
  7.0920000000e+010   1.3240178415e-002  -5.0525494047e-002  -1.0386993998e-001   3.4485960585e-001  -1.1437060091e-001   3.4506135903e-001  -1.3201577004e-001  -1.9499421814e-002
  7.0940000000e+010   1.2803800796e-002  -5.0568700648e-002  -1.0325968980e-001   3.4494525614e-001  -1.1375873370e-001   3.4516147795e-001  -1.2981565719e-001  -1.5395398780e-002
  7.0960000000e+010   1.2364061591e-002  -5.0600673339e-002  -1.0263560331e-001   3.4502918847e-001  -1.1313265949e-001   3.4526019332e-001  -1.2749276501e-001  -1.1324316128e-002
  7.0980000000e+010   1.1921017723e-002  -5.0621255393e-002  -1.0199773224e-001   3.4511135736e-001  -1.1249242786e-001   3.4535745720e-001  -1.2504918921e-001  -7.2911126578e-003
  7.1000000000e+010   1.1474734958e-002  -5.0630298030e-002  -1.0134612943e-001   3.4519171723e-001  -1.1183808955e-001   3.4545322153e-001  -1.2248720124e-001  -3.3006743452e-003
  7.1020000000e+010   1.1025287921e-002  -5.0627660659e-002  -1.0068084886e-001   3.4527022243e-001  -1.1116969644e-001   3.4554743810e-001  -1.1980924589e-001   6.4217299676e-004
  7.1040000000e+010   1.0572760098e-002  -5.0613211106e-002  -1.0000194561e-001   3.4534682727e-001  -1.1048730155e-001   3.4564005854e-001  -1.1701793875e-001   4.5326709924e-003
  7.1060000000e+010   1.0117243821e-002  -5.0586825845e-002  -9.9309475856e-002   3.4542148597e-001  -1.0979095902e-001   3.4573103440e-001  -1.1411606332e-001   8.3661358973e-003
  7.1080000000e+010   9.6588402411e-003  -5.0548390217e-002  -9.8603496864e-002   3.4549415276e-001  -1.0908072410e-001   3.4582031709e-001  -1.1110656778e-001   1.2137965703e-002
  7.1100000000e+010   9.1976592851e-003  -5.0497798651e-002  -9.7884066976e-002   3.4556478180e-001  -1.0835665317e-001   3.4590785791e-001  -1.0799256163e-001   1.5843647140e-002
  7.1120000000e+010   8.7338195955e-003  -5.0434954874e-002  -9.7151245601e-002   3.4563332725e-001  -1.0761880369e-001   3.4599360808e-001  -1.0477731190e-001   1.9478762565e-002
  7.1140000000e+010   8.2674484564e-003  -5.0359772119e-002  -9.6405093205e-002   3.4569974323e-001  -1.0686723419e-001   3.4607751874e-001  -1.0146423921e-001   2.3038996727e-002
  7.1160000000e+010   7.7986817035e-003  -5.0272173323e-002  -9.5645671299e-002   3.4576398388e-001  -1.0610200432e-001   3.4615954095e-001  -9.8056913536e-002   2.6520143389e-002
  7.1180000000e+010   7.3276636200e-003  -5.0172091323e-002  -9.4873042428e-002   3.4582600335e-001  -1.0532317476e-001   3.4623962568e-001  -9.4559049649e-002   2.9918111809e-002
  7.1200000000e+010   6.8545468155e-003  -5.0059469036e-002  -9.4087270161e-002   3.4588575577e-001  -1.0453080725e-001   3.4631772389e-001  -9.0974502413e-002   3.3228933061e-002
  7.1220000000e+010   6.3794920917e-003  -4.9934259644e-002  -9.3288419079e-002   3.4594319533e-001  -1.0372496459e-001   3.4639378645e-001  -8.7307261763e-002   3.6448766176e-002
  7.1240000000e+010   5.9026682915e-003  -4.9796426757e-002  -9.2476554762e-002   3.4599827623e-001  -1.0290571061e-001   3.4646776421e-001  -8.3561447470e-002   3.9573904117e-002
  7.1260000000e+010   5.4242521347e-003  -4.9645944581e-002  -9.1651743783e-002   3.4605095271e-001  -1.0207311015e-001   3.4653960800e-001  -7.9741303672e-002   4.2600779553e-002
  7.1280000000e+010   4.9444280377e-003  -4.9482798066e-002  -9.0814053688e-002   3.4610117906e-001  -1.0122722908e-001   3.4660926862e-001  -7.5851193179e-002   4.5525970432e-002
  7.1300000000e+010   4.4633879199e-003  -4.9306983055e-002  -8.9963552992e-002   3.4614890963e-001  -1.0036813427e-001   3.4667669686e-001  -7.1895591567e-002   4.8346205346e-002
  7.1320000000e+010   3.9813309950e-003  -4.9118506410e-002  -8.9100311163e-002   3.4619409884e-001  -9.9495893568e-002   3.4674184350e-001  -6.7879081059e-002   5.1058368674e-002
  7.1340000000e+010   3.4984635486e-003  -4.8917386146e-002  -8.8224398610e-002   3.4623670117e-001  -9.8610575812e-002   3.4680465933e-001  -6.3806344215e-002   5.3659505495e-002
  7.1360000000e+010   3.0149987022e-003  -4.8703651537e-002  -8.7335886670e-002   3.4627667118e-001  -9.7712250803e-002   3.4686509517e-001  -5.9682157425e-002   5.6146826263e-002
  7.1380000000e+010   2.5311561631e-003  -4.8477343223e-002  -8.6434847602e-002   3.4631396352e-001  -9.6800989298e-002   3.4692310184e-001  -5.5511384230e-002   5.8517711231e-002
  7.1400000000e+010   2.0471619623e-003  -4.8238513303e-002  -8.5521354564e-002   3.4634853296e-001  -9.5876863000e-002   3.4697863021e-001  -5.1298968467e-002   6.0769714622e-002
  7.1420000000e+010   1.5632481777e-003  -4.7987225415e-002  -8.4595481610e-002   3.4638033433e-001  -9.4939944543e-002   3.4703163118e-001  -4.7049927260e-002   6.2900568544e-002
  7.1440000000e+010   1.0796526470e-003  -4.7723554806e-002  -8.3657303671e-002   3.4640932261e-001  -9.3990307480e-002   3.4708205569e-001  -4.2769343859e-002   6.4908186616e-002
  7.1460000000e+010   5.9661866668e-004  -4.7447588388e-002  -8.2706896548e-002   3.4643545287e-001  -9.3028026275e-002   3.4712985476e-001  -3.8462360344e-002   6.6790667337e-002
  7.1480000000e+010   1.1439468001e-004  -4.7159424787e-002  -8.1744336894e-002   3.4645868032e-001  -9.2053176285e-002   3.4717497946e-001  -3.4134170199e-002   6.8546297159e-002
  7.1500000000e+010  -3.6676604611e-004  -4.6859174375e-002  -8.0769702201e-002   3.4647896030e-001  -9.1065833751e-002   3.4721738091e-001  -2.9790010775e-002   7.0173553273e-002
  7.1520000000e+010  -8.4660575557e-004  -4.6546959288e-002  -7.9783070793e-002   3.4649624830e-001  -9.0066075788e-002   3.4725701035e-001  -2.5435155647e-002   7.1671106097e-002
  7.1540000000e+010  -1.3248625477e-003  -4.6222913438e-002  -7.8784521806e-002   3.4651049994e-001  -8.9053980367e-002   3.4729381907e-001  -2.1074906878e-002   7.3037821470e-002
  7.1560000000e+010  -1.8012707320e-003  -4.5887182502e-002  -7.7774135179e-002   3.4652167099e-001  -8.8029626306e-002   3.4732775849e-001  -1.6714587208e-002   7.4272762535e-002
  7.1580000000e+010  -2.2755611921e-003  -4.5539923908e-002  -7.6751991638e-002   3.4652971739e-001  -8.6993093256e-002   3.4735878009e-001  -1.2359532172e-002   7.5375191312e-002
  7.1600000000e+010  -2.7474617588e-003  -4.5181306800e-002  -7.5718172685e-002   3.4653459525e-001  -8.5944461689e-002   3.4738683550e-001  -8.0150821698e-003   7.6344569964e-002
  7.1620000000e+010  -3.2166975918e-003  -4.4811511994e-002  -7.4672760583e-002   3.4653626084e-001  -8.4883812886e-002   3.4741187642e-001  -3.6865744829e-003   7.7180561739e-002
  7.1640000000e+010  -3.6829915686e-003  -4.4430731912e-002  -7.3615838345e-002   3.4653467062e-001  -8.3811228922e-002   3.4743385472e-001   6.2066472576e-004   7.7883031600e-002
  7.1660000000e+010  -4.1460646817e-003  -4.4039170516e-002  -7.2547489714e-002   3.4652978121e-001  -8.2726792654e-002   3.4745272237e-001   4.9013284348e-003   7.8452046531e-002
  7.1680000000e+010  -4.6056364413e-003  -4.3637043212e-002  -7.1467799159e-002   3.4652154946e-001  -8.1630587709e-002   3.4746843148e-001   9.1501367890e-003   7.8887875522e-002
  7.1700000000e+010  -5.0614252857e-003  -4.3224576754e-002  -7.0376851852e-002   3.4650993238e-001  -8.0522698469e-002   3.4748093430e-001   1.3361845113e-002   7.9190989227e-002
  7.1720000000e+010  -5.5131489954e-003  -4.2802009120e-002  -6.9274733661e-002   3.4649488719e-001  -7.9403210060e-002   3.4749018324e-001   1.7531251904e-002   7.9362059305e-002
  7.1740000000e+010  -5.9605251139e-003  -4.2369589387e-002  -6.8161531132e-002   3.4647637132e-001  -7.8272208336e-002   3.4749613086e-001   2.1653206784e-002   7.9401957431e-002
  7.1760000000e+010  -6.4032713717e-003  -4.1927577581e-002  -6.7037331478e-002   3.4645434242e-001  -7.7129779868e-002   3.4749872988e-001   2.5722618408e-002   7.9311753987e-002
  7.1780000000e+010  -6.8411061142e-003  -4.1476244517e-002  -6.5902222563e-002   3.4642875833e-001  -7.5976011932e-002   3.4749793317e-001   2.9734462307e-002   7.9092716432e-002
  7.1800000000e+010  -7.2737487329e-003  -4.1015871625e-002  -6.4756292890e-002   3.4639957715e-001  -7.4810992491e-002   3.4749369382e-001   3.3683788652e-002   7.8746307348e-002
  7.1820000000e+010  -7.7009200984e-003  -4.0546750761e-002  -6.3599631585e-002   3.4636675716e-001  -7.3634810187e-002   3.4748596504e-001   3.7565729937e-002   7.8274182171e-002
  7.1840000000e+010  -8.1223429960e-003  -4.0069184000e-002  -6.2432328386e-002   3.4633025692e-001  -7.2447554322e-002   3.4747470026e-001   4.1375508554e-002   7.7678186609e-002
  7.1860000000e+010  -8.5377425612e-003  -3.9583483422e-002  -6.1254473624e-002   3.4629003518e-001  -7.1249314851e-002   3.4745985310e-001   4.5108444257e-002   7.6960353740e-002
  7.1880000000e+010  -8.9468467167e-003  -3.9089970875e-002  -6.0066158215e-002   3.4624605096e-001  -7.0040182363e-002   3.4744137736e-001   4.8759961497e-002   7.6122900815e-002
  7.1900000000e+010  -9.3493866080e-003  -3.8588977732e-002  -5.8867473642e-002   3.4619826351e-001  -6.8820248070e-002   3.4741922706e-001   5.2325596618e-002   7.5168225743e-002
  7.1920000000e+010  -9.7450970388e-003  -3.8080844627e-002  -5.7658511943e-002   3.4614663234e-001  -6.7589603793e-002   3.4739335639e-001   5.5801004906e-002   7.4098903290e-002
  7.1940000000e+010  -1.0133716904e-002  -3.7565921181e-002  -5.6439365696e-002   3.4609111719e-001  -6.6348341949e-002   3.4736371980e-001   5.9181967462e-002   7.2917680977e-002
  7.1960000000e+010  -1.0514989622e-002  -3.7044565715e-002  -5.5210128003e-002   3.4603167807e-001  -6.5096555537e-002   3.4733027191e-001   6.2464397915e-002   7.1627474691e-002
  7.1980000000e+010  -1.0888663561e-002  -3.6517144945e-002  -5.3970892482e-002   3.4596827525e-001  -6.3834338124e-002   3.4729296759e-001   6.5644348934e-002   7.0231364026e-002
  7.2000000000e+010  -1.1254492462e-002  -3.5984033669e-002  -5.2721753245e-002   3.4590086927e-001  -6.2561783834e-002   3.4725176191e-001   6.8718018549e-002   6.8732587333e-002
  7.2020000000e+010  -1.1612235865e-002  -3.5445614436e-002  -5.1462804892e-002   3.4582942090e-001  -6.1278987331e-002   3.4720661019e-001   7.1681756259e-002   6.7134536517e-002
  7.2040000000e+010  -1.1961659514e-002  -3.4902277205e-002  -5.0194142490e-002   3.4575389122e-001  -5.9986043806e-002   3.4715746798e-001   7.4532068919e-002   6.5440751575e-002
  7.2060000000e+010  -1.2302535773e-002  -3.4354418993e-002  -4.8915861563e-002   3.4567424157e-001  -5.8683048966e-002   3.4710429104e-001   7.7265626398e-002   6.3654914873e-002
  7.2080000000e+010  -1.2634644026e-002  -3.3802443505e-002  -4.7628058079e-002   3.4559043354e-001  -5.7370099019e-002   3.4704703542e-001   7.9879266992e-002   6.1780845198e-002
  7.2100000000e+010  -1.2957771072e-002  -3.3246760760e-002  -4.6330828431e-002   3.4550242904e-001  -5.6047290660e-002   3.4698565736e-001   8.2370002591e-002   5.9822491565e-002
  7.2120000000e+010  -1.3271711511e-002  -3.2687786696e-002  -4.5024269431e-002   3.4541019021e-001  -5.4714721058e-002   3.4692011340e-001   8.4735023578e-002   5.7783926809e-002
  7.2140000000e+010  -1.3576268127e-002  -3.2125942773e-002  -4.3708478287e-002   3.4531367952e-001  -5.3372487842e-002   3.4685036029e-001   8.6971703467e-002   5.5669340965e-002
  7.2160000000e+010  -1.3871252253e-002  -3.1561655557e-002  -4.2383552596e-002   3.4521285969e-001  -5.2020689090e-002   3.4677635506e-001   8.9077603257e-002   5.3483034440e-002
