# Hz S RI R 1.000000
! Metas.Vna.Tools, 2.4.7898.19887
! Metas.Vna.Data, 2.4.7898.19873
! Created: UTC 2021.09.30 14:31:00
! FREQ                re:S1,1             im:S1,1             re:S2,1             im:S2,1             re:S1,2             im:S1,2             re:S2,2             im:S2,2          
  7.0000000000e+010   3.6766861521e-002   3.0844187536e-002   4.1522698386e-001   4.6810375770e-001   4.0219925846e-001   4.8359681358e-001  -2.2257014992e-002  -1.7800769440e-002
  7.0020000000e+010   3.6734838247e-002   2.9811509977e-002   4.1546594658e-001   4.6855209756e-001   4.0242539793e-001   4.8405606049e-001  -2.2863260362e-002  -1.7588822868e-002
  7.0040000000e+010   3.6690847824e-002   2.8765183806e-002   4.1572146348e-001   4.6897175344e-001   4.0266899777e-001   4.8448697598e-001  -2.3457118572e-002  -1.7348106528e-002
  7.0060000000e+010   3.6634607967e-002   2.7705732972e-002   4.1599347906e-001   4.6936262187e-001   4.0293000541e-001   4.8488945416e-001  -2.4037704098e-002  -1.7078782392e-002
  7.0080000000e+010   3.6565845377e-002   2.6633696554e-002   4.1628193439e-001   4.6972460167e-001   4.0320836481e-001   4.8526339138e-001  -2.4604137861e-002  -1.6781050257e-002
  7.0100000000e+010   3.6484296223e-002   2.5549628358e-002   4.1658676713e-001   4.7005759407e-001   4.0350401643e-001   4.8560868628e-001  -2.5155548614e-002  -1.6455147714e-002
  7.0120000000e+010   3.6389706607e-002   2.4454096479e-002   4.1690791155e-001   4.7036150267e-001   4.0381689726e-001   4.8592523980e-001  -2.5691074318e-002  -1.6101350069e-002
  7.0140000000e+010   3.6281833027e-002   2.3347682848e-002   4.1724529855e-001   4.7063623350e-001   4.0414694083e-001   4.8621295520e-001  -2.6209863523e-002  -1.5719970198e-002
  7.0160000000e+010   3.6160442827e-002   2.2230982771e-002   4.1759885569e-001   4.7088169504e-001   4.0449407724e-001   4.8647173813e-001  -2.6711076745e-002  -1.5311358346e-002
  7.0180000000e+010   3.6025314632e-002   2.1104604426e-002   4.1796850717e-001   4.7109779826e-001   4.0485823316e-001   4.8670149660e-001  -2.7193887833e-002  -1.4875901873e-002
  7.0200000000e+010   3.5876238782e-002   1.9969168366e-002   4.1835417389e-001   4.7128445661e-001   4.0523933185e-001   4.8690214104e-001  -2.7657485335e-002  -1.4414024938e-002
  7.0220000000e+010   3.5713017745e-002   1.8825306986e-002   4.1875577344e-001   4.7144158610e-001   4.0563729319e-001   4.8707358433e-001  -2.8101073844e-002  -1.3926188123e-002
  7.0240000000e+010   3.5535466515e-002   1.7673663984e-002   4.1917322015e-001   4.7156910528e-001   4.0605203370e-001   4.8721574182e-001  -2.8523875341e-002  -1.3412888007e-002
  7.0260000000e+010   3.5343413008e-002   1.6514893798e-002   4.1960642506e-001   4.7166693528e-001   4.0648346654e-001   4.8732853135e-001  -2.8925130517e-002  -1.2874656674e-002
  7.0280000000e+010   3.5136698433e-002   1.5349661030e-002   4.2005529602e-001   4.7173499985e-001   4.0693150156e-001   4.8741187327e-001  -2.9304100076e-002  -1.2312061171e-002
  7.0300000000e+010   3.4915177655e-002   1.4178639855e-002   4.2051973762e-001   4.7177322537e-001   4.0739604530e-001   4.8746569049e-001  -2.9660066029e-002  -1.1725702904e-002
  7.0320000000e+010   3.4678719537e-002   1.3002513413e-002   4.2099965130e-001   4.7178154086e-001   4.0787700103e-001   4.8748990849e-001  -2.9992332949e-002  -1.1116216984e-002
  7.0340000000e+010   3.4427207269e-002   1.1821973186e-002   4.2149493532e-001   4.7175987803e-001   4.0837426873e-001   4.8748445533e-001  -3.0300229220e-002  -1.0484271510e-002
  7.0360000000e+010   3.4160538684e-002   1.0637718364e-002   4.2200548478e-001   4.7170817129e-001   4.0888774519e-001   4.8744926169e-001  -3.0583108249e-002  -9.8305668069e-003
  7.0380000000e+010   3.3878626551e-002   9.4504551951e-003   4.2253119170e-001   4.7162635778e-001   4.0941732395e-001   4.8738426091e-001  -3.0840349649e-002  -9.1558345997e-003
  7.0400000000e+010   3.3581398853e-002   8.2608963263e-003   4.2307194497e-001   4.7151437737e-001   4.0996289541e-001   4.8728938897e-001  -3.1071360400e-002  -8.4608371430e-003
  7.0420000000e+010   3.3268799049e-002   7.0697601282e-003   4.2362763045e-001   4.7137217271e-001   4.1052434676e-001   4.8716458455e-001  -3.1275575966e-002  -7.7463662947e-003
  7.0440000000e+010   3.2940786312e-002   5.8777700129e-003   4.2419813094e-001   4.7119968924e-001   4.1110156210e-001   4.8700978902e-001  -3.1452461391e-002  -7.0132425402e-003
  7.0460000000e+010   3.2597335755e-002   4.6856537394e-003   4.2478332625e-001   4.7099687520e-001   4.1169442241e-001   4.8682494650e-001  -3.1601512342e-002  -6.2623139666e-003
  7.0480000000e+010   3.2238438632e-002   3.4941427107e-003   4.2538309318e-001   4.7076368167e-001   4.1230280558e-001   4.8661000384e-001  -3.1722256127e-002  -5.4944551901e-003
  7.0500000000e+010   3.1864102523e-002   2.3039712614e-003   4.2599730561e-001   4.7050006257e-001   4.1292658648e-001   4.8636491068e-001  -3.1814252665e-002  -4.7105662352e-003
  7.0520000000e+010   3.1474351497e-002   1.1158759387e-003   4.2662583446e-001   4.7020597467e-001   4.1356563693e-001   4.8608961942e-001  -3.1877095419e-002  -3.9115713699e-003
  7.0540000000e+010   3.1069226252e-002  -6.9405225396e-005   4.2726854780e-001   4.6988137766e-001   4.1421982577e-001   4.8578408530e-001  -3.1910412275e-002  -3.0984178963e-003
  7.0560000000e+010   3.0648784239e-002  -1.2511334457e-003   4.2792531080e-001   4.6952623411e-001   4.1488901889e-001   4.8544826636e-001  -3.1913866386e-002  -2.2720749002e-003
  7.0580000000e+010   3.0213099764e-002  -2.4285699227e-003   4.2859598583e-001   4.6914050951e-001   4.1557307924e-001   4.8508212351e-001  -3.1887156961e-002  -1.4335319594e-003
  7.0600000000e+010   2.9762264064e-002  -3.6009765846e-003   4.2928043242e-001   4.6872417228e-001   4.1627186686e-001   4.8468562049e-001  -3.1830020006e-002  -5.8379781424e-004
  7.0620000000e+010   2.9296385367e-002  -4.7676168335e-003   4.2997850737e-001   4.6827719382e-001   4.1698523896e-001   4.8425872395e-001  -3.1742229018e-002   2.7610099874e-004
  7.0640000000e+010   2.8815588927e-002  -5.9277562938e-003   4.3069006474e-001   4.6779954846e-001   4.1771304987e-001   4.8380140342e-001  -3.1623595617e-002   1.1451215477e-003
  7.0660000000e+010   2.8320017034e-002  -7.0806635629e-003   4.3141495586e-001   4.6729121354e-001   4.1845515116e-001   4.8331363133e-001  -3.1473970137e-002   2.0222059391e-003
  7.0680000000e+010   2.7809829013e-002  -8.2256109618e-003   4.3215302944e-001   4.6675216938e-001   4.1921139160e-001   4.8279538307e-001  -3.1293242148e-002   2.9062827820e-003
  7.0700000000e+010   2.7285201184e-002  -9.3618752866e-003   4.3290413151e-001   4.6618239933e-001   4.1998161725e-001   4.8224663694e-001  -3.1081340933e-002   3.7962686802e-003
  7.0720000000e+010   2.6746326815e-002  -1.0488738558e-002   4.3366810553e-001   4.6558188972e-001   4.2076567145e-001   4.8166737420e-001  -3.0838235900e-002   4.6910697514e-003
  7.0740000000e+010   2.6193416043e-002  -1.1605488772e-002   4.3444479239e-001   4.6495062997e-001   4.2156339489e-001   4.8105757909e-001  -3.0563936938e-002   5.5895831697e-003
  7.0760000000e+010   2.5626695775e-002  -1.2711420639e-002   4.3523403046e-001   4.6428861250e-001   4.2237462564e-001   4.8041723882e-001  -3.0258494712e-002   6.4906987300e-003
  7.0780000000e+010   2.5046409567e-002  -1.3805836334e-002   4.3603565562e-001   4.6359583282e-001   4.2319919916e-001   4.7974634360e-001  -2.9922000899e-002   7.3933004312e-003
  7.0800000000e+010   2.4452817482e-002  -1.4888046225e-002   4.3684950128e-001   4.6287228949e-001   4.2403694836e-001   4.7904488664e-001  -2.9554588363e-002   8.2962680770e-003
  7.0820000000e+010   2.3846195919e-002  -1.5957369612e-002   4.3767539846e-001   4.6211798415e-001   4.2488770365e-001   4.7831286418e-001  -2.9156431262e-002   9.1984788908e-003
  7.0840000000e+010   2.3226837431e-002  -1.7013135444e-002   4.3851317578e-001   4.6133292153e-001   4.2575129292e-001   4.7755027546e-001  -2.8727745099e-002   1.0098809142e-002
  7.0860000000e+010   2.2595050506e-002  -1.8054683044e-002   4.3936265952e-001   4.6051710946e-001   4.2662754165e-001   4.7675712279e-001  -2.8268786707e-002   1.0996135781e-002
  7.0880000000e+010   2.1951159341e-002  -1.9081362811e-002   4.4022367369e-001   4.5967055887e-001   4.2751627292e-001   4.7593341149e-001  -2.7779854169e-002   1.1889338087e-002
  7.0900000000e+010   2.1295503580e-002  -2.0092536925e-002   4.4109604001e-001   4.5879328380e-001   4.2841730741e-001   4.7507914995e-001  -2.7261286676e-002   1.2777299306e-002
  7.0920000000e+010   2.0628438044e-002  -2.1087580034e-002   4.4197957798e-001   4.5788530141e-001   4.2933046352e-001   4.7419434964e-001  -2.6713464321e-002   1.3658908309e-002
  7.0940000000e+010   1.9950332425e-002  -2.2065879931e-002   4.4287410492e-001   4.5694663198e-001   4.3025555732e-001   4.7327902507e-001  -2.6136807823e-002   1.4533061235e-002
  7.0960000000e+010   1.9261570974e-002  -2.3026838225e-002   4.4377943601e-001   4.5597729893e-001   4.3119240266e-001   4.7233319384e-001  -2.5531778195e-002   1.5398663136e-002
  7.0980000000e+010   1.8562552152e-002  -2.3969870991e-002   4.4469538434e-001   4.5497732880e-001   4.3214081119e-001   4.7135687662e-001  -2.4898876342e-002   1.6254629612e-002
  7.1000000000e+010   1.7853688277e-002  -2.4894409411e-002   4.4562176092e-001   4.5394675127e-001   4.3310059237e-001   4.7035009719e-001  -2.4238642597e-002   1.7099888447e-002
  7.1020000000e+010   1.7135405136e-002  -2.5799900400e-002   4.4655837475e-001   4.5288559919e-001   4.3407155356e-001   4.6931288241e-001  -2.3551656191e-002   1.7933381219e-002
  7.1040000000e+010   1.6408141587e-002  -2.6685807216e-002   4.4750503285e-001   4.5179390850e-001   4.3505350003e-001   4.6824526223e-001  -2.2838534664e-002   1.8754064908e-002
  7.1060000000e+010   1.5672349136e-002  -2.7551610055e-002   4.4846154031e-001   4.5067171834e-001   4.3604623501e-001   4.6714726969e-001  -2.2099933210e-002   1.9560913479e-002
  7.1080000000e+010   1.4928491501e-002  -2.8396806626e-002   4.4942770032e-001   4.4951907097e-001   4.3704955973e-001   4.6601894097e-001  -2.1336543959e-002   2.0352919453e-002
  7.1100000000e+010   1.4177044148e-002  -2.9220912714e-002   4.5040331422e-001   4.4833601180e-001   4.3806327347e-001   4.6486031532e-001  -2.0549095198e-002   2.1129095447e-002
  7.1120000000e+010   1.3418493822e-002  -3.0023462717e-002   4.5138818154e-001   4.4712258939e-001   4.3908717359e-001   4.6367143510e-001  -1.9738350538e-002   2.1888475698e-002
  7.1140000000e+010   1.2653338045e-002  -3.0804010171e-002   4.5238210006e-001   4.4587885546e-001   4.4012105561e-001   4.6245234579e-001  -1.8905108009e-002   2.2630117553e-002
  7.1160000000e+010   1.1882084615e-002  -3.1562128250e-002   4.5338486583e-001   4.4460486487e-001   4.4116471318e-001   4.6120309597e-001  -1.8050199107e-002   2.3353102937e-002
  7.1180000000e+010   1.1105251071e-002  -3.2297410249e-002   4.5439627321e-001   4.4330067562e-001   4.4221793821e-001   4.5992373733e-001  -1.7174487782e-002   2.4056539777e-002
  7.1200000000e+010   1.0323364154e-002  -3.3009470042e-002   4.5541611495e-001   4.4196634886e-001   4.4328052085e-001   4.5861432465e-001  -1.6278869363e-002   2.4739563404e-002
  7.1220000000e+010   9.5369592504e-003  -3.3697942521e-002   4.5644418218e-001   4.4060194887e-001   4.4435224957e-001   4.5727491583e-001  -1.5364269436e-002   2.5401337911e-002
  7.1240000000e+010   8.7465798197e-003  -3.4362484011e-002   4.5748026453e-001   4.3920754308e-001   4.4543291118e-001   4.5590557187e-001  -1.4431642666e-002   2.6041057472e-002
  7.1260000000e+010   7.9527768075e-003  -3.5002772664e-002   4.5852415008e-001   4.3778320205e-001   4.4652229090e-001   4.5450635686e-001  -1.3481971568e-002   2.6657947622e-002
  7.1280000000e+010   7.1561080487e-003  -3.5618508827e-002   4.5957562549e-001   4.3632899946e-001   4.4762017237e-001   4.5307733799e-001  -1.2516265225e-002   2.7251266487e-002
  7.1300000000e+010   6.3571376561e-003  -3.6209415383e-002   4.6063447599e-001   4.3484501209e-001   4.4872633775e-001   4.5161858554e-001  -1.1535557962e-002   2.7820305977e-002
  7.1320000000e+010   5.5564353986e-003  -3.6775238077e-002   4.6170048545e-001   4.3333131989e-001   4.4984056770e-001   4.5013017287e-001  -1.0540907970e-002   2.8364392925e-002
  7.1340000000e+010   4.7545760678e-003  -3.7315745802e-002   4.6277343643e-001   4.3178800585e-001   4.5096264149e-001   4.4861217643e-001  -9.5333958882e-003   2.8882890173e-002
  7.1360000000e+010   3.9521388359e-003  -3.7830730878e-002   4.6385311020e-001   4.3021515611e-001   4.5209233698e-001   4.4706467571e-001  -8.5141233431e-003   2.9375197613e-002
  7.1380000000e+010   3.1497066029e-003  -3.8320009283e-002   4.6493928682e-001   4.2861285988e-001   4.5322943072e-001   4.4548775332e-001  -7.4842114454e-003   2.9840753169e-002
  7.1400000000e+010   2.3478653372e-003  -3.8783420879e-002   4.6603174513e-001   4.2698120946e-001   4.5437369797e-001   4.4388149488e-001  -6.4447992505e-003   3.0279033723e-002
  7.1420000000e+010   1.5472034069e-003  -3.9220829596e-002   4.6713026287e-001   4.2532030019e-001   4.5552491276e-001   4.4224598908e-001  -5.3970421829e-003   3.0689555986e-002
  7.1440000000e+010   7.4831090617e-004  -3.9632123594e-002   4.6823461667e-001   4.2363023052e-001   4.5668284791e-001   4.4058132765e-001  -4.3421104259e-003   3.1071877308e-002
  7.1460000000e+010  -4.8221025450e-005  -4.0017215399e-002   4.6934458212e-001   4.2191110192e-001   4.5784727512e-001   4.3888760535e-001  -3.2811872813e-003   3.1425596423e-002
  7.1480000000e+010  -8.4180088786e-004  -4.0376042008e-002   4.7045993380e-001   4.2016301891e-001   4.5901796497e-001   4.3716491997e-001  -2.2154674995e-003   3.1750354143e-002
  7.1500000000e+010  -1.6318375097e-003  -4.0708564971e-002   4.7158044535e-001   4.1838608902e-001   4.6019468700e-001   4.3541337228e-001  -1.1461555833e-003   3.2045833972e-002
  7.1520000000e+010  -2.4177407403e-003  -4.1014770438e-002   4.7270588950e-001   4.1658042281e-001   4.6137720973e-001   4.3363306609e-001  -7.4464068484e-005   3.2311762673e-002
  7.1540000000e+010  -3.1989221448e-003  -4.1294669185e-002   4.7383603810e-001   4.1474613384e-001   4.6256530073e-001   4.3182410816e-001   9.9838821708e-004   3.2547910751e-002
  7.1560000000e+010  -3.9747956991e-003  -4.1548296602e-002   4.7497066221e-001   4.1288333865e-001   4.6375872667e-001   4.2998660824e-001   2.0711779128e-003   3.2754092884e-002
  7.1580000000e+010  -4.7447784868e-003  -4.1775712668e-002   4.7610953210e-001   4.1099215674e-001   4.6495725332e-001   4.2812067905e-001   3.1426789001e-003   3.2930168276e-002
  7.1600000000e+010  -5.5082913946e-003  -4.1977001879e-002   4.7725241733e-001   4.0907271058e-001   4.6616064567e-001   4.2622643623e-001   4.2116640905e-003   3.3076040942e-002
  7.1620000000e+010  -6.2647598066e-003  -4.2152273162e-002   4.7839908678e-001   4.0712512557e-001   4.6736866792e-001   4.2430399838e-001   5.2769072239e-003   3.3191659929e-002
  7.1640000000e+010  -7.0136142965e-003  -4.2301659752e-002   4.7954930870e-001   4.0514953004e-001   4.6858108353e-001   4.2235348700e-001   6.3371846734e-003   3.3277019462e-002
  7.1660000000e+010  -7.7542913160e-003  -4.2425319046e-002   4.8070285075e-001   4.0314605522e-001   4.6979765530e-001   4.2037502649e-001   7.3912772556e-003   3.3332159017e-002
  7.1680000000e+010  -8.4862338795e-003  -4.2523432426e-002   4.8185948005e-001   4.0111483523e-001   4.7101814540e-001   4.1836874413e-001   8.4379720422e-003   3.3357163329e-002
  7.1700000000e+010  -9.2088922436e-003  -4.2596205051e-002   4.8301896323e-001   3.9905600705e-001   4.7224231541e-001   4.1633477009e-001   9.4760641699e-003   3.3352162321e-002
  7.1720000000e+010  -9.9217245802e-003  -4.2643865631e-002   4.8418106648e-001   3.9696971052e-001   4.7346992636e-001   4.1427323735e-001   1.0504358647e-002   3.3317330967e-002
  7.1740000000e+010  -1.0624197643e-002  -4.2666666160e-002   4.8534555559e-001   3.9485608830e-001   4.7470073880e-001   4.1218428177e-001   1.1521672150e-002   3.3252889083e-002
  7.1760000000e+010  -1.1315787428e-002  -4.2664881630e-002   4.8651219597e-001   3.9271528586e-001   4.7593451284e-001   4.1006804198e-001   1.2526834818e-002   3.3159101039e-002
  7.1780000000e+010  -1.1995979818e-002  -4.2638809717e-002   4.8768075275e-001   3.9054745145e-001   4.7717100817e-001   4.0792465941e-001   1.3518692023e-002   3.3036275410e-002
  7.1800000000e+010  -1.2664271231e-002  -4.2588770438e-002   4.8885099078e-001   3.8835273612e-001   4.7840998415e-001   4.0575427828e-001   1.4496106132e-002   3.2884764546e-002
  7.1820000000e+010  -1.3320169242e-002  -4.2515105783e-002   4.9002267470e-001   3.8613129362e-001   4.7965119981e-001   4.0355704555e-001   1.5457958249e-002   3.2704964080e-002
  7.1840000000e+010  -1.3963193208e-002  -4.2418179319e-002   4.9119556897e-001   3.8388328045e-001   4.8089441394e-001   4.0133311092e-001   1.6403149935e-002   3.2497312357e-002
  7.1860000000e+010  -1.4592874869e-002  -4.2298375771e-002   4.9236943792e-001   3.8160885580e-001   4.8213938510e-001   3.9908262677e-001   1.7330604903e-002   3.2262289799e-002
  7.1880000000e+010  -1.5208758944e-002  -4.2156100575e-002   4.9354404579e-001   3.7930818153e-001   4.8338587170e-001   3.9680574820e-001   1.8239270687e-002   3.2000418203e-002
  7.1900000000e+010  -1.5810403711e-002  -4.1991779407e-002   4.9471915680e-001   3.7698142216e-001   4.8463363199e-001   3.9450263296e-001   1.9128120277e-002   3.1712259960e-002
  7.1920000000e+010  -1.6397381567e-002  -4.1805857693e-002   4.9589453517e-001   3.7462874482e-001   4.8588242419e-001   3.9217344143e-001   1.9996153730e-002   3.1398417223e-002
  7.1940000000e+010  -1.6969279584e-002  -4.1598800082e-002   4.9706994515e-001   3.7225031927e-001   4.8713200644e-001   3.8981833663e-001   2.0842399731e-002   3.1059530998e-002
  7.1960000000e+010  -1.7525700036e-002  -4.1371089914e-002   4.9824515110e-001   3.6984631780e-001   4.8838213693e-001   3.8743748415e-001   2.1665917135e-002   3.0696280171e-002
  7.1980000000e+010  -1.8066260915e-002  -4.1123228650e-002   4.9941991753e-001   3.6741691529e-001   4.8963257388e-001   3.8503105216e-001   2.2465796449e-002   3.0309380476e-002
  7.2000000000e+010  -1.8590596433e-002  -4.0855735288e-002   5.0059400910e-001   3.6496228911e-001   4.9088307562e-001   3.8259921135e-001   2.3241161281e-002   2.9899583402e-002
  7.2020000000e+010  -1.9098357499e-002  -4.0569145759e-002   5.0176719072e-001   3.6248261914e-001   4.9213340064e-001   3.8014213496e-001   2.3991169747e-002   2.9467675035e-002
  7.2040000000e+010  -1.9589212176e-002  -4.0264012294e-002   5.0293922756e-001   3.5997808772e-001   4.9338330760e-001   3.7765999869e-001   2.4715015815e-002   2.9014474842e-002
  7.2060000000e+010  -2.0062846129e-002  -3.9940902785e-002   5.0410988510e-001   3.5744887963e-001   4.9463255541e-001   3.7515298071e-001   2.5411930614e-002   2.8540834404e-002
  7.2080000000e+010  -2.0518963038e-002  -3.9600400113e-002   5.0527892918e-001   3.5489518205e-001   4.9588090323e-001   3.7262126162e-001   2.6081183677e-002   2.8047636090e-002
  7.2100000000e+010  -2.0957284998e-002  -3.9243101467e-002   5.0644612601e-001   3.5231718454e-001   4.9712811058e-001   3.7006502444e-001   2.6722084142e-002   2.7535791674e-002
  7.2120000000e+010  -2.1377552900e-002  -3.8869617644e-002   5.0761124227e-001   3.4971507901e-001   4.9837393732e-001   3.6748445454e-001   2.7333981882e-002   2.7006240913e-002
  7.2140000000e+010  -2.1779526780e-002  -3.8480572332e-002   5.0877404511e-001   3.4708905970e-001   4.9961814371e-001   3.6487973968e-001   2.7916268584e-002   2.6459950063e-002
  7.2160000000e+010  -2.2162986156e-002  -3.8076601374e-002   5.0993430219e-001   3.4443932312e-001   5.0086049049e-001   3.6225106989e-001   2.8468378765e-002   2.5897910360e-002
