# Hz S RI R 1.000000
! Metas.Vna.Tools, 2.4.7898.19887
! Metas.Vna.Data, 2.4.7898.19873
! Created: UTC 2021.09.30 14:31:00
! FREQ                re:S1,1             im:S1,1             re:S2,1             im:S2,1             re:S1,2             im:S1,2             re:S2,2             im:S2,2          
  7.0000000000e+010   4.7228426298e-002  -1.1088467242e-002  -1.1783484754e-001   1.3780681007e-001  -1.1995125454e-001   1.3763177440e-001   9.3988880270e-002  -3.0380485985e-002
  7.0020000000e+010   4.7641253726e-002  -1.2591571529e-002  -1.1785871920e-001   1.3783477021e-001  -1.1997774468e-001   1.3765896758e-001   9.1567426935e-002  -3.4104889865e-002
  7.0040000000e+010   4.8025557438e-002  -1.4077330141e-002  -1.1787610755e-001   1.3786518957e-001  -1.1999770939e-001   1.3768869394e-001   8.8993103042e-002  -3.7701505443e-002
  7.0060000000e+010   4.8381077616e-002  -1.5545167402e-002  -1.1788701184e-001   1.3789805778e-001  -1.2001114747e-001   1.3772094332e-001   8.6271980351e-002  -4.1164401802e-002
  7.0080000000e+010   4.8707578381e-002  -1.6994517966e-002  -1.1789143176e-001   1.3793336414e-001  -1.2001805818e-001   1.3775570518e-001   8.3410363912e-002  -4.4487924603e-002
  7.0100000000e+010   4.9004847944e-002  -1.8424827104e-002  -1.1788936745e-001   1.3797109757e-001  -1.2001844120e-001   1.3779296863e-001   8.0414779720e-002  -4.7666705130e-002
  7.0120000000e+010   4.9272698744e-002  -1.9835550991e-002  -1.1788081947e-001   1.3801124667e-001  -1.2001229666e-001   1.3783272238e-001   7.7291962002e-002  -5.0695668797e-002
  7.0140000000e+010   4.9510967564e-002  -2.1226156986e-002  -1.1786578881e-001   1.3805379968e-001  -1.1999962509e-001   1.3787495483e-001   7.4048840191e-002  -5.3570043098e-002
  7.0160000000e+010   4.9719515626e-002  -2.2596123915e-002  -1.1784427691e-001   1.3809874448e-001  -1.1998042749e-001   1.3791965398e-001   7.0692525586e-002  -5.6285364994e-002
  7.0180000000e+010   4.9898228663e-002  -2.3944942340e-002  -1.1781628563e-001   1.3814606864e-001  -1.1995470526e-001   1.3796680752e-001   6.7230297730e-002  -5.8837487712e-002
  7.0200000000e+010   5.0047016979e-002  -2.5272114832e-002  -1.1778181725e-001   1.3819575938e-001  -1.1992246025e-001   1.3801640276e-001   6.3669590542e-002  -6.1222586966e-002
  7.0220000000e+010   5.0165815476e-002  -2.6577156236e-002  -1.1774087451e-001   1.3824780360e-001  -1.1988369472e-001   1.3806842669e-001   6.0017978207e-002  -6.3437166571e-002
  7.0240000000e+010   5.0254583672e-002  -2.7859593933e-002  -1.1769346056e-001   1.3830218788e-001  -1.1983841138e-001   1.3812286595e-001   5.6283160874e-002  -6.5478063448e-002
  7.0260000000e+010   5.0313305693e-002  -2.9118968098e-002  -1.1763957896e-001   1.3835889846e-001  -1.1978661334e-001   1.3817970687e-001   5.2472950165e-002  -6.7342452023e-002
  7.0280000000e+010   5.0341990240e-002  -3.0354831949e-002  -1.1757923374e-001   1.3841792129e-001  -1.1972830417e-001   1.3823893542e-001   4.8595254538e-002  -6.9027847993e-002
  7.0300000000e+010   5.0340670546e-002  -3.1566751997e-002  -1.1751242933e-001   1.3847924198e-001  -1.1966348784e-001   1.3830053726e-001   4.4658064525e-002  -7.0532111473e-002
  7.0320000000e+010   5.0309404300e-002  -3.2754308288e-002  -1.1743917058e-001   1.3854284585e-001  -1.1959216875e-001   1.3836449773e-001   4.0669437864e-002  -7.1853449514e-002
  7.0340000000e+010   5.0248273561e-002  -3.3917094639e-002  -1.1735946277e-001   1.3860871792e-001  -1.1951435173e-001   1.3843080187e-001   3.6637484571e-002  -7.2990417980e-002
  7.0360000000e+010   5.0157384644e-002  -3.5054718867e-002  -1.1727331161e-001   1.3867684290e-001  -1.1943004201e-001   1.3849943438e-001   3.2570351951e-002  -7.3941922796e-002
  7.0380000000e+010   5.0036867986e-002  -3.6166803019e-002  -1.1718072322e-001   1.3874720521e-001  -1.1933924527e-001   1.3857037966e-001   2.8476209608e-002  -7.4707220557e-002
  7.0400000000e+010   4.9886877997e-002  -3.7252983587e-002  -1.1708170413e-001   1.3881978899e-001  -1.1924196758e-001   1.3864362183e-001   2.4363234448e-002  -7.5285918507e-002
  7.0420000000e+010   4.9707592882e-002  -3.8312911725e-002  -1.1697626132e-001   1.3889457808e-001  -1.1913821544e-001   1.3871914468e-001   2.0239595728e-002  -7.5677973876e-002
  7.0440000000e+010   4.9499214452e-002  -3.9346253454e-002  -1.1686440215e-001   1.3897155605e-001  -1.1902799577e-001   1.3879693174e-001   1.6113440163e-002  -7.5883692589e-002
  7.0460000000e+010   4.9261967904e-002  -4.0352689863e-002  -1.1674613441e-001   1.3905070619e-001  -1.1891131588e-001   1.3887696622e-001   1.1992877117e-002  -7.5903727358e-002
  7.0480000000e+010   4.8996101590e-002  -4.1331917302e-002  -1.1662146628e-001   1.3913201151e-001  -1.1878818352e-001   1.3895923106e-001   7.8859639217e-003  -7.5739075131e-002
  7.0500000000e+010   4.8701886762e-002  -4.2283647572e-002  -1.1649040639e-001   1.3921545477e-001  -1.1865860681e-001   1.3904370893e-001   3.8006913190e-003  -7.5391073949e-002
  7.0520000000e+010   4.8379617296e-002  -4.3207608101e-002  -1.1635296374e-001   1.3930101844e-001  -1.1852259432e-001   1.3913038219e-001  -2.5503091423e-004  -7.4861399175e-002
  7.0540000000e+010   4.8029609399e-002  -4.4103542121e-002  -1.1620914775e-001   1.3938868477e-001  -1.1838015500e-001   1.3921923297e-001  -4.2733881595e-003  -7.4152059132e-002
  7.0560000000e+010   4.7652201296e-002  -4.4971208828e-002  -1.1605896824e-001   1.3947843571e-001  -1.1823129819e-001   1.3931024311e-001  -8.2466749282e-003  -7.3265390148e-002
  7.0580000000e+010   4.7247752893e-002  -4.5810383543e-002  -1.1590243542e-001   1.3957025301e-001  -1.1807603366e-001   1.3940339418e-001  -1.2167308593e-002  -7.2204051020e-002
  7.0600000000e+010   4.6816645433e-002  -4.6620857860e-002  -1.1573955992e-001   1.3966411812e-001  -1.1791437156e-001   1.3949866752e-001  -1.6027842853e-002  -7.0971016910e-002
  7.0620000000e+010   4.6359281116e-002  -4.7402439789e-002  -1.1557035274e-001   1.3976001230e-001  -1.1774632242e-001   1.3959604418e-001  -1.9820980909e-002  -6.9569572676e-002
  7.0640000000e+010   4.5876082718e-002  -4.8154953886e-002  -1.1539482529e-001   1.3985791654e-001  -1.1757189720e-001   1.3969550499e-001  -2.3539588327e-002  -6.8003305673e-002
  7.0660000000e+010   4.5367493178e-002  -4.8878241381e-002  -1.1521298936e-001   1.3995781161e-001  -1.1739110722e-001   1.3979703053e-001  -2.7176705570e-002  -6.6276098012e-002
  7.0680000000e+010   4.4833975178e-002  -4.9572160290e-002  -1.1502485713e-001   1.4005967805e-001  -1.1720396418e-001   1.3990060112e-001  -3.0725560163e-002  -6.4392118312e-002
  7.0700000000e+010   4.4276010695e-002  -5.0236585525e-002  -1.1483044117e-001   1.4016349618e-001  -1.1701048020e-001   1.4000619686e-001  -3.4179578492e-002  -6.2355812948e-002
  7.0720000000e+010   4.3694100547e-002  -5.0871408992e-002  -1.1462975442e-001   1.4026924610e-001  -1.1681066774e-001   1.4011379763e-001  -3.7532397200e-002  -6.0171896825e-002
  7.0740000000e+010   4.3088763914e-002  -5.1476539677e-002  -1.1442281020e-001   1.4037690768e-001  -1.1660453967e-001   1.4022338305e-001  -4.0777874162e-002  -5.7845343682e-002
  7.0760000000e+010   4.2460537845e-002  -5.2051903727e-002  -1.1420962221e-001   1.4048646061e-001  -1.1639210922e-001   1.4033493255e-001  -4.3910099031e-002  -5.5381375956e-002
  7.0780000000e+010   4.1809976750e-002  -5.2597444518e-002  -1.1399020452e-001   1.4059788434e-001  -1.1617338999e-001   1.4044842531e-001  -4.6923403319e-002  -5.2785454214e-002
  7.0800000000e+010   4.1137651876e-002  -5.3113122717e-002  -1.1376457157e-001   1.4071115814e-001  -1.1594839595e-001   1.4056384032e-001  -4.9812370017e-002  -5.0063266190e-002
  7.0820000000e+010   4.0444150770e-002  -5.3598916329e-002  -1.1353273816e-001   1.4082626109e-001  -1.1571714144e-001   1.4068115635e-001  -5.2571842718e-002  -4.7220715427e-002
  7.0840000000e+010   3.9730076719e-002  -5.4054820738e-002  -1.1329471945e-001   1.4094317204e-001  -1.1547964117e-001   1.4080035196e-001  -5.5196934244e-002  -4.4263909563e-002
  7.0860000000e+010   3.8996048191e-002  -5.4480848735e-002  -1.1305053098e-001   1.4106186968e-001  -1.1523591020e-001   1.4092140552e-001  -5.7683034746e-002  -4.1199148269e-002
  7.0880000000e+010   3.8242698247e-002  -5.4877030537e-002  -1.1280018863e-001   1.4118233252e-001  -1.1498596393e-001   1.4104429518e-001  -6.0025819283e-002  -3.8032910880e-002
  7.0900000000e+010   3.7470673945e-002  -5.5243413797e-002  -1.1254370861e-001   1.4130453886e-001  -1.1472981815e-001   1.4116899892e-001  -6.2221254848e-002  -3.4771843718e-002
  7.0920000000e+010   3.6680635741e-002  -5.5580063597e-002  -1.1228110752e-001   1.4142846685e-001  -1.1446748895e-001   1.4129549452e-001  -6.4265606841e-002  -3.1422747150e-002
  7.0940000000e+010   3.5873256861e-002  -5.5887062436e-002  -1.1201240227e-001   1.4155409446e-001  -1.1419899282e-001   1.4142375958e-001  -6.6155444980e-002  -2.7992562400e-002
  7.0960000000e+010   3.5049222672e-002  -5.6164510207e-002  -1.1173761014e-001   1.4168139947e-001  -1.1392434654e-001   1.4155377150e-001  -6.7887648630e-002  -2.4488358133e-002
  7.0980000000e+010   3.4209230045e-002  -5.6412524158e-002  -1.1145674872e-001   1.4181035953e-001  -1.1364356727e-001   1.4168550752e-001  -6.9459411553e-002  -2.0917316846e-002
  7.1000000000e+010   3.3353986697e-002  -5.6631238844e-002  -1.1116983594e-001   1.4194095210e-001  -1.1335667248e-001   1.4181894470e-001  -7.0868246064e-002  -1.7286721082e-002
  7.1020000000e+010   3.2484210528e-002  -5.6820806073e-002  -1.1087689008e-001   1.4207315449e-001  -1.1306367997e-001   1.4195405994e-001  -7.2111986591e-002  -1.3603939501e-002
  7.1040000000e+010   3.1600628955e-002  -5.6981394827e-002  -1.1057792973e-001   1.4220694388e-001  -1.1276460787e-001   1.4209082997e-001  -7.3188792630e-002  -9.8764128235e-003
  7.1060000000e+010   3.0703978228e-002  -5.7113191188e-002  -1.1027297378e-001   1.4234229726e-001  -1.1245947465e-001   1.4222923134e-001  -7.4097151094e-002  -6.1116396840e-003
  7.1080000000e+010   2.9795002741e-002  -5.7216398239e-002  -1.0996204148e-001   1.4247919151e-001  -1.1214829907e-001   1.4236924047e-001  -7.4835878055e-002  -2.3171624108e-003
  7.1100000000e+010   2.8874454339e-002  -5.7291235960e-002  -1.0964515236e-001   1.4261760335e-001  -1.1183110022e-001   1.4251083360e-001  -7.5404119872e-002   1.4994472357e-003
  7.1120000000e+010   2.7943091613e-002  -5.7337941107e-002  -1.0932232628e-001   1.4275750936e-001  -1.1150789750e-001   1.4265398684e-001  -7.5801353702e-002   5.3306023439e-003
  7.1140000000e+010   2.7001679193e-002  -5.7356767086e-002  -1.0899358339e-001   1.4289888599e-001  -1.1117871062e-001   1.4279867614e-001  -7.6027387409e-002   9.1687151227e-003
  7.1160000000e+010   2.6050987035e-002  -5.7347983810e-002  -1.0865894415e-001   1.4304170956e-001  -1.1084355959e-001   1.4294487732e-001  -7.6082358856e-002   1.3006211139e-002
  7.1180000000e+010   2.5091789700e-002  -5.7311877543e-002  -1.0831842931e-001   1.4318595627e-001  -1.1050246470e-001   1.4309256605e-001  -7.5966734585e-002   1.6835543492e-002
  7.1200000000e+010   2.4124865630e-002  -5.7248750736e-002  -1.0797205992e-001   1.4333160218e-001  -1.1015544657e-001   1.4324171786e-001  -7.5681307903e-002   2.0649206911e-002
  7.1220000000e+010   2.3150996426e-002  -5.7158921846e-002  -1.0761985731e-001   1.4347862323e-001  -1.0980252607e-001   1.4339230815e-001  -7.5227196359e-002   2.4439751723e-002
  7.1240000000e+010   2.2170966114e-002  -5.7042725147e-002  -1.0726184311e-001   1.4362699527e-001  -1.0944372439e-001   1.4354431221e-001  -7.4605838634e-002   2.8199797704e-002
  7.1260000000e+010   2.1185560419e-002  -5.6900510529e-002  -1.0689803920e-001   1.4377669400e-001  -1.0907906299e-001   1.4369770518e-001  -7.3818990839e-002   3.1922047755e-002
  7.1280000000e+010   2.0195566026e-002  -5.6732643278e-002  -1.0652846777e-001   1.4392769503e-001  -1.0870856359e-001   1.4385246208e-001  -7.2868722236e-002   3.5599301392e-002
  7.1300000000e+010   1.9201769851e-002  -5.6539503854e-002  -1.0615315124e-001   1.4407997385e-001  -1.0833224820e-001   1.4400855782e-001  -7.1757410389e-002   3.9224468030e-002
  7.1320000000e+010   1.8204958309e-002  -5.6321487648e-002  -1.0577211234e-001   1.4423350588e-001  -1.0795013909e-001   1.4416596721e-001  -7.0487735758e-002   4.2790580028e-002
  7.1340000000e+010   1.7205916575e-002  -5.6079004732e-002  -1.0538537402e-001   1.4438826639e-001  -1.0756225881e-001   1.4432466491e-001  -6.9062675736e-002   4.6290805475e-002
  7.1360000000e+010   1.6205427860e-002  -5.5812479596e-002  -1.0499295952e-001   1.4454423058e-001  -1.0716863015e-001   1.4448462549e-001  -6.7485498161e-002   4.9718460697e-002
  7.1380000000e+010   1.5204272678e-002  -5.5522350870e-002  -1.0459489232e-001   1.4470137356e-001  -1.0676927616e-001   1.4464582342e-001  -6.5759754290e-002   5.3067022455e-002
  7.1400000000e+010   1.4203228121e-002  -5.5209071040e-002  -1.0419119613e-001   1.4485967033e-001  -1.0636422014e-001   1.4480823306e-001  -6.3889271279e-002   5.6330139826e-002
  7.1420000000e+010   1.3203067135e-002  -5.4873106148e-002  -1.0378189493e-001   1.4501909582e-001  -1.0595348565e-001   1.4497182867e-001  -6.1878144148e-002   5.9501645725e-002
  7.1440000000e+010   1.2204557804e-002  -5.4514935477e-002  -1.0336701291e-001   1.4517962486e-001  -1.0553709646e-001   1.4513658441e-001  -5.9730727290e-002   6.2575568069e-002
  7.1460000000e+010   1.1208462633e-002  -5.4135051235e-002  -1.0294657454e-001   1.4534123220e-001  -1.0511507660e-001   1.4530247436e-001  -5.7451625494e-002   6.5546140549e-002
  7.1480000000e+010   1.0215537847e-002  -5.3733958216e-002  -1.0252060446e-001   1.4550389251e-001  -1.0468745033e-001   1.4546947248e-001  -5.5045684538e-002   6.8407812998e-002
  7.1500000000e+010   9.2265326821e-003  -5.3312173458e-002  -1.0208912758e-001   1.4566758039e-001  -1.0425424214e-001   1.4563755267e-001  -5.2517981348e-002   7.1155261330e-002
  7.1520000000e+010   8.2421886946e-003  -5.2870225883e-002  -1.0165216900e-001   1.4583227036e-001  -1.0381547672e-001   1.4580668873e-001  -4.9873813748e-002   7.3783397040e-002
  7.1540000000e+010   7.2632390757e-003  -5.2408655934e-002  -1.0120975405e-001   1.4599793685e-001  -1.0337117901e-001   1.4597685437e-001  -4.7118689825e-002   7.6287376246e-002
  7.1560000000e+010   6.2904079717e-003  -5.1928015192e-002  -1.0076190828e-001   1.4616455425e-001  -1.0292137414e-001   1.4614802324e-001  -4.4258316921e-002   7.8662608250e-002
  7.1580000000e+010   5.3244098160e-003  -5.1428865992e-002  -1.0030865741e-001   1.4633209686e-001  -1.0246608745e-001   1.4632016889e-001  -4.1298590276e-002   8.0904763617e-002
  7.1600000000e+010   4.3659486698e-003  -5.0911781020e-002  -9.9850027395e-002   1.4650053893e-001  -1.0200534451e-001   1.4649326481e-001  -3.8245581352e-002   8.3009781742e-002
  7.1620000000e+010   3.4157175738e-003  -5.0377342904e-002  -9.9386044369e-002   1.4666985463e-001  -1.0153917105e-001   1.4666728441e-001  -3.5105525844e-002   8.4973877909e-002
  7.1640000000e+010   2.4743979107e-003  -4.9826143799e-002  -9.8916734660e-002   1.4684001809e-001  -1.0106759303e-001   1.4684220102e-001  -3.1884811418e-002   8.6793549809e-002
  7.1660000000e+010   1.5426587796e-003  -4.9258784951e-002  -9.8442124782e-002   1.4701100337e-001  -1.0059063658e-001   1.4701798792e-001  -2.8589965180e-002   8.8465583532e-002
  7.1680000000e+010   6.2115638337e-004  -4.8675876265e-002  -9.7962241430e-002   1.4718278446e-001  -1.0010832801e-001   1.4719461831e-001  -2.5227640919e-002   8.9987058994e-002
  7.1700000000e+010  -2.8946657200e-004  -4.8078035854e-002  -9.7477111476e-002   1.4735533532e-001  -9.9620693840e-002   1.4737206532e-001  -2.1804606137e-002   9.1355354814e-002
  7.1720000000e+010  -1.1885814632e-003  -4.7465889582e-002  -9.6986761963e-002   1.4752862985e-001  -9.9127760731e-002   1.4755030203e-001  -1.8327728888e-002   9.2568152622e-002
  7.1740000000e+010  -2.0755743217e-003  -4.6840070603e-002  -9.6491220101e-002   1.4770264190e-001  -9.8629555538e-002   1.4772930147e-001  -1.4803964463e-002   9.3623440790e-002
  7.1760000000e+010  -2.9498463909e-003  -4.6201218882e-002  -9.5990513262e-002   1.4787734526e-001  -9.8126105276e-002   1.4790903658e-001  -1.1240341926e-002   9.4519517580e-002
  7.1780000000e+010  -3.8108146675e-003  -4.5549980719e-002  -9.5484668975e-002   1.4805271368e-001  -9.7617437122e-002   1.4808948027e-001  -7.6439505499e-003   9.5254993712e-002
  7.1800000000e+010  -4.6579124273e-003  -4.4887008259e-002  -9.4973714922e-002   1.4822872087e-001  -9.7103578412e-002   1.4827060537e-001  -4.0219261607e-003   9.5828794342e-002
  7.1820000000e+010  -5.4905897336e-003  -4.4212958994e-002  -9.4457678934e-002   1.4840534050e-001  -9.6584556633e-002   1.4845238470e-001  -3.8143741640e-004   9.6240160439e-002
  7.1840000000e+010  -6.3083139295e-003  -4.3528495264e-002  -9.3936588983e-002   1.4858254618e-001  -9.6060399423e-002   1.4863479099e-001   3.2703279443e-003   9.6488649581e-002
  7.1860000000e+010  -7.1105701112e-003  -4.2834283742e-002  -9.3410473180e-002   1.4876031150e-001  -9.5531134561e-002   1.4881779692e-001   6.9261768663e-003   9.6574136149e-002
  7.1880000000e+010  -7.8968615845e-003  -4.2130994928e-002  -9.2879359771e-002   1.4893860999e-001  -9.4996789967e-002   1.4900137515e-001   1.0578924727e-002   9.6496810925e-002
  7.1900000000e+010  -8.6667103016e-003  -4.1419302617e-002  -9.2343277129e-002   1.4911741518e-001  -9.4457393696e-002   1.4918549828e-001   1.4221409046e-002   9.6257180104e-002
  7.1920000000e+010  -9.4196572792e-003  -4.0699883382e-002  -9.1802253754e-002   1.4929670052e-001  -9.3912973931e-002   1.4937013885e-001   1.7846503126e-002   9.5856063713e-002
  7.1940000000e+010  -1.0155262997e-002  -3.9973416038e-002  -9.1256318264e-002   1.4947643944e-001  -9.3363558984e-002   1.4955526938e-001   2.1447129605e-002   9.5294593444e-002
  7.1960000000e+010  -1.0873107774e-002  -3.9240581108e-002  -9.0705499393e-002   1.4965660536e-001  -9.2809177285e-002   1.4974086234e-001   2.5016273895e-002   9.4574209906e-002
  7.1980000000e+010  -1.1572792132e-002  -3.8502060284e-002  -9.0149825985e-002   1.4983717164e-001  -9.2249857382e-002   1.4992689015e-001   2.8546997471e-002   9.3696659303e-002
  7.2000000000e+010  -1.2253937125e-002  -3.7758535883e-002  -8.9589326990e-002   1.5001811161e-001  -9.1685627937e-002   1.5011332520e-001   3.2032451008e-002   9.2663989543e-002
  7.2020000000e+010  -1.2916184662e-002  -3.7010690301e-002  -8.9024031461e-002   1.5019939859e-001  -9.1116517719e-002   1.5030013984e-001   3.5465887317e-002   9.1478545788e-002
  7.2040000000e+010  -1.3559197794e-002  -3.6259205467e-002  -8.8453968548e-002   1.5038100586e-001  -9.0542555599e-002   1.5048730638e-001   3.8840674073e-002   9.0142965451e-002
  7.2060000000e+010  -1.4182660995e-002  -3.5504762288e-002  -8.7879167491e-002   1.5056290665e-001  -8.9963770549e-002   1.5067479710e-001   4.2150306309e-002   8.8660172651e-002
  7.2080000000e+010  -1.4786280404e-002  -3.4748040099e-002  -8.7299657621e-002   1.5074507420e-001  -8.9380191637e-002   1.5086258423e-001   4.5388418646e-002   8.7033372144e-002
  7.2100000000e+010  -1.5369784056e-002  -3.3989716110e-002  -8.6715468353e-002   1.5092748171e-001  -8.8791848021e-002   1.5105063999e-001   4.8548797242e-002   8.5266042727e-002
  7.2120000000e+010  -1.5932922089e-002  -3.3230464851e-002  -8.6126629181e-002   1.5111010233e-001  -8.8198768944e-002   1.5123893655e-001   5.1625391443e-002   8.3361930143e-002
  7.2140000000e+010  -1.6475466920e-002  -3.2470957619e-002  -8.5533169672e-002   1.5129290923e-001  -8.7600983735e-002   1.5142744604e-001   5.4612325104e-002   8.1325039494e-002
  7.2160000000e+010  -1.6997213411e-002  -3.1711861920e-002  -8.4935119469e-002   1.5147587551e-001  -8.6998521798e-002   1.5161614058e-001   5.7503907561e-002   7.9159627173e-002
