# Hz S RI R 1.000000
! Metas.Vna.Tools, 2.4.7898.19887
! Metas.Vna.Data, 2.4.7898.19873
! Created: UTC 2021.09.30 14:31:00
! FREQ                re:S1,1             im:S1,1             re:S2,1             im:S2,1             re:S1,2             im:S1,2             re:S2,2             im:S2,2          
  7.0000000000e+010  -2.9426681251e-002   2.0166421498e-002   2.6623070535e-001   5.9724945570e-001   2.5666009145e-001   6.0523089398e-001  -6.0518703079e-003   1.8642430783e-002
  7.0020000000e+010  -2.8328608004e-002   1.9274987888e-002   2.6633393616e-001   5.9776745082e-001   2.5676055722e-001   6.0577035100e-001  -6.0060611260e-003   1.8763963900e-002
  7.0040000000e+010  -2.7236162941e-002   1.8370030214e-002   2.6646228198e-001   5.9826234969e-001   2.5688694410e-001   6.0628658569e-001  -5.9611800913e-003   1.8885783791e-002
  7.0060000000e+010  -2.6150122431e-002   1.7451860599e-002   2.6661571988e-001   5.9873403210e-001   2.5703922968e-001   6.0677947255e-001  -5.9170925627e-003   1.9008002333e-002
  7.0080000000e+010  -2.5071259078e-002   1.6520811574e-002   2.6679422284e-001   5.9918237911e-001   2.5721738733e-001   6.0724888734e-001  -5.8736572591e-003   1.9130725380e-002
  7.0100000000e+010  -2.4000340780e-002   1.5577235894e-002   2.6699775976e-001   5.9960727304e-001   2.5742138621e-001   6.0769470708e-001  -5.8307265890e-003   1.9254052453e-002
  7.0120000000e+010  -2.2938129807e-002   1.4621506323e-002   2.6722629549e-001   6.0000859755e-001   2.5765119126e-001   6.0811681015e-001  -5.7881469940e-003   1.9378076433e-002
  7.0140000000e+010  -2.1885381876e-002   1.3654015385e-002   2.6747979082e-001   6.0038623765e-001   2.5790676324e-001   6.0851507623e-001  -5.7457593063e-003   1.9502883279e-002
  7.0160000000e+010  -2.0842845234e-002   1.2675175092e-002   2.6775820248e-001   6.0074007976e-001   2.5818805871e-001   6.0888938645e-001  -5.7033991198e-003   1.9628551748e-002
  7.0180000000e+010  -1.9811259749e-002   1.1685416637e-002   2.6806148316e-001   6.0107001168e-001   2.5849503007e-001   6.0923962331e-001  -5.6608971735e-003   1.9755153149e-002
  7.0200000000e+010  -1.8791356007e-002   1.0685190056e-002   2.6838958153e-001   6.0137592269e-001   2.5882762552e-001   6.0956567079e-001  -5.6180797467e-003   1.9882751094e-002
  7.0220000000e+010  -1.7783854418e-002   9.6749638668e-003   2.6874244224e-001   6.0165770355e-001   2.5918578914e-001   6.0986741437e-001  -5.5747690650e-003   2.0011401286e-002
  7.0240000000e+010  -1.6789464338e-002   8.6552246731e-003   2.6912000591e-001   6.0191524652e-001   2.5956946084e-001   6.1014474102e-001  -5.5307837169e-003   2.0141151308e-002
  7.0260000000e+010  -1.5808883195e-002   7.6264767424e-003   2.6952220921e-001   6.0214844544e-001   2.5997857640e-001   6.1039753929e-001  -5.4859390796e-003   2.0272040441e-002
  7.0280000000e+010  -1.4842795636e-002   6.5892415553e-003   2.6994898478e-001   6.0235719570e-001   2.6041306748e-001   6.1062569931e-001  -5.4400477534e-003   2.0404099494e-002
  7.0300000000e+010  -1.3891872682e-002   5.5440573281e-003   2.7040026132e-001   6.0254139431e-001   2.6087286165e-001   6.1082911283e-001  -5.3929200033e-003   2.0537350661e-002
  7.0320000000e+010  -1.2956770904e-002   4.4914785064e-003   2.7087596357e-001   6.0270093991e-001   2.6135788238e-001   6.1100767326e-001  -5.3443642083e-003   2.0671807387e-002
  7.0340000000e+010  -1.2038131612e-002   3.4320752345e-003   2.7137601234e-001   6.0283573284e-001   2.6186804905e-001   6.1116127568e-001  -5.2941873158e-003   2.0807474262e-002
  7.0360000000e+010  -1.1136580063e-002   2.3664327969e-003   2.7190032451e-001   6.0294567510e-001   2.6240327703e-001   6.1128981689e-001  -5.2421953017e-003   2.0944346930e-002
  7.0380000000e+010  -1.0252724688e-002   1.2951510359e-003   2.7244881308e-001   6.0303067046e-001   2.6296347760e-001   6.1139319546e-001  -5.1881936337e-003   2.1082412026e-002
  7.0400000000e+010  -9.3871563412e-003   2.1884374407e-004   2.7302138713e-001   6.0309062442e-001   2.6354855806e-001   6.1147131171e-001  -5.1319877390e-003   2.1221647118e-002
  7.0420000000e+010  -8.5404475671e-003  -8.6186196679e-004   2.7361795190e-001   6.0312544430e-001   2.6415842170e-001   6.1152406777e-001  -5.0733834730e-003   2.1362020688e-002
  7.0440000000e+010  -7.7131518911e-003  -1.9463263198e-003   2.7423840879e-001   6.0313503921e-001   2.6479296781e-001   6.1155136764e-001  -5.0121875900e-003   2.1503492120e-002
  7.0460000000e+010  -6.9058031343e-003  -3.0338975493e-003   2.7488265536e-001   6.0311932013e-001   2.6545209174e-001   6.1155311715e-001  -4.9482082143e-003   2.1646011718e-002
  7.0480000000e+010  -6.1189147519e-003  -4.1239125984e-003   2.7555058537e-001   6.0307819991e-001   2.6613568492e-001   6.1152922406e-001  -4.8812553102e-003   2.1789520733e-002
  7.0500000000e+010  -5.3529791968e-003  -5.2156978369e-003   2.7624208880e-001   6.0301159330e-001   2.6684363484e-001   6.1147959805e-001  -4.8111411509e-003   2.1933951428e-002
  7.0520000000e+010  -4.6084673090e-003  -6.3085697991e-003   2.7695705188e-001   6.0291941699e-001   2.6757582511e-001   6.1140415075e-001  -4.7376807848e-003   2.2079227144e-002
  7.0540000000e+010  -3.8858277328e-003  -7.4018359394e-003   2.7769535710e-001   6.0280158963e-001   2.6833213547e-001   6.1130279578e-001  -4.6606924981e-003   2.2225262404e-002
  7.0560000000e+010  -3.1854863612e-003  -8.4947954063e-003   2.7845688324e-001   6.0265803183e-001   2.6911244183e-001   6.1117544878e-001  -4.5799982734e-003   2.2371963028e-002
  7.0580000000e+010  -2.5078458093e-003  -9.5867398323e-003   2.7924150539e-001   6.0248866626e-001   2.6991661628e-001   6.1102202744e-001  -4.4954242425e-003   2.2519226269e-002
  7.0600000000e+010  -1.8532849172e-003  -1.0676954140e-002   2.8004909500e-001   6.0229341760e-001   2.7074452713e-001   6.1084245150e-001  -4.4068011336e-003   2.2666940970e-002
  7.0620000000e+010  -1.2221582826e-003  -1.1764717360e-002   2.8087951987e-001   6.0207221260e-001   2.7159603891e-001   6.1063664281e-001  -4.3139647107e-003   2.2814987745e-002
  7.0640000000e+010  -6.1479582516e-004  -1.2849303470e-002   2.8173264419e-001   6.0182498009e-001   2.7247101245e-001   6.1040452535e-001  -4.2167562050e-003   2.2963239172e-002
  7.0660000000e+010  -3.1502381254e-005  -1.3929982232e-002   2.8260832860e-001   6.0155165104e-001   2.7336930483e-001   6.1014602525e-001  -4.1150227379e-003   2.3111560012e-002
  7.0680000000e+010   5.2744266821e-004  -1.5006020056e-002   2.8350643016e-001   6.0125215855e-001   2.7429076952e-001   6.0986107080e-001  -4.0086177331e-003   2.3259807442e-002
  7.0700000000e+010   1.0617857378e-003  -1.6076680864e-002   2.8442680245e-001   6.0092643788e-001   2.7523525628e-001   6.0954959251e-001  -3.8974013192e-003   2.3407831311e-002
  7.0720000000e+010   1.5712993443e-003  -1.7141226965e-002   2.8536929553e-001   6.0057442647e-001   2.7620261131e-001   6.0921152310e-001  -3.7812407198e-003   2.3555474408e-002
  7.0740000000e+010   2.0557823796e-003  -1.8198919938e-002   2.8633375601e-001   6.0019606400e-001   2.7719267721e-001   6.0884679757e-001  -3.6600106315e-003   2.3702572754e-002
  7.0760000000e+010   2.5150603498e-003  -1.9249021520e-002   2.8732002708e-001   5.9979129235e-001   2.7820529303e-001   6.0845535316e-001  -3.5335935888e-003   2.3848955907e-002
  7.0780000000e+010   2.9489855798e-003  -2.0290794505e-002   2.8832794853e-001   5.9936005569e-001   2.7924029431e-001   6.0803712945e-001  -3.4018803147e-003   2.3994447283e-002
  7.0800000000e+010   3.3574373828e-003  -2.1323503635e-002   2.8935735681e-001   5.9890230044e-001   2.8029751311e-001   6.0759206829e-001  -3.2647700573e-003   2.4138864498e-002
  7.0820000000e+010   3.7403221955e-003  -2.2346416508e-002   2.9040808501e-001   5.9841797534e-001   2.8137677805e-001   6.0712011393e-001  -3.1221709099e-003   2.4282019718e-002
  7.0840000000e+010   4.0975736768e-003  -2.3358804473e-002   2.9147996296e-001   5.9790703145e-001   2.8247791432e-001   6.0662121295e-001  -2.9740001156e-003   2.4423720029e-002
  7.0860000000e+010   4.4291527726e-003  -2.4359943538e-002   2.9257281721e-001   5.9736942215e-001   2.8360074375e-001   6.0609531433e-001  -2.8201843552e-003   2.4563767817e-002
  7.0880000000e+010   4.7350477437e-003  -2.5349115267e-002   2.9368647108e-001   5.9680510321e-001   2.8474508485e-001   6.0554236947e-001  -2.6606600168e-003   2.4701961167e-002
  7.0900000000e+010   5.0152741589e-003  -2.6325607681e-002   2.9482074474e-001   5.9621403277e-001   2.8591075279e-001   6.0496233218e-001  -2.4953734484e-003   2.4838094266e-002
  7.0920000000e+010   5.2698748518e-003  -2.7288716151e-002   2.9597545518e-001   5.9559617136e-001   2.8709755951e-001   6.0435515875e-001  -2.3242811908e-003   2.4971957827e-002
  7.0940000000e+010   5.4989198428e-003  -2.8237744290e-002   2.9715041628e-001   5.9495148195e-001   2.8830531370e-001   6.0372080790e-001  -2.1473501919e-003   2.5103339513e-002
  7.0960000000e+010   5.7025062242e-003  -2.9172004833e-002   2.9834543884e-001   5.9427992992e-001   2.8953382089e-001   6.0305924089e-001  -1.9645580010e-003   2.5232024386e-002
  7.0980000000e+010   5.8807580115e-003  -3.0090820517e-002   2.9956033066e-001   5.9358148313e-001   2.9078288345e-001   6.0237042143e-001  -1.7758929431e-003   2.5357795347e-002
  7.1000000000e+010   6.0338259578e-003  -3.0993524946e-002   3.0079489649e-001   5.9285611189e-001   2.9205230064e-001   6.0165431581e-001  -1.5813542725e-003   2.5480433600e-002
  7.1020000000e+010   6.1618873347e-003  -3.1879463449e-002   3.0204893816e-001   5.9210378901e-001   2.9334186866e-001   6.0091089284e-001  -1.3809523050e-003   2.5599719116e-002
  7.1040000000e+010   6.2651456770e-003  -3.2747993925e-002   3.0332225457e-001   5.9132448981e-001   2.9465138070e-001   6.0014012387e-001  -1.1747085293e-003   2.5715431103e-002
  7.1060000000e+010   6.3438304939e-003  -3.3598487677e-002   3.0461464173e-001   5.9051819210e-001   2.9598062694e-001   5.9934198287e-001  -9.6265569631e-004   2.5827348485e-002
  7.1080000000e+010   6.3981969460e-003  -3.4430330233e-002   3.0592589284e-001   5.8968487626e-001   2.9732939465e-001   5.9851644636e-001  -7.4483788632e-004   2.5935250385e-002
  7.1100000000e+010   6.4285254883e-003  -3.5242922151e-002   3.0725579828e-001   5.8882452519e-001   2.9869746818e-001   5.9766349351e-001  -5.2131055445e-004   2.6038916607e-002
  7.1120000000e+010   6.4351214802e-003  -3.6035679805e-002   3.0860414568e-001   5.8793712435e-001   3.0008462904e-001   5.9678310606e-001  -2.9214055314e-004   2.6138128131e-002
  7.1140000000e+010   6.4183147629e-003  -3.6808036160e-002   3.0997071998e-001   5.8702266180e-001   3.0149065593e-001   5.9587526844e-001  -5.7406132380e-005   2.6232667598e-002
  7.1160000000e+010   6.3784592050e-003  -3.7559441525e-002   3.1135530342e-001   5.8608112815e-001   3.0291532479e-001   5.9493996768e-001   1.8280308293e-004   2.6322319804e-002
  7.1180000000e+010   6.3159322157e-003  -3.8289364285e-002   3.1275767566e-001   5.8511251665e-001   3.0435840883e-001   5.9397719352e-001   4.2838613829e-004   2.6406872191e-002
  7.1200000000e+010   6.2311342285e-003  -3.8997291618e-002   3.1417761373e-001   5.8411682313e-001   3.0581967858e-001   5.9298693834e-001   6.7923081781e-004   2.6486115339e-002
  7.1220000000e+010   6.1244881534e-003  -3.9682730183e-002   3.1561489217e-001   5.8309404604e-001   3.0729890197e-001   5.9196919722e-001   9.3521373505e-004   2.6559843451e-002
  7.1240000000e+010   5.9964388008e-003  -4.0345206791e-002   3.1706928299e-001   5.8204418648e-001   3.0879584431e-001   5.9092396794e-001   1.1962004468e-003   2.6627854842e-002
  7.1260000000e+010   5.8474522762e-003  -4.0984269053e-002   3.1854055578e-001   5.8096724817e-001   3.1031026842e-001   5.8985125096e-001   1.4620455890e-003   2.6689952417e-002
  7.1280000000e+010   5.6780153473e-003  -4.1599485997e-002   3.2002847772e-001   5.7986323749e-001   3.1184193459e-001   5.8875104951e-001   1.7325930362e-003   2.6745944151e-002
  7.1300000000e+010   5.4886347844e-003  -4.2190448666e-002   3.2153281364e-001   5.7873216347e-001   3.1339060069e-001   5.8762336949e-001   2.0076760817e-003   2.6795643554e-002
  7.1320000000e+010   5.2798366745e-003  -4.2756770688e-002   3.2305332605e-001   5.7757403782e-001   3.1495602220e-001   5.8646821958e-001   2.2871176411e-003   2.6838870141e-002
  7.1340000000e+010   5.0521657102e-003  -4.3298088816e-002   3.2458977522e-001   5.7638887491e-001   3.1653795225e-001   5.8528561118e-001   2.5707304772e-003   2.6875449884e-002
  7.1360000000e+010   4.8061844553e-003  -4.3814063444e-002   3.2614191919e-001   5.7517669179e-001   3.1813614167e-001   5.8407555844e-001   2.8583174460e-003   2.6905215659e-002
  7.1380000000e+010   4.5424725864e-003  -4.4304379089e-002   3.2770951384e-001   5.7393750819e-001   3.1975033905e-001   5.8283807827e-001   3.1496717642e-003   2.6928007681e-002
  7.1400000000e+010   4.2616261132e-003  -4.4768744849e-002   3.2929231293e-001   5.7267134655e-001   3.2138029079e-001   5.8157319035e-001   3.4445772973e-003   2.6943673938e-002
  7.1420000000e+010   3.9642565772e-003  -4.5206894826e-002   3.3089006814e-001   5.7137823198e-001   3.2302574112e-001   5.8028091713e-001   3.7428088681e-003   2.6952070597e-002
  7.1440000000e+010   3.6509902312e-003  -4.5618588521e-002   3.3250252915e-001   5.7005819230e-001   3.2468643220e-001   5.7896128382e-001   4.0441325843e-003   2.6953062413e-002
  7.1460000000e+010   3.3224671999e-003  -4.6003611199e-002   3.3412944364e-001   5.6871125804e-001   3.2636210413e-001   5.7761431842e-001   4.3483061865e-003   2.6946523113e-002
  7.1480000000e+010   2.9793406224e-003  -4.6361774211e-002   3.3577055738e-001   5.6733746242e-001   3.2805249500e-001   5.7624005170e-001   4.6550794139e-003   2.6932335777e-002
  7.1500000000e+010   2.6222757796e-003  -4.6692915300e-002   3.3742561426e-001   5.6593684139e-001   3.2975734099e-001   5.7483851723e-001   4.9641943885e-003   2.6910393194e-002
  7.1520000000e+010   2.2519492048e-003  -4.6996898860e-002   3.3909435635e-001   5.6450943358e-001   3.3147637635e-001   5.7340975135e-001   5.2753860167e-003   2.6880598206e-002
  7.1540000000e+010   1.8690477820e-003  -4.7273616166e-002   3.4077652394e-001   5.6305528036e-001   3.3320933351e-001   5.7195379320e-001   5.5883824079e-003   2.6842864041e-002
  7.1560000000e+010   1.4742678307e-003  -4.7522985574e-002   3.4247185559e-001   5.6157442578e-001   3.3495594310e-001   5.7047068470e-001   5.9029053091e-003   2.6797114619e-002
  7.1580000000e+010   1.0683141791e-003  -4.7744952679e-002   3.4418008818e-001   5.6006691664e-001   3.3671593402e-001   5.6896047056e-001   6.2186705547e-003   2.6743284846e-002
  7.1600000000e+010   6.5189922783e-004  -4.7939490441e-002   3.4590095698e-001   5.5853280241e-001   3.3848903346e-001   5.6742319830e-001   6.5353885311e-003   2.6681320890e-002
  7.1620000000e+010   2.2574200478e-004  -4.8106599281e-002   3.4763419566e-001   5.5697213529e-001   3.4027496701e-001   5.6585891819e-001   6.8527646548e-003   2.6611180435e-002
  7.1640000000e+010  -2.0943278807e-004  -4.8246307134e-002   3.4937953640e-001   5.5538497019e-001   3.4207345864e-001   5.6426768332e-001   7.1704998645e-003   2.6532832915e-002
  7.1660000000e+010  -6.5289573341e-004  -4.8358669472e-002   3.5113670986e-001   5.5377136470e-001   3.4388423083e-001   5.6264954956e-001   7.4882911239e-003   2.6446259731e-002
  7.1680000000e+010  -1.1039136625e-003  -4.8443769286e-002   3.5290544532e-001   5.5213137915e-001   3.4570700454e-001   5.6100457553e-001   7.8058319366e-003   2.6351454446e-002
  7.1700000000e+010  -1.5617506223e-003  -4.8501717043e-002   3.5468547067e-001   5.5046507652e-001   3.4754149935e-001   5.5933282267e-001   8.1228128717e-003   2.6248422951e-002
  7.1720000000e+010  -2.0256688452e-003  -4.8532650593e-002   3.5647651247e-001   5.4877252252e-001   3.4938743344e-001   5.5763435518e-001   8.4389220978e-003   2.6137183624e-002
  7.1740000000e+010  -2.4949297188e-003  -4.8536735052e-002   3.5827829602e-001   5.4705378553e-001   3.5124452368e-001   5.5590924001e-001   8.7538459264e-003   2.6017767451e-002
  7.1760000000e+010  -2.9687947560e-003  -4.8514162646e-002   3.6009054540e-001   5.4530893660e-001   3.5311248568e-001   5.5415754690e-001   9.0672693626e-003   2.5890218137e-002
  7.1780000000e+010  -3.4465265626e-003  -4.8465152515e-002   3.6191298354e-001   5.4353804949e-001   3.5499103384e-001   5.5237934833e-001   9.3788766621e-003   2.5754592185e-002
  7.1800000000e+010  -3.9273898015e-003  -4.8389950491e-002   3.6374533222e-001   5.4174120059e-001   3.5687988139e-001   5.5057471954e-001   9.6883518939e-003   2.5610958953e-002
  7.1820000000e+010  -4.4106521533e-003  -4.8288828833e-002   3.6558731219e-001   5.3991846898e-001   3.5877874047e-001   5.4874373851e-001   9.9953795078e-003   2.5459400696e-002
  7.1840000000e+010  -4.8955852697e-003  -4.8162085933e-002   3.6743864317e-001   5.3806993636e-001   3.6068732216e-001   5.4688648597e-001   1.0299644905e-002   2.5300012571e-002
  7.1860000000e+010  -5.3814657206e-003  -4.8010045982e-002   3.6929904393e-001   5.3619568711e-001   3.6260533656e-001   5.4500304535e-001   1.0600835011e-002   2.5132902628e-002
  7.1880000000e+010  -5.8675759323e-003  -4.7833058610e-002   3.7116823232e-001   5.3429580821e-001   3.6453249280e-001   5.4309350282e-001   1.0898638852e-002   2.4958191769e-002
  7.1900000000e+010  -6.3532051158e-003  -4.7631498483e-002   3.7304592535e-001   5.3237038929e-001   3.6646849915e-001   5.4115794726e-001   1.1192748126e-002   2.4776013694e-002
  7.1920000000e+010  -6.8376501840e-003  -4.7405764878e-002   3.7493183921e-001   5.3041952257e-001   3.6841306302e-001   5.3919647022e-001   1.1482857784e-002   2.4586514807e-002
  7.1940000000e+010  -7.3202166567e-003  -4.7156281215e-002   3.7682568934e-001   5.2844330290e-001   3.7036589105e-001   5.3720916598e-001   1.1768666595e-002   2.4389854115e-002
  7.1960000000e+010  -7.8002195516e-003  -4.6883494566e-002   3.7872719050e-001   5.2644182770e-001   3.7232668916e-001   5.3519613146e-001   1.2049877720e-002   2.4186203086e-002
  7.1980000000e+010  -8.2769842607e-003  -4.6587875125e-002   3.8063605676e-001   5.2441519697e-001   3.7429516256e-001   5.3315746626e-001   1.2326199280e-002   2.3975745496e-002
  7.2000000000e+010  -8.7498474106e-003  -4.6269915656e-002   3.8255200164e-001   5.2236351327e-001   3.7627101589e-001   5.3109327262e-001   1.2597344912e-002   2.3758677246e-002
  7.2020000000e+010  -9.2181577053e-003  -4.5930130901e-002   3.8447473807e-001   5.2028688174e-001   3.7825395318e-001   5.2900365543e-001   1.2863034327e-002   2.3535206154e-002
  7.2040000000e+010  -9.6812767505e-003  -4.5569056971e-002   3.8640397850e-001   5.1818541002e-001   3.8024367795e-001   5.2688872220e-001   1.3122993860e-002   2.3305551727e-002
  7.2060000000e+010  -1.0138579859e-002  -4.5187250699e-002   3.8833943496e-001   5.1605920830e-001   3.8223989329e-001   5.2474858304e-001   1.3376957005e-002   2.3069944907e-002
  7.2080000000e+010  -1.0589456834e-002  -4.4785288966e-002   3.9028081905e-001   5.1390838926e-001   3.8424230185e-001   5.2258335065e-001   1.3624664952e-002   2.2828627796e-002
  7.2100000000e+010  -1.1033312734e-002  -4.4363768012e-002   3.9222784206e-001   5.1173306808e-001   3.8625060592e-001   5.2039314033e-001   1.3865867104e-002   2.2581853356e-002
  7.2120000000e+010  -1.1469568609e-002  -4.3923302704e-002   3.9418021496e-001   5.0953336242e-001   3.8826450752e-001   5.1817806991e-001   1.4100321586e-002   2.2329885089e-002
  7.2140000000e+010  -1.1897662219e-002  -4.3464525794e-002   3.9613764850e-001   5.0730939240e-001   3.9028370838e-001   5.1593825980e-001   1.4327795746e-002   2.2072996691e-002
  7.2160000000e+010  -1.2317048723e-002  -4.2988087145e-002   3.9809985325e-001   5.0506128055e-001   3.9230791007e-001   5.1367383290e-001   1.4548066640e-002   2.1811471694e-002
