# Hz S RI R 1.000000
! Metas.Vna.Tools, 2.4.7898.19887
! Metas.Vna.Data, 2.4.7898.19873
! Created: UTC 2021.09.30 14:31:00
! FREQ                re:S1,1             im:S1,1             re:S2,1             im:S2,1             re:S1,2             im:S1,2             re:S2,2             im:S2,2          
  7.0000000000e+010  -1.8032193685e-002   3.2521475926e-002   2.7127498656e-001   5.8984606243e-001   2.6367807409e-001   5.9974729751e-001   1.7076131638e-005   8.7770351035e-003
  7.0020000000e+010  -1.7064023529e-002   3.1399189756e-002   2.7138901775e-001   5.9036311918e-001   2.6378937936e-001   6.0029009891e-001  -2.3682911630e-004   8.7685920930e-003
  7.0040000000e+010  -1.6105108025e-002   3.0262207931e-002   2.7152780955e-001   5.9085686484e-001   2.6392627977e-001   6.0080916513e-001  -4.9417810306e-004   8.7726452271e-003
  7.0060000000e+010  -1.5156162608e-002   2.9111011239e-002   2.7169133671e-001   5.9132717934e-001   2.6408875126e-001   6.0130437025e-001  -7.5438470871e-004   8.7893241221e-003
  7.0080000000e+010  -1.4217894540e-002   2.7946099937e-002   2.7187956994e-001   5.9177394392e-001   2.6427676553e-001   6.0177558965e-001  -1.0168582210e-003   8.8187343596e-003
  7.0100000000e+010  -1.3291002084e-002   2.6767993395e-002   2.7209247588e-001   5.9219704117e-001   2.6449029008e-001   6.0222270010e-001  -1.2810043560e-003   8.8609573529e-003
  7.0120000000e+010  -1.2376173681e-002   2.5577229705e-002   2.7233001714e-001   5.9259635509e-001   2.6472928821e-001   6.0264557976e-001  -1.5462262822e-003   8.9160502532e-003
  7.0140000000e+010  -1.1474087142e-002   2.4374365265e-002   2.7259215230e-001   5.9297177106e-001   2.6499371903e-001   6.0304410820e-001  -1.8119256466e-003   8.9840458994e-003
  7.0160000000e+010  -1.0585408843e-002   2.3159974337e-002   2.7287883589e-001   5.9332317595e-001   2.6528353746e-001   6.0341816648e-001  -2.0775036004e-003   9.0649528087e-003
  7.0180000000e+010  -9.7107929381e-003   2.1934648581e-002   2.7319001845e-001   5.9365045809e-001   2.6559869425e-001   6.0376763714e-001  -2.3423618238e-003   9.1587552093e-003
  7.0200000000e+010  -8.8508805824e-003   2.0698996561e-002   2.7352564650e-001   5.9395350734e-001   2.6593913599e-001   6.0409240426e-001  -2.6059035468e-003   9.2654131146e-003
  7.0220000000e+010  -8.0062991681e-003   1.9453643223e-002   2.7388566257e-001   5.9423221508e-001   2.6630480510e-001   6.0439235347e-001  -2.8675345651e-003   9.3848624393e-003
  7.0240000000e+010  -7.1776615753e-003   1.8199229358e-002   2.7427000521e-001   5.9448647431e-001   2.6669563988e-001   6.0466737203e-001  -3.1266642492e-003   9.5170151558e-003
  7.0260000000e+010  -6.3655654392e-003   1.6936411031e-002   2.7467860900e-001   5.9471617961e-001   2.6711157450e-001   6.0491734880e-001  -3.3827065448e-003   9.6617594921e-003
  7.0280000000e+010  -5.5705924331e-003   1.5665858993e-002   2.7511140456e-001   5.9492122721e-001   2.6755253900e-001   6.0514217431e-001  -3.6350809634e-003   9.8189601692e-003
  7.0300000000e+010  -4.7933075697e-003   1.4388258066e-002   2.7556831859e-001   5.9510151502e-001   2.6801845933e-001   6.0534174079e-001  -3.8832135609e-003   9.9884586788e-003
  7.0320000000e+010  -4.0342585200e-003   1.3104306507e-002   2.7604927383e-001   5.9525694264e-001   2.6850925738e-001   6.0551594220e-001  -4.1265379029e-003   1.0170073601e-002
  7.0340000000e+010  -3.2939749529e-003   1.1814715356e-002   2.7655418914e-001   5.9538741141e-001   2.6902485092e-001   6.0566467424e-001  -4.3644960142e-003   1.0363600957e-002
  7.0360000000e+010  -2.5729678946e-003   1.0520207755e-002   2.7708297949e-001   5.9549282444e-001   2.6956515373e-001   6.0578783443e-001  -4.5965393133e-003   1.0568814607e-002
  7.0380000000e+010  -1.8717291090e-003   9.2215182477e-003   2.7763555597e-001   5.9557308663e-001   2.7013007553e-001   6.0588532210e-001  -4.8221295269e-003   1.0785466676e-002
  7.0400000000e+010  -1.1907305013e-003   7.9193920713e-003   2.7821182581e-001   5.9562810469e-001   2.7071952201e-001   6.0595703841e-001  -5.0407395864e-003   1.1013288022e-002
  7.0420000000e+010  -5.3042354400e-004   6.6145844147e-003   2.7881169241e-001   5.9565778720e-001   2.7133339491e-001   6.0600288644e-001  -5.2518545022e-003   1.1251988741e-002
  7.0440000000e+010   1.0876127334e-004   5.3078596689e-003   2.7943505537e-001   5.9566204462e-001   2.7197159197e-001   6.0602277116e-001  -5.4549722157e-003   1.1501258699e-002
  7.0460000000e+010   7.2641496896e-004   3.9999906583e-003   2.8008181047e-001   5.9564078930e-001   2.7263400697e-001   6.0601659949e-001  -5.6496044282e-003   1.1760768105e-002
  7.0480000000e+010   1.3221505690e-003   2.6917578553e-003   2.8075184975e-001   5.9559393555e-001   2.7332052979e-001   6.0598428032e-001  -5.8352774034e-003   1.2030168112e-002
  7.0500000000e+010   1.8956035809e-003   1.3839485816e-003   2.8144506147e-001   5.9552139963e-001   2.7403104640e-001   6.0592572454e-001  -6.0115327441e-003   1.2309091454e-002
  7.0520000000e+010   2.4464324404e-003   7.7356194871e-005   2.8216133020e-001   5.9542309979e-001   2.7476543886e-001   6.0584084509e-001  -6.1779281409e-003   1.2597153104e-002
  7.0540000000e+010   2.9743189307e-003  -1.2272207370e-003   2.8290053678e-001   5.9529895633e-001   2.7552358540e-001   6.0572955695e-001  -6.3340380920e-003   1.2893950975e-002
  7.0560000000e+010   3.4789685735e-003  -2.5289792740e-003   2.8366255838e-001   5.9514889156e-001   2.7630536042e-001   6.0559177718e-001  -6.4794545931e-003   1.3199066632e-002
  7.0580000000e+010   3.9601109913e-003  -3.8271129521e-003   2.8444726854e-001   5.9497282988e-001   2.7711063450e-001   6.0542742499e-001  -6.6137877956e-003   1.3512066048e-002
  7.0600000000e+010   4.4175002407e-003  -5.1208126418e-003   2.8525453715e-001   5.9477069779e-001   2.7793927445e-001   6.0523642168e-001  -6.7366666332e-003   1.3832500371e-002
  7.0620000000e+010   4.8509151152e-003  -6.4092674147e-003   2.8608423051e-001   5.9454242390e-001   2.7879114332e-001   6.0501869078e-001  -6.8477394144e-003   1.4159906718e-002
  7.0640000000e+010   5.2601594187e-003  -7.6916654186e-003   2.8693621137e-001   5.9428793899e-001   2.7966610045e-001   6.0477415796e-001  -6.9466743825e-003   1.4493809001e-002
  7.0660000000e+010   5.6450622074e-003  -8.9671947577e-003   2.8781033893e-001   5.9400717600e-001   2.8056400148e-001   6.0450275115e-001  -7.0331602385e-003   1.4833718760e-002
  7.0680000000e+010   6.0054780008e-003  -1.0235044380e-002   2.8870646886e-001   5.9370007006e-001   2.8148469839e-001   6.0420440052e-001  -7.1069066304e-003   1.5179136024e-002
  7.0700000000e+010   6.3412869622e-003  -1.1494404966e-002   2.8962445337e-001   5.9336655854e-001   2.8242803952e-001   6.0387903849e-001  -7.1676446040e-003   1.5529550187e-002
  7.0720000000e+010   6.6523950454e-003  -1.2744469825e-002   2.9056414121e-001   5.9300658106e-001   2.8339386962e-001   6.0352659980e-001  -7.2151270184e-003   1.5884440901e-002
  7.0740000000e+010   6.9387341118e-003  -1.3984435789e-002   2.9152537773e-001   5.9262007947e-001   2.8438202985e-001   6.0314702152e-001  -7.2491289224e-003   1.6243278987e-002
  7.0760000000e+010   7.2002620133e-003  -1.5213504110e-002   2.9250800486e-001   5.9220699795e-001   2.8539235786e-001   6.0274024303e-001  -7.2694478929e-003   1.6605527350e-002
  7.0780000000e+010   7.4369626436e-003  -1.6430881354e-002   2.9351186120e-001   5.9176728298e-001   2.8642468777e-001   6.0230620610e-001  -7.2759043353e-003   1.6970641919e-002
  7.0800000000e+010   7.6488459571e-003  -1.7635780298e-002   2.9453678203e-001   5.9130088337e-001   2.8747885026e-001   6.0184485490e-001  -7.2683417435e-003   1.7338072584e-002
  7.0820000000e+010   7.8359479547e-003  -1.8827420823e-002   2.9558259933e-001   5.9080775028e-001   2.8855467255e-001   6.0135613601e-001  -7.2466269212e-003   1.7707264152e-002
  7.0840000000e+010   7.9983306368e-003  -2.0005030798e-002   2.9664914183e-001   5.9028783725e-001   2.8965197848e-001   6.0083999842e-001  -7.2106501634e-003   1.8077657300e-002
  7.0860000000e+010   8.1360819244e-003  -2.1167846964e-002   2.9773623505e-001   5.8974110022e-001   2.9077058851e-001   6.0029639361e-001  -7.1603253974e-003   1.8448689544e-002
  7.0880000000e+010   8.2493155462e-003  -2.2315115815e-002   2.9884370132e-001   5.8916749754e-001   2.9191031977e-001   5.9972527551e-001  -7.0955902841e-003   1.8819796204e-002
  7.0900000000e+010   8.3381708946e-003  -2.3446094461e-002   2.9997135983e-001   5.8856698999e-001   2.9307098614e-001   5.9912660058e-001  -7.0164062788e-003   1.9190411370e-002
  7.0920000000e+010   8.4028128479e-003  -2.4560051493e-002   3.0111902666e-001   5.8793954082e-001   2.9425239820e-001   5.9850032777e-001  -6.9227586524e-003   1.9559968877e-002
  7.0940000000e+010   8.4434315610e-003  -2.5656267833e-002   3.0228651482e-001   5.8728511572e-001   2.9545436335e-001   5.9784641856e-001  -6.8146564713e-003   1.9927903265e-002
  7.0960000000e+010   8.4602422239e-003  -2.6734037573e-002   3.0347363428e-001   5.8660368288e-001   2.9667668580e-001   5.9716483703e-001  -6.6921325388e-003   2.0293650752e-002
  7.0980000000e+010   8.4534847883e-003  -2.7792668806e-002   3.0468019203e-001   5.8589521302e-001   2.9791916664e-001   5.9645554978e-001  -6.5552432952e-003   2.0656650189e-002
  7.1000000000e+010   8.4234236625e-003  -2.8831484437e-002   3.0590599210e-001   5.8515967933e-001   2.9918160386e-001   5.9571852603e-001  -6.4040686795e-003   2.1016344014e-002
  7.1020000000e+010   8.3703473755e-003  -2.9849822989e-002   3.0715083559e-001   5.8439705758e-001   3.0046379240e-001   5.9495373762e-001  -6.2387119514e-003   2.1372179201e-002
  7.1040000000e+010   8.2945682102e-003  -3.0847039384e-002   3.0841452076e-001   5.8360732608e-001   3.0176552419e-001   5.9416115898e-001  -6.0592994744e-003   2.1723608196e-002
  7.1060000000e+010   8.1964218066e-003  -3.1822505713e-002   3.0969684300e-001   5.8279046569e-001   3.0308658819e-001   5.9334076720e-001  -5.8659804606e-003   2.2070089838e-002
  7.1080000000e+010   8.0762667341e-003  -3.2775611990e-002   3.1099759493e-001   5.8194645986e-001   3.0442677043e-001   5.9249254203e-001  -5.6589266781e-003   2.2411090279e-002
  7.1100000000e+010   7.9344840360e-003  -3.3705766884e-002   3.1231656640e-001   5.8107529464e-001   3.0578585408e-001   5.9161646589e-001  -5.4383321205e-003   2.2746083879e-002
  7.1120000000e+010   7.7714767442e-003  -3.4612398429e-002   3.1365354459e-001   5.8017695868e-001   3.0716361943e-001   5.9071252387e-001  -5.2044126403e-003   2.3074554093e-002
  7.1140000000e+010   7.5876693657e-003  -3.5494954725e-002   3.1500831396e-001   5.7925144326e-001   3.0855984402e-001   5.8978070377e-001  -4.9574055462e-003   2.3395994333e-002
  7.1160000000e+010   7.3835073427e-003  -3.6352904600e-002   3.1638065640e-001   5.7829874227e-001   3.0997430261e-001   5.8882099610e-001  -4.6975691650e-003   2.3709908820e-002
  7.1180000000e+010   7.1594564844e-003  -3.7185738266e-002   3.1777035120e-001   5.7731885225e-001   3.1140676728e-001   5.8783339410e-001  -4.4251823699e-003   2.4015813412e-002
  7.1200000000e+010   6.9160023736e-003  -3.7992967942e-002   3.1917717510e-001   5.7631177242e-001   3.1285700741e-001   5.8681789373e-001  -4.1405440747e-003   2.4313236412e-002
  7.1220000000e+010   6.6536497480e-003  -3.8774128455e-002   3.2060090238e-001   5.7527750461e-001   3.1432478982e-001   5.8577449371e-001  -3.8439726959e-003   2.4601719352e-002
  7.1240000000e+010   6.3729218565e-003  -3.9528777817e-002   3.2204130485e-001   5.7421605338e-001   3.1580987873e-001   5.8470319550e-001  -3.5358055826e-003   2.4880817755e-002
  7.1260000000e+010   6.0743597919e-003  -4.0256497775e-002   3.2349815194e-001   5.7312742592e-001   3.1731203584e-001   5.8360400336e-001  -3.2163984173e-003   2.5150101872e-002
  7.1280000000e+010   5.7585218009e-003  -4.0956894333e-002   3.2497121073e-001   5.7201163215e-001   3.1883102039e-001   5.8247692429e-001  -2.8861245853e-003   2.5409157391e-002
  7.1300000000e+010   5.4259825723e-003  -4.1629598251e-002   3.2646024597e-001   5.7086868465e-001   3.2036658919e-001   5.8132196810e-001  -2.5453745179e-003   2.5657586122e-002
  7.1320000000e+010   5.0773325033e-003  -4.2274265510e-002   3.2796502017e-001   5.6969859874e-001   3.2191849668e-001   5.8013914738e-001  -2.1945550066e-003   2.5895006653e-002
  7.1340000000e+010   4.7131769469e-003  -4.2890577748e-002   3.2948529362e-001   5.6850139243e-001   3.2348649496e-001   5.7892847753e-001  -1.8340884929e-003   2.6121054972e-002
  7.1360000000e+010   4.3341354391e-003  -4.3478242676e-002   3.3102082444e-001   5.6727708644e-001   3.2507033386e-001   5.7768997675e-001  -1.4644123322e-003   2.6335385064e-002
  7.1380000000e+010   3.9408409089e-003  -4.4036994449e-002   3.3257136863e-001   5.6602570423e-001   3.2666976098e-001   5.7642366605e-001  -1.0859780353e-003   2.6537669477e-002
  7.1400000000e+010   3.5339388706e-003  -4.4566594020e-002   3.3413668015e-001   5.6474727198e-001   3.2828452174e-001   5.7512956928e-001  -6.9925048713e-004   2.6727599851e-002
  7.1420000000e+010   3.1140866006e-003  -4.5066829450e-002   3.3571651089e-001   5.6344181860e-001   3.2991435944e-001   5.7380771309e-001  -3.0470714501e-004   2.6904887420e-002
  7.1440000000e+010   2.6819522988e-003  -4.5537516197e-002   3.3731061079e-001   5.6210937572e-001   3.3155901527e-001   5.7245812697e-001   9.7162782133e-005   2.7069263473e-002
  7.1460000000e+010   2.2382142366e-003  -4.5978497367e-002   3.3891872788e-001   5.6074997772e-001   3.3321822842e-001   5.7108084324e-001   5.0585917290e-004   2.7220479788e-002
  7.1480000000e+010   1.7835598921e-003  -4.6389643932e-002   3.4054060829e-001   5.5936366173e-001   3.3489173609e-001   5.6967589707e-001   9.2087184881e-004   2.7358309029e-002
  7.1500000000e+010   1.3186850738e-003  -4.6770854916e-002   3.4217599633e-001   5.5795046758e-001   3.3657927356e-001   5.6824332644e-001   1.3416814447e-003   2.7482545101e-002
  7.1520000000e+010   8.4429303390e-004  -4.7122057549e-002   3.4382463454e-001   5.5651043788e-001   3.3828057422e-001   5.6678317219e-001   1.7677602926e-003   2.7593003480e-002
  7.1540000000e+010   3.6109357243e-004  -4.7443207386e-002   3.4548626372e-001   5.5504361797e-001   3.3999536966e-001   5.6529547800e-001   2.1985733180e-003   2.7689521494e-002
  7.1560000000e+010  -1.3019786643e-004  -4.7734288387e-002   3.4716062302e-001   5.5355005593e-001   3.4172338967e-001   5.6378029038e-001   2.6335789459e-003   2.7771958580e-002
  7.1580000000e+010  -6.2886110505e-004  -4.7995312973e-002   3.4884744993e-001   5.5202980256e-001   3.4346436234e-001   5.6223765868e-001   3.0722300165e-003   2.7840196490e-002
  7.1600000000e+010  -1.1341721484e-003  -4.8226322039e-002   3.5054648038e-001   5.5048291143e-001   3.4521801409e-001   5.6066763511e-001   3.5139747082e-003   2.7894139472e-002
  7.1620000000e+010  -1.6454041046e-003  -4.8427384938e-002   3.5225744878e-001   5.4890943881e-001   3.4698406971e-001   5.5907027471e-001   3.9582574660e-003   2.7933714403e-002
  7.1640000000e+010  -2.1618281084e-003  -4.8598599424e-002   3.5398008805e-001   5.4730944375e-001   3.4876225244e-001   5.5744563534e-001   4.4045199350e-003   2.7958870890e-002
  7.1660000000e+010  -2.6827142467e-003  -4.8740091567e-002   3.5571412970e-001   5.4568298798e-001   3.5055228402e-001   5.5579377771e-001   4.8522018961e-003   2.7969581333e-002
  7.1680000000e+010  -3.2073324841e-003  -4.8852015632e-002   3.5745930386e-001   5.4403013598e-001   3.5235388472e-001   5.5411476535e-001   5.3007422029e-003   2.7965840944e-002
  7.1700000000e+010  -3.7349535891e-003  -4.8934553918e-002   3.5921533934e-001   5.4235095496e-001   3.5416677339e-001   5.5240866464e-001   5.7495797188e-003   2.7947667734e-002
  7.1720000000e+010  -4.2648500569e-003  -4.8987916572e-002   3.6098196367e-001   5.4064551481e-001   3.5599066757e-001   5.5067554475e-001   6.1981542516e-003   2.7915102461e-002
  7.1740000000e+010  -4.7962970301e-003  -4.9012341362e-002   3.6275890317e-001   5.3891388817e-001   3.5782528347e-001   5.4891547768e-001   6.6459074850e-003   2.7868208537e-002
  7.1760000000e+010  -5.3285732149e-003  -4.9008093416e-002   3.6454588300e-001   5.3715615035e-001   3.5967033608e-001   5.4712853826e-001   7.0922839051e-003   2.7807071901e-002
  7.1780000000e+010  -5.8609617909e-003  -4.8975464932e-002   3.6634262719e-001   5.3537237938e-001   3.6152553918e-001   5.4531480408e-001   7.5367317202e-003   2.7731800851e-002
  7.1800000000e+010  -6.3927513154e-003  -4.8914774849e-002   3.6814885872e-001   5.3356265594e-001   3.6339060542e-001   5.4347435557e-001   7.9787037729e-003   2.7642525846e-002
  7.1820000000e+010  -6.9232366189e-003  -4.8826368494e-002   3.6996429953e-001   5.3172706344e-001   3.6526524639e-001   5.4160727592e-001   8.4176584427e-003   2.7539399258e-002
  7.1840000000e+010  -7.4517196909e-003  -4.8710617181e-002   3.7178867063e-001   5.2986568792e-001   3.6714917262e-001   5.3971365112e-001   8.8530605373e-003   2.7422595108e-002
  7.1860000000e+010  -7.9775105567e-003  -4.8567917794e-002   3.7362169210e-001   5.2797861810e-001   3.6904209368e-001   5.3779356991e-001   9.2843821720e-003   2.7292308742e-002
  7.1880000000e+010  -8.4999281406e-003  -4.8398692331e-002   3.7546308317e-001   5.2606594533e-001   3.7094371822e-001   5.3584712382e-001   9.7111036348e-003   2.7148756498e-002
  7.1900000000e+010  -9.0183011183e-003  -4.8203387415e-002   3.7731256227e-001   5.2412776363e-001   3.7285375403e-001   5.3387440709e-001   1.0132714237e-002   2.6992175314e-002
  7.1920000000e+010  -9.5319687543e-003  -4.7982473775e-002   3.7916984706e-001   5.2216416961e-001   3.7477190807e-001   5.3187551675e-001   1.0548713145e-002   2.6822822323e-002
  7.1940000000e+010  -1.0040281724e-002  -4.7736445706e-002   3.8103465452e-001   5.2017526252e-001   3.7669788655e-001   5.2985055251e-001   1.0958610200e-002   2.6640974400e-002
  7.1960000000e+010  -1.0542602920e-002  -4.7465820485e-002   3.8290670094e-001   5.1816114421e-001   3.7863139498e-001   5.2779961683e-001   1.1361926709e-002   2.6446927687e-002
  7.1980000000e+010  -1.1038308241e-002  -4.7171137769e-002   3.8478570205e-001   5.1612191911e-001   3.8057213822e-001   5.2572281487e-001   1.1758196224e-002   2.6240997079e-002
  7.2000000000e+010  -1.1526787365e-002  -4.6852958963e-002   3.8667137302e-001   5.1405769423e-001   3.8251982051e-001   5.2362025445e-001   1.2146965298e-002   2.6023515687e-002
  7.2020000000e+010  -1.2007444497e-002  -4.6511866560e-002   3.8856342852e-001   5.1196857915e-001   3.8447414558e-001   5.2149204610e-001   1.2527794211e-002   2.5794834265e-002
  7.2040000000e+010  -1.2479699100e-002  -4.6148463452e-002   3.9046158276e-001   5.0985468598e-001   3.8643481664e-001   5.1933830300e-001   1.2900257682e-002   2.5555320613e-002
  7.2060000000e+010  -1.2942986609e-002  -4.5763372222e-002   3.9236554959e-001   5.0771612937e-001   3.8840153647e-001   5.1715914096e-001   1.3263945549e-002   2.5305358952e-002
  7.2080000000e+010  -1.3396759114e-002  -4.5357234405e-002   3.9427504248e-001   5.0555302649e-001   3.9037400749e-001   5.1495467845e-001   1.3618463425e-002   2.5045349270e-002
  7.2100000000e+010  -1.3840486025e-002  -4.4930709733e-002   3.9618977463e-001   5.0336549699e-001   3.9235193177e-001   5.1272503653e-001   1.3963433328e-002   2.4775706644e-002
  7.2120000000e+010  -1.4273654713e-002  -4.4484475345e-002   3.9810945900e-001   5.0115366302e-001   3.9433501109e-001   5.1047033887e-001   1.4298494278e-002   2.4496860542e-002
  7.2140000000e+010  -1.4695771124e-002  -4.4019224992e-002   4.0003380835e-001   4.9891764918e-001   3.9632294702e-001   5.0819071171e-001   1.4623302872e-002   2.4209254095e-002
  7.2160000000e+010  -1.5106360368e-002  -4.3535668207e-002   4.0196253530e-001   4.9665758251e-001   3.9831544097e-001   5.0588628385e-001   1.4937533826e-002   2.3913343355e-002
