# Hz S RI R 1.000000
! Metas.Vna.Tools, 2.4.7898.19887
! Metas.Vna.Data, 2.4.7898.19873
! Created: UTC 2021.09.30 14:31:00
! FREQ                re:S1,1             im:S1,1             re:S2,1             im:S2,1             re:S1,2             im:S1,2             re:S2,2             im:S2,2          
  7.0000000000e+010   4.7834667454e-002   7.1593922892e-003   4.5276612939e-001   3.5661034361e-001   4.4994302578e-001   3.6870992195e-001  -4.9629336753e-002  -5.8265968843e-002
  7.0020000000e+010   4.7732036046e-002   6.4995531612e-003   4.5302765496e-001   3.5695495838e-001   4.5021753870e-001   3.6908505932e-001  -5.0788998682e-002  -5.7804656438e-002
  7.0040000000e+010   4.7614683448e-002   5.8273503300e-003   4.5329954494e-001   3.5727163425e-001   4.5050304570e-001   3.6943136678e-001  -5.1923179489e-002  -5.7286866545e-002
  7.0060000000e+010   4.7482422761e-002   5.1432063867e-003   4.5358173814e-001   3.5756029475e-001   4.5079948298e-001   3.6974876068e-001  -5.3030200171e-002  -5.6713006815e-002
  7.0080000000e+010   4.7335076298e-002   4.4475573294e-003   4.5387417082e-001   3.5782086593e-001   4.5110678402e-001   3.7003715995e-001  -5.4108398383e-002  -5.6083557785e-002
  7.0100000000e+010   4.7172475966e-002   3.7408522221e-003   4.5417677665e-001   3.5805327637e-001   4.5142487953e-001   3.7029648620e-001  -5.5156131065e-002  -5.5399072638e-002
  7.0120000000e+010   4.6994463636e-002   3.0235528367e-003   4.5448948671e-001   3.5825745722e-001   4.5175369749e-001   3.7052666368e-001  -5.6171777054e-002  -5.4660176857e-002
  7.0140000000e+010   4.6800891503e-002   2.2961332775e-003   4.5481222958e-001   3.5843334216e-001   4.5209316319e-001   3.7072761933e-001  -5.7153739695e-002  -5.3867567766e-002
  7.0160000000e+010   4.6591622447e-002   1.5590795884e-003   4.5514493128e-001   3.5858086750e-001   4.5244319920e-001   3.7089928279e-001  -5.8100449428e-002  -5.3022013956e-002
  7.0180000000e+010   4.6366530375e-002   8.1288934369e-004   4.5548751536e-001   3.5869997213e-001   4.5280372547e-001   3.7104158643e-001  -5.9010366363e-002  -5.2124354609e-002
  7.0200000000e+010   4.6125500556e-002   5.8071222167e-005   4.5583990285e-001   3.5879059760e-001   4.5317465925e-001   3.7115446536e-001  -5.9881982829e-002  -5.1175498702e-002
  7.0220000000e+010   4.5868429946e-002  -7.0485543444e-004   4.5620201234e-001   3.5885268808e-001   4.5355591520e-001   3.7123785748e-001  -6.0713825896e-002  -5.0176424114e-002
  7.0240000000e+010   4.5595227508e-002  -1.4753610787e-003   4.5657375997e-001   3.5888619040e-001   4.5394740536e-001   3.7129170344e-001  -6.1504459859e-002  -4.9128176610e-002
  7.0260000000e+010   4.5305814506e-002  -2.2529064299e-003   4.5695505945e-001   3.5889105408e-001   4.5434903919e-001   3.7131594672e-001  -6.2252488697e-002  -4.8031868729e-002
  7.0280000000e+010   4.5000124801e-002  -3.0369429609e-003   4.5734582211e-001   3.5886723135e-001   4.5476072359e-001   3.7131053360e-001  -6.2956558481e-002  -4.6888678556e-002
  7.0300000000e+010   4.4678105132e-002  -3.8269133997e-003   4.5774595687e-001   3.5881467713e-001   4.5518236293e-001   3.7127541321e-001  -6.3615359743e-002  -4.5699848395e-002
  7.0320000000e+010   4.4339715372e-002  -4.6222522438e-003   4.5815537032e-001   3.5873334907e-001   4.5561385907e-001   3.7121053752e-001  -6.4227629790e-002  -4.4466683333e-002
  7.0340000000e+010   4.3984928787e-002  -5.4223862888e-003   4.5857396672e-001   3.5862320757e-001   4.5605511136e-001   3.7111586141e-001  -6.4792154977e-002  -4.3190549704e-002
  7.0360000000e+010   4.3613732273e-002  -6.2267351688e-003   4.5900164801e-001   3.5848421580e-001   4.5650601672e-001   3.7099134260e-001  -6.5307772906e-002  -4.1872873451e-002
  7.0380000000e+010   4.3226126574e-002  -7.0347119092e-003   4.5943831384e-001   3.5831633967e-001   4.5696646960e-001   3.7083694174e-001  -6.5773374578e-002  -4.0515138390e-002
  7.0400000000e+010   4.2822126492e-002  -7.8457234909e-003   4.5988386162e-001   3.5811954789e-001   4.5743636207e-001   3.7065262240e-001  -6.6187906473e-002  -3.9118884374e-002
  7.0420000000e+010   4.2401761083e-002  -8.6591714254e-003   4.6033818652e-001   3.5789381199e-001   4.5791558379e-001   3.7043835107e-001  -6.6550372561e-002  -3.7685705368e-002
  7.0440000000e+010   4.1965073828e-002  -9.4744523401e-003   4.6080118149e-001   3.5763910626e-001   4.5840402208e-001   3.7019409718e-001  -6.6859836243e-002  -3.6217247425e-002
  7.0460000000e+010   4.1512122793e-002  -1.0290958573e-002   4.6127273731e-001   3.5735540786e-001   4.5890156192e-001   3.6991983314e-001  -6.7115422215e-002  -3.4715206580e-002
  7.0480000000e+010   4.1042980780e-002  -1.1108078778e-002   4.6175274261e-001   3.5704269677e-001   4.5940808599e-001   3.6961553432e-001  -6.7316318246e-002  -3.3181326651e-002
  7.0500000000e+010   4.0557735442e-002  -1.1925198534e-002   4.6224108387e-001   3.5670095578e-001   4.5992347471e-001   3.6928117907e-001  -6.7461776884e-002  -3.1617396962e-002
  7.0520000000e+010   4.0056489402e-002  -1.2741700967e-002   4.6273764549e-001   3.5633017059e-001   4.6044760622e-001   3.6891674873e-001  -6.7551117066e-002  -3.0025249978e-002
  7.0540000000e+010   3.9539360338e-002  -1.3556967378e-002   4.6324230978e-001   3.5593032972e-001   4.6098035647e-001   3.6852222768e-001  -6.7583725640e-002  -2.8406758870e-002
  7.0560000000e+010   3.9006481060e-002  -1.4370377871e-002   4.6375495702e-001   3.5550142458e-001   4.6152159924e-001   3.6809760327e-001  -6.7559058795e-002  -2.6763835006e-002
  7.0580000000e+010   3.8457999561e-002  -1.5181311996e-002   4.6427546546e-001   3.5504344946e-001   4.6207120610e-001   3.6764286591e-001  -6.7476643392e-002  -2.5098425362e-002
  7.0600000000e+010   3.7894079058e-002  -1.5989149388e-002   4.6480371137e-001   3.5455640155e-001   4.6262904656e-001   3.6715800903e-001  -6.7336078205e-002  -2.3412509880e-002
  7.0620000000e+010   3.7314898007e-002  -1.6793270419e-002   4.6533956905e-001   3.5404028092e-001   4.6319498798e-001   3.6664302910e-001  -6.7137035046e-002  -2.1708098752e-002
  7.0640000000e+010   3.6720650101e-002  -1.7593056840e-002   4.6588291090e-001   3.5349509056e-001   4.6376889569e-001   3.6609792566e-001  -6.6879259797e-002  -1.9987229655e-002
  7.0660000000e+010   3.6111544254e-002  -1.8387892441e-002   4.6643360738e-001   3.5292083635e-001   4.6435063297e-001   3.6552270130e-001  -6.6562573330e-002  -1.8251964918e-002
  7.0680000000e+010   3.5487804554e-002  -1.9177163701e-002   4.6699152712e-001   3.5231752710e-001   4.6494006112e-001   3.6491736166e-001  -6.6186872325e-002  -1.6504388656e-002
  7.0700000000e+010   3.4849670212e-002  -1.9960260441e-002   4.6755653688e-001   3.5168517456e-001   4.6553703944e-001   3.6428191548e-001  -6.5752129963e-002  -1.4746603840e-002
  7.0720000000e+010   3.4197395478e-002  -2.0736576483e-002   4.6812850163e-001   3.5102379336e-001   4.6614142533e-001   3.6361637456e-001  -6.5258396524e-002  -1.2980729337e-002
  7.0740000000e+010   3.3531249542e-002  -2.1505510302e-002   4.6870728457e-001   3.5033340111e-001   4.6675307428e-001   3.6292075380e-001  -6.4705799857e-002  -1.1208896910e-002
  7.0760000000e+010   3.2851516423e-002  -2.2266465677e-002   4.6929274713e-001   3.4961401832e-001   4.6737183988e-001   3.6219507117e-001  -6.4094545739e-002  -9.4332481794e-003
  7.0780000000e+010   3.2158494822e-002  -2.3018852339e-002   4.6988474906e-001   3.4886566845e-001   4.6799757394e-001   3.6143934773e-001  -6.3424918117e-002  -7.6559315653e-003
  7.0800000000e+010   3.1452497972e-002  -2.3762086625e-002   4.7048314842e-001   3.4808837791e-001   4.6863012643e-001   3.6065360765e-001  -6.2697279230e-002  -5.8790991992e-003
  7.0820000000e+010   3.0733853458e-002  -2.4495592112e-002   4.7108780159e-001   3.4728217603e-001   4.6926934556e-001   3.5983787819e-001  -6.1912069615e-002  -4.1049038199e-003
  7.0840000000e+010   3.0002903022e-002  -2.5218800259e-002   4.7169856340e-001   3.4644709509e-001   4.6991507782e-001   3.5899218971e-001  -6.1069807985e-002  -2.3354956559e-003
  7.0860000000e+010   2.9260002344e-002  -2.5931151038e-002   4.7231528703e-001   3.4558317032e-001   4.7056716800e-001   3.5811657567e-001  -6.0171090993e-002  -5.7301929718e-004
  7.0880000000e+010   2.8505520811e-002  -2.6632093559e-002   4.7293782416e-001   3.4469043989e-001   4.7122545924e-001   3.5721107264e-001  -5.9216592874e-002   1.1803894356e-003
  7.0900000000e+010   2.7739841257e-002  -2.7321086690e-002   4.7356602494e-001   3.4376894492e-001   4.7188979302e-001   3.5627572026e-001  -5.8207064963e-002   2.9226066217e-003
  7.0920000000e+010   2.6963359697e-002  -2.7997599664e-002   4.7419973804e-001   3.4281872944e-001   4.7256000926e-001   3.5531056132e-001  -5.7143335089e-002   4.6515233646e-003
  7.0940000000e+010   2.6176485025e-002  -2.8661112681e-002   4.7483881067e-001   3.4183984047e-001   4.7323594634e-001   3.5431564168e-001  -5.6026306857e-002   6.3650489059e-003
  7.0960000000e+010   2.5379638711e-002  -2.9311117500e-002   4.7548308864e-001   3.4083232793e-001   4.7391744108e-001   3.5329101029e-001  -5.4856958799e-002   8.0611137224e-003
  7.0980000000e+010   2.4573254467e-002  -2.9947118021e-002   4.7613241639e-001   3.3979624468e-001   4.7460432886e-001   3.5223671922e-001  -5.3636343408e-002   9.7376726036e-003
  7.1000000000e+010   2.3757777901e-002  -3.0568630850e-002   4.7678663701e-001   3.3873164652e-001   4.7529644359e-001   3.5115282362e-001  -5.2365586057e-002   1.1392707701e-002
  7.1020000000e+010   2.2933666149e-002  -3.1175185863e-002   4.7744559226e-001   3.3763859219e-001   4.7599361779e-001   3.5003938173e-001  -5.1045883791e-002   1.3024231551e-002
  7.1040000000e+010   2.2101387496e-002  -3.1766326745e-002   4.7810912266e-001   3.3651714332e-001   4.7669568261e-001   3.4889645489e-001  -4.9678504011e-002   1.4630290053e-002
  7.1060000000e+010   2.1261420973e-002  -3.2341611525e-002   4.7877706748e-001   3.3536736448e-001   4.7740246784e-001   3.4772410750e-001  -4.8264783034e-002   1.6208965418e-002
  7.1080000000e+010   2.0414255940e-002  -3.2900613090e-002   4.7944926477e-001   3.3418932316e-001   4.7811380202e-001   3.4652240704e-001  -4.6806124542e-002   1.7758379065e-002
  7.1100000000e+010   1.9560391656e-002  -3.3442919689e-002   4.8012555143e-001   3.3298308973e-001   4.7882951239e-001   3.4529142408e-001  -4.5303997920e-002   1.9276694464e-002
  7.1120000000e+010   1.8700336825e-002  -3.3968135420e-002   4.8080576322e-001   3.3174873749e-001   4.7954942501e-001   3.4403123223e-001  -4.3759936482e-002   2.0762119933e-002
  7.1140000000e+010   1.7834609136e-002  -3.4475880697e-002   4.8148973481e-001   3.3048634259e-001   4.8027336473e-001   3.4274190817e-001  -4.2175535588e-002   2.2212911364e-002
  7.1160000000e+010   1.6963734783e-002  -3.4965792706e-002   4.8217729981e-001   3.2919598411e-001   4.8100115528e-001   3.4142353161e-001  -4.0552450655e-002   2.3627374893e-002
  7.1180000000e+010   1.6088247968e-002  -3.5437525838e-002   4.8286829080e-001   3.2787774396e-001   4.8173261925e-001   3.4007618531e-001  -3.8892395068e-002   2.5003869497e-002
  7.1200000000e+010   1.5208690396e-002  -3.5890752107e-002   4.8356253937e-001   3.2653170696e-001   4.8246757821e-001   3.3869995508e-001  -3.7197137986e-002   2.6340809518e-002
  7.1220000000e+010   1.4325610755e-002  -3.6325161549e-002   4.8425987616e-001   3.2515796075e-001   4.8320585267e-001   3.3729492973e-001  -3.5468502051e-002   2.7636667110e-002
  7.1240000000e+010   1.3439564180e-002  -3.6740462597e-002   4.8496013090e-001   3.2375659584e-001   4.8394726215e-001   3.3586120107e-001  -3.3708361007e-002   2.8889974598e-002
  7.1260000000e+010   1.2551111707e-002  -3.7136382445e-002   4.8566313243e-001   3.2232770555e-001   4.8469162525e-001   3.3439886394e-001  -3.1918637224e-002   3.0099326763e-002
  7.1280000000e+010   1.1660819717e-002  -3.7512667382e-002   4.8636870875e-001   3.2087138604e-001   4.8543875962e-001   3.3290801615e-001  -3.0101299133e-002   3.1263383022e-002
  7.1300000000e+010   1.0769259369e-002  -3.7869083109e-002   4.8707668706e-001   3.1938773628e-001   4.8618848206e-001   3.3138875848e-001  -2.8258358578e-002   3.2380869525e-002
  7.1320000000e+010   9.8770060176e-003  -3.8205415036e-002   4.8778689377e-001   3.1787685804e-001   4.8694060853e-001   3.2984119470e-001  -2.6391868094e-002   3.3450581147e-002
  7.1340000000e+010   8.9846386279e-003  -3.8521468556e-002   4.8849915459e-001   3.1633885586e-001   4.8769495420e-001   3.2826543151e-001  -2.4503918097e-002   3.4471383385e-002
  7.1360000000e+010   8.0927391781e-003  -3.8817069292e-002   4.8921329449e-001   3.1477383708e-001   4.8845133348e-001   3.2666157855e-001  -2.2596634010e-002   3.5442214144e-002
  7.1380000000e+010   7.2018920541e-003  -3.9092063326e-002   4.8992913782e-001   3.1318191177e-001   4.8920956005e-001   3.2502974839e-001  -2.0672173319e-002   3.6362085415e-002
  7.1400000000e+010   6.3126834370e-003  -3.9346317408e-002   4.9064650827e-001   3.1156319275e-001   4.8996944694e-001   3.2337005650e-001  -1.8732722568e-002   3.7230084848e-002
  7.1420000000e+010   5.4257006847e-003  -3.9579719131e-002   4.9136522896e-001   3.0991779558e-001   4.9073080651e-001   3.2168262125e-001  -1.6780494285e-002   3.8045377204e-002
  7.1440000000e+010   4.5415317060e-003  -3.9792177090e-002   4.9208512246e-001   3.0824583851e-001   4.9149345054e-001   3.1996756388e-001  -1.4817723867e-002   3.8807205692e-002
  7.1460000000e+010   3.6607643314e-003  -3.9983621016e-002   4.9280601082e-001   3.0654744251e-001   4.9225719023e-001   3.1822500850e-001  -1.2846666405e-002   3.9514893190e-002
  7.1480000000e+010   2.7839856778e-003  -4.0154001883e-002   4.9352771561e-001   3.0482273122e-001   4.9302183629e-001   3.1645508206e-001  -1.0869593470e-002   4.0167843335e-002
  7.1500000000e+010   1.9117815110e-003  -4.0303291990e-002   4.9425005796e-001   3.0307183092e-001   4.9378719892e-001   3.1465791432e-001  -8.8887898516e-003   4.0765541501e-002
  7.1520000000e+010   1.0447356049e-003  -4.0431485023e-002   4.9497285859e-001   3.0129487056e-001   4.9455308787e-001   3.1283363787e-001  -6.9065502734e-003   4.1307555639e-002
  7.1540000000e+010   1.8342909864e-004  -4.0538596082e-002   4.9569593785e-001   2.9949198170e-001   4.9531931250e-001   3.1098238806e-001  -4.9251760660e-003   4.1793536998e-002
  7.1560000000e+010  -6.7156014732e-004  -4.0624661697e-002   4.9641911577e-001   2.9766329851e-001   4.9608568180e-001   3.0910430305e-001  -2.9469718226e-003   4.2223220710e-002
  7.1580000000e+010  -1.5196581951e-003  -4.0689739804e-002   4.9714221206e-001   2.9580895775e-001   4.9685200443e-001   3.0719952370e-001  -9.7424203352e-004   4.2596426247e-002
  7.1600000000e+010  -2.3602956732e-003  -4.0733909705e-002   4.9786504618e-001   2.9392909875e-001   4.9761808875e-001   3.0526819364e-001   9.9071229447e-004   4.2913057748e-002
  7.1620000000e+010  -3.1929084187e-003  -4.0757271998e-002   4.9858743737e-001   2.9202386336e-001   4.9838374289e-001   3.0331045919e-001   2.9455970265e-003   4.3173104207e-002
  7.1640000000e+010  -4.0169381173e-003  -4.0759948484e-002   4.9930920467e-001   2.9009339598e-001   4.9914877473e-001   3.0132646935e-001   4.8881282922e-003   4.3376639531e-002
  7.1660000000e+010  -4.8318329401e-003  -4.0742082048e-002   5.0003016696e-001   2.8813784352e-001   4.9991299202e-001   2.9931637580e-001   6.8160358755e-003   4.3523822467e-002
  7.1680000000e+010  -5.6370481772e-003  -4.0703836514e-002   5.0075014302e-001   2.8615735534e-001   5.0067620234e-001   2.9728033284e-001   8.7270665982e-003   4.3614896383e-002
  7.1700000000e+010  -6.4320468657e-003  -4.0645396471e-002   5.0146895154e-001   2.8415208328e-001   5.0143821319e-001   2.9521849741e-001   1.0618987689e-002   4.3650188928e-002
  7.1720000000e+010  -7.2163004125e-003  -4.0566967083e-002   5.0218641114e-001   2.8212218162e-001   5.0219883198e-001   2.9313102903e-001   1.2489590136e-002   4.3630111545e-002
  7.1740000000e+010  -7.9892892110e-003  -4.0468773866e-002   5.0290234046e-001   2.8006780704e-001   5.0295786613e-001   2.9101808981e-001   1.4336692015e-002   4.3555158862e-002
  7.1760000000e+010  -8.7505032500e-003  -4.0351062442e-002   5.0361655814e-001   2.7798911862e-001   5.0371512306e-001   2.8887984438e-001   1.6158141784e-002   4.3425907938e-002
  7.1780000000e+010  -9.4994427152e-003  -4.0214098267e-002   5.0432888289e-001   2.7588627780e-001   5.0447041023e-001   2.8671645992e-001   1.7951821552e-002   4.3243017380e-002
  7.1800000000e+010  -1.0235618581e-002  -4.0058166341e-002   5.0503913348e-001   2.7375944836e-001   5.0522353520e-001   2.8452810608e-001   1.9715650302e-002   4.3007226334e-002
  7.1820000000e+010  -1.0958553194e-002  -3.9883570887e-002   5.0574712885e-001   2.7160879639e-001   5.0597430566e-001   2.8231495501e-001   2.1447587064e-002   4.2719353335e-002
  7.1840000000e+010  -1.1667780842e-002  -3.9690635006e-002   5.0645268807e-001   2.6943449028e-001   5.0672252944e-001   2.8007718127e-001   2.3145634049e-002   4.2380295038e-002
  7.1860000000e+010  -1.2362848321e-002  -3.9479700316e-002   5.0715563041e-001   2.6723670069e-001   5.0746801460e-001   2.7781496187e-001   2.4807839717e-002   4.1991024814e-002
  7.1880000000e+010  -1.3043315477e-002  -3.9251126559e-002   5.0785577537e-001   2.6501560050e-001   5.0821056940e-001   2.7552847618e-001   2.6432301787e-002   4.1552591222e-002
  7.1900000000e+010  -1.3708755746e-002  -3.9005291191e-002   5.0855294271e-001   2.6277136480e-001   5.0895000240e-001   2.7321790597e-001   2.8017170184e-002   4.1066116364e-002
  7.1920000000e+010  -1.4358756676e-002  -3.8742588948e-002   5.0924695247e-001   2.6050417089e-001   5.0968612245e-001   2.7088343530e-001   2.9560649908e-002   4.0532794110e-002
  7.1940000000e+010  -1.4992920432e-002  -3.8463431391e-002   5.0993762504e-001   2.5821419819e-001   5.1041873875e-001   2.6852525058e-001   3.1061003832e-002   3.9953888211e-002
  7.1960000000e+010  -1.5610864292e-002  -3.8168246428e-002   5.1062478115e-001   2.5590162828e-001   5.1114766086e-001   2.6614354047e-001   3.2516555422e-002   3.9330730292e-002
  7.1980000000e+010  -1.6212221125e-002  -3.7857477819e-002   5.1130824194e-001   2.5356664483e-001   5.1187269877e-001   2.6373849587e-001   3.3925691358e-002   3.8664717736e-002
  7.2000000000e+010  -1.6796639847e-002  -3.7531584655e-002   5.1198782896e-001   2.5120943357e-001   5.1259366291e-001   2.6131030993e-001   3.5286864082e-002   3.7957311457e-002
  7.2020000000e+010  -1.7363785868e-002  -3.7191040824e-002   5.1266336422e-001   2.4883018229e-001   5.1331036421e-001   2.5885917796e-001   3.6598594242e-002   3.7210033566e-002
  7.2040000000e+010  -1.7913341517e-002  -3.6836334454e-002   5.1333467022e-001   2.4642908077e-001   5.1402261408e-001   2.5638529745e-001   3.7859473033e-002   3.6424464935e-002
  7.2060000000e+010  -1.8445006447e-002  -3.6467967339e-002   5.1400156998e-001   2.4400632080e-001   5.1473022452e-001   2.5388886799e-001   3.9068164447e-002   3.5602242663e-002
  7.2080000000e+010  -1.8958498029e-002  -3.6086454348e-002   5.1466388707e-001   2.4156209611e-001   5.1543300807e-001   2.5137009129e-001   4.0223407404e-002   3.4745057445e-002
  7.2100000000e+010  -1.9453551712e-002  -3.5692322817e-002   5.1532144563e-001   2.3909660236e-001   5.1613077794e-001   2.4882917111e-001   4.1324017783e-002   3.3854650856e-002
  7.2120000000e+010  -1.9929921378e-002  -3.5286111920e-002   5.1597407045e-001   2.3661003708e-001   5.1682334793e-001   2.4626631325e-001   4.2368890324e-002   3.2932812537e-002
  7.2140000000e+010  -2.0387379668e-002  -3.4868372038e-002   5.1662158691e-001   2.3410259969e-001   5.1751053257e-001   2.4368172551e-001   4.3357000430e-002   3.1981377310e-002
  7.2160000000e+010  -2.0825718285e-002  -3.4439664094e-002   5.1726382109e-001   2.3157449142e-001   5.1819214709e-001   2.4107561764e-001   4.4287405834e-002   3.1002222212e-002
