# Hz S RI R 1.000000
! Metas.Vna.Tools, 2.4.7898.19887
! Metas.Vna.Data, 2.4.7898.19873
! Created: UTC 2021.09.30 14:31:00
! FREQ                re:S1,1             im:S1,1             re:S2,1             im:S2,1             re:S1,2             im:S1,2             re:S2,2             im:S2,2          
  7.0000000000e+010   8.4603530526e-003  -5.1849914737e-002  -7.6396829664e-002   4.3454927680e-001  -8.3542130582e-002   4.3702201093e-001  -6.5911329509e-002  -1.1779106225e-001
  7.0020000000e+010   8.7824646306e-003  -5.1529910259e-002  -7.6471472228e-002   4.3475865192e-001  -8.3626043433e-002   4.3722992106e-001  -6.7985340685e-002  -1.1725911884e-001
  7.0040000000e+010   9.0975400785e-003  -5.1218165934e-002  -7.6526724440e-002   4.3496511151e-001  -8.3690384845e-002   4.3743510530e-001  -7.0029823501e-002  -1.1662647863e-001
  7.0060000000e+010   9.4053574345e-003  -5.0914727949e-002  -7.6562575140e-002   4.3516860516e-001  -8.3735141387e-002   4.3763751392e-001  -7.2041798919e-002  -1.1589347239e-001
  7.0080000000e+010   9.7056939918e-003  -5.0619630811e-002  -7.6579015206e-002   4.3536908196e-001  -8.3760301663e-002   4.3783709665e-001  -7.4018299963e-002  -1.1506056013e-001
  7.0100000000e+010   9.9983266637e-003  -5.0332897259e-002  -7.6576037557e-002   4.3556649048e-001  -8.3765856308e-002   4.3803380261e-001  -7.5956376342e-002  -1.1412833125e-001
  7.0120000000e+010   1.0283032354e-002  -5.0054538192e-002  -7.6553637155e-002   4.3576077875e-001  -8.3751798000e-002   4.3822758038e-001  -7.7853099079e-002  -1.1309750455e-001
  7.0140000000e+010   1.0559588336e-002  -4.9784552616e-002  -7.6511811003e-002   4.3595189435e-001  -8.3718121453e-002   4.3841837800e-001  -7.9705565153e-002  -1.1196892792e-001
  7.0160000000e+010   1.0827772629e-002  -4.9522927601e-002  -7.6450558152e-002   4.3613978436e-001  -8.3664823424e-002   4.3860614298e-001  -8.1510902134e-002  -1.1074357803e-001
  7.0180000000e+010   1.1087364389e-002  -4.9269638265e-002  -7.6369879695e-002   4.3632439540e-001  -8.3591902711e-002   4.3879082230e-001  -8.3266272820e-002  -1.0942255961e-001
  7.0200000000e+010   1.1338144296e-002  -4.9024647764e-002  -7.6269778771e-002   4.3650567366e-001  -8.3499360155e-002   4.3897236247e-001  -8.4968879844e-002  -1.0800710469e-001
  7.0220000000e+010   1.1579894944e-002  -4.8787907306e-002  -7.6150260564e-002   4.3668356488e-001  -8.3387198642e-002   4.3915070949e-001  -8.6615970270e-002  -1.0649857158e-001
  7.0240000000e+010   1.1812401239e-002  -4.8559356182e-002  -7.6011332303e-002   4.3685801441e-001  -8.3255423098e-002   4.3932580891e-001  -8.8204840149e-002  -1.0489844365e-001
  7.0260000000e+010   1.2035450794e-002  -4.8338921813e-002  -7.5853003259e-002   4.3702896718e-001  -8.3104040496e-002   4.3949760583e-001  -8.9732839040e-002  -1.0320832791e-001
  7.0280000000e+010   1.2248834324e-002  -4.8126519810e-002  -7.5675284745e-002   4.3719636774e-001  -8.2933059846e-002   4.3966604490e-001  -9.1197374483e-002  -1.0142995343e-001
  7.0300000000e+010   1.2452346048e-002  -4.7922054061e-002  -7.5478190114e-002   4.3736016029e-001  -8.2742492202e-002   4.3983107037e-001  -9.2595916418e-002  -9.9565169540e-002
  7.0320000000e+010   1.2645784083e-002  -4.7725416829e-002  -7.5261734758e-002   4.3752028866e-001  -8.2532350657e-002   4.3999262605e-001  -9.3926001538e-002  -9.7615943801e-002
  7.0340000000e+010   1.2828950842e-002  -4.7536488867e-002  -7.5025936102e-002   4.3767669636e-001  -8.2302650340e-002   4.4015065539e-001  -9.5185237577e-002  -9.5584359869e-002
  7.0360000000e+010   1.3001653429e-002  -4.7355139551e-002  -7.4770813605e-002   4.3782932656e-001  -8.2053408416e-002   4.4030510146e-001  -9.6371307518e-002  -9.3472615097e-002
  7.0380000000e+010   1.3163704032e-002  -4.7181227037e-002  -7.4496388754e-002   4.3797812215e-001  -8.1784644081e-002   4.4045590697e-001  -9.7481973716e-002  -9.1283017984e-002
  7.0400000000e+010   1.3314920310e-002  -4.7014598424e-002  -7.4202685064e-002   4.3812302573e-001  -8.1496378562e-002   4.4060301429e-001  -9.8515081929e-002  -8.9017985432e-002
  7.0420000000e+010   1.3455125784e-002  -4.6855089943e-002  -7.3889728067e-002   4.3826397960e-001  -8.1188635110e-002   4.4074636545e-001  -9.9468565248e-002  -8.6680039823e-002
  7.0440000000e+010   1.3584150214e-002  -4.6702527159e-002  -7.3557545315e-002   4.3840092583e-001  -8.0861438998e-002   4.4088590218e-001  -1.0034044792e-001  -8.4271805922e-002
  7.0460000000e+010   1.3701829978e-002  -4.6556725188e-002  -7.3206166371e-002   4.3853380624e-001  -8.0514817518e-002   4.4102156591e-001  -1.0112884907e-001  -8.1796007604e-002
  7.0480000000e+010   1.3808008443e-002  -4.6417488940e-002  -7.2835622805e-002   4.3866256244e-001  -8.0148799974e-002   4.4115329781e-001  -1.0183198627e-001  -7.9255464416e-002
  7.0500000000e+010   1.3902536331e-002  -4.6284613365e-002  -7.2445948186e-002   4.3878713581e-001  -7.9763417678e-002   4.4128103876e-001  -1.0244817901e-001  -7.6653087971e-002
  7.0520000000e+010   1.3985272074e-002  -4.6157883725e-002  -7.2037178082e-002   4.3890746756e-001  -7.9358703946e-002   4.4140472940e-001  -1.0297585204e-001  -7.3991878184e-002
  7.0540000000e+010   1.4056082166e-002  -4.6037075875e-002  -7.1609350046e-002   4.3902349871e-001  -7.8934694089e-002   4.4152431016e-001  -1.0341353852e-001  -7.1274919354e-002
  7.0560000000e+010   1.4114841506e-002  -4.5921956571e-002  -7.1162503616e-002   4.3913517012e-001  -7.8491425413e-002   4.4163972122e-001  -1.0375988311e-001  -6.8505376099e-002
  7.0580000000e+010   1.4161433727e-002  -4.5812283774e-002  -7.0696680304e-002   4.3924242251e-001  -7.8028937203e-002   4.4175090259e-001  -1.0401364481e-001  -6.5686489141e-002
  7.0600000000e+010   1.4195751524e-002  -4.5707806992e-002  -7.0211923590e-002   4.3934519648e-001  -7.7547270728e-002   4.4185779408e-001  -1.0417369972e-001  -6.2821570962e-002
  7.0620000000e+010   1.4217696966e-002  -4.5608267613e-002  -6.9708278912e-002   4.3944343249e-001  -7.7046469223e-002   4.4196033533e-001  -1.0423904359e-001  -5.9914001321e-002
  7.0640000000e+010   1.4227181794e-002  -4.5513399272e-002  -6.9185793662e-002   4.3953707093e-001  -7.6526577890e-002   4.4205846585e-001  -1.0420879420e-001  -5.6967222652e-002
  7.0660000000e+010   1.4224127720e-002  -4.5422928219e-002  -6.8644517174e-002   4.3962605211e-001  -7.5987643883e-002   4.4215212499e-001  -1.0408219361e-001  -5.3984735339e-002
  7.0680000000e+010   1.4208466698e-002  -4.5336573706e-002  -6.8084500717e-002   4.3971031626e-001  -7.5429716306e-002   4.4224125199e-001  -1.0385861019e-001  -5.0970092884e-002
  7.0700000000e+010   1.4180141197e-002  -4.5254048382e-002  -6.7505797483e-002   4.3978980356e-001  -7.4852846200e-002   4.4232578599e-001  -1.0353754047e-001  -4.7926896966e-002
  7.0720000000e+010   1.4139104450e-002  -4.5175058703e-002  -6.6908462583e-002   4.3986445417e-001  -7.4257086537e-002   4.4240566602e-001  -1.0311861080e-001  -4.4858792408e-002
  7.0740000000e+010   1.4085320696e-002  -4.5099305358e-002  -6.6292553030e-002   4.3993420822e-001  -7.3642492209e-002   4.4248083108e-001  -1.0260157882e-001  -4.1769462049e-002
  7.0760000000e+010   1.4018765405e-002  -4.5026483695e-002  -6.5658127734e-002   4.3999900585e-001  -7.3009120018e-002   4.4255122007e-001  -1.0198633480e-001  -3.8662621541e-002
  7.0780000000e+010   1.3939425490e-002  -4.4956284167e-002  -6.5005247490e-002   4.4005878720e-001  -7.2357028669e-002   4.4261677186e-001  -1.0127290261e-001  -3.5542014064e-002
  7.0800000000e+010   1.3847299501e-002  -4.4888392783e-002  -6.4333974964e-002   4.4011349244e-001  -7.1686278757e-002   4.4267742531e-001  -1.0046144071e-001  -3.2411404984e-002
  7.0820000000e+010   1.3742397808e-002  -4.4822491573e-002  -6.3644374689e-002   4.4016306179e-001  -7.0996932755e-002   4.4273311926e-001  -9.9552242746e-002  -2.9274576446e-002
  7.0840000000e+010   1.3624742764e-002  -4.4758259052e-002  -6.2936513043e-002   4.4020743553e-001  -7.0289055008e-002   4.4278379254e-001  -9.8545738030e-002  -2.6135321923e-002
  7.0860000000e+010   1.3494368851e-002  -4.4695370703e-002  -6.2210458248e-002   4.4024655401e-001  -6.9562711718e-002   4.4282938403e-001  -9.7442491813e-002  -2.2997440721e-002
  7.0880000000e+010   1.3351322816e-002  -4.4633499462e-002  -6.1466280350e-002   4.4028035766e-001  -6.8817970932e-002   4.4286983261e-001  -9.6243205312e-002  -1.9864732455e-002
  7.0900000000e+010   1.3195663781e-002  -4.4572316206e-002  -6.0704051208e-002   4.4030878703e-001  -6.8054902534e-002   4.4290507725e-001  -9.4948715540e-002  -1.6740991497e-002
  7.0920000000e+010   1.3027463342e-002  -4.4511490255e-002  -5.9923844483e-002   4.4033178278e-001  -6.7273578227e-002   4.4293505696e-001  -9.3559994919e-002  -1.3630001418e-002
  7.0940000000e+010   1.2846805647e-002  -4.4450689873e-002  -5.9125735625e-002   4.4034928570e-001  -6.6474071526e-002   4.4295971083e-001  -9.2078150686e-002  -1.0535529410e-002
  7.0960000000e+010   1.2653787457e-002  -4.4389582773e-002  -5.8309801855e-002   4.4036123673e-001  -6.5656457742e-002   4.4297897806e-001  -9.0504424072e-002  -7.4613207285e-003
  7.0980000000e+010   1.2448518187e-002  -4.4327836633e-002  -5.7476122158e-002   4.4036757699e-001  -6.4820813968e-002   4.4299279794e-001  -8.8840189273e-002  -4.4110931329e-003
  7.1000000000e+010   1.2231119934e-002  -4.4265119602e-002  -5.6624777261e-002   4.4036824775e-001  -6.3967219070e-002   4.4300110991e-001  -8.7086952203e-002  -1.3885313560e-003
  7.1020000000e+010   1.2001727478e-002  -4.4201100824e-002  -5.5755849627e-002   4.4036319049e-001  -6.3095753667e-002   4.4300385354e-001  -8.5246349037e-002   1.6027183992e-003
  7.1040000000e+010   1.1760488269e-002  -4.4135450948e-002  -5.4869423432e-002   4.4035234688e-001  -6.2206500122e-002   4.4300096854e-001  -8.3320144533e-002   4.5590539231e-003
  7.1060000000e+010   1.1507562397e-002  -4.4067842652e-002  -5.3965584557e-002   4.4033565882e-001  -6.1299542527e-002   4.4299239481e-001  -8.1310230154e-002   7.4769224151e-003
  7.1080000000e+010   1.1243122536e-002  -4.3997951154e-002  -5.3044420567e-002   4.4031306845e-001  -6.0374966684e-002   4.4297807242e-001  -7.9218621966e-002   1.0352825842e-002
  7.1100000000e+010   1.0967353878e-002  -4.3925454735e-002  -5.2106020698e-002   4.4028451815e-001  -5.9432860095e-002   4.4295794164e-001  -7.7047458342e-002   1.3183326230e-002
  7.1120000000e+010   1.0680454036e-002  -4.3850035246e-002  -5.1150475844e-002   4.4024995054e-001  -5.8473311945e-002   4.4293194296e-001  -7.4798997449e-002   1.5965050883e-002
  7.1140000000e+010   1.0382632940e-002  -4.3771378630e-002  -5.0177878534e-002   4.4020930854e-001  -5.7496413086e-002   4.4290001707e-001  -7.2475614543e-002   1.8694697517e-002
  7.1160000000e+010   1.0074112706e-002  -4.3689175420e-002  -4.9188322922e-002   4.4016253536e-001  -5.6502256021e-002   4.4286210493e-001  -7.0079799058e-002   2.1369039303e-002
  7.1180000000e+010   9.7551274838e-003  -4.3603121254e-002  -4.8181904766e-002   4.4010957449e-001  -5.5490934891e-002   4.4281814773e-001  -6.7614151500e-002   2.3984929805e-002
  7.1200000000e+010   9.4259232968e-003  -4.3512917364e-002  -4.7158721413e-002   4.4005036974e-001  -5.4462545453e-002   4.4276808693e-001  -6.5081380156e-002   2.6539307818e-002
  7.1220000000e+010   9.0867578490e-003  -4.3418271081e-002  -4.6118871783e-002   4.3998486526e-001  -5.3417185069e-002   4.4271186428e-001  -6.2484297606e-002   2.9029202078e-002
  7.1240000000e+010   8.7379003221e-003  -4.3318896312e-002  -4.5062456348e-002   4.3991300552e-001  -5.2354952687e-002   4.4264942181e-001  -5.9825817061e-002   3.1451735853e-002
  7.1260000000e+010   8.3796311509e-003  -4.3214514028e-002  -4.3989577118e-002   4.3983473535e-001  -5.1275948822e-002   4.4258070185e-001  -5.7108948518e-002   3.3804131404e-002
  7.1280000000e+010   8.0122417799e-003  -4.3104852731e-002  -4.2900337619e-002   4.3974999993e-001  -5.0180275543e-002   4.4250564707e-001  -5.4336794746e-002   3.6083714292e-002
  7.1300000000e+010   7.6360344019e-003  -4.2989648920e-002  -4.1794842881e-002   4.3965874485e-001  -4.9068036451e-002   4.4242420044e-001  -5.1512547104e-002   3.8287917550e-002
  7.1320000000e+010   7.2513216790e-003  -4.2868647541e-002  -4.0673199411e-002   4.3956091604e-001  -4.7939336664e-002   4.4233630531e-001  -4.8639481195e-002   4.0414285693e-002
  7.1340000000e+010   6.8584264449e-003  -4.2741602436e-002  -3.9535515184e-002   4.3945645987e-001  -4.6794282799e-002   4.4224190534e-001  -4.5720952372e-002   4.2460478564e-002
  7.1360000000e+010   6.4576813901e-003  -4.2608276769e-002  -3.8381899617e-002   4.3934532310e-001  -4.5632982951e-002   4.4214094460e-001  -4.2760391092e-002   4.4424275011e-002
  7.1380000000e+010   6.0494287303e-003  -4.2468443450e-002  -3.7212463550e-002   4.3922745291e-001  -4.4455546678e-002   4.4203336752e-001  -3.9761298127e-002   4.6303576390e-002
  7.1400000000e+010   5.6340198574e-003  -4.2321885540e-002  -3.6027319234e-002   4.3910279693e-001  -4.3262084982e-002   4.4191911891e-001  -3.6727239644e-002   4.8096409881e-002
  7.1420000000e+010   5.2118149747e-003  -4.2168396648e-002  -3.4826580303e-002   4.3897130321e-001  -4.2052710287e-002   4.4179814400e-001  -3.3661842158e-002   4.9800931616e-002
  7.1440000000e+010   4.7831827158e-003  -4.2007781313e-002  -3.3610361758e-002   4.3883292027e-001  -4.0827536422e-002   4.4167038843e-001  -3.0568787364e-002   5.1415429614e-002
  7.1460000000e+010   4.3484997486e-003  -4.1839855363e-002  -3.2378779948e-002   4.3868759710e-001  -3.9586678603e-002   4.4153579826e-001  -2.7451806854e-002   5.2938326516e-002
  7.1480000000e+010   3.9081503631e-003  -4.1664446275e-002  -3.1131952550e-002   4.3853528315e-001  -3.8330253412e-002   4.4139431999e-001  -2.4314676744e-002   5.4368182111e-002
  7.1500000000e+010   3.4625260467e-003  -4.1481393503e-002  -2.9869998545e-002   4.3837592837e-001  -3.7058378776e-002   4.4124590058e-001  -2.1161212186e-002   5.5703695653e-002
  7.1520000000e+010   3.0120250437e-003  -4.1290548801e-002  -2.8593038203e-002   4.3820948320e-001  -3.5771173951e-002   4.4109048742e-001  -1.7995261811e-002   5.6943707966e-002
  7.1540000000e+010   2.5570519029e-003  -4.1091776523e-002  -2.7301193059e-002   4.3803589858e-001  -3.4468759499e-002   4.4092802838e-001  -1.4820702083e-002   5.8087203327e-002
  7.1560000000e+010   2.0980170114e-003  -4.0884953907e-002  -2.5994585892e-002   4.3785512598e-001  -3.3151257268e-002   4.4075847183e-001  -1.1641431587e-002   5.9133311128e-002
  7.1580000000e+010   1.6353361173e-003  -4.0669971341e-002  -2.4673340707e-002   4.3766711738e-001  -3.1818790372e-002   4.4058176659e-001  -8.4613652608e-003   6.0081307306e-002
  7.1600000000e+010   1.1694298402e-003  -4.0446732613e-002  -2.3337582712e-002   4.3747182529e-001  -3.0471483173e-002   4.4039786201e-001  -5.2844285667e-003   6.0930615556e-002
  7.1620000000e+010   7.0072317102e-004  -4.0215155136e-002  -2.1987438296e-002   4.3726920278e-001  -2.9109461255e-002   4.4020670793e-001  -2.1145516297e-003   6.1680808295e-002
  7.1640000000e+010   2.2964496224e-004  -3.9975170160e-002  -2.0623035009e-002   4.3705920346e-001  -2.7732851409e-002   4.4000825472e-001   1.0443366612e-003   6.2331607408e-002
  7.1660000000e+010  -2.4337259192e-004  -3.9726722956e-002  -1.9244501541e-002   4.3684178151e-001  -2.6341781608e-002   4.3980245327e-001   4.1883145740e-003   6.2882884744e-002
  7.1680000000e+010  -7.1789448364e-004  -3.9469772994e-002  -1.7851967701e-002   4.3661689165e-001  -2.4936380989e-002   4.3958925500e-001   7.3134734674e-003   6.3334662384e-002
  7.1700000000e+010  -1.1934834276e-003  -3.9204294082e-002  -1.6445564391e-002   4.3638448920e-001  -2.3516779828e-002   4.3936861188e-001   1.0415923729e-002   6.3687112662e-002
  7.1720000000e+010  -1.6697004044e-003  -3.8930274496e-002  -1.5025423590e-002   4.3614453007e-001  -2.2083109522e-002   4.3914047644e-001   1.3491800709e-002   6.3940557951e-002
  7.1740000000e+010  -2.1461052100e-003  -3.8647717089e-002  -1.3591678329e-002   4.3589697073e-001  -2.0635502567e-002   4.3890480177e-001   1.6537270635e-002   6.4095470206e-002
  7.1760000000e+010  -2.6222570114e-003  -3.8356639371e-002  -1.2144462669e-002   4.3564176828e-001  -1.9174092535e-002   4.3866154151e-001   1.9548536503e-002   6.4152470268e-002
  7.1780000000e+010  -3.0977149064e-003  -3.8057073573e-002  -1.0683911680e-002   4.3537888040e-001  -1.7699014054e-002   4.3841064990e-001   2.2521843938e-002   6.4112326923e-002
  7.1800000000e+010  -3.5720384880e-003  -3.7749066686e-002  -9.2101614160e-003   4.3510826540e-001  -1.6210402785e-002   4.3815208176e-001   2.5453487002e-002   6.3975955733e-002
  7.1820000000e+010  -4.0447884114e-003  -3.7432680481e-002  -7.7233488984e-003   4.3482988220e-001  -1.4708395402e-002   4.3788579249e-001   2.8339813953e-002   6.3744417615e-002
  7.1840000000e+010  -4.5155269638e-003  -3.7107991503e-002  -6.2236120883e-003   4.3454369034e-001  -1.3193129565e-002   4.3761173811e-001   3.1177232938e-002   6.3418917192e-002
  7.1860000000e+010  -4.9838186351e-003  -3.6775091044e-002  -4.7110898663e-003   4.3424965001e-001  -1.1664743908e-002   4.3732987523e-001   3.3962217614e-002   6.3000800909e-002
  7.1880000000e+010  -5.4492306899e-003  -3.6434085097e-002  -3.1859220097e-003   4.3394772202e-001  -1.0123378004e-002   4.3704016108e-001   3.6691312683e-002   6.2491554915e-002
  7.1900000000e+010  -5.9113337390e-003  -3.6085094276e-002  -1.6482491703e-003   4.3363786782e-001  -8.5691723549e-003   4.3674255351e-001   3.9361139335e-002   6.1892802714e-002
  7.1920000000e+010  -6.3697023093e-003  -3.5728253732e-002  -9.8212851318e-005   4.3332004952e-001  -7.0022683609e-003   4.3643701100e-001   4.1968400597e-002   6.1206302595e-002
  7.1940000000e+010  -6.8239154126e-003  -3.5363713025e-002   1.4640446148e-003   4.3299422987e-001  -5.4228083024e-003   4.3612349267e-001   4.4509886556e-002   6.0433944838e-002
  7.1960000000e+010  -7.2735571112e-003  -3.4991635993e-002   3.0383800893e-003   4.3266037230e-001  -3.8309353161e-003   4.3580195825e-001   4.6982479474e-002   5.9577748696e-002
  7.1980000000e+010  -7.7182170793e-003  -3.4612200585e-002   4.6246496498e-003   4.3231844089e-001  -2.2267933734e-003   4.3547236814e-001   4.9383158773e-002   5.8639859173e-002
  7.2000000000e+010  -8.1574911607e-003  -3.4225598676e-002   6.2227086129e-003   4.3196840037e-001  -6.1052725750e-004   4.3513468339e-001   5.1709005875e-002   5.7622543582e-002
  7.2020000000e+010  -8.5909819207e-003  -3.3832035864e-002   7.8324115569e-003   4.3161021617e-001   1.0177174589e-003   4.3478886568e-001   5.3957208907e-002   5.6528187911e-002
  7.2040000000e+010  -9.0182991916e-003  -3.3431731238e-002   9.4536123448e-003   4.3124385438e-001   2.6577944361e-003   4.3443487739e-001   5.6125067241e-002   5.5359292976e-002
  7.2060000000e+010  -9.4390606109e-003  -3.3024917129e-002   1.1086164147e-002   4.3086928177e-001   4.3095565896e-003   4.3407268153e-001   5.8209995877e-002   5.4118470394e-002
  7.2080000000e+010  -9.8528921524e-003  -3.2611838839e-002   1.2729919463e-002   4.3048646579e-001   5.9728561132e-003   4.3370224179e-001   6.0209529660e-002   5.2808438364e-002
  7.2100000000e+010  -1.0259428647e-002  -3.2192754347e-002   1.4384730147e-002   4.3009537460e-001   7.6475445008e-003   4.3332352255e-001   6.2121327310e-002   5.1432017263e-002
  7.2120000000e+010  -1.0658314296e-002  -3.1767933995e-002   1.6050447427e-002   4.2969597701e-001   9.3334725695e-003   4.3293648883e-001   6.3943175273e-002   4.9992125083e-002
  7.2140000000e+010  -1.1049203171e-002  -3.1337660156e-002   1.7726921931e-002   4.2928824255e-001   1.1030490482e-002   4.3254110637e-001   6.5672991383e-002   4.8491772682e-002
  7.2160000000e+010  -1.1431759705e-002  -3.0902226878e-002   1.9414003705e-002   4.2887214145e-001   1.2738447769e-002   4.3213734158e-001   6.7308828317e-002   4.6934058897e-002
