# Hz S RI R 1.000000
! Metas.Vna.Tools, 2.4.7898.19887
! Metas.Vna.Data, 2.4.7898.19873
! Created: UTC 2021.09.30 14:30:59
! FREQ                re:S1,1             im:S1,1             re:S2,1             im:S2,1             re:S1,2             im:S1,2             re:S2,2             im:S2,2          
  7.0000000000e+010   4.5367684686e-002  -3.1111783911e-002  -1.2383550447e-001   3.4041358036e-001  -1.2882666831e-001   3.4054484014e-001  -1.5277017542e-001  -1.2628982695e-001
  7.0020000000e+010   4.5041359348e-002  -3.1884682597e-002  -1.2392722115e-001   3.4052350931e-001  -1.2891810051e-001   3.4065307224e-001  -1.5514651160e-001  -1.2460601641e-001
  7.0040000000e+010   4.4706827041e-002  -3.2652137943e-002  -1.2400367423e-001   3.4063429499e-001  -1.2899426876e-001   3.4076227898e-001  -1.5743614253e-001  -1.2280714254e-001
  7.0060000000e+010   4.4363988660e-002  -3.3413653832e-002  -1.2406485090e-001   3.4074591155e-001  -1.2905516030e-001   3.4087243480e-001  -1.5963547077e-001  -1.2089509152e-001
  7.0080000000e+010   4.4012751989e-002  -3.4168738525e-002  -1.2411073966e-001   3.4085833248e-001  -1.2910076367e-001   3.4098351348e-001  -1.6174097842e-001  -1.1887190735e-001
  7.0100000000e+010   4.3653031874e-002  -3.4916904983e-002  -1.2414133033e-001   3.4097153054e-001  -1.2913106870e-001   3.4109548806e-001  -1.6374923304e-001  -1.1673978977e-001
  7.0120000000e+010   4.3284750390e-002  -3.5657671183e-002  -1.2415661399e-001   3.4108547779e-001  -1.2914606649e-001   3.4120833088e-001  -1.6565689340e-001  -1.1450109185e-001
  7.0140000000e+010   4.2907837001e-002  -3.6390560433e-002  -1.2415658307e-001   3.4120014561e-001  -1.2914574944e-001   3.4132201360e-001  -1.6746071522e-001  -1.1215831741e-001
  7.0160000000e+010   4.2522228717e-002  -3.7115101679e-002  -1.2414123125e-001   3.4131550471e-001  -1.2913011126e-001   3.4143650719e-001  -1.6915755680e-001  -1.0971411818e-001
  7.0180000000e+010   4.2127870240e-002  -3.7830829823e-002  -1.2411055357e-001   3.4143152511e-001  -1.2909914693e-001   3.4155178196e-001  -1.7074438448e-001  -1.0717129068e-001
  7.0200000000e+010   4.1724714111e-002  -3.8537286015e-002  -1.2406454634e-001   3.4154817618e-001  -1.2905285271e-001   3.4166780753e-001  -1.7221827807e-001  -1.0453277289e-001
  7.0220000000e+010   4.1312720844e-002  -3.9234017965e-002  -1.2400320720e-001   3.4166542664e-001  -1.2899122619e-001   3.4178455288e-001  -1.7357643604e-001  -1.0180164068e-001
  7.0240000000e+010   4.0891859055e-002  -3.9920580231e-002  -1.2392653506e-001   3.4178324455e-001  -1.2891426623e-001   3.4190198635e-001  -1.7481618072e-001  -9.8981103977e-002
  7.0260000000e+010   4.0462105588e-002  -4.0596534519e-002  -1.2383453017e-001   3.4190159734e-001  -1.2882197297e-001   3.4202007561e-001  -1.7593496317e-001  -9.6074502769e-002
  7.0280000000e+010   4.0023445631e-002  -4.1261449967e-002  -1.2372719409e-001   3.4202045182e-001  -1.2871434788e-001   3.4213878773e-001  -1.7693036807e-001  -9.3085302808e-002
  7.0300000000e+010   3.9575872822e-002  -4.1914903434e-002  -1.2360452965e-001   3.4213977418e-001  -1.2859139368e-001   3.4225808912e-001  -1.7780011830e-001  -9.0017091157e-002
  7.0320000000e+010   3.9119389352e-002  -4.2556479778e-002  -1.2346654101e-001   3.4225952998e-001  -1.2845311442e-001   3.4237794562e-001  -1.7854207944e-001  -8.6873571493e-002
  7.0340000000e+010   3.8654006062e-002  -4.3185772132e-002  -1.2331323363e-001   3.4237968419e-001  -1.2829951541e-001   3.4249832244e-001  -1.7915426403e-001  -8.3658559219e-002
  7.0360000000e+010   3.8179742524e-002  -4.3802382175e-002  -1.2314461428e-001   3.4250020122e-001  -1.2813060327e-001   3.4261918418e-001  -1.7963483569e-001  -8.0375976371e-002
  7.0380000000e+010   3.7696627124e-002  -4.4405920401e-002  -1.2296069101e-001   3.4262104484e-001  -1.2794638589e-001   3.4274049489e-001  -1.7998211297e-001  -7.7029846335e-002
  7.0400000000e+010   3.7204697130e-002  -4.4996006377e-002  -1.2276147319e-001   3.4274217828e-001  -1.2774687246e-001   3.4286221801e-001  -1.8019457306e-001  -7.3624288383e-002
  7.0420000000e+010   3.6703998754e-002  -4.5572269003e-002  -1.2254697148e-001   3.4286356422e-001  -1.2753207345e-001   3.4298431643e-001  -1.8027085523e-001  -7.0163512029e-002
  7.0440000000e+010   3.6194587206e-002  -4.6134346760e-002  -1.2231719783e-001   3.4298516474e-001  -1.2730200061e-001   3.4310675247e-001  -1.8020976409e-001  -6.6651811216e-002
  7.0460000000e+010   3.5676526739e-002  -4.6681887958e-002  -1.2207216549e-001   3.4310694142e-001  -1.2705666697e-001   3.4322948790e-001  -1.8001027260e-001  -6.3093558353e-002
  7.0480000000e+010   3.5149890686e-002  -4.7214550976e-002  -1.2181188901e-001   3.4322885527e-001  -1.2679608685e-001   3.4335248396e-001  -1.7967152484e-001  -5.9493198182e-002
  7.0500000000e+010   3.4614761485e-002  -4.7732004494e-002  -1.2153638421e-001   3.4335086679e-001  -1.2652027582e-001   3.4347570135e-001  -1.7919283854e-001  -5.5855241526e-002
  7.0520000000e+010   3.4071230701e-002  -4.8233927727e-002  -1.2124566821e-001   3.4347293597e-001  -1.2622925076e-001   3.4359910024e-001  -1.7857370737e-001  -5.2184258884e-002
  7.0540000000e+010   3.3519399033e-002  -4.8720010642e-002  -1.2093975941e-001   3.4359502227e-001  -1.2592302977e-001   3.4372264030e-001  -1.7781380299e-001  -4.8484873917e-002
  7.0560000000e+010   3.2959376313e-002  -4.9189954181e-002  -1.2061867748e-001   3.4371708466e-001  -1.2560163227e-001   3.4384628069e-001  -1.7691297678e-001  -4.4761756812e-002
  7.0580000000e+010   3.2391281502e-002  -4.9643470466e-002  -1.2028244337e-001   3.4383908164e-001  -1.2526507890e-001   3.4396998008e-001  -1.7587126139e-001  -4.1019617547e-002
  7.0600000000e+010   3.1815242665e-002  -5.0080283005e-002  -1.1993107932e-001   3.4396097121e-001  -1.2491339158e-001   3.4409369665e-001  -1.7468887195e-001  -3.7263199066e-002
  7.0620000000e+010   3.1231396945e-002  -5.0500126892e-002  -1.1956460881e-001   3.4408271090e-001  -1.2454659348e-001   3.4421738812e-001  -1.7336620707e-001  -3.3497270362e-002
  7.0640000000e+010   3.0639890528e-002  -5.0902748994e-002  -1.1918305659e-001   3.4420425778e-001  -1.2416470902e-001   3.4434101172e-001  -1.7190384951e-001  -2.9726619498e-002
  7.0660000000e+010   3.0040878591e-002  -5.1287908138e-002  -1.1878644870e-001   3.4432556850e-001  -1.2376776387e-001   3.4446452426e-001  -1.7030256661e-001  -2.5956046563e-002
  7.0680000000e+010   2.9434525246e-002  -5.1655375289e-002  -1.1837481240e-001   3.4444659923e-001  -1.2335578493e-001   3.4458788205e-001  -1.6856331043e-001  -2.2190356582e-002
  7.0700000000e+010   2.8821003477e-002  -5.2004933716e-002  -1.1794817621e-001   3.4456730572e-001  -1.2292880037e-001   3.4471104103e-001  -1.6668721759e-001  -1.8434352380e-002
  7.0720000000e+010   2.8200495055e-002  -5.2336379159e-002  -1.1750656991e-001   3.4468764332e-001  -1.2248683956e-001   3.4483395665e-001  -1.6467560885e-001  -1.4692827429e-002
  7.0740000000e+010   2.7573190459e-002  -5.2649519982e-002  -1.1705002450e-001   3.4480756694e-001  -1.2202993310e-001   3.4495658399e-001  -1.6252998839e-001  -1.0970558670e-002
  7.0760000000e+010   2.6939288772e-002  -5.2944177323e-002  -1.1657857223e-001   3.4492703111e-001  -1.2155811284e-001   3.4507887770e-001  -1.6025204281e-001  -7.2722993403e-003
  7.0780000000e+010   2.6298997581e-002  -5.3220185234e-002  -1.1609224657e-001   3.4504598997e-001  -1.2107141182e-001   3.4520079204e-001  -1.5784363986e-001  -3.6027717990e-003
  7.0800000000e+010   2.5652532854e-002  -5.3477390812e-002  -1.1559108222e-001   3.4516439724e-001  -1.2056986430e-001   3.4532228088e-001  -1.5530682682e-001   3.3339620478e-005
  7.0820000000e+010   2.5000118816e-002  -5.3715654325e-002  -1.1507511511e-001   3.4528220633e-001  -1.2005350576e-001   3.4544329770e-001  -1.5264382871e-001   3.6313957312e-003
  7.0840000000e+010   2.4341987813e-002  -5.3934849330e-002  -1.1454438236e-001   3.4539937023e-001  -1.1952237284e-001   3.4556379564e-001  -1.4985704606e-001   7.1868095699e-003
  7.0860000000e+010   2.3678380161e-002  -5.4134862778e-002  -1.1399892231e-001   3.4551584161e-001  -1.1897650343e-001   3.4568372744e-001  -1.4694905258e-001   1.0695053419e-002
  7.0880000000e+010   2.3009543996e-002  -5.4315595119e-002  -1.1343877450e-001   3.4563157279e-001  -1.1841593657e-001   3.4580304554e-001  -1.4392259237e-001   1.4151665764e-002
  7.0900000000e+010   2.2335735101e-002  -5.4476960388e-002  -1.1286397966e-001   3.4574651575e-001  -1.1784071248e-001   3.4592170199e-001  -1.4078057700e-001   1.7552258173e-002
  7.0920000000e+010   2.1657216733e-002  -5.4618886293e-002  -1.1227457970e-001   3.4586062215e-001  -1.1725087257e-001   3.4603964854e-001  -1.3752608222e-001   2.0892522086e-002
  7.0940000000e+010   2.0974259436e-002  -5.4741314289e-002  -1.1167061771e-001   3.4597384335e-001  -1.1664645942e-001   3.4615683663e-001  -1.3416234441e-001   2.4168235502e-002
  7.0960000000e+010   2.0287140845e-002  -5.4844199640e-002  -1.1105213798e-001   3.4608613039e-001  -1.1602751675e-001   3.4627321734e-001  -1.3069275684e-001   2.7375269564e-002
  7.0980000000e+010   1.9596145482e-002  -5.4927511479e-002  -1.1041918593e-001   3.4619743401e-001  -1.1539408945e-001   3.4638874151e-001  -1.2712086559e-001   3.0509595005e-002
  7.1000000000e+010   1.8901564539e-002  -5.4991232856e-002  -1.0977180816e-001   3.4630770468e-001  -1.1474622356e-001   3.4650335964e-001  -1.2345036521e-001   3.3567288474e-002
  7.1020000000e+010   1.8203695656e-002  -5.5035360774e-002  -1.0911005241e-001   3.4641689258e-001  -1.1408396625e-001   3.4661702198e-001  -1.1968509418e-001   3.6544538709e-002
  7.1040000000e+010   1.7502842686e-002  -5.5059906221e-002  -1.0843396755e-001   3.4652494765e-001  -1.1340736581e-001   3.4672967847e-001  -1.1582903007e-001   3.9437652558e-002
  7.1060000000e+010   1.6799315456e-002  -5.5064894186e-002  -1.0774360362e-001   3.4663181954e-001  -1.1271647168e-001   3.4684127883e-001  -1.1188628455e-001   4.2243060834e-002
  7.1080000000e+010   1.6093429510e-002  -5.5050363676e-002  -1.0703901176e-001   3.4673745768e-001  -1.1201133438e-001   3.4695177249e-001  -1.0786109801e-001   4.4957323988e-002
  7.1100000000e+010   1.5385505856e-002  -5.5016367708e-002  -1.0632024423e-001   3.4684181125e-001  -1.1129200558e-001   3.4706110866e-001  -1.0375783414e-001   4.7577137607e-002
  7.1120000000e+010   1.4675870691e-002  -5.4962973306e-002  -1.0558735441e-001   3.4694482919e-001  -1.1055853802e-001   3.4716923630e-001  -9.9580974135e-002   5.0099337701e-002
  7.1140000000e+010   1.3964855129e-002  -5.4890261483e-002  -1.0484039677e-001   3.4704646025e-001  -1.0981098553e-001   3.4727610414e-001  -9.5335110805e-002   5.2520905798e-002
  7.1160000000e+010   1.3252794915e-002  -5.4798327207e-002  -1.0407942688e-001   3.4714665295e-001  -1.0904940303e-001   3.4738166071e-001  -9.1024942395e-002   5.4838973818e-002
  7.1180000000e+010   1.2540030129e-002  -5.4687279366e-002  -1.0330450139e-001   3.4724535561e-001  -1.0827384651e-001   3.4748585431e-001  -8.6655266276e-002   5.7050828724e-002
  7.1200000000e+010   1.1826904891e-002  -5.4557240719e-002  -1.0251567803e-001   3.4734251636e-001  -1.0748437304e-001   3.4758863307e-001  -8.2230972419e-002   5.9153916938e-002
  7.1220000000e+010   1.1113767048e-002  -5.4408347837e-002  -1.0171301559e-001   3.4743808317e-001  -1.0668104071e-001   3.4768994489e-001  -7.7757036708e-002   6.1145848525e-002
  7.1240000000e+010   1.0400967862e-002  -5.4240751033e-002  -1.0089657393e-001   3.4753200380e-001  -1.0586390870e-001   3.4778973754e-001  -7.3238514081e-002   6.3024401123e-002
  7.1260000000e+010   9.6888616881e-003  -5.4054614282e-002  -1.0006641393e-001   3.4762422587e-001  -1.0503303719e-001   3.4788795856e-001  -6.8680531526e-002   6.4787523618e-002
  7.1280000000e+010   8.9778056426e-003  -5.3850115134e-002  -9.9222597541e-002   3.4771469684e-001  -1.0418848742e-001   3.4798455538e-001  -6.4088280923e-002   6.6433339557e-002
  7.1300000000e+010   8.2681592716e-003  -5.3627444613e-002  -9.8365187713e-002   3.4780336402e-001  -1.0333032161e-001   3.4807947524e-001  -5.9467011760e-002   6.7960150296e-002
  7.1320000000e+010   7.5602842087e-003  -5.3386807105e-002  -9.7494248433e-002   3.4789017459e-001  -1.0245860301e-001   3.4817266526e-001  -5.4822023731e-002   6.9366437866e-002
  7.1340000000e+010   6.8545438281e-003  -5.3128420236e-002  -9.6609844688e-002   3.4797507559e-001  -1.0157339589e-001   3.4826407239e-001  -5.0158659212e-002   7.0650867565e-002
  7.1360000000e+010   6.1513028928e-003  -5.2852514746e-002  -9.5712042467e-002   3.4805801396e-001  -1.0067476547e-001   3.4835364349e-001  -4.5482295646e-002   7.1812290261e-002
  7.1380000000e+010   5.4509271976e-003  -5.2559334341e-002  -9.4800908746e-002   3.4813893650e-001  -9.9762777980e-002   3.4844132528e-001  -4.0798337843e-002   7.2849744405e-002
  7.1400000000e+010   4.7537832070e-003  -5.2249135542e-002  -9.3876511480e-002   3.4821778994e-001  -9.8837500595e-002   3.4852706437e-001  -3.6112210200e-002   7.3762457743e-002
  7.1420000000e+010   4.0602376896e-003  -5.1922187526e-002  -9.2938919592e-002   3.4829452088e-001  -9.7899001463e-002   3.4861080726e-001  -3.1429348858e-002   7.4549848742e-002
  7.1440000000e+010   3.3706573475e-003  -5.1578771945e-002  -9.1988202962e-002   3.4836907587e-001  -9.6947349680e-002   3.4869250038e-001  -2.6755193813e-002   7.5211527700e-002
  7.1460000000e+010   2.6854084428e-003  -5.1219182749e-002  -9.1024432416e-002   3.4844140136e-001  -9.5982615278e-002   3.4877209004e-001  -2.2095180985e-002   7.5747297560e-002
  7.1480000000e+010   2.0048564209e-003  -5.0843725986e-002  -9.0047679718e-002   3.4851144374e-001  -9.5004869216e-002   3.4884952251e-001  -1.7454734264e-002   7.6157154409e-002
  7.1500000000e+010   1.3293655309e-003  -5.0452719600e-002  -8.9058017557e-002   3.4857914933e-001  -9.4014183372e-002   3.4892474397e-001  -1.2839257541e-002   7.6441287676e-002
  7.1520000000e+010   6.5929844316e-004  -5.0046493212e-002  -8.8055519538e-002   3.4864446440e-001  -9.3010630531e-002   3.4899770053e-001  -8.2541267398e-003   7.6600080010e-002
  7.1540000000e+010  -4.9841342923e-006  -4.9625387900e-002  -8.7040260167e-002   3.4870733519e-001  -9.1994284374e-002   3.4906833826e-001  -3.7046818644e-003   7.6634106854e-002
  7.1560000000e+010  -6.6312384145e-004  -4.9189755953e-002  -8.6012314847e-002   3.4876770788e-001  -9.0965219464e-002   3.4913660318e-001   8.0378093202e-004   7.6544135700e-002
  7.1580000000e+010  -1.3147650530e-003  -4.8739960635e-002  -8.4971759860e-002   3.4882552863e-001  -8.9923511244e-002   3.4920244127e-001   5.2660172368e-003   7.6331125041e-002
  7.1600000000e+010  -1.9595552658e-003  -4.8276375918e-002  -8.3918672359e-002   3.4888074359e-001  -8.8869236016e-002   3.4926579849e-001   9.6768422163e-003   7.5996223001e-002
  7.1620000000e+010  -2.5971454860e-003  -4.7799386222e-002  -8.2853130359e-002   3.4893329888e-001  -8.7802470935e-002   3.4932662076e-001   1.4031138391e-002   7.5540765663e-002
  7.1640000000e+010  -3.2271906172e-003  -4.7309386134e-002  -8.1775212720e-002   3.4898314063e-001  -8.6723293999e-002   3.4938485400e-001   1.8323863330e-002   7.4966275090e-002
  7.1660000000e+010  -3.8493498464e-003  -4.6806780121e-002  -8.0684999142e-002   3.4903021495e-001  -8.5631784035e-002   3.4944044413e-001   2.2550057263e-002   7.4274457030e-002
  7.1680000000e+010  -4.4632870300e-003  -4.6291982237e-002  -7.9582570148e-002   3.4907446797e-001  -8.4528020689e-002   3.4949333703e-001   2.6704850579e-002   7.3467198333e-002
  7.1700000000e+010  -5.0686710778e-003  -4.5765415810e-002  -7.8468007077e-002   3.4911584585e-001  -8.3412084415e-002   3.4954347864e-001   3.0783471219e-002   7.2546564054e-002
  7.1720000000e+010  -5.6651763345e-003  -4.5227513130e-002  -7.7341392070e-002   3.4915429475e-001  -8.2284056461e-002   3.4959081487e-001   3.4781251935e-002   7.1514794271e-002
  7.1740000000e+010  -6.2524829599e-003  -4.4678715122e-002  -7.6202808059e-002   3.4918976087e-001  -8.1144018863e-002   3.4963529168e-001   3.8693637414e-002   7.0374300606e-002
  7.1760000000e+010  -6.8302773043e-003  -4.4119471012e-002  -7.5052338754e-002   3.4922219045e-001  -7.9992054429e-002   3.4967685505e-001   4.2516191246e-002   6.9127662461e-002
  7.1780000000e+010  -7.3982522824e-003  -4.3550237980e-002  -7.3890068635e-002   3.4925152978e-001  -7.8828246729e-002   3.4971545099e-001   4.6244602732e-002   6.7777622978e-002
  7.1800000000e+010  -7.9561077414e-003  -4.2971480812e-002  -7.2716082936e-002   3.4927772518e-001  -7.7652680082e-002   3.4975102556e-001   4.9874693510e-002   6.6327084711e-002
  7.1820000000e+010  -8.5035508263e-003  -4.2383671534e-002  -7.1530467637e-002   3.4930072305e-001  -7.6465439548e-002   3.4978352486e-001   5.3402424003e-002   6.4779105047e-002
  7.1840000000e+010  -9.0402963387e-003  -4.1787289044e-002  -7.0333309449e-002   3.4932046985e-001  -7.5266610913e-002   3.4981289505e-001   5.6823899666e-002   6.3136891349e-002
  7.1860000000e+010  -9.5660670917e-003  -4.1182818734e-002  -6.9124695803e-002   3.4933691210e-001  -7.4056280678e-002   3.4983908236e-001   6.0135377016e-002   6.1403795857e-002
  7.1880000000e+010  -1.0080594258e-002  -4.0570752103e-002  -6.7904714839e-002   3.4934999641e-001  -7.2834536049e-002   3.4986203309e-001   6.3333269458e-002   5.9583310334e-002
  7.1900000000e+010  -1.0583617711e-002  -3.9951586362e-002  -6.6673455396e-002   3.4935966946e-001  -7.1601464924e-002   3.4988169359e-001   6.6414152869e-002   5.7679060478e-002
  7.1920000000e+010  -1.1074886363e-002  -3.9325824034e-002  -6.5431006995e-002   3.4936587805e-001  -7.0357155880e-002   3.4989801031e-001   6.9374770946e-002   5.5694800103e-002
  7.1940000000e+010  -1.1554158488e-002  -3.8693972544e-002  -6.4177459831e-002   3.4936856904e-001  -6.9101698165e-002   3.4991092980e-001   7.2212040311e-002   5.3634405099e-002
  7.1960000000e+010  -1.2021202047e-002  -3.8056543803e-002  -6.2912904758e-002   3.4936768942e-001  -6.7835181681e-002   3.4992039868e-001   7.4923055347e-002   5.1501867182e-002
  7.1980000000e+010  -1.2475794997e-002  -3.7414053788e-002  -6.1637433283e-002   3.4936318627e-001  -6.6557696976e-002   3.4992636367e-001   7.7505092780e-002   4.9301287443e-002
  7.2000000000e+010  -1.2917725594e-002  -3.6767022109e-002  -6.0351137546e-002   3.4935500680e-001  -6.5269335234e-002   3.4992877163e-001   7.9955615973e-002   4.7036869701e-002
  7.2020000000e+010  -1.3346792689e-002  -3.6115971576e-002  -5.9054110314e-002   3.4934309832e-001  -6.3970188257e-002   3.4992756949e-001   8.2272278950e-002   4.4712913687e-002
  7.2040000000e+010  -1.3762806011e-002  -3.5461427761e-002  -5.7746444966e-002   3.4932740830e-001  -6.2660348458e-002   3.4992270431e-001   8.4452930118e-002   4.2333808045e-002
  7.2060000000e+010  -1.4165586442e-002  -3.4803918546e-002  -5.6428235482e-002   3.4930788430e-001  -6.1339908848e-002   3.4991412328e-001   8.6495615700e-002   3.9904023183e-002
  7.2080000000e+010  -1.4554966283e-002  -3.4143973677e-002  -5.5099576432e-002   3.4928447405e-001  -6.0008963024e-002   3.4990177372e-001   8.8398582862e-002   3.7428103979e-002
  7.2100000000e+010  -1.4930789502e-002  -3.3482124307e-002  -5.3760562961e-002   3.4925712541e-001  -5.8667605157e-002   3.4988560307e-001   9.0160282527e-002   3.4910662343e-002
  7.2120000000e+010  -1.5292911982e-002  -3.2818902534e-002  -5.2411290780e-002   3.4922578638e-001  -5.7315929981e-002   3.4986555891e-001   9.1779371877e-002   3.2356369670e-002
  7.2140000000e+010  -1.5641201749e-002  -3.2154840939e-002  -5.1051856153e-002   3.4919040513e-001  -5.5954032781e-002   3.4984158899e-001   9.3254716534e-002   2.9769949168e-002
  7.2160000000e+010  -1.5975539188e-002  -3.1490472116e-002  -4.9682355885e-002   3.4915092997e-001  -5.4582009379e-002   3.4981364117e-001   9.4585392416e-002   2.7156168100e-002
