# Hz S RI R 1.000000
! Metas.Vna.Tools, 2.4.7898.19887
! Metas.Vna.Data, 2.4.7898.19873
! Created: UTC 2021.09.30 14:30:59
! FREQ                re:S1,1             im:S1,1             re:S2,1             im:S2,1             re:S1,2             im:S1,2             re:S2,2             im:S2,2          
  7.0000000000e+010  -6.7058275532e-002  -1.0262759202e-002   2.2050760668e-001  -1.2774661757e-002   2.2163928378e-001  -1.0081609930e-002  -1.2164503137e-001  -2.4995950219e-001
  7.0020000000e+010  -6.5752496237e-002  -9.5112762467e-003   2.2056899078e-001  -1.2751748222e-002   2.2170145778e-001  -1.0056998773e-002  -1.2559957795e-001  -2.4915098707e-001
  7.0040000000e+010  -6.4416453965e-002  -8.7995815663e-003   2.2062723881e-001  -1.2737329758e-002   2.2176054856e-001  -1.0040949116e-002  -1.2950762537e-001  -2.4814928763e-001
  7.0060000000e+010  -6.3051969319e-002  -8.1281408699e-003   2.2068233818e-001  -1.2731405191e-002   2.2181654334e-001  -1.0033460281e-002  -1.3336356690e-001  -2.4695472683e-001
  7.0080000000e+010  -6.1660875243e-002  -7.4973616919e-003   2.2073427625e-001  -1.2733972546e-002   2.2186942920e-001  -1.0034530787e-002  -1.3716180594e-001  -2.4556787141e-001
  7.0100000000e+010  -6.0245014747e-002  -6.9075933548e-003   2.2078304026e-001  -1.2745029052e-002   2.2191919315e-001  -1.0044158353e-002  -1.4089676468e-001  -2.4398953261e-001
  7.0120000000e+010  -5.8806238650e-002  -6.3591270071e-003   2.2082861739e-001  -1.2764571144e-002   2.2196582212e-001  -1.0062339901e-002  -1.4456289270e-001  -2.4222076663e-001
  7.0140000000e+010  -5.7346403316e-002  -5.8521957361e-003   2.2087099475e-001  -1.2792594466e-002   2.2200930292e-001  -1.0089071553e-002  -1.4815467569e-001  -2.4026287468e-001
  7.0160000000e+010  -5.5867368407e-002  -5.3869747551e-003   2.2091015938e-001  -1.2829093867e-002   2.2204962232e-001  -1.0124348639e-002  -1.5166664410e-001  -2.3811740271e-001
  7.0180000000e+010  -5.4370994647e-002  -4.9635816633e-003   2.2094609823e-001  -1.2874063413e-002   2.2208676698e-001  -1.0168165694e-002  -1.5509338190e-001  -2.3578614066e-001
  7.0200000000e+010  -5.2859141598e-002  -4.5820767792e-003   2.2097879822e-001  -1.2927496378e-002   2.2212072350e-001  -1.0220516463e-002  -1.5842953519e-001  -2.3327112148e-001
  7.0220000000e+010  -5.1333665459e-002  -4.2424635458e-003   2.2100824618e-001  -1.2989385258e-002   2.2215147840e-001  -1.0281393903e-002  -1.6166982096e-001  -2.3057461969e-001
  7.0240000000e+010  -4.9796416883e-002  -3.9446890069e-003   2.2103442889e-001  -1.3059721762e-002   2.2217901814e-001  -1.0350790181e-002  -1.6480903566e-001  -2.2769914958e-001
  7.0260000000e+010  -4.8249238815e-002  -3.6886443530e-003   2.2105733310e-001  -1.3138496825e-002   2.2220332912e-001  -1.0428696685e-002  -1.6784206379e-001  -2.2464746305e-001
  7.0280000000e+010  -4.6693964358e-002  -3.4741655365e-003   2.2107694549e-001  -1.3225700602e-002   2.2222439768e-001  -1.0515104020e-002  -1.7076388643e-001  -2.2142254707e-001
  7.0300000000e+010  -4.5132414669e-002  -3.3010339552e-003   2.2109325270e-001  -1.3321322477e-002   2.2224221009e-001  -1.0610002009e-002  -1.7356958966e-001  -2.1802762080e-001
  7.0320000000e+010  -4.3566396881e-002  -3.1689772011e-003   2.2110624133e-001  -1.3425351063e-002   2.2225675259e-001  -1.0713379705e-002  -1.7625437287e-001  -2.1446613227e-001
  7.0340000000e+010  -4.1997702064e-002  -3.0776698758e-003   2.2111589794e-001  -1.3537774205e-002   2.2226801136e-001  -1.0825225384e-002  -1.7881355704e-001  -2.1074175481e-001
  7.0360000000e+010  -4.0428103213e-002  -3.0267344680e-003   2.2112220906e-001  -1.3658578984e-002   2.2227597254e-001  -1.0945526552e-002  -1.8124259278e-001  -2.0685838297e-001
  7.0380000000e+010  -3.8859353287e-002  -3.0157422952e-003   2.2112516119e-001  -1.3787751722e-002   2.2228062222e-001  -1.1074269951e-002  -1.8353706834e-001  -2.0282012823e-001
  7.0400000000e+010  -3.7293183274e-002  -3.0442145042e-003   2.2112474080e-001  -1.3925277980e-002   2.2228194646e-001  -1.1211441557e-002  -1.8569271738e-001  -1.9863131426e-001
  7.0420000000e+010  -3.5731300310e-002  -3.1116231318e-003   2.2112093433e-001  -1.4071142568e-002   2.2227993130e-001  -1.1357026587e-002  -1.8770542662e-001  -1.9429647185e-001
  7.0440000000e+010  -3.4175385835e-002  -3.2173922224e-003   2.2111372821e-001  -1.4225329542e-002   2.2227456273e-001  -1.1511009500e-002  -1.8957124333e-001  -1.8982033356e-001
  7.0460000000e+010  -3.2627093797e-002  -3.3608990011e-003   2.2110310887e-001  -1.4387822215e-002   2.2226582672e-001  -1.1673374003e-002  -1.9128638254e-001  -1.8520782791e-001
  7.0480000000e+010  -3.1088048911e-002  -3.5414751001e-003   2.2108906269e-001  -1.4558603153e-002   2.2225370922e-001  -1.1844103053e-002  -1.9284723415e-001  -1.8046407339e-001
  7.0500000000e+010  -2.9559844960e-002  -3.7584078376e-003   2.2107157608e-001  -1.4737654186e-002   2.2223819617e-001  -1.2023178861e-002  -1.9425036974e-001  -1.7559437203e-001
  7.0520000000e+010  -2.8044043152e-002  -4.0109415455e-003   2.2105063541e-001  -1.4924956407e-002   2.2221927347e-001  -1.2210582896e-002  -1.9549254918e-001  -1.7060420271e-001
  7.0540000000e+010  -2.6542170534e-002  -4.2982789453e-003   2.2102622707e-001  -1.5120490178e-002   2.2219692704e-001  -1.2406295890e-002  -1.9657072697e-001  -1.6549921417e-001
  7.0560000000e+010  -2.5055718455e-002  -4.6195825694e-003   2.2099833745e-001  -1.5324235134e-002   2.2217114278e-001  -1.2610297839e-002  -1.9748205837e-001  -1.6028521771e-001
  7.0580000000e+010  -2.3586141098e-002  -4.9739762259e-003   2.2096695294e-001  -1.5536170186e-002   2.2214190656e-001  -1.2822568010e-002  -1.9822390521e-001  -1.5496817960e-001
  7.0600000000e+010  -2.2134854055e-002  -5.3605465045e-003   2.2093205993e-001  -1.5756273529e-002   2.2210920429e-001  -1.3043084946e-002  -1.9879384145e-001  -1.4955421322e-001
  7.0620000000e+010  -2.0703232978e-002  -5.7783443213e-003   2.2089364484e-001  -1.5984522642e-002   2.2207302187e-001  -1.3271826466e-002  -1.9918965839e-001  -1.4404957098e-001
  7.0640000000e+010  -1.9292612284e-002  -6.2263865005e-003   2.2085169409e-001  -1.6220894294e-002   2.2203334518e-001  -1.3508769674e-002  -1.9940936968e-001  -1.3846063589e-001
  7.0660000000e+010  -1.7904283924e-002  -6.7036573903e-003   2.2080619413e-001  -1.6465364552e-002   2.2199016014e-001  -1.3753890961e-002  -1.9945121593e-001  -1.3279391299e-001
  7.0680000000e+010  -1.6539496216e-002  -7.2091105109e-003   2.2075713141e-001  -1.6717908780e-002   2.2194345266e-001  -1.4007166011e-002  -1.9931366902e-001  -1.2705602051e-001
  7.0700000000e+010  -1.5199452746e-002  -7.7416702315e-003   2.2070449244e-001  -1.6978501648e-002   2.2189320870e-001  -1.4268569803e-002  -1.9899543607e-001  -1.2125368077e-001
  7.0720000000e+010  -1.3885311332e-002  -8.3002334759e-003   2.2064826372e-001  -1.7247117134e-002   2.2183941420e-001  -1.4538076619e-002  -1.9849546311e-001  -1.1539371100e-001
  7.0740000000e+010  -1.2598183060e-002  -8.8836714508e-003   2.2058843180e-001  -1.7523728532e-002   2.2178205513e-001  -1.4815660049e-002  -1.9781293834e-001  -1.0948301381e-001
  7.0760000000e+010  -1.1339131383e-002  -9.4908313985e-003   2.2052498326e-001  -1.7808308456e-002   2.2172111752e-001  -1.5101292991e-002  -1.9694729508e-001  -1.0352856766e-001
  7.0780000000e+010  -1.0109171289e-002  -1.0120538367e-002   2.2045790473e-001  -1.8100828842e-002   2.2165658738e-001  -1.5394947663e-002  -1.9589821433e-001  -9.7537416977e-002
  7.0800000000e+010  -8.9092685451e-003  -1.0771597001e-002   2.2038718285e-001  -1.8401260959e-002   2.2158845078e-001  -1.5696595602e-002  -1.9466562696e-001  -9.1516662335e-002
  7.0820000000e+010  -7.7403390051e-003  -1.1442793342e-002   2.2031280433e-001  -1.8709575408e-002   2.2151669382e-001  -1.6006207674e-002  -1.9324971553e-001  -8.5473450333e-002
  7.0840000000e+010  -6.6032479877e-003  -1.2132896646e-002   2.2023475592e-001  -1.9025742133e-002   2.2144130264e-001  -1.6323754075e-002  -1.9165091573e-001  -7.9414963449e-002
  7.0860000000e+010  -5.4988097291e-003  -1.2840661209e-002   2.2015302440e-001  -1.9349730422e-002   2.2136226341e-001  -1.6649204339e-002  -1.8986991742e-001  -7.3348409771e-002
  7.0880000000e+010  -4.4277869038e-003  -1.3564828199e-002   2.2006759663e-001  -1.9681508915e-002   2.2127956235e-001  -1.6982527344e-002  -1.8790766528e-001  -6.7281012645e-002
  7.0900000000e+010  -3.3908902175e-003  -1.4304127492e-002   2.1997845950e-001  -2.0021045610e-002   2.2119318574e-001  -1.7323691314e-002  -1.8576535909e-001  -6.1220000259e-002
  7.0920000000e+010  -2.3887780704e-003  -1.5057279514e-002   2.1988559997e-001  -2.0368307865e-002   2.2110311989e-001  -1.7672663829e-002  -1.8344445357e-001  -5.5172595170e-002
  7.0940000000e+010  -1.4220562929e-003  -1.5822997075e-002   2.1978900505e-001  -2.0723262409e-002   2.2100935117e-001  -1.8029411827e-002  -1.8094665782e-001  -4.9146003805e-002
  7.0960000000e+010  -4.9127795059e-004  -1.6599987212e-002   2.1968866182e-001  -2.1085875343e-002   2.2091186600e-001  -1.8393901612e-002  -1.7827393444e-001  -4.3147405942e-002
  7.0980000000e+010   4.0305677890e-004  -1.7386953011e-002   2.1958455742e-001  -2.1456112148e-002   2.2081065087e-001  -1.8766098857e-002  -1.7542849811e-001  -3.7183944185e-002
  7.1000000000e+010   1.2605006592e-003  -1.8182595437e-002   2.1947667906e-001  -2.1833937693e-002   2.2070569232e-001  -1.9145968613e-002  -1.7241281389e-001  -3.1262713462e-002
  7.1020000000e+010   2.0806593783e-003  -1.8985615144e-002   2.1936501402e-001  -2.2219316234e-002   2.2059697695e-001  -1.9533475314e-002  -1.6922959503e-001  -2.5390750550e-002
  7.1040000000e+010   2.8631914631e-003  -1.9794714273e-002   2.1924954965e-001  -2.2612211430e-002   2.2048449144e-001  -1.9928582780e-002  -1.6588180044e-001  -1.9575023659e-002
  7.1060000000e+010   3.6078081237e-003  -2.0608598238e-002   2.1913027337e-001  -2.3012586338e-002   2.2036822253e-001  -2.0331254228e-002  -1.6237263170e-001  -1.3822422070e-002
  7.1080000000e+010   4.3142730312e-003  -2.1425977495e-002   2.1900717268e-001  -2.3420403431e-002   2.2024815701e-001  -2.0741452274e-002  -1.5870552974e-001  -8.1397458669e-003
  7.1100000000e+010   4.9824020274e-003  -2.2245569285e-002   2.1888023516e-001  -2.3835624591e-002   2.2012428179e-001  -2.1159138940e-002  -1.5488417106e-001  -2.5336957653e-003
  7.1120000000e+010   5.6120627679e-003  -2.3066099365e-002   2.1874944847e-001  -2.4258211129e-002   2.1999658381e-001  -2.1584275661e-002  -1.5091246360e-001   2.9891369407e-003
  7.1140000000e+010   6.2031743007e-003  -2.3886303705e-002   2.1861480035e-001  -2.4688123778e-002   2.1986505012e-001  -2.2016823291e-002  -1.4679454218e-001   8.4222802980e-003
  7.1160000000e+010   6.7557065794e-003  -2.4704930166e-002   2.1847627864e-001  -2.5125322710e-002   2.1972966782e-001  -2.2456742109e-002  -1.4253476364e-001   1.3759391463e-002
  7.1180000000e+010   7.2696799140e-003  -2.5520740144e-002   2.1833387125e-001  -2.5569767537e-002   2.1959042412e-001  -2.2903991825e-002  -1.3813770149e-001   1.8994266304e-002
  7.1200000000e+010   7.7451643591e-003  -2.6332510186e-002   2.1818756617e-001  -2.6021417317e-002   2.1944730630e-001  -2.3358531585e-002  -1.3360814029e-001   2.4120848820e-002
  7.1220000000e+010   8.1822790415e-003  -2.7139033575e-002   2.1803735152e-001  -2.6480230562e-002   2.1930030172e-001  -2.3820319983e-002  -1.2895106962e-001   2.9133240356e-002
  7.1240000000e+010   8.5811914283e-003  -2.7939121874e-002   2.1788321548e-001  -2.6946165246e-002   2.1914939785e-001  -2.4289315058e-002  -1.2417167768e-001   3.4025708615e-002
  7.1260000000e+010   8.9421165379e-003  -2.8731606442e-002   2.1772514632e-001  -2.7419178807e-002   2.1899458223e-001  -2.4765474309e-002  -1.1927534459e-001   3.8792696426e-002
  7.1280000000e+010   9.2653160927e-003  -2.9515339905e-002   2.1756313244e-001  -2.7899228159e-002   2.1883584251e-001  -2.5248754699e-002  -1.1426763532e-001   4.3428830277e-002
  7.1300000000e+010   9.5510976189e-003  -3.0289197591e-002   2.1739716232e-001  -2.8386269693e-002   2.1867316642e-001  -2.5739112658e-002  -1.0915429231e-001   4.7928928581e-002
  7.1320000000e+010   9.7998134921e-003  -3.1052078917e-002   2.1722722452e-001  -2.8880259289e-002   2.1850654178e-001  -2.6236504093e-002  -1.0394122774e-001   5.2288009676e-002
  7.1340000000e+010   1.0011859931e-002  -3.1802908740e-002   2.1705330773e-001  -2.9381152317e-002   2.1833595653e-001  -2.6740884395e-002  -9.8634515523e-002   5.6501299526e-002
  7.1360000000e+010   1.0187675941e-002  -3.2540638657e-002   2.1687540074e-001  -2.9888903649e-002   2.1816139871e-001  -2.7252208444e-002  -9.3240383014e-002   6.0564239126e-002
  7.1380000000e+010   1.0327742214e-002  -3.3264248262e-002   2.1669349243e-001  -3.0403467661e-002   2.1798285642e-001  -2.7770430615e-002  -8.7765202394e-002   6.4472491596e-002
  7.1400000000e+010   1.0432579974e-002  -3.3972746351e-002   2.1650757180e-001  -3.0924798245e-002   2.1780031792e-001  -2.8295504786e-002  -8.2215481812e-002   6.8221948937e-002
  7.1420000000e+010   1.0502749785e-002  -3.4665172081e-002   2.1631762795e-001  -3.1452848810e-002   2.1761377154e-001  -2.8827384346e-002  -7.6597856267e-002   7.1808738455e-002
  7.1440000000e+010   1.0538850316e-002  -3.5340596076e-002   2.1612365008e-001  -3.1987572293e-002   2.1742320572e-001  -2.9366022197e-002  -7.0919078237e-002   7.5229228831e-002
  7.1460000000e+010   1.0541517065e-002  -3.5998121481e-002   2.1592562753e-001  -3.2528921161e-002   2.1722860902e-001  -2.9911370766e-002  -6.5186008082e-002   7.8480035828e-002
  7.1480000000e+010   1.0511421040e-002  -3.6636884963e-002   2.1572354972e-001  -3.3076847424e-002   2.1702997009e-001  -3.0463382009e-002  -5.9405604235e-002   8.1558027621e-002
  7.1500000000e+010   1.0449267414e-002  -3.7256057658e-002   2.1551740620e-001  -3.3631302638e-002   2.1682727771e-001  -3.1022007417e-002  -5.3584913179e-002   8.4460329754e-002
  7.1520000000e+010   1.0355794137e-002  -3.7854846065e-002   2.1530718662e-001  -3.4192237910e-002   2.1662052076e-001  -3.1587198027e-002  -4.7731059259e-002   8.7184329691e-002
  7.1540000000e+010   1.0231770523e-002  -3.8432492877e-002   2.1509288076e-001  -3.4759603911e-002   2.1640968823e-001  -3.2158904421e-002  -4.1851234303e-002   8.9727680976e-002
  7.1560000000e+010   1.0077995800e-002  -3.8988277760e-002   2.1487447851e-001  -3.5333350876e-002   2.1619476925e-001  -3.2737076742e-002  -3.5952687101e-002   9.2088306976e-002
  7.1580000000e+010   9.8952976389e-003  -3.9521518077e-002   2.1465196986e-001  -3.5913428613e-002   2.1597575302e-001  -3.3321664693e-002  -3.0042712746e-002   9.4264404212e-002
  7.1600000000e+010   9.6845306579e-003  -4.0031569546e-002   2.1442534495e-001  -3.6499786514e-002   2.1575262889e-001  -3.3912617549e-002  -2.4128641850e-002   9.6254445264e-002
  7.1620000000e+010   9.4465748977e-003  -4.0517826845e-002   2.1419459401e-001  -3.7092373554e-002   2.1552538633e-001  -3.4509884161e-002  -1.8217829661e-002   9.8057181243e-002
  7.1640000000e+010   9.1823342819e-003  -4.0979724155e-002   2.1395970740e-001  -3.7691138305e-002   2.1529401491e-001  -3.5113412964e-002  -1.2317645086e-002   9.9671643832e-002
  7.1660000000e+010   8.8927350575e-003  -4.1416735646e-002   2.1372067560e-001  -3.8296028939e-002   2.1505850432e-001  -3.5723151984e-002  -6.4354596581e-003   1.0109714688e-001
  7.1680000000e+010   8.5787242186e-003  -4.1828375897e-002   2.1347748921e-001  -3.8906993235e-002   2.1481884439e-001  -3.6339048841e-002  -5.7863643810e-004   1.0233328758e-001
  7.1700000000e+010   8.2412679180e-003  -4.2214200261e-002   2.1323013895e-001  -3.9523978588e-002   2.1457502506e-001  -3.6961050764e-002   5.2454811076e-003   1.0337994712e-001
  7.1720000000e+010   7.8813498663e-003  -4.2573805170e-002   2.1297861567e-001  -4.0146932012e-002   2.1432703638e-001  -3.7589104588e-002   1.1029580248e-002   1.0423729099e-001
  7.1740000000e+010   7.4999697228e-003  -4.2906828374e-002   2.1272291032e-001  -4.0775800150e-002   2.1407486853e-001  -3.8223156769e-002   1.6766390125e-002   1.0490576879e-001
  7.1760000000e+010   7.0981414795e-003  -4.3212949124e-002   2.1246301399e-001  -4.1410529279e-002   2.1381851182e-001  -3.8863153386e-002   2.2448692871e-002   1.0538611352e-001
  7.1780000000e+010   6.6768918407e-003  -4.3491888295e-002   2.1219891790e-001  -4.2051065320e-002   2.1355795669e-001  -3.9509040149e-002   2.8069334681e-002   1.0567934054e-001
  7.1800000000e+010   6.2372586011e-003  -4.3743408447e-002   2.1193061337e-001  -4.2697353838e-002   2.1329319369e-001  -4.0160762405e-002   3.3621236841e-002   1.0578674599e-001
  7.1820000000e+010   5.7802890231e-003  -4.3967313825e-002   2.1165809187e-001  -4.3349340056e-002   2.1302421349e-001  -4.0818265147e-002   3.9097406662e-002   1.0570990476e-001
  7.1840000000e+010   5.3070382181e-003  -4.4163450301e-002   2.1138134496e-001  -4.4006968857e-002   2.1275100691e-001  -4.1481493018e-002   4.4490948335e-002   1.0545066809e-001
  7.1860000000e+010   4.8185675316e-003  -4.4331705260e-002   2.1110036437e-001  -4.4670184792e-002   2.1247356487e-001  -4.2150390321e-002   4.9795073667e-002   1.0501116057e-001
  7.1880000000e+010   4.3159429354e-003  -4.4472007424e-002   2.1081514192e-001  -4.5338932089e-002   2.1219187843e-001  -4.2824901021e-002   5.5003112685e-002   1.0439377691e-001
  7.1900000000e+010   3.8002334293e-003  -4.4584326614e-002   2.1052566956e-001  -4.6013154654e-002   2.1190593878e-001  -4.3504968756e-002   6.0108524099e-002   1.0360117802e-001
  7.1920000000e+010   3.2725094548e-003  -4.4668673467e-002   2.1023193937e-001  -4.6692796083e-002   2.1161573722e-001  -4.4190536841e-002   6.5104905588e-002   1.0263628692e-001
  7.1940000000e+010   2.7338413208e-003  -4.4725099086e-002   2.0993394355e-001  -4.7377799667e-002   2.1132126520e-001  -4.4881548277e-002   6.9986003915e-002   1.0150228397e-001
  7.1960000000e+010   2.1852976468e-003  -4.4753694634e-002   2.0963167444e-001  -4.8068108396e-002   2.1102251429e-001  -4.5577945754e-002   7.4745724830e-002   1.0020260186e-001
  7.1980000000e+010   1.6279438229e-003  -4.4754590886e-002   2.0932512448e-001  -4.8763664971e-002   2.1071947617e-001  -4.6279671660e-002   7.9378142765e-002   9.8740920127e-002
  7.2000000000e+010   1.0628404895e-003  -4.4727957710e-002   2.0901428625e-001  -4.9464411803e-002   2.1041214266e-001  -4.6986668089e-002   8.3877510282e-002   9.7121159203e-002
  7.2020000000e+010   4.9104203946e-004  -4.4674003510e-002   2.0869915246e-001  -5.0170291026e-002   2.1010050572e-001  -4.7698876845e-002   8.8238267282e-002   9.5347474174e-002
  7.2040000000e+010  -8.6404856548e-005  -4.4592974609e-002   2.0837971593e-001  -5.0881244502e-002   2.0978455743e-001  -4.8416239447e-002   9.2455049944e-002   9.3424248067e-002
  7.2060000000e+010  -6.6846269851e-004  -4.4485154586e-002   2.0805596960e-001  -5.1597213822e-002   2.0946428999e-001  -4.9138697141e-002   9.6522699373e-002   9.1356084796e-002
  7.2080000000e+010  -1.2541045784e-003  -4.4350863562e-002   2.0772790656e-001  -5.2318140322e-002   2.0913969573e-001  -4.9866190900e-002   1.0043626996e-001   8.9147801725e-002
  7.2100000000e+010  -1.8423155718e-003  -4.4190457438e-002   2.0739552000e-001  -5.3043965079e-002   2.0881076712e-001  -5.0598661435e-002   1.0419103742e-001   8.6804421880e-002
  7.2120000000e+010  -2.4320940990e-003  -4.4004327092e-002   2.0705880324e-001  -5.3774628926e-002   2.0847749674e-001  -5.1336049200e-002   1.0778250652e-001   8.4331165817e-002
  7.2140000000e+010  -3.0224532525e-003  -4.3792897523e-002   2.0671774973e-001  -5.4510072452e-002   2.0813987731e-001  -5.2078294396e-002   1.1120641843e-001   8.1733443152e-002
  7.2160000000e+010  -3.6124220907e-003  -4.3556626958e-002   2.0637235303e-001  -5.5250236011e-002   2.0779790168e-001  -5.2825336982e-002   1.1445875777e-001   7.9016843779e-002
