# Hz S RI R 1.000000
! Metas.Vna.Tools, 2.4.7898.19887
! Metas.Vna.Data, 2.4.7898.19873
! Created: UTC 2021.09.30 14:30:59
! FREQ                re:S1,1             im:S1,1             re:S2,1             im:S2,1             re:S1,2             im:S1,2             re:S2,2             im:S2,2          
  7.0000000000e+010   3.6864461508e-002  -5.6639353454e-002  -7.8538612604e-002   4.4153355190e-001  -8.5480073482e-002   4.4301840645e-001  -9.8349041810e-002  -9.1176078469e-002
  7.0020000000e+010   3.6592924644e-002  -5.6499783351e-002  -7.8629627549e-002   4.4173073259e-001  -8.5577922649e-002   4.4322061469e-001  -1.0014627387e-001  -9.0083570344e-002
  7.0040000000e+010   3.6313016572e-002  -5.6361283137e-002  -7.8701049829e-002   4.4192524443e-001  -8.5655890990e-002   4.4342031518e-001  -1.0188714119e-001  -8.8904237455e-002
  7.0060000000e+010   3.6024816382e-002  -5.6223784883e-002  -7.8752865504e-002   4.4211704255e-001  -8.5713963013e-002   4.4361746166e-001  -1.0356894138e-001  -8.7639261687e-002
  7.0080000000e+010   3.5728403224e-002  -5.6087218448e-002  -7.8785062607e-002   4.4230608145e-001  -8.5752125233e-002   4.4381200724e-001  -1.0518902133e-001  -8.6289943034e-002
  7.0100000000e+010   3.5423856362e-002  -5.5951511421e-002  -7.8797631144e-002   4.4249231506e-001  -8.5770366176e-002   4.4400390441e-001  -1.0674478156e-001  -8.4857698368e-002
  7.0120000000e+010   3.5111255229e-002  -5.5816589084e-002  -7.8790563099e-002   4.4267569671e-001  -8.5768676380e-002   4.4419310503e-001  -1.0823368061e-001  -8.3344060031e-002
  7.0140000000e+010   3.4790679498e-002  -5.5682374365e-002  -7.8763852433e-002   4.4285617917e-001  -8.5747048398e-002   4.4437956037e-001  -1.0965323931e-001  -8.1750674229e-002
  7.0160000000e+010   3.4462209149e-002  -5.5548787802e-002  -7.8717495087e-002   4.4303371467e-001  -8.5705476797e-002   4.4456322111e-001  -1.1100104499e-001  -8.0079299256e-002
  7.0180000000e+010   3.4125924553e-002  -5.5415747519e-002  -7.8651488980e-002   4.4320825488e-001  -8.5643958164e-002   4.4474403737e-001  -1.1227475566e-001  -7.8331803524e-002
  7.0200000000e+010   3.3781906546e-002  -5.5283169195e-002  -7.8565834015e-002   4.4337975094e-001  -8.5562491102e-002   4.4492195868e-001  -1.1347210408e-001  -7.6510163416e-002
  7.0220000000e+010   3.3430236524e-002  -5.5150966048e-002  -7.8460532073e-002   4.4354815351e-001  -8.5461076232e-002   4.4509693405e-001  -1.1459090177e-001  -7.4616460961e-002
  7.0240000000e+010   3.3070996535e-002  -5.5019048825e-002  -7.8335587016e-002   4.4371341271e-001  -8.5339716194e-002   4.4526891195e-001  -1.1562904293e-001  -7.2652881335e-002
  7.0260000000e+010   3.2704269375e-002  -5.4887325791e-002  -7.8191004688e-002   4.4387547819e-001  -8.5198415647e-002   4.4543784034e-001  -1.1658450824e-001  -7.0621710185e-002
  7.0280000000e+010   3.2330138692e-002  -5.4755702736e-002  -7.8026792910e-002   4.4403429913e-001  -8.5037181265e-002   4.4560366665e-001  -1.1745536859e-001  -6.8525330784e-002
  7.0300000000e+010   3.1948689091e-002  -5.4624082977e-002  -7.7842961482e-002   4.4418982424e-001  -8.4856021741e-002   4.4576633785e-001  -1.1823978867e-001  -6.6366221023e-002
  7.0320000000e+010   3.1560006245e-002  -5.4492367377e-002  -7.7639522180e-002   4.4434200181e-001  -8.4654947780e-002   4.4592580042e-001  -1.1893603048e-001  -6.4146950239e-002
  7.0340000000e+010   3.1164177009e-002  -5.4360454363e-002  -7.7416488756e-002   4.4449077966e-001  -8.4433972104e-002   4.4608200038e-001  -1.1954245668e-001  -6.1870175882e-002
  7.0360000000e+010   3.0761289539e-002  -5.4228239958e-002  -7.7173876933e-002   4.4463610522e-001  -8.4193109444e-002   4.4623488331e-001  -1.2005753381e-001  -5.9538640034e-002
  7.0380000000e+010   3.0351433404e-002  -5.4095617815e-002  -7.6911704404e-002   4.4477792550e-001  -8.3932376539e-002   4.4638439433e-001  -1.2047983541e-001  -5.7155165771e-002
  7.0400000000e+010   2.9934699716e-002  -5.3962479261e-002  -7.6629990829e-002   4.4491618713e-001  -8.3651792137e-002   4.4653047819e-001  -1.2080804499e-001  -5.4722653391e-002
  7.0420000000e+010   2.9511181252e-002  -5.3828713350e-002  -7.6328757831e-002   4.4505083636e-001  -8.3351376986e-002   4.4667307919e-001  -1.2104095881e-001  -5.2244076493e-002
  7.0440000000e+010   2.9080972576e-002  -5.3694206919e-002  -7.6008028995e-002   4.4518181909e-001  -8.3031153837e-002   4.4681214126e-001  -1.2117748853e-001  -4.9722477929e-002
  7.0460000000e+010   2.8644170170e-002  -5.3558844659e-002  -7.5667829860e-002   4.4530908084e-001  -8.2691147432e-002   4.4694760797e-001  -1.2121666376e-001  -4.7160965627e-002
  7.0480000000e+010   2.8200872559e-002  -5.3422509185e-002  -7.5308187915e-002   4.4543256683e-001  -8.2331384509e-002   4.4707942249e-001  -1.2115763432e-001  -4.4562708291e-002
  7.0500000000e+010   2.7751180443e-002  -5.3285081119e-002  -7.4929132601e-002   4.4555222195e-001  -8.1951893790e-002   4.4720752769e-001  -1.2099967248e-001  -4.1930930987e-002
  7.0520000000e+010   2.7295196819e-002  -5.3146439183e-002  -7.4530695297e-002   4.4566799076e-001  -8.1552705982e-002   4.4733186607e-001  -1.2074217489e-001  -3.9268910620e-002
  7.0540000000e+010   2.6833027118e-002  -5.3006460294e-002  -7.4112909320e-002   4.4577981757e-001  -8.1133853765e-002   4.4745237985e-001  -1.2038466442e-001  -3.6579971307e-002
  7.0560000000e+010   2.6364779323e-002  -5.2865019669e-002  -7.3675809917e-002   4.4588764639e-001  -8.0695371795e-002   4.4756901091e-001  -1.1992679178e-001  -3.3867479660e-002
  7.0580000000e+010   2.5890564101e-002  -5.2721990939e-002  -7.3219434263e-002   4.4599142095e-001  -8.0237296690e-002   4.4768170087e-001  -1.1936833699e-001  -3.1134839973e-002
  7.0600000000e+010   2.5410494927e-002  -5.2577246272e-002  -7.2743821449e-002   4.4609108477e-001  -7.9759667029e-002   4.4779039108e-001  -1.1870921060e-001  -2.8385489334e-002
  7.0620000000e+010   2.4924688205e-002  -5.2430656498e-002  -7.2249012480e-002   4.4618658111e-001  -7.9262523344e-002   4.4789502261e-001  -1.1794945476e-001  -2.5622892662e-002
  7.0640000000e+010   2.4433263389e-002  -5.2282091245e-002  -7.1735050264e-002   4.4627785301e-001  -7.8745908111e-002   4.4799553630e-001  -1.1708924411e-001  -2.2850537679e-002
  7.0660000000e+010   2.3936343101e-002  -5.2131419085e-002  -7.1201979610e-002   4.4636484330e-001  -7.8209865748e-002   4.4809187276e-001  -1.1612888640e-001  -2.0071929820e-002
  7.0680000000e+010   2.3434053246e-002  -5.1978507682e-002  -7.0649847215e-002   4.4644749464e-001  -7.7654442601e-002   4.4818397240e-001  -1.1506882299e-001  -1.7290587100e-002
  7.0700000000e+010   2.2926523120e-002  -5.1823223949e-002  -7.0078701659e-002   4.4652574949e-001  -7.7079686941e-002   4.4827177540e-001  -1.1390962912e-001  -1.4510034932e-002
  7.0720000000e+010   2.2413885521e-002  -5.1665434215e-002  -6.9488593397e-002   4.4659955015e-001  -7.6485648954e-002   4.4835522179e-001  -1.1265201391e-001  -1.1733800916e-002
  7.0740000000e+010   2.1896276846e-002  -5.1505004393e-002  -6.8879574749e-002   4.4666883877e-001  -7.5872380731e-002   4.4843425140e-001  -1.1129682028e-001  -8.9654095989e-003
  7.0760000000e+010   2.1373837194e-002  -5.1341800159e-002  -6.8251699891e-002   4.4673355738e-001  -7.5239936263e-002   4.4850880393e-001  -1.0984502453e-001  -6.2083772200e-003
  7.0780000000e+010   2.0846710455e-002  -5.1175687136e-002  -6.7605024847e-002   4.4679364786e-001  -7.4588371428e-002   4.4857881893e-001  -1.0829773582e-001  -3.4662064468e-003
  7.0800000000e+010   2.0315044399e-002  -5.1006531081e-002  -6.6939607481e-002   4.4684905200e-001  -7.3917743983e-002   4.4864423581e-001  -1.0665619535e-001  -7.4238110949e-004
  7.0820000000e+010   1.9778990756e-002  -5.0834198087e-002  -6.6255507483e-002   4.4689971150e-001  -7.3228113555e-002   4.4870499388e-001  -1.0492177543e-001   1.9596390553e-003
  7.0840000000e+010   1.9238705288e-002  -5.0658554777e-002  -6.5552786362e-002   4.4694556796e-001  -7.2519541632e-002   4.4876103237e-001  -1.0309597821e-001   4.6364236442e-003
  7.0860000000e+010   1.8694347863e-002  -5.0479468514e-002  -6.4831507435e-002   4.4698656292e-001  -7.1792091546e-002   4.4881229039e-001  -1.0118043436e-001   7.2845768017e-003
  7.0880000000e+010   1.8146082512e-002  -5.0296807611e-002  -6.4091735816e-002   4.4702263789e-001  -7.1045828471e-002   4.4885870701e-001  -9.9176901398e-002   9.9007424005e-003
  7.0900000000e+010   1.7594077481e-002  -5.0110441548e-002  -6.3333538406e-002   4.4705373431e-001  -7.0280819408e-002   4.4890022124e-001  -9.7087261913e-002   1.2481609180e-002
  7.0920000000e+010   1.7038505284e-002  -4.9920241191e-002  -6.2556983878e-002   4.4707979361e-001  -6.9497133172e-002   4.4893677204e-001  -9.4913521521e-002   1.5023915831e-002
  7.0940000000e+010   1.6479542734e-002  -4.9726079018e-002  -6.1762142673e-002   4.4710075720e-001  -6.8694840383e-002   4.4896829836e-001  -9.2657806660e-002   1.7524456028e-002
  7.0960000000e+010   1.5917370976e-002  -4.9527829343e-002  -6.0949086979e-002   4.4711656651e-001  -6.7874013455e-002   4.4899473911e-001  -9.0322362159e-002   1.9980083383e-002
  7.0980000000e+010   1.5352175512e-002  -4.9325368550e-002  -6.0117890727e-002   4.4712716296e-001  -6.7034726579e-002   4.4901603323e-001  -8.7909548626e-002   2.2387716333e-002
  7.1000000000e+010   1.4784146206e-002  -4.9118575326e-002  -5.9268629574e-002   4.4713248801e-001  -6.6177055715e-002   4.4903211966e-001  -8.5421839633e-002   2.4744342936e-002
  7.1020000000e+010   1.4213477294e-002  -4.8907330895e-002  -5.8401380890e-002   4.4713248317e-001  -6.5301078581e-002   4.4904293738e-001  -8.2861818714e-002   2.7047025577e-002
  7.1040000000e+010   1.3640367379e-002  -4.8691519260e-002  -5.7516223747e-002   4.4712708998e-001  -6.4406874632e-002   4.4904842541e-001  -8.0232176175e-002   2.9292905574e-002
  7.1060000000e+010   1.3065019409e-002  -4.8471027438e-002  -5.6613238908e-002   4.4711625008e-001  -6.3494525056e-002   4.4904852282e-001  -7.7535705725e-002   3.1479207675e-002
  7.1080000000e+010   1.2487640662e-002  -4.8245745704e-002  -5.5692508808e-002   4.4709990516e-001  -6.2564112754e-002   4.4904316875e-001  -7.4775300923e-002   3.3603244432e-002
  7.1100000000e+010   1.1908442703e-002  -4.8015567832e-002  -5.4754117544e-002   4.4707799703e-001  -6.1615722328e-002   4.4903230244e-001  -7.1953951455e-002   3.5662420466e-002
  7.1120000000e+010   1.1327641346e-002  -4.7780391337e-002  -5.3798150859e-002   4.4705046758e-001  -6.0649440070e-002   4.4901586320e-001  -6.9074739242e-002   3.7654236580e-002
  7.1140000000e+010   1.0745456596e-002  -4.7540117715e-002  -5.2824696132e-002   4.4701725885e-001  -5.9665353942e-002   4.4899379048e-001  -6.6140834385e-002   3.9576293752e-002
  7.1160000000e+010   1.0162112586e-002  -4.7294652685e-002  -5.1833842359e-002   4.4697831297e-001  -5.8663553567e-002   4.4896602383e-001  -6.3155490951e-002   4.1426296969e-002
  7.1180000000e+010   9.5778374979e-003  -4.7043906431e-002  -5.0825680138e-002   4.4693357226e-001  -5.7644130210e-002   4.4893250294e-001  -6.0122042613e-002   4.3202058916e-002
  7.1200000000e+010   8.9928634838e-003  -4.6787793837e-002  -4.9800301660e-002   4.4688297916e-001  -5.6607176765e-002   4.4889316767e-001  -5.7043898133e-002   4.4901503500e-002
  7.1220000000e+010   8.4074265638e-003  -4.6526234724e-002  -4.8757800687e-002   4.4682647629e-001  -5.5552787740e-002   4.4884795802e-001  -5.3924536722e-002   4.6522669211e-002
  7.1240000000e+010   7.8217665224e-003  -4.6259154089e-002  -4.7698272539e-002   4.4676400647e-001  -5.4481059240e-002   4.4879681417e-001  -5.0767503254e-002   4.8063712314e-002
  7.1260000000e+010   7.2361267903e-003  -4.5986482327e-002  -4.6621814082e-002   4.4669551268e-001  -5.3392088952e-002   4.4873967649e-001  -4.7576403364e-002   4.9522909854e-002
  7.1280000000e+010   6.6507543166e-003  -4.5708155466e-002  -4.5528523705e-002   4.4662093812e-001  -5.2285976131e-002   4.4867648555e-001  -4.4354898423e-002   5.0898662487e-002
  7.1300000000e+010   6.0658994308e-003  -4.5424115387e-002  -4.4418501312e-002   4.4654022620e-001  -5.1162821579e-002   4.4860718212e-001  -4.1106700408e-002   5.2189497117e-002
  7.1320000000e+010   5.4818156936e-003  -4.5134310044e-002  -4.3291848299e-002   4.4645332058e-001  -5.0022727634e-002   4.4853170722e-001  -3.7835566664e-002   5.3394069341e-002
  7.1340000000e+010   4.8987597379e-003  -4.4838693678e-002  -4.2148667542e-002   4.4636016512e-001  -4.8865798149e-002   4.4845000207e-001  -3.4545294575e-002   5.4511165695e-002
  7.1360000000e+010   4.3169910987e-003  -4.4537227025e-002  -4.0989063377e-002   4.4626070397e-001  -4.7692138478e-002   4.4836200818e-001  -3.1239716151e-002   5.5539705696e-002
  7.1380000000e+010   3.7367720336e-003  -4.4229877521e-002  -3.9813141587e-002   4.4615488152e-001  -4.6501855457e-002   4.4826766728e-001  -2.7922692530e-002   5.6478743679e-002
  7.1400000000e+010   3.1583673324e-003  -4.3916619497e-002  -3.8621009381e-002   4.4604264242e-001  -4.5295057390e-002   4.4816692140e-001  -2.4598108415e-002   5.7327470421e-002
  7.1420000000e+010   2.5820441174e-003  -4.3597434368e-002  -3.7412775380e-002   4.4592393163e-001  -4.4071854026e-002   4.4805971284e-001  -2.1269866453e-002   5.8085214549e-002
  7.1440000000e+010   2.0080716332e-003  -4.3272310820e-002  -3.6188549597e-002   4.4579869440e-001  -4.2832356548e-002   4.4794598419e-001  -1.7941881557e-002   5.8751443741e-002
  7.1460000000e+010   1.4367210277e-003  -4.2941244977e-002  -3.4948443421e-002   4.4566687626e-001  -4.1576677549e-002   4.4782567835e-001  -1.4618075186e-002   5.9325765691e-002
  7.1480000000e+010   8.6826512294e-004  -4.2604240577e-002  -3.3692569600e-002   4.4552842308e-001  -4.0304931019e-002   4.4769873855e-001  -1.1302369593e-002   5.9807928864e-002
  7.1500000000e+010   3.0297817742e-004  -4.2261309124e-002  -3.2421042220e-002   4.4538328105e-001  -3.9017232323e-002   4.4756510832e-001  -7.9986820466e-003   6.0197823021e-002
  7.1520000000e+010  -2.5886436097e-004  -4.1912470039e-002  -3.1133976691e-002   4.4523139668e-001  -3.7713698187e-002   4.4742473155e-001  -4.7109190367e-003   6.0495479520e-002
  7.1540000000e+010  -8.1698611028e-004  -4.1557750800e-002  -2.9831489726e-002   4.4507271685e-001  -3.6394446675e-002   4.4727755246e-001  -1.4429704761e-003   6.0701071389e-002
  7.1560000000e+010  -1.3711100183e-003  -4.1197187070e-002  -2.8513699321e-002   4.4490718878e-001  -3.5059597173e-002   4.4712351564e-001   1.8012960977e-003   6.0814913170e-002
  7.1580000000e+010  -1.9209586343e-003  -4.0830822821e-002  -2.7180724743e-002   4.4473476006e-001  -3.3709270368e-002   4.4696256605e-001   5.0180413061e-003   6.0837460537e-002
  7.1600000000e+010  -2.4662543886e-003  -4.0458710440e-002  -2.5832686504e-002   4.4455537864e-001  -3.2343588234e-002   4.4679464903e-001   8.2034596928e-003   6.0769309682e-002
  7.1620000000e+010  -3.0067198788e-003  -4.0080910826e-002  -2.4469706345e-002   4.4436899287e-001  -3.0962674007e-002   4.4661971029e-001   1.1353785454e-002   6.0611196472e-002
  7.1640000000e+010  -3.5420781643e-003  -3.9697493480e-002  -2.3091907221e-002   4.4417555149e-001  -2.9566652168e-002   4.4643769596e-001   1.4465298129e-002   6.0363995385e-002
  7.1660000000e+010  -4.0720530653e-003  -3.9308536578e-002  -2.1699413274e-002   4.4397500363e-001  -2.8155648425e-002   4.4624855257e-001   1.7534328243e-002   6.0028718209e-002
  7.1680000000e+010  -4.5963694701e-003  -3.8914127037e-002  -2.0292349820e-002   4.4376729884e-001  -2.6729789694e-002   4.4605222706e-001   2.0557262883e-002   5.9606512527e-002
  7.1700000000e+010  -5.1147536466e-003  -3.8514360560e-002  -1.8870843329e-002   4.4355238710e-001  -2.5289204075e-002   4.4584866681e-001   2.3530551215e-002   5.9098659966e-002
  7.1720000000e+010  -5.6269335593e-003  -3.8109341682e-002  -1.7435021402e-002   4.4333021879e-001  -2.3834020836e-002   4.4563781963e-001   2.6450709916e-002   5.8506574234e-002
  7.1740000000e+010  -6.1326391916e-003  -3.7699183790e-002  -1.5985012755e-002   4.4310074475e-001  -2.2364370395e-002   4.4541963376e-001   2.9314328519e-002   5.7831798940e-002
  7.1760000000e+010  -6.6316028721e-003  -3.7284009138e-002  -1.4520947199e-002   4.4286391625e-001  -2.0880384293e-002   4.4519405792e-001   3.2118074668e-002   5.7076005184e-002
  7.1780000000e+010  -7.1235596043e-003  -3.6863948845e-002  -1.3042955618e-002   4.4261968501e-001  -1.9382195183e-002   4.4496104126e-001   3.4858699260e-002   5.6240988953e-002
  7.1800000000e+010  -7.6082474004e-003  -3.6439142882e-002  -1.1551169952e-002   4.4236800322e-001  -1.7869936801e-002   4.4472053342e-001   3.7533041482e-002   5.5328668296e-002
  7.1820000000e+010  -8.0854076173e-003  -3.6009740042e-002  -1.0045723175e-002   4.4210882353e-001  -1.6343743954e-002   4.4447248452e-001   4.0138033714e-002   5.4341080299e-002
  7.1840000000e+010  -8.5547852949e-003  -3.5575897899e-002  -8.5267492761e-003   4.4184209906e-001  -1.4803752493e-002   4.4421684515e-001   4.2670706313e-002   5.3280377859e-002
  7.1860000000e+010  -9.0161294966e-003  -3.5137782753e-002  -6.9943832399e-003   4.4156778342e-001  -1.3250099296e-002   4.4395356640e-001   4.5128192251e-002   5.2148826261e-002
  7.1880000000e+010  -9.4691936505e-003  -3.4695569560e-002  -5.4487610248e-003   4.4128583071e-001  -1.1682922249e-002   4.4368259986e-001   4.7507731607e-002   5.0948799569e-002
  7.1900000000e+010  -9.9137358914e-003  -3.4249441844e-002  -3.8900195442e-003   4.4099619551e-001  -1.0102360220e-002   4.4340389765e-001   4.9806675906e-002   4.9682776828e-002
  7.1920000000e+010  -1.0349519403e-002  -3.3799591603e-002  -2.3182966457e-003   4.4069883292e-001  -8.5085530444e-003   4.4311741236e-001   5.2022492291e-002   4.8353338089e-002
  7.1940000000e+010  -1.0776312758e-002  -3.3346219194e-002  -7.3373109088e-004   4.4039369854e-001  -6.9016415007e-003   4.4282309714e-001   5.4152767534e-002   4.6963160264e-002
  7.1960000000e+010  -1.1193890262e-002  -3.2889533205e-002   8.6353746496e-004   4.4008074849e-001  -5.2817672912e-003   4.4252090565e-001   5.6195211855e-002   4.5515012806e-002
  7.1980000000e+010  -1.1602032288e-002  -3.2429750314e-002   2.4733684932e-003   4.3975993939e-001  -3.6490730211e-003   4.4221079210e-001   5.8147662575e-002   4.4011753242e-002
  7.2000000000e+010  -1.2000525615e-002  -3.1967095132e-002   4.0956206125e-003   4.3943122841e-001  -2.0037021771e-003   4.4189271122e-001   6.0008087563e-002   4.2456322540e-002
  7.2020000000e+010  -1.2389163763e-002  -3.1501800035e-002   5.7301516089e-003   4.3909457324e-001  -3.4579910740e-004   4.4156661832e-001   6.1774588494e-002   4.0851740346e-002
  7.2040000000e+010  -1.2767747319e-002  -3.1034104974e-002   7.3768184566e-003   4.3874993212e-001   1.3244909996e-003   4.4123246924e-001   6.3445403905e-002   3.9201100065e-002
  7.2060000000e+010  -1.3136084269e-002  -3.0564257283e-002   9.0354773383e-003   4.3839726382e-001   3.0070221362e-003   4.4089022038e-001   6.5018912040e-002   3.7507563831e-002
  7.2080000000e+010  -1.3493990313e-002  -3.0092511458e-002   1.0705983666e-002   4.3803652767e-001   4.7016474962e-003   4.4053982873e-001   6.6493633478e-002   3.5774357345e-002
  7.2100000000e+010  -1.3841289185e-002  -2.9619128937e-002   1.2388192101e-002   4.3766768354e-001   6.4082194958e-003   4.4018125182e-001   6.7868233551e-002   3.4004764596e-002
  7.2120000000e+010  -1.4177812964e-002  -2.9144377855e-002   1.4081956575e-002   4.3729069187e-001   8.1265897947e-003   4.3981444777e-001   6.9141524530e-002   3.2202122492e-002
  7.2140000000e+010  -1.4503402375e-002  -2.8668532792e-002   1.5787130309e-002   4.3690551365e-001   9.8566093167e-003   4.3943937529e-001   7.0312467589e-002   3.0369815377e-002
  7.2160000000e+010  -1.4817907087e-002  -2.8191874503e-002   1.7503565839e-002   4.3651211046e-001   1.1598128271e-002   4.3905599367e-001   7.1380174536e-002   2.8511269477e-002
