! TOUCHSTONE file generated by CST MICROWAVE STUDIO
! Date and time: Mon Jun 21 17:06:55 2021
! Project name: HIPS_d_sweep.cst
! Parameters = {a=0.735; b=0.393; d=20.7236; fmax=120; fmin=75; phi=0; theta=0}
! Header version: 2018
! Port assignment regex: !\s*Touchstone port\s*([0-9]+)\s*=\s*(CST MWS port|CST DS port)\s*([0-9]+|Zmin|Zmax)\s*\(\"(.*)\"\)(\s*mode\s*([0-9]+))?.*
! Touchstone port assignment:
! Touchstone port 1 = CST MWS port Zmin ("") mode 1
! Touchstone port 2 = CST MWS port Zmin ("") mode 2
! Touchstone port 3 = CST MWS port Zmax ("") mode 1
! Touchstone port 4 = CST MWS port Zmax ("") mode 2
! S-Parameters are not renormalized. Unphysical impedance of 0 will be written to the file.
# GHz S MA R 0
75                     0.0561127        -17.9811                0               0         0.227231        -34.1514                0               0
                       0.0716965        -24.9629                0               0         0.969575        -125.189                0               0
                        0.227231         -34.151                0               0        0.0561403        -18.0399                0               0
                        0.969574        -125.189                0               0        0.0716736          -25.11                0               0
75.045                 0.0538263        -17.7252                0               0         0.230399        -34.9327                0               0
                       0.0720945        -26.0863                0               0         0.970058        -125.807                0               0
                        0.230399        -34.9328                0               0        0.0538535        -17.7883                0               0
                        0.970056        -125.807                0               0        0.0720734        -26.2325                0               0
75.09                  0.0513479        -17.3311                0               0         0.233346        -35.7582                0               0
                        0.072393        -27.2943                0               0         0.970109        -126.505                0               0
                        0.233345        -35.7586                0               0        0.0513747        -17.3987                0               0
                        0.970107        -126.505                0               0        0.0723736        -27.4396                0               0
75.135                 0.0486715        -16.7646                0               0         0.236041         -36.634                0               0
                       0.0725868        -28.5979                0               0         0.969833        -127.286                0               0
                         0.23604        -36.6346                0               0        0.0486979        -16.8369                0               0
                        0.969831        -127.286                0               0        0.0725692        -28.7425                0               0
75.18                  0.0457944        -15.9771                0               0         0.238458        -37.5663                0               0
                       0.0726724        -30.0081                0               0          0.96933         -128.15                0               0
                        0.238457        -37.5669                0               0        0.0458203        -16.0547                0               0
                        0.969328         -128.15                0               0        0.0726565        -30.1521                0               0
75.225                 0.0427182         -14.899                0               0         0.240576        -38.5608                0               0
                       0.0726471        -31.5354                0               0         0.968693        -129.097                0               0
                        0.240576        -38.5613                0               0        0.0427433        -14.9827                0               0
                        0.968691        -129.097                0               0        0.0726331        -31.6789                0               0
75.27                  0.0394513        -13.4276                0               0         0.242376         -39.623                0               0
                       0.0725099        -33.1894                0               0         0.968004        -130.124                0               0
                        0.242376        -39.6234                0               0        0.0394753        -13.5187                0               0
                        0.968002        -130.124                0               0        0.0724978        -33.3326                0               0
75.315                 0.0360125        -11.4092                0               0         0.243844        -40.7576                0               0
                       0.0722603        -34.9789                0               0         0.967334         -131.23                0               0
                        0.243844        -40.7578                0               0        0.0360347        -11.5097                0               0
                        0.967333         -131.23                0               0        0.0722504        -35.1219                0               0
75.36                  0.0324376        -8.60802                0               0         0.244972        -41.9685                0               0
                        0.071899        -36.9117                0               0          0.96674        -132.412                0               0
                        0.244973        -41.9684                0               0        0.0324573        -8.72048                0               0
                        0.966739        -132.412                0               0        0.0718913        -37.0546                0               0
75.405                 0.0287918          -4.656                0               0         0.245756        -43.2582                0               0
                       0.0714271         -38.994                0               0         0.966267        -133.667                0               0
                        0.245757        -43.2578                0               0        0.0288077        -4.78419                0               0
                        0.966266        -133.667                0               0        0.0714217        -39.1371                0               0
75.45                  0.0251931         1.02242                0               0         0.246196        -44.6283                0               0
                       0.0708461         -41.231                0               0         0.965945        -134.991                0               0
                        0.246197        -44.6277                0               0        0.0252032        0.873836                0               0
                        0.965943        -134.991                0               0        0.0708434        -41.3742                0               0
75.495                 0.0218546         9.28419                0               0         0.246298        -46.0787                0               0
                       0.0701581        -43.6259                0               0         0.965792        -136.381                0               0
                        0.246299        -46.0779                0               0        0.0218557         9.11127                0               0
                         0.96579        -136.381                0               0        0.0701581        -43.7695                0               0
75.54                  0.0191507         21.1621                0               0         0.246068        -47.6082                0               0
                       0.0693652        -46.1807                0               0         0.965814        -137.832                0               0
                        0.246069        -47.6072                0               0        0.0191386         20.9681                0               0
                        0.965812        -137.833                0               0        0.0693684        -46.3247                0               0
75.585                 0.0176552         37.0386                0               0         0.245519        -49.2139                0               0
                       0.0684702        -48.8958                0               0         0.966008        -139.342                0               0
                        0.245521        -49.2129                0               0        0.0176258         36.8462                0               0
                        0.966006        -139.343                0               0        0.0684766        -49.0404                0               0
75.63                  0.0179615         54.9821                0               0         0.244665        -50.8918                0               0
                        0.067476        -51.7699                0               0          0.96636        -140.907                0               0
                        0.244666        -50.8909                0               0         0.017915         54.8308                0               0
                        0.966358        -140.907                0               0        0.0674859        -51.9152                0               0
75.675                 0.0202453         71.1357                0               0          0.24352        -52.6368                0               0
                       0.0663861        -54.8005                0               0         0.966848        -142.522                0               0
                        0.243521         -52.636                0               0        0.0201869         71.0441                0               0
                        0.966846        -142.522                0               0        0.0663997        -54.9466                0               0
75.72                  0.0241625         83.1984                0               0         0.242103        -54.4426                0               0
                       0.0652048        -57.9837                0               0         0.967445        -144.185                0               0
                        0.242104         -54.442                0               0        0.0240981         83.1539                0               0
                        0.967443        -144.185                0               0        0.0652224        -58.1306                0               0
75.765                 0.0292294         91.3482                0               0         0.240432        -56.3023                0               0
                       0.0639375        -61.3143                0               0         0.968117        -145.892                0               0
                        0.240432        -56.3018                0               0        0.0291623         91.3318                0               0
                        0.968115        -145.892                0               0        0.0639592        -61.4622                0               0
75.81                  0.0350761         96.6116                0               0         0.238526        -58.2082                0               0
                       0.0625905        -64.7865                0               0         0.968828         -147.64                0               0
                        0.238526         -58.208                0               0        0.0350083         96.6103                0               0
                        0.968826        -147.641                0               0        0.0626165        -64.9353                0               0
75.855                 0.0414614         99.8945                0               0         0.236405        -60.1524                0               0
                       0.0611715        -68.3935                0               0          0.96954        -149.427                0               0
                        0.236405        -60.1525                0               0        0.0413936          99.901                0               0
                        0.969537        -149.427                0               0        0.0612019        -68.5434                0               0
75.9                   0.0482243         101.821                0               0          0.23409         -62.127                0               0
                       0.0596897        -72.1286                0               0         0.970212        -151.249                0               0
                         0.23409        -62.1272                0               0         0.048157         101.831                0               0
                        0.970209        -151.249                0               0        0.0597247        -72.2794                0               0
75.945                 0.0552476           102.8                0               0         0.231602        -64.1239                0               0
                       0.0581555        -75.9849                0               0         0.970806        -153.104                0               0
                        0.231601        -64.1244                0               0        0.0551809         102.812                0               0
                        0.970803        -153.105                0               0        0.0581951        -76.1366                0               0
75.99                  0.0624385         103.103                0               0         0.228961        -66.1357                0               0
                       0.0565805         -79.956                0               0         0.971289        -154.991                0               0
                        0.228961        -66.1363                0               0        0.0623725         103.114                0               0
                        0.971286        -154.991                0               0        0.0566248        -80.1086                0               0
76.035                 0.0697199         102.915                0               0         0.226189        -68.1553                0               0
                       0.0549776        -84.0367                0               0          0.97163        -156.905                0               0
                        0.226189         -68.156                0               0        0.0696542         102.926                0               0
                        0.971627        -156.906                0               0        0.0550265          -84.19                0               0
76.08                  0.0770279          102.37                0               0         0.223306        -70.1765                0               0
                         0.05336        -88.2229                0               0          0.97181        -158.847                0               0
                        0.223306        -70.1772                0               0        0.0769622         102.379                0               0
                        0.971807        -158.847                0               0        0.0534136        -88.3766                0               0
76.125                 0.0843128         101.563                0               0         0.220332        -72.1938                0               0
                       0.0517414        -92.5123                0               0         0.971821        -160.812                0               0
                        0.220332        -72.1944                0               0        0.0842464          101.57                0               0
                        0.971817        -160.813                0               0        0.0517997        -92.6663                0               0
76.17                  0.0915401         100.566                0               0         0.217285        -74.2028                0               0
                       0.0501354         -96.905                0               0         0.971669          -162.8                0               0
                        0.217284        -74.2033                0               0        0.0914725         100.573                0               0
                        0.971664        -162.801                0               0        0.0501983        -97.0588                0               0
76.215                 0.0986909         99.4318                0               0         0.214183        -76.2005                0               0
                       0.0485551        -101.403                0               0         0.971379        -164.807                0               0
                        0.214182        -76.2007                0               0        0.0986213         99.4371                0               0
                        0.971373        -164.808                0               0        0.0486225        -101.556                0               0
76.26                    0.10576         98.1948                0               0         0.211041        -78.1848                0               0
                       0.0470125        -106.011                0               0         0.970994        -166.829                0               0
                        0.211041        -78.1847                0               0         0.105688         98.1994                0               0
                        0.970988         -166.83                0               0        0.0470845        -106.163                0               0
76.305                   0.11275         96.8773                0               0         0.207874        -80.1551                0               0
                       0.0455187        -110.737                0               0         0.970574        -168.861                0               0
                        0.207874        -80.1546                0               0         0.112675         96.8814                0               0
                        0.970567        -168.862                0               0        0.0455952        -110.887                0               0
76.35                   0.119669         95.4908                0               0         0.204696         -82.112                0               0
                       0.0440834        -115.589                0               0         0.970183        -170.895                0               0
                        0.204697        -82.1113                0               0         0.119592         95.4949                0               0
                        0.970175        -170.896                0               0        0.0441644        -115.736                0               0
76.395                  0.126522         94.0403                0               0         0.201519        -84.0576                0               0
                       0.0427158        -120.578                0               0         0.969873        -172.921                0               0
                         0.20152        -84.0566                0               0         0.126444         94.0443                0               0
                        0.969864        -172.921                0               0        0.0428012        -120.722                0               0
76.44                   0.133309         92.5269                0               0         0.198357        -85.9947                0               0
                       0.0414242        -125.714                0               0          0.96966        -174.925                0               0
