! TOUCHSTONE file generated by CST MICROWAVE STUDIO
! Date and time: Mon Jun 21 17:06:19 2021
! Project name: HIPS_d_sweep.cst
! Parameters = {a=0.735; b=0.393; d=16.201; fmax=120; fmin=75; phi=0; theta=0}
! Header version: 2018
! Port assignment regex: !\s*Touchstone port\s*([0-9]+)\s*=\s*(CST MWS port|CST DS port)\s*([0-9]+|Zmin|Zmax)\s*\(\"(.*)\"\)(\s*mode\s*([0-9]+))?.*
! Touchstone port assignment:
! Touchstone port 1 = CST MWS port Zmin ("") mode 1
! Touchstone port 2 = CST MWS port Zmin ("") mode 2
! Touchstone port 3 = CST MWS port Zmax ("") mode 1
! Touchstone port 4 = CST MWS port Zmax ("") mode 2
! S-Parameters are not renormalized. Unphysical impedance of 0 will be written to the file.
# GHz S MA R 0
75                     0.0695064         34.1705                0               0         0.502701         132.224                0               0
                        0.117329        -45.1228                0               0         0.853637         42.0233                0               0
                        0.502701         132.224                0               0        0.0697733         34.1261                0               0
                        0.853638         42.0239                0               0          0.11717        -45.1975                0               0
75.045                 0.0687236         35.5667                0               0         0.503338         131.033                0               0
                        0.117083        -47.1029                0               0         0.854858         40.9487                0               0
                        0.503338         131.033                0               0        0.0689902         35.5129                0               0
                        0.854859         40.9494                0               0         0.116924        -47.1795                0               0
75.09                  0.0680412         37.0385                0               0         0.503887         129.838                0               0
                        0.116805         -49.111                0               0         0.856027          39.866                0               0
                        0.503887         129.838                0               0        0.0683068         36.9746                0               0
                        0.856028         39.8667                0               0         0.116646        -49.1895                0               0
75.135                 0.0674682         38.5813                0               0         0.504347         128.637                0               0
                        0.116496        -51.1473                0               0         0.857143         38.7753                0               0
                        0.504348         128.636                0               0        0.0677323         38.5068                0               0
                        0.857144          38.776                0               0         0.116337        -51.2278                0               0
75.18                  0.0670138         40.1889                0               0         0.504718          127.43                0               0
                        0.116154         -53.212                0               0         0.858204         37.6765                0               0
                        0.504718          127.43                0               0        0.0672755         40.1035                0               0
                        0.858205         37.6773                0               0         0.115996        -53.2943                0               0
75.225                 0.0666867         41.8533                0               0         0.504998          126.22                0               0
                         0.11578        -55.3051                0               0         0.859208         36.5699                0               0
                        0.504999          126.22                0               0        0.0669453         41.7568                0               0
                        0.859209         36.5706                0               0         0.115622        -55.3893                0               0
75.27                  0.0664951         43.5652                0               0         0.505188         125.005                0               0
                        0.115372        -57.4267                0               0         0.860153         35.4554                0               0
                        0.505188         125.005                0               0        0.0667499         43.4574                0               0
                        0.860155         35.4562                0               0         0.115215        -57.5128                0               0
75.315                 0.0664468         45.3132                0               0         0.505285         123.786                0               0
                         0.11493        -59.5767                0               0         0.861038         34.3333                0               0
                        0.505286         123.786                0               0        0.0666967         45.1942                0               0
                         0.86104         34.3341                0               0         0.114775        -59.6647                0               0
75.36                  0.0665482         47.0849                0               0         0.505292         122.563                0               0
                        0.114455        -61.7553                0               0         0.861861         33.2035                0               0
                        0.505292         122.563                0               0        0.0667925         46.9549                0               0
                        0.861863         33.2043                0               0         0.114301         -61.845                0               0
75.405                 0.0668049         48.8667                0               0         0.505206         121.337                0               0
                        0.113945        -63.9622                0               0         0.862621         32.0663                0               0
                        0.505207         121.337                0               0        0.0670428         48.7263                0               0
                        0.862622         32.0671                0               0         0.113794        -64.0539                0               0
75.45                  0.0672213         50.6443                0               0          0.50503         120.108                0               0
                        0.113402        -66.1976                0               0         0.863315         30.9218                0               0
                         0.50503         120.108                0               0        0.0674519          50.494                0               0
                        0.863316         30.9226                0               0         0.113253         -66.291                0               0
75.495                 0.0678001         52.4031                0               0         0.504762         118.877                0               0
                        0.112825        -68.4611                0               0         0.863942           29.77                0               0
                        0.504762         118.877                0               0        0.0680227         52.2437                0               0
                        0.863944         29.7708                0               0         0.112678        -68.5564                0               0
75.54                  0.0685429         54.1286                0               0         0.504403         117.643                0               0
                        0.112214        -70.7528                0               0         0.864501         28.6111                0               0
                        0.504404         117.643                0               0        0.0687567         53.9612                0               0
                        0.864503          28.612                0               0          0.11207        -70.8499                0               0
75.585                 0.0694495         55.8069                0               0         0.503955         116.407                0               0
                         0.11157        -73.0723                0               0         0.864991         27.4453                0               0
                        0.503955         116.407                0               0        0.0696539         55.6324                0               0
                        0.864993         27.4462                0               0         0.111429        -73.1713                0               0
75.63                  0.0705185         57.4252                0               0         0.503417          115.17                0               0
                        0.110893        -75.4196                0               0          0.86541         26.2727                0               0
                        0.503418          115.17                0               0        0.0707129         57.2448                0               0
                        0.865411         26.2736                0               0         0.110756        -75.5203                0               0
75.675                 0.0717467         58.9718                0               0         0.502792         113.931                0               0
                        0.110185        -77.7942                0               0         0.865757         25.0935                0               0
                        0.502793         113.931                0               0        0.0719308         58.7866                0               0
                        0.865758         25.0944                0               0         0.110051        -77.8968                0               0
75.72                  0.0731301         60.4365                0               0         0.502081         112.691                0               0
                        0.109445         -80.196                0               0          0.86603         23.9079                0               0
                        0.502081         112.691                0               0        0.0733035         60.2477                0               0
                        0.866031         23.9087                0               0         0.109316        -80.3004                0               0
75.765                 0.0746631          61.811                0               0         0.501284         111.451                0               0
                        0.108676        -82.6246                0               0         0.866229         22.7159                0               0
                        0.501285         111.451                0               0        0.0748257         61.6197                0               0
                         0.86623         22.7167                0               0         0.108551        -82.7308                0               0
75.81                  0.0763395         63.0886                0               0         0.500404         110.211                0               0
                        0.107877        -85.0796                0               0         0.866353         21.5178                0               0
                        0.500405         110.211                0               0        0.0764911          62.896                0               0
                        0.866354         21.5187                0               0         0.107757        -85.1876                0               0
75.855                 0.0781518         64.2644                0               0         0.499442          108.97                0               0
                        0.107051        -87.5606                0               0           0.8664         20.3138                0               0
                        0.499443          108.97                0               0        0.0782924         64.0714                0               0
                        0.866401         20.3147                0               0         0.106936        -87.6704                0               0
75.9                   0.0800923         65.3351                0               0         0.498401          107.73                0               0
                          0.1062        -90.0673                0               0         0.866371         19.1041                0               0
                        0.498402          107.73                0               0        0.0802219         65.1426                0               0
                        0.866372         19.1049                0               0          0.10609        -90.1789                0               0
75.945                 0.0821524         66.2989                0               0         0.497282         106.491                0               0
                        0.105323        -92.5991                0               0         0.866264         17.8888                0               0
                        0.497283         106.491                0               0        0.0822712         66.1077                0               0
                        0.866265         17.8896                0               0          0.10522        -92.7125                0               0
75.99                  0.0843232         67.1554                0               0         0.496088         105.252                0               0
                        0.104425        -95.1555                0               0         0.866079         16.6682                0               0
                        0.496089         105.252                0               0        0.0844314         66.9662                0               0
                         0.86608          16.669                0               0         0.104327        -95.2707                0               0
76.035                 0.0865956         67.9052                0               0         0.494821         104.015                0               0
                        0.103505        -97.7361                0               0         0.865816         15.4424                0               0
                        0.494822         104.015                0               0        0.0866934         67.7187                0               0
                        0.865817         15.4432                0               0         0.103414         -97.853                0               0
76.08                  0.0889603         68.5502                0               0         0.493484         102.779                0               0
                        0.102568         -100.34                0               0         0.865475         14.2117                0               0
                        0.493485         102.779                0               0        0.0890481         68.3668                0               0
                        0.865475         14.2125                0               0         0.102482        -100.459                0               0
76.125                 0.0914079         69.0927                0               0         0.492079         101.546                0               0
                        0.101614        -102.967                0               0         0.865054         12.9763                0               0
                        0.492079         101.546                0               0        0.0914859         68.9128                0               0
                        0.865054         12.9771                0               0         0.101535        -103.088                0               0
76.17                  0.0939288         69.5359                0               0         0.490609         100.314                0               0
                        0.100645        -105.617                0               0         0.864555         11.7364                0               0
                        0.490609         100.314                0               0        0.0939976         69.3599                0               0
                        0.864554         11.7372                0               0         0.100574        -105.739                0               0
76.215                 0.0965139         69.8834                0               0         0.489076         99.0843                0               0
                       0.0996654        -108.288                0               0         0.863977         10.4923                0               0
                        0.489077         99.0843                0               0        0.0965737         69.7115                0               0
                        0.863976          10.493                0               0        0.0996007        -108.412                0               0
76.26                  0.0991537         70.1391                0               0         0.487484         97.8573                0               0
                       0.0986764         -110.98                0               0          0.86332         9.24406                0               0
                        0.487485         97.8574                0               0         0.099205         69.9715                0               0
                        0.863319         9.24475                0               0        0.0986189        -111.105                0               0
76.305                  0.101839         70.3072                0               0         0.485836         96.6332                0               0
                       0.0976806        -113.692                0               0         0.862586         7.99204                0               0
                        0.485836         96.6332                0               0         0.101882          70.144                0               0
                        0.862585         7.99271                0               0        0.0976305        -113.819                0               0
76.35                   0.104561         70.3921                0               0         0.484134          95.412                0               0
                       0.0966807        -116.424                0               0         0.861774         6.73644                0               0
                        0.484134          95.412                0               0         0.104597         70.2334                0               0
                        0.861772         6.73709                0               0        0.0966382        -116.552                0               0
76.395                  0.107312         70.3981                0               0         0.482381          94.194                0               0
                       0.0956794        -119.174                0               0         0.860885          5.4775                0               0
                        0.482382          94.194                0               0          0.10734         70.2439                0               0
                        0.860884         5.47813                0               0        0.0956446        -119.304                0               0
76.44                   0.110081         70.3297                0               0         0.480582         92.9794                0               0
                       0.0946792        -121.943                0               0         0.859921         4.21545                0               0
