! TOUCHSTONE file generated by CST MICROWAVE STUDIO
! Date and time: Mon Jun 21 17:07:33 2021
! Project name: HIPS_d_sweep.cst
! Parameters = {a=0.735; b=0.393; d=24.794; fmax=120; fmin=75; phi=0; theta=0}
! Header version: 2018
! Port assignment regex: !\s*Touchstone port\s*([0-9]+)\s*=\s*(CST MWS port|CST DS port)\s*([0-9]+|Zmin|Zmax)\s*\(\"(.*)\"\)(\s*mode\s*([0-9]+))?.*
! Touchstone port assignment:
! Touchstone port 1 = CST MWS port Zmin ("") mode 1
! Touchstone port 2 = CST MWS port Zmin ("") mode 2
! Touchstone port 3 = CST MWS port Zmax ("") mode 1
! Touchstone port 4 = CST MWS port Zmax ("") mode 2
! S-Parameters are not renormalized. Unphysical impedance of 0 will be written to the file.
# GHz S MA R 0
75                       0.24367         29.8917                0               0        0.0429384         19.9421                0               0
                       0.0323537         10.9197                0               0         0.968365         120.237                0               0
                       0.0429398         19.9405                0               0         0.243684         29.9279                0               0
                        0.968367         120.238                0               0        0.0323199         11.1275                0               0
75.045                   0.24276         29.2148                0               0        0.0389991         18.1986                0               0
                       0.0321133          12.035                0               0         0.968768          119.53                0               0
                       0.0390005         18.1968                0               0         0.242773         29.2509                0               0
                         0.96877         119.531                0               0         0.032082         12.2494                0               0
75.09                   0.241726         28.4418                0               0        0.0354715         16.2778                0               0
                       0.0319145         12.9099                0               0         0.969157         118.731                0               0
                       0.0354729         16.2759                0               0          0.24174         28.4779                0               0
                        0.969158         118.732                0               0        0.0318848         13.1314                0               0
75.135                  0.240566         27.5745                0               0        0.0323424         14.1952                0               0
                       0.0317543         13.5322                0               0         0.969543         117.841                0               0
                       0.0323439         14.1931                0               0         0.240579         27.6105                0               0
                        0.969545         117.842                0               0        0.0317259         13.7613                0               0
75.18                   0.239272         26.6142                0               0        0.0295992         11.9762                0               0
                        0.031627         13.8941                0               0         0.969941          116.86                0               0
                       0.0296008         11.9739                0               0         0.239285         26.6502                0               0
                        0.969942         116.861                0               0        0.0315998         14.1309                0               0
75.225                  0.237833         25.5625                0               0        0.0272295         9.65922                0               0
                       0.0315247         13.9916                0               0         0.970358          115.79                0               0
                       0.0272312         9.65677                0               0         0.237846         25.5986                0               0
                        0.970359         115.791                0               0        0.0314988         14.2363                0               0
75.27                   0.236235         24.4212                0               0        0.0252207         7.29661                0               0
                       0.0314381         13.8246                0               0         0.970805         114.633                0               0
                       0.0252225          7.2939                0               0         0.236248         24.4572                0               0
                        0.970806         114.634                0               0        0.0314136         14.0771                0               0
75.315                  0.234462         23.1916                0               0        0.0235601         4.95385                0               0
                       0.0313566         13.3961                0               0         0.971288         113.389                0               0
                        0.023562         4.95082                0               0         0.234474         23.2277                0               0
                        0.971289          113.39                0               0        0.0313336         13.6566                0               0
75.36                   0.232496         21.8755                0               0        0.0222351         2.70555                0               0
                       0.0312694         12.7122                0               0         0.971813         112.062                0               0
                       0.0222371         2.70217                0               0         0.232508         21.9118                0               0
                        0.971813         112.062                0               0        0.0312479         12.9805                0               0
75.405                  0.230315         20.4748                0               0        0.0212331        0.627941                0               0
                       0.0311651         11.7807                0               0         0.972384         110.652                0               0
                       0.0212352         0.62419                0               0         0.230327         20.5113                0               0
                        0.972385         110.652                0               0         0.031145         12.0571                0               0
75.45                     0.2279         18.9913                0               0        0.0205429        -1.21171                0               0
                        0.031033         10.6112                0               0         0.973005         109.161                0               0
                       0.0205449         -1.2158                0               0         0.227911          19.028                0               0
                        0.973005         109.162                0               0         0.031014          10.896                0               0
75.495                  0.225228         17.4272                0               0        0.0201545        -2.76634                0               0
                       0.0308625         9.21419                0               0         0.973677         107.594                0               0
                       0.0201566         -2.7707                0               0         0.225239         17.4642                0               0
                        0.973678         107.594                0               0         0.030844         9.50811                0               0
75.54                   0.222278          15.785                0               0        0.0200604        -4.01823                0               0
                       0.0306435         7.60065                0               0         0.974401         105.951                0               0
                       0.0200625        -4.02275                0               0         0.222289         15.8224                0               0
                        0.974402         105.951                0               0        0.0306252         7.90463                0               0
75.585                  0.219029         14.0674                0               0        0.0202548        -4.98298                0               0
                       0.0303671          5.7815                0               0         0.975177         104.235                0               0
                       0.0202568        -4.98752                0               0          0.21904         14.1052                0               0
                        0.975177         104.236                0               0        0.0303482         6.09683                0               0
75.63                   0.215462         12.2775                0               0        0.0207331        -5.70686                0               0
                       0.0300248         3.76727                0               0         0.976002         102.451                0               0
                       0.0207351        -5.71124                0               0         0.215473         12.3158                0               0
                        0.976003         102.452                0               0        0.0300047         4.09557                0               0
75.675                  0.211558         10.4187                0               0        0.0214912        -6.25813                0               0
                       0.0296093         1.56772                0               0         0.976876         100.601                0               0
                       0.0214932        -6.26216                0               0          0.21157         10.4576                0               0
                        0.976876         100.601                0               0        0.0295873         1.91095                0               0
75.72                   0.207304         8.49463                0               0         0.022524          -6.715                0               0
                        0.029114        -0.80841                0               0         0.977793         98.6878                0               0
                        0.022526        -6.71853                0               0         0.207315         8.53418                0               0
                        0.977793         98.6886                0               0        0.0290896        -0.44798                0               0
75.765                  0.202686         6.50943                0               0        0.0238245        -7.15377                0               0
                       0.0285336        -3.35366                0               0         0.978751          96.716                0               0
                       0.0238265        -7.15668                0               0         0.202698         6.54975                0               0
                        0.978751         96.7168                0               0         0.028506        -2.97346                0               0
75.81                   0.197696         4.46739                0               0        0.0253833        -7.63981                0               0
                       0.0278636        -6.06213                0               0         0.979744         94.6891                0               0
                       0.0253853        -7.64203                0               0         0.197708         4.50858                0               0
                        0.979745         94.6899                0               0        0.0278323        -5.65927                0               0
75.855                  0.192328         2.37303                0               0        0.0271882        -8.22277                0               0
                       0.0271004        -8.92967                0               0         0.980768          92.611                0               0
                       0.0271902        -8.22428                0               0         0.192341         2.41521                0               0
                        0.980768         92.6118                0               0        0.0270649        -8.50097                0               0
75.9                    0.186582        0.231035                0               0        0.0292248        -8.93568                0               0
                       0.0262417        -11.9543                0               0         0.981816         90.4858                0               0
                       0.0292268        -8.93649                0               0         0.186596        0.274352                0               0
                        0.981817         90.4865                0               0        0.0262013        -11.4962                0               0
75.945                  0.180461        -1.95382                0               0        0.0314763        -9.79668                0               0
                        0.025286        -15.1364                0               0         0.982882         88.3176                0               0
                       0.0314784        -9.79687                0               0         0.180475        -1.90921                0               0
                        0.982883         88.3184                0               0        0.0252402         -14.645                0               0
75.99                    0.17397        -4.17675                0               0        0.0339248        -10.8122                0               0
                        0.024233        -18.4798                0               0         0.983961         86.1107                0               0
                       0.0339269        -10.8118                0               0         0.173985        -4.13065                0               0
                        0.983962         86.1114                0               0        0.0241813        -17.9505                0               0
76.035                   0.16712        -6.43301                0               0        0.0365508          -11.98                0               0
                       0.0230837        -21.9918                0               0         0.985044         83.8693                0               0
                       0.0365531        -11.9792                0               0         0.167136        -6.38521                0               0
                        0.985046         83.8701                0               0        0.0230255        -21.4197                0               0
76.08                   0.159925        -8.71799                0               0        0.0393346        -13.2927                0               0
                       0.0218403        -25.6856                0               0         0.986127         81.5979                0               0
                       0.0393369        -13.2916                0               0         0.159942        -8.66821                0               0
                        0.986128         81.5987                0               0        0.0217747        -25.0646                0               0
76.125                    0.1524        -11.0272                0               0        0.0422559        -14.7396                0               0
                       0.0205062         -29.581                0               0           0.9872         79.3007                0               0
                       0.0422583        -14.7383                0               0         0.152418        -10.9751                0               0
                        0.987202         79.3015                0               0        0.0204323        -28.9041                0               0
76.17                   0.144565        -13.3561                0               0        0.0452947        -16.3085                0               0
                       0.0190866        -33.7088                0               0         0.988257          76.982                0               0
                       0.0452971        -16.3071                0               0         0.144584        -13.3014                0               0
                        0.988259         76.9828                0               0        0.0190032        -32.9672                0               0
76.215                  0.136439        -15.7006                0               0         0.048431        -17.9871                0               0
                       0.0175882        -38.1148                0               0          0.98929          74.646                0               0
                       0.0484334        -17.9857                0               0         0.136459        -15.6427                0               0
                        0.989292         74.6469                0               0         0.017494        -37.2979                0               0
76.26                   0.128046        -18.0561                0               0        0.0516454        -19.7637                0               0
                       0.0160198        -42.8683                0               0          0.99029          72.297                0               0
                       0.0516477        -19.7623                0               0         0.128067        -17.9946                0               0
                        0.990292         72.2979                0               0         0.015913        -41.9629                0               0
76.305                  0.119408        -20.4182                0               0        0.0549187        -21.6273                0               0
                       0.0143929        -48.0763                0               0         0.991248          69.939                0               0
                       0.0549208        -21.6261                0               0          0.11943        -20.3524                0               0
                        0.991249         69.9399                0               0        0.0142712        -47.0659                0               0
76.35                    0.11055        -22.7816                0               0        0.0582322        -23.5681                0               0
                       0.0127225        -53.9077                0               0         0.992152          67.576                0               0
                       0.0582341        -23.5671                0               0         0.110574        -22.7106                0               0
                        0.992153         67.5769                0               0        0.0125829        -52.7725                0               0
76.395                  0.101498        -25.1403                0               0        0.0615672        -25.5777                0               0
                       0.0110295        -60.6388                0               0         0.992989         65.2119                0               0
                       0.0615689         -25.577                0               0         0.101523        -25.0631                0               0
                        0.992991         65.2128                0               0        0.0108681        -59.3578                0               0
76.44                   0.092278        -27.4863                0               0        0.0649054        -27.6488                0               0
                      0.00934445        -68.7396                0               0         0.993745         62.8504                0               0
