! TOUCHSTONE file generated by CST MICROWAVE STUDIO
! Date and time: Mon Jun 21 17:07:03 2021
! Project name: HIPS_d_sweep.cst
! Parameters = {a=0.735; b=0.393; d=21.5276; fmax=120; fmin=75; phi=0; theta=0}
! Header version: 2018
! Port assignment regex: !\s*Touchstone port\s*([0-9]+)\s*=\s*(CST MWS port|CST DS port)\s*([0-9]+|Zmin|Zmax)\s*\(\"(.*)\"\)(\s*mode\s*([0-9]+))?.*
! Touchstone port assignment:
! Touchstone port 1 = CST MWS port Zmin ("") mode 1
! Touchstone port 2 = CST MWS port Zmin ("") mode 2
! Touchstone port 3 = CST MWS port Zmax ("") mode 1
! Touchstone port 4 = CST MWS port Zmax ("") mode 2
! S-Parameters are not renormalized. Unphysical impedance of 0 will be written to the file.
# GHz S MA R 0
75                      0.239784         51.3323                0               0         0.155623        -127.375                0               0
                       0.0458466           108.5                0               0         0.957171         140.336                0               0
                        0.155623        -127.374                0               0         0.239792         51.3481                0               0
                        0.957175         140.337                0               0         0.045887         108.548                0               0
75.045                  0.238614         50.9576                0               0         0.159245        -128.079                0               0
                       0.0467938         108.159                0               0         0.956864         139.704                0               0
                        0.159244         -128.08                0               0         0.238627         50.9733                0               0
                         0.95688         139.707                0               0        0.0468331         108.211                0               0
75.09                   0.238035         50.3693                0               0         0.162464        -128.812                0               0
                       0.0476878         107.556                0               0          0.95647         138.996                0               0
                        0.162463        -128.813                0               0         0.238049         50.3849                0               0
                        0.956494             139                0               0        0.0477264         107.609                0               0
75.135                  0.237802         49.6336                0               0         0.165286        -129.587                0               0
                       0.0485403         106.701                0               0         0.956028         138.212                0               0
                        0.165285        -129.587                0               0         0.237815         49.6492                0               0
                        0.956055         138.215                0               0        0.0485787         106.755                0               0
75.18                   0.237771         48.7865                0               0         0.167725        -130.413                0               0
                       0.0493613         105.609                0               0         0.955571         137.351                0               0
                        0.167725        -130.414                0               0         0.237782         48.8021                0               0
                        0.955599         137.355                0               0           0.0494         105.662                0               0
75.225                   0.23785         47.8491                0               0         0.169799          -131.3                0               0
                        0.050159         104.292                0               0         0.955127         136.414                0               0
                        0.169799          -131.3                0               0          0.23786         47.8647                0               0
                        0.955153         136.418                0               0        0.0501984         104.345                0               0
75.27                   0.237977         46.8342                0               0         0.171529         -132.25                0               0
                       0.0509398         102.768                0               0         0.954719         135.402                0               0
                        0.171528         -132.25                0               0         0.237986         46.8498                0               0
                        0.954742         135.405                0               0          0.05098         102.819                0               0
75.315                  0.238108           45.75                0               0         0.172936        -133.266                0               0
                       0.0517078         101.051                0               0         0.954363         134.316                0               0
                        0.172935        -133.266                0               0         0.238116         45.7655                0               0
                        0.954382         134.319                0               0         0.051749         101.102                0               0
75.36                   0.238208         44.6018                0               0         0.174042        -134.349                0               0
                       0.0524656         99.1565                0               0         0.954072         133.158                0               0
                        0.174041        -134.349                0               0         0.238215         44.6173                0               0
                        0.954086          133.16                0               0        0.0525078         99.2073                0               0
75.405                  0.238251         43.3932                0               0         0.174867        -135.497                0               0
                       0.0532139         97.0998                0               0         0.953852         131.928                0               0
                        0.174867        -135.497                0               0         0.238257         43.4087                0               0
                        0.953863          131.93                0               0        0.0532571         97.1506                0               0
75.45                   0.238213         42.1268                0               0         0.175431        -136.709                0               0
                       0.0539523         94.8949                0               0         0.953709          130.63                0               0
                        0.175431        -136.709                0               0         0.238218         42.1423                0               0
                        0.953716         130.631                0               0        0.0539963          94.946                0               0
75.495                  0.238075         40.8043                0               0         0.175751        -137.982                0               0
                       0.0546789          92.555                0               0         0.953643         129.265                0               0
                        0.175752        -137.982                0               0          0.23808         40.8198                0               0
                        0.953647         129.267                0               0        0.0547236         92.6066                0               0
75.54                   0.237821         39.4272                0               0         0.175844        -139.314                0               0
                       0.0553913         90.0926                0               0         0.953652         127.837                0               0
                        0.175844        -139.314                0               0         0.237826         39.4426                0               0
                        0.953655         127.838                0               0        0.0554364         90.1451                0               0
75.585                  0.237434         37.9967                0               0         0.175722        -140.702                0               0
                        0.056086         87.5195                0               0         0.953734         126.348                0               0
                        0.175722        -140.702                0               0         0.237439         38.0121                0               0
                        0.953736         126.349                0               0        0.0561314          87.573                0               0
75.63                   0.236902          36.514                0               0         0.175399        -142.142                0               0
                       0.0567596         84.8464                0               0         0.953886         124.801                0               0
                          0.1754        -142.142                0               0         0.236906         36.5293                0               0
                        0.953889         124.802                0               0        0.0568051         84.9011                0               0
75.675                  0.236211         34.9803                0               0         0.174887        -143.633                0               0
                       0.0574082         82.0837                0               0         0.954105           123.2                0               0
                        0.174888        -143.632                0               0         0.236215         34.9956                0               0
                        0.954109         123.201                0               0        0.0574536         82.1396                0               0
75.72                   0.235348         33.3971                0               0         0.174197        -145.171                0               0
                       0.0580279         79.2407                0               0         0.954391         121.548                0               0
                        0.174197        -145.171                0               0         0.235352         33.4124                0               0
                        0.954397          121.55                0               0        0.0580732         79.2981                0               0
75.765                  0.234303         31.7661                0               0         0.173338        -146.755                0               0
                       0.0586151         76.3265                0               0         0.954744         119.849                0               0
                        0.173339        -146.755                0               0         0.234307         31.7814                0               0
                        0.954752         119.851                0               0        0.0586601         76.3853                0               0
75.81                   0.233064         30.0891                0               0         0.172322        -148.382                0               0
                       0.0591663         73.3496                0               0         0.955166         118.107                0               0
                        0.172323        -148.382                0               0         0.233067         30.1044                0               0
                        0.955177         118.109                0               0         0.059211         73.4099                0               0
75.855                   0.23162         28.3684                0               0          0.17116        -150.053                0               0
                       0.0596784          70.318                0               0         0.955663         116.325                0               0
                        0.171161        -150.053                0               0         0.231623         28.3837                0               0
                        0.955675         116.327                0               0        0.0597228         70.3798                0               0
75.9                    0.229961         26.6066                0               0         0.169863        -151.765                0               0
                       0.0601486         67.2397                0               0          0.95624         114.507                0               0
                        0.169863        -151.765                0               0         0.229964         26.6219                0               0
                        0.956252         114.509                0               0        0.0601928         67.3029                0               0
75.945                  0.228078         24.8067                0               0         0.168444        -153.517                0               0
                       0.0605747         64.1222                0               0         0.956904         112.657                0               0
                        0.168444        -153.517                0               0          0.22808          24.822                0               0
                        0.956916         112.658                0               0        0.0606186         64.1869                0               0
75.99                    0.22596         22.9718                0               0         0.166915        -155.308                0               0
                       0.0609545         60.9729                0               0         0.957662         110.777                0               0
                        0.166915        -155.309                0               0         0.225962         22.9871                0               0
                        0.957673         110.779                0               0        0.0609983          61.039                0               0
76.035                  0.223599         21.1056                0               0         0.165293        -157.139                0               0
                       0.0612861         57.7991                0               0          0.95852         108.873                0               0
                        0.165293        -157.139                0               0         0.223601          21.121                0               0
                        0.958529         108.874                0               0        0.0613298         57.8667                0               0
76.08                   0.220988          19.212                0               0         0.163592        -159.005                0               0
                       0.0615678         54.6081                0               0         0.959481         106.946                0               0
                        0.163591        -159.006                0               0         0.220989         19.2274                0               0
                        0.959486         106.948                0               0        0.0616113         54.6773                0               0
76.125                  0.218118         17.2953                0               0         0.161828        -160.906                0               0
                       0.0617976         51.4071                0               0         0.960542         105.001                0               0
                        0.161827        -160.907                0               0         0.218119         17.3108                0               0
                        0.960543         105.002                0               0        0.0618409         51.4778                0               0
76.17                   0.214984         15.3599                0               0         0.160016        -162.839                0               0
                       0.0619733          48.203                0               0         0.961696          103.04                0               0
                        0.160015         -162.84                0               0         0.214985         15.3755                0               0
                        0.961694         103.041                0               0        0.0620165         48.2754                0               0
76.215                   0.21158         13.4106                0               0         0.158172        -164.799                0               0
                       0.0620927          45.003                0               0          0.96293         101.067                0               0
                        0.158171          -164.8                0               0         0.211581         13.4263                0               0
                        0.962924         101.067                0               0        0.0621356         45.0771                0               0
76.26                   0.207904         11.4525                0               0         0.156309        -166.781                0               0
                       0.0621528         41.8136                0               0         0.964222         99.0836                0               0
                        0.156308        -166.782                0               0         0.207905         11.4683                0               0
                        0.964212         99.0842                0               0        0.0621953         41.8895                0               0
76.305                  0.203954         9.49088                0               0         0.154436         -168.78                0               0
                       0.0621503         38.6415                0               0          0.96554         97.0939                0               0
                        0.154435         -168.78                0               0         0.203954         9.50674                0               0
                        0.965529         97.0946                0               0        0.0621922         38.7193                0               0
76.35                   0.199729          7.5312                0               0         0.152562        -170.787                0               0
                       0.0620816         35.4927                0               0         0.966847         95.1005                0               0
                        0.152561        -170.787                0               0         0.199729         7.54718                0               0
                        0.966836         95.1012                0               0        0.0621228         35.5725                0               0
76.395                  0.195233         5.57928                0               0         0.150692        -172.796                0               0
                       0.0619427         32.3732                0               0         0.968096          93.106                0               0
                        0.150691        -172.796                0               0         0.195232         5.59541                0               0
                        0.968087         93.1068                0               0         0.061983          32.455                0               0
76.44                   0.190469         3.64122                0               0         0.148827        -174.799                0               0
                       0.0617297         29.2884                0               0         0.969236         91.1131                0               0
