! TOUCHSTONE file generated by CST MICROWAVE STUDIO
! Date and time: Mon Jun 21 17:07:01 2021
! Project name: HIPS_d_sweep.cst
! Parameters = {a=0.735; b=0.393; d=21.3769; fmax=120; fmin=75; phi=0; theta=0}
! Header version: 2018
! Port assignment regex: !\s*Touchstone port\s*([0-9]+)\s*=\s*(CST MWS port|CST DS port)\s*([0-9]+|Zmin|Zmax)\s*\(\"(.*)\"\)(\s*mode\s*([0-9]+))?.*
! Touchstone port assignment:
! Touchstone port 1 = CST MWS port Zmin ("") mode 1
! Touchstone port 2 = CST MWS port Zmin ("") mode 2
! Touchstone port 3 = CST MWS port Zmax ("") mode 1
! Touchstone port 4 = CST MWS port Zmax ("") mode 2
! S-Parameters are not renormalized. Unphysical impedance of 0 will be written to the file.
# GHz S MA R 0
75                      0.217996         67.8832                0               0         0.165852        -111.962                0               0
                       0.0381278         148.293                0               0            0.961         157.555                0               0
                        0.165852        -111.962                0               0         0.217988         67.8374                0               0
                        0.960998         157.555                0               0        0.0381144         148.245                0               0
75.045                  0.218694         67.3771                0               0         0.169059        -112.601                0               0
                       0.0389694         147.595                0               0         0.959965         157.046                0               0
                        0.169058          -112.6                0               0         0.218687         67.3313                0               0
                        0.959954         157.036                0               0        0.0389566         147.554                0               0
75.09                   0.219334         66.7527                0               0         0.171983        -113.297                0               0
                       0.0397942         146.634                0               0         0.959051         156.392                0               0
                        0.171982        -113.296                0               0         0.219328          66.707                0               0
                        0.959049         156.378                0               0        0.0397816         146.596                0               0
75.135                  0.219985         66.0142                0               0         0.174608        -114.051                0               0
                       0.0406021         145.417                0               0         0.958289         155.614                0               0
                        0.174606         -114.05                0               0         0.219978         65.9687                0               0
                        0.958297           155.6                0               0        0.0405892         145.379                0               0
75.18                   0.220695         65.1701                0               0         0.176919        -114.866                0               0
                       0.0413937         143.953                0               0         0.957681          154.73                0               0
                        0.176918        -114.865                0               0         0.220689         65.1247                0               0
                        0.957696         154.718                0               0        0.0413803         143.914                0               0
75.225                    0.2215         64.2306                0               0         0.178908        -115.744                0               0
                       0.0421703         142.254                0               0         0.957213         153.752                0               0
                        0.178907        -115.743                0               0         0.221493         64.1853                0               0
                        0.957228         153.744                0               0        0.0421561         142.212                0               0
75.27                   0.222417         63.2067                0               0          0.18057        -116.684                0               0
                       0.0429332         140.329                0               0         0.956861          152.69                0               0
                        0.180569        -116.684                0               0          0.22241         63.1615                0               0
                         0.95687         152.686                0               0        0.0429181         140.283                0               0
75.315                  0.223449         62.1084                0               0         0.181904        -117.688                0               0
                       0.0436842         138.191                0               0         0.956598         151.554                0               0
                        0.181904        -117.688                0               0         0.223441         62.0633                0               0
                        0.956595         151.554                0               0        0.0436682         138.142                0               0
75.36                   0.224588         60.9444                0               0         0.182915        -118.754                0               0
                       0.0444251         135.854                0               0         0.956397         150.349                0               0
                        0.182915        -118.754                0               0          0.22458         60.8994                0               0
                        0.956378         150.353                0               0        0.0444081         135.801                0               0
75.405                  0.225819         59.7219                0               0          0.18361        -119.883                0               0
                       0.0451577         133.331                0               0          0.95623         149.082                0               0
                        0.183611        -119.883                0               0         0.225811          59.677                0               0
                        0.956194         149.088                0               0        0.0451398         133.275                0               0
75.45                   0.227123         58.4462                0               0         0.184001        -121.072                0               0
                       0.0458834         130.638                0               0         0.956073         147.756                0               0
                        0.184003        -121.072                0               0         0.227114         58.4014                0               0
                        0.956021         147.764                0               0        0.0458647         130.579                0               0
75.495                  0.228476         57.1214                0               0         0.184103        -122.319                0               0
                       0.0466038         127.789                0               0         0.955909         146.374                0               0
                        0.184106         -122.32                0               0         0.228467         57.0767                0               0
                        0.955841         146.384                0               0        0.0465844         127.728                0               0
75.54                   0.229852         55.7502                0               0         0.183933        -123.623                0               0
                       0.0473197         124.801                0               0          0.95572         144.941                0               0
                        0.183935        -123.624                0               0         0.229843         55.7057                0               0
                        0.955642          144.95                0               0        0.0472998         124.739                0               0
75.585                  0.231227         54.3347                0               0         0.183509        -124.981                0               0
                       0.0480319          121.69                0               0         0.955497         143.458                0               0
                        0.183511        -124.981                0               0         0.231218         54.2903                0               0
                        0.955413         143.467                0               0        0.0480116         121.627                0               0
75.63                   0.232573         52.8761                0               0         0.182851        -126.389                0               0
                       0.0487405         118.472                0               0         0.955235         141.926                0               0
                        0.182853        -126.389                0               0         0.232563         52.8318                0               0
                        0.955151         141.934                0               0        0.0487199         118.409                0               0
75.675                  0.233862         51.3751                0               0         0.181982        -127.844                0               0
                       0.0494453         115.162                0               0         0.954938         140.348                0               0
                        0.181983        -127.845                0               0         0.233853          51.331                0               0
                         0.95486         140.354                0               0        0.0494246           115.1                0               0
75.72                    0.23507         49.8325                0               0         0.180921        -129.344                0               0
                       0.0501457         111.776                0               0         0.954612         138.725                0               0
                        0.180923        -129.344                0               0          0.23506         49.7884                0               0
                        0.954546          138.73                0               0        0.0501248         111.715                0               0
75.765                  0.236169         48.2487                0               0         0.179692        -130.884                0               0
                       0.0508404         108.329                0               0         0.954271         137.058                0               0
                        0.179693        -130.884                0               0         0.236159         48.2047                0               0
                        0.954223         137.061                0               0        0.0508196         108.269                0               0
75.81                   0.237134         46.6242                0               0         0.178314        -132.462                0               0
                       0.0515281         104.835                0               0         0.953936          135.35                0               0
                        0.178315        -132.462                0               0         0.237123         46.5804                0               0
                        0.953908         135.351                0               0        0.0515074         104.776                0               0
75.855                   0.23794         44.9599                0               0         0.176809        -134.074                0               0
                        0.052207         101.307                0               0         0.953628         133.602                0               0
                        0.176809        -134.074                0               0         0.237929         44.9161                0               0
                        0.953624         133.602                0               0        0.0521864         101.249                0               0
75.9                    0.238563         43.2565                0               0         0.175196        -135.717                0               0
                       0.0528748         97.7565                0               0         0.953375         131.816                0               0
                        0.175195        -135.717                0               0         0.238553         43.2129                0               0
                        0.953395         131.815                0               0        0.0528543         97.6997                0               0
75.945                  0.238983         41.5156                0               0         0.173493        -137.388                0               0
                       0.0535294         94.1956                0               0         0.953206         129.994                0               0
                        0.173492        -137.388                0               0         0.238972          41.472                0               0
                        0.953248         129.993                0               0         0.053509         94.1392                0               0
75.99                   0.239178         39.7387                0               0         0.171718        -139.085                0               0
                       0.0541681         90.6337                0               0         0.953147         128.141                0               0
                        0.171716        -139.084                0               0         0.239166         39.6951                0               0
                        0.953208         128.139                0               0        0.0541477         90.5773                0               0
76.035                  0.239131         37.9279                0               0         0.169886        -140.805                0               0
                       0.0547883         87.0797                0               0         0.953223         126.259                0               0
                        0.169884        -140.804                0               0         0.239119         37.8843                0               0
                        0.953298         126.257                0               0        0.0547679         87.0228                0               0
76.08                   0.238828         36.0859                0               0         0.168012        -142.545                0               0
                       0.0553873         83.5411                0               0         0.953453         124.352                0               0
                         0.16801        -142.545                0               0         0.238816         36.0423                0               0
                        0.953536          124.35                0               0        0.0553668         83.4833                0               0
76.125                  0.238258         34.2158                0               0         0.166109        -144.305                0               0
                       0.0559623         80.0246                0               0          0.95385         122.425                0               0
                        0.166107        -144.305                0               0         0.238245          34.172                0               0
                        0.953933         122.423                0               0        0.0559416         79.9654                0               0
76.17                   0.237413         32.3212                0               0         0.164189        -146.083                0               0
                       0.0565103         76.5358                0               0         0.954418         120.481                0               0
                        0.164187        -146.083                0               0           0.2374         32.2773                0               0
                        0.954495          120.48                0               0        0.0564892         76.4749                0               0
76.215                  0.236291         30.4063                0               0         0.162263        -147.877                0               0
                       0.0570284         73.0795                0               0         0.955149         118.526                0               0
                        0.162262        -147.877                0               0         0.236277         30.3623                0               0
                        0.955214         118.525                0               0         0.057007         73.0164                0               0
76.26                   0.234892         28.4761                0               0         0.160341        -149.686                0               0
                       0.0575136         69.6595                0               0         0.956028         116.563                0               0
                        0.160339        -149.686                0               0         0.234878         28.4318                0               0
                        0.956076         116.562                0               0        0.0574918         69.5941                0               0
76.305                  0.233222         26.5357                0               0          0.15843         -151.51                0               0
                       0.0579629         66.2792                0               0         0.957028         114.597                0               0
                        0.158429         -151.51                0               0         0.233207         26.4912                0               0
                        0.957058         114.597                0               0        0.0579406         66.2114                0               0
76.35                   0.231288         24.5912                0               0         0.156539        -153.346                0               0
                       0.0583731         62.9414                0               0         0.958114         112.631                0               0
                        0.156539        -153.346                0               0         0.231273         24.5464                0               0
                        0.958125         112.631                0               0        0.0583503         62.8712                0               0
76.395                    0.2291         22.6486                0               0         0.154675        -155.194                0               0
                       0.0587407         59.6486                0               0         0.959244         110.669                0               0
                        0.154675        -155.194                0               0         0.229084         22.6035                0               0
                        0.959239          110.67                0               0        0.0587176         59.5761                0               0
76.44                    0.22667         20.7142                0               0         0.152844        -157.053                0               0
                       0.0590623         56.4029                0               0         0.960372         108.714                0               0
