! TOUCHSTONE file generated by CST MICROWAVE STUDIO
! Date and time: Mon Jun 21 17:06:30 2021
! Project name: HIPS_d_sweep.cst
! Parameters = {a=0.735; b=0.393; d=17.3568; fmax=120; fmin=75; phi=0; theta=0}
! Header version: 2018
! Port assignment regex: !\s*Touchstone port\s*([0-9]+)\s*=\s*(CST MWS port|CST DS port)\s*([0-9]+|Zmin|Zmax)\s*\(\"(.*)\"\)(\s*mode\s*([0-9]+))?.*
! Touchstone port assignment:
! Touchstone port 1 = CST MWS port Zmin ("") mode 1
! Touchstone port 2 = CST MWS port Zmin ("") mode 2
! Touchstone port 3 = CST MWS port Zmax ("") mode 1
! Touchstone port 4 = CST MWS port Zmax ("") mode 2
! S-Parameters are not renormalized. Unphysical impedance of 0 will be written to the file.
# GHz S MA R 0
75                      0.154788          14.398                0               0         0.422108       -0.232919                0               0
                        0.117489          34.597                0               0          0.88548        -92.8517                0               0
                        0.422107       -0.233152                0               0          0.15481         14.4343                0               0
                        0.885474        -92.8487                0               0         0.117397         34.5788                0               0
75.045                  0.153391         14.2709                0               0         0.424978       -0.792313                0               0
                        0.117804         33.8265                0               0         0.884536        -93.3876                0               0
                        0.424978       -0.792554                0               0         0.153415         14.3079                0               0
                        0.884529        -93.3846                0               0          0.11771         33.8078                0               0
75.09                   0.151899         14.0937                0               0         0.427582        -1.41233                0               0
                        0.118088         32.9258                0               0         0.883541        -93.9867                0               0
                        0.427581        -1.41258                0               0         0.151925         14.1314                0               0
                        0.883534        -93.9836                0               0         0.117992         32.9067                0               0
75.135                  0.150309         13.8691                0               0         0.429929        -2.09449                0               0
                        0.118343         31.8992                0               0         0.882546        -94.6492                0               0
                        0.429929        -2.09474                0               0         0.150338         13.9075                0               0
                         0.88254        -94.6462                0               0         0.118246         31.8795                0               0
75.18                   0.148621         13.5997                0               0         0.432031         -2.8398                0               0
                         0.11857         30.7505                0               0         0.881598        -95.3752                0               0
                        0.432031        -2.84006                0               0         0.148652         13.6389                0               0
                        0.881592        -95.3722                0               0         0.118471         30.7301                0               0
75.225                  0.146832         13.2884                0               0           0.4339        -3.64879                0               0
                         0.11877         29.4836                0               0         0.880736        -96.1642                0               0
                        0.433899        -3.64905                0               0         0.146866         13.3285                0               0
                         0.88073        -96.1612                0               0          0.11867         29.4624                0               0
75.27                   0.144939         12.9381                0               0         0.435546         -4.5215                0               0
                        0.118944         28.1021                0               0         0.879994        -97.0155                0               0
                        0.435545        -4.52176                0               0         0.144977         12.9793                0               0
                        0.879989        -97.0124                0               0         0.118842           28.08                0               0
75.315                  0.142939         12.5522                0               0         0.436981        -5.45755                0               0
                         0.11909         26.6094                0               0         0.879401        -97.9277                0               0
                         0.43698        -5.45782                0               0          0.14298         12.5944                0               0
                        0.879396        -97.9247                0               0         0.118986         26.5864                0               0
75.36                   0.140828         12.1338                0               0         0.438214        -6.45614                0               0
                        0.119208          25.009                0               0         0.878975        -98.8997                0               0
                        0.438213        -6.45641                0               0         0.140872         12.1771                0               0
                        0.878971        -98.8966                0               0         0.119102         24.9849                0               0
75.405                  0.138602         11.6868                0               0         0.439254        -7.51611                0               0
                        0.119295         23.3043                0               0         0.878731        -99.9295                0               0
                        0.439253        -7.51638                0               0          0.13865         11.7313                0               0
                        0.878727        -99.9265                0               0         0.119188          23.279                0               0
75.45                   0.136259         11.2151                0               0         0.440109        -8.63594                0               0
                        0.119351         21.4986                0               0         0.878675        -101.015                0               0
                        0.440109        -8.63621                0               0          0.13631         11.2609                0               0
                        0.878671        -101.012                0               0         0.119242          21.472                0               0
75.495                  0.133793         10.7232                0               0         0.440786        -9.81384                0               0
                        0.119373         19.5953                0               0         0.878807        -102.155                0               0
                        0.440786        -9.81411                0               0         0.133849         10.7703                0               0
                        0.878803        -102.152                0               0         0.119261         19.5672                0               0
75.54                   0.131203          10.216                0               0         0.441291        -11.0477                0               0
                        0.119358         17.5978                0               0         0.879121        -103.347                0               0
                         0.44129         -11.048                0               0         0.131264         10.2645                0               0
                        0.879117        -103.344                0               0         0.119244         17.5682                0               0
75.585                  0.128486         9.69895                0               0         0.441628        -12.3353                0               0
                        0.119303         15.5097                0               0         0.879605        -104.589                0               0
                        0.441627        -12.3356                0               0         0.128551         9.74892                0               0
                        0.879601        -104.586                0               0         0.119188         15.4783                0               0
75.63                    0.12564         9.17817                0               0           0.4418        -13.6741                0               0
                        0.119206         13.3345                0               0         0.880242        -105.877                0               0
                          0.4418        -13.6744                0               0         0.125709          9.2297                0               0
                        0.880238        -105.874                0               0         0.119089         13.3013                0               0
75.675                  0.122663         8.66057                0               0         0.441813        -15.0615                0               0
                        0.119063         11.0759                0               0         0.881012         -107.21                0               0
                        0.441812        -15.0617                0               0         0.122738         8.71371                0               0
                        0.881008        -107.207                0               0         0.118945         11.0408                0               0
75.72                   0.119556         8.15392                0               0         0.441667        -16.4946                0               0
                        0.118873         8.73791                0               0         0.881892        -108.585                0               0
                        0.441667        -16.4949                0               0         0.119636         8.20873                0               0
                        0.881887        -108.581                0               0         0.118753         8.70075                0               0
75.765                  0.116321         7.66698                0               0         0.441367        -17.9706                0               0
                        0.118632         6.32446                0               0         0.882856        -109.998                0               0
                        0.441367        -17.9709                0               0         0.116406         7.72353                0               0
                        0.882851        -109.995                0               0         0.118511         6.28513                0               0
75.81                   0.112959         7.20973                0               0         0.440915        -19.4866                0               0
                        0.118339         3.83973                0               0         0.883877        -111.448                0               0
                        0.440915        -19.4868                0               0          0.11305         7.26806                0               0
                        0.883871        -111.445                0               0         0.118216          3.7981                0               0
75.855                  0.109475         6.79345                0               0         0.440315        -21.0394                0               0
                         0.11799         1.28805                0               0         0.884929        -112.931                0               0
                        0.440315        -21.0397                0               0         0.109571          6.8536                0               0
                        0.884923        -112.927                0               0         0.117867           1.244                0               0
75.9                    0.105875         6.43101                0               0         0.439571        -22.6261                0               0
                        0.117586        -1.32613                0               0         0.885988        -114.443                0               0
                        0.439571        -22.6264                0               0         0.105978         6.49299                0               0
                        0.885983         -114.44                0               0         0.117461        -1.37271                0               0
75.945                  0.102167         6.13708                0               0         0.438687        -24.2436                0               0
                        0.117123        -3.99823                0               0         0.887033        -115.982                0               0
                        0.438687        -24.2439                0               0         0.102276         6.20086                0               0
                        0.887028        -115.979                0               0         0.116998        -4.04746                0               0
75.99                  0.0983624         5.92839                0               0          0.43767        -25.8888                0               0
                        0.116603        -6.72354                0               0         0.888048        -117.545                0               0
                         0.43767        -25.8891                0               0         0.098478         5.99392                0               0
                        0.888043        -117.542                0               0         0.116478        -6.77554                0               0
76.035                  0.094473          5.8241                0               0         0.436527        -27.5587                0               0
                        0.116025        -9.49729                0               0         0.889022        -119.128                0               0
                        0.436527         -27.559                0               0        0.0945954         5.89126                0               0
                        0.889018        -119.124                0               0           0.1159        -9.55216                0               0
76.08                  0.0905146         5.84616                0               0         0.435267        -29.2504                0               0
                         0.11539        -12.3146                0               0         0.889951        -120.728                0               0
                        0.435267        -29.2507                0               0        0.0906441         5.91474                0               0
                        0.889947        -120.724                0               0         0.115265        -12.3725                0               0
76.125                  0.086506         6.01972                0               0           0.4339        -30.9606                0               0
                          0.1147        -15.1707                0               0         0.890838        -122.342                0               0
                          0.4339        -30.9609                0               0        0.0866428          6.0894                0               0
                        0.890835        -122.338                0               0         0.114575        -15.2317                0               0
76.17                   0.082469         6.37359                0               0         0.432438        -32.6866                0               0
                        0.113956        -18.0608                0               0         0.891694        -123.967                0               0
                        0.432438         -32.687                0               0        0.0826134          6.4439                0               0
                        0.891692        -123.964                0               0         0.113832        -18.1249                0               0
76.215                 0.0784294         6.94069                0               0         0.430894        -34.4254                0               0
                        0.113161        -20.9799                0               0         0.892539        -125.601                0               0
                        0.430894        -34.4257                0               0        0.0785815         7.01096                0               0
                        0.892538        -125.598                0               0         0.113039        -21.0473                0               0
76.26                   0.074417         7.75842                0               0         0.429282        -36.1739                0               0
                        0.112319        -23.9235                0               0         0.893395        -127.241                0               0
                        0.429282        -36.1742                0               0        0.0745771         7.82767                0               0
                        0.893395        -127.238                0               0         0.112198        -23.9943                0               0
76.305                 0.0704667          8.8688                0               0         0.427618        -37.9292                0               0
                        0.111433         -26.887                0               0         0.894293        -128.886                0               0
                        0.427619        -37.9296                0               0        0.0706349         8.93571                0               0
                        0.894294        -128.882                0               0         0.111313        -26.9613                0               0
76.35                  0.0666186         10.3182                0               0         0.425918        -39.6883                0               0
                        0.110507        -29.8661                0               0          0.89526        -130.533                0               0
                        0.425918        -39.6887                0               0        0.0667949         10.3809                0               0
                        0.895261        -130.529                0               0         0.110389        -29.9439                0               0
76.395                 0.0629194          12.156                0               0         0.424195        -41.4481                0               0
                        0.109545        -32.8565                0               0         0.896322         -132.18                0               0
                        0.424195        -41.4484                0               0        0.0631035         12.2123                0               0
                        0.896323        -132.177                0               0          0.10943         -32.938                0               0
76.44                  0.0594223         14.4325                0               0         0.422464        -43.2055                0               0
                        0.108553        -35.8546                0               0         0.897493        -133.826                0               0
