! TOUCHSTONE file generated by CST MICROWAVE STUDIO
! Date and time: Mon Jun 21 17:07:24 2021
! Project name: HIPS_d_sweep.cst
! Parameters = {a=0.735; b=0.393; d=23.9397; fmax=120; fmin=75; phi=0; theta=0}
! Header version: 2018
! Port assignment regex: !\s*Touchstone port\s*([0-9]+)\s*=\s*(CST MWS port|CST DS port)\s*([0-9]+|Zmin|Zmax)\s*\(\"(.*)\"\)(\s*mode\s*([0-9]+))?.*
! Touchstone port assignment:
! Touchstone port 1 = CST MWS port Zmin ("") mode 1
! Touchstone port 2 = CST MWS port Zmin ("") mode 2
! Touchstone port 3 = CST MWS port Zmax ("") mode 1
! Touchstone port 4 = CST MWS port Zmax ("") mode 2
! S-Parameters are not renormalized. Unphysical impedance of 0 will be written to the file.
# GHz S MA R 0
75                     0.0175663         128.651                0               0         0.011632        -51.7626                0               0
                       0.0116646        -51.7268                0               0         0.999712        -140.711                0               0
                       0.0116308        -51.7602                0               0        0.0174996         128.867                0               0
                         0.99971        -140.713                0               0        0.0116648        -51.7056                0               0
75.045                 0.0201028         127.842                0               0        0.0157374        -52.3007                0               0
                        0.012324        -52.9665                0               0         0.999626        -141.427                0               0
                       0.0157357        -52.3006                0               0        0.0200357          128.03                0               0
                        0.999624        -141.428                0               0        0.0123244        -52.9467                0               0
75.09                  0.0230975         126.995                0               0         0.019374        -53.0836                0               0
                       0.0127993        -54.3094                0               0         0.999495        -142.236                0               0
                       0.0193722        -53.0837                0               0          0.02303         127.158                0               0
                        0.999493        -142.238                0               0        0.0127999        -54.2918                0               0
75.135                 0.0265272         126.093                0               0        0.0225539        -54.0162                0               0
                       0.0130999        -55.8003                0               0         0.999328        -143.139                0               0
                       0.0225521         -54.016                0               0        0.0264591         126.234                0               0
                        0.999326         -143.14                0               0        0.0131007        -55.7853                0               0
75.18                  0.0303713         125.122                0               0        0.0252879        -55.0635                0               0
                       0.0132342         -57.469                0               0         0.999134        -144.134                0               0
                       0.0252864        -55.0629                0               0        0.0303027         125.245                0               0
                        0.999131        -144.136                0               0        0.0132352        -57.4567                0               0
75.225                 0.0346115         124.075                0               0         0.027587         -56.209                0               0
                       0.0132093        -59.3379                0               0         0.998917        -145.221                0               0
                       0.0275857         -56.208                0               0        0.0345425         124.183                0               0
                        0.998915        -145.223                0               0        0.0132105        -59.3284                0               0
75.27                   0.039231          122.95                0               0        0.0294618        -57.4434                0               0
                       0.0130313        -61.4276                0               0         0.998679        -146.398                0               0
                       0.0294607        -57.4422                0               0        0.0391614         123.044                0               0
                        0.998677          -146.4                0               0        0.0130326        -61.4208                0               0
75.315                 0.0442133         121.743                0               0        0.0309233        -58.7604                0               0
                       0.0127058        -63.7602                0               0         0.998421        -147.664                0               0
                       0.0309224        -58.7591                0               0        0.0441432         121.827                0               0
                        0.998419        -147.665                0               0        0.0127073         -63.756                0               0
75.36                  0.0495422         120.455                0               0        0.0319828        -60.1546                0               0
                        0.012238        -66.3631                0               0          0.99814        -149.015                0               0
                        0.031982        -60.1535                0               0        0.0494715          120.53                0               0
                        0.998138        -149.016                0               0        0.0122396        -66.3616                0               0
75.405                 0.0552006         119.086                0               0        0.0326528         -61.621                0               0
                       0.0116335         -69.274                0               0         0.997832        -150.449                0               0
                       0.0326521        -61.6201                0               0        0.0551295         119.153                0               0
                        0.997829        -150.451                0               0        0.0116352        -69.2754                0               0
75.45                  0.0611707         117.637                0               0        0.0329465        -63.1538                0               0
                       0.0108983        -72.5478                0               0         0.997491        -151.964                0               0
                       0.0329459        -63.1533                0               0         0.061099         117.698                0               0
                        0.997488        -151.965                0               0        0.0109002        -72.5523                0               0
75.495                 0.0674327         116.111                0               0        0.0328786        -64.7465                0               0
                         0.01004        -76.2689                0               0          0.99711        -153.556                0               0
                        0.032878        -64.7464                0               0        0.0673606         116.165                0               0
                        0.997107        -153.557                0               0         0.010042        -76.2771                0               0
75.54                  0.0739651         114.508                0               0        0.0324652        -66.3911                0               0
                      0.00906791        -80.5735                0               0         0.996683         -155.22                0               0
                       0.0324645        -66.3914                0               0        0.0738925         114.557                0               0
                         0.99668        -155.222                0               0       0.00907015        -80.5859                0               0
75.585                 0.0807439         112.831                0               0        0.0317236         -68.078                0               0
                      0.00799514        -85.6924                0               0         0.996203        -156.954                0               0
                       0.0317229        -68.0787                0               0        0.0806707         112.876                0               0
                        0.996199        -156.956                0               0       0.00799768        -85.7103                0               0
75.63                  0.0877422         111.083                0               0        0.0306731         -69.795                0               0
                      0.00684084        -92.0429                0               0         0.995664        -158.754                0               0
                       0.0306724        -69.7961                0               0        0.0876686         111.125                0               0
                        0.995659        -158.755                0               0       0.00684382        -92.0677                0               0
75.675                 0.0949308         109.268                0               0        0.0293342         -71.527                0               0
                      0.00563669        -100.433                0               0         0.995059        -160.614                0               0
                       0.0293335        -71.5284                0               0        0.0948566         109.307                0               0
                        0.995053        -160.615                0               0       0.00564031        -100.467                0               0
75.72                   0.102277         107.389                0               0        0.0277292        -73.2542                0               0
                      0.00444357        -112.544                0               0         0.994385         -162.53                0               0
                       0.0277286        -73.2558                0               0         0.102203         107.425                0               0
                        0.994379        -162.532                0               0       0.00444816        -112.586                0               0
75.765                  0.109747          105.45                0               0        0.0258815        -74.9508                0               0
                      0.00339951        -131.838                0               0          0.99364        -164.499                0               0
                       0.0258809        -74.9525                0               0         0.109672         105.484                0               0
                        0.993633          -164.5                0               0        0.0034055        -131.876                0               0
75.81                   0.117303         103.457                0               0        0.0238158        -76.5809                0               0
                      0.00282065        -162.495                0               0         0.992824        -166.515                0               0
                       0.0238154        -76.5826                0               0         0.117227         103.488                0               0
                        0.992816        -166.516                0               0       0.00282783        -162.481                0               0
75.855                  0.124906         101.414                0               0        0.0215581        -78.0933                0               0
                      0.00309409         162.567                0               0         0.991938        -168.573                0               0
                       0.0215578        -78.0951                0               0          0.12483         101.444                0               0
                        0.991929        -168.575                0               0       0.00310057         162.655                0               0
75.9                    0.132517         99.3281                0               0        0.0191352        -79.4102                0               0
                      0.00411041         137.659                0               0         0.990987         -170.67                0               0
                       0.0191351         -79.412                0               0         0.132441         99.3562                0               0
                        0.990978        -170.671                0               0        0.0041152         137.764                0               0
75.945                  0.140096         97.2048                0               0        0.0165752        -80.4049                0               0
                      0.00550004         122.287                0               0         0.989979          -172.8                0               0
                       0.0165752        -80.4068                0               0         0.140019         97.2315                0               0
                        0.989969        -172.801                0               0       0.00550351         122.382                0               0
75.99                   0.147604         95.0505                0               0        0.0139085        -80.8528                0               0
                      0.00705699          112.01                0               0          0.98892        -174.959                0               0
                       0.0139086        -80.8553                0               0         0.147527         95.0759                0               0
                         0.98891         -174.96                0               0       0.00705954         112.094                0               0
76.035                  0.155004         92.8715                0               0        0.0111702        -80.3096                0               0
                      0.00869167         104.368                0               0         0.987823        -177.142                0               0
                       0.0111704        -80.3135                0               0         0.154927         92.8959                0               0
                        0.987812        -177.143                0               0       0.00869356         104.443                0               0
76.08                   0.162262          90.674                0               0       0.00840967        -77.7555                0               0
                       0.0103597         98.1928                0               0         0.986699        -179.345                0               0
                      0.00840969        -77.7625                0               0         0.162185         90.6975                0               0
                        0.986687        -179.346                0               0         0.010361         98.2612                0               0
76.125                  0.169347         88.4636                0               0       0.00572578        -70.3175                0               0
                       0.0120346         92.9023                0               0         0.985559         178.436                0               0
                      0.00572535        -70.3313                0               0          0.16927         88.4862                0               0
                        0.985547         178.435                0               0        0.0120354         92.9656                0               0
76.17                   0.176234         86.2451                0               0       0.00345653        -47.9154                0               0
                       0.0136979         88.1809                0               0         0.984414         176.207                0               0
                      0.00345498        -47.9376                0               0         0.176157          86.267                0               0
                        0.984402         176.206                0               0        0.0136983         88.2406                0               0
76.215                    0.1829         84.0224                0               0       0.00295289         4.38213                0               0
                       0.0153354          83.846                0               0         0.983274         173.971                0               0
                      0.00295018          4.4003                0               0         0.182823         84.0436                0               0
                        0.983262          173.97                0               0        0.0153354         83.9028                0               0
76.26                   0.189326          81.798                0               0       0.00481248         37.8086                0               0
                       0.0169354         79.7843                0               0         0.982145         171.733                0               0
                      0.00481041         37.8476                0               0         0.189249         81.8187                0               0
                        0.982132         171.733                0               0        0.0169349          79.839                0               0
76.305                  0.195495         79.5734                0               0       0.00741041         48.8506                0               0
                       0.0184874         75.9221                0               0         0.981025         169.498                0               0
                       0.0074089         48.8873                0               0         0.195418         79.5936                0               0
                        0.981012         169.497                0               0        0.0184865         75.9755                0               0
76.35                   0.201392         77.3486                0               0        0.0101606         52.7692                0               0
                       0.0199821         72.2094                0               0          0.97991         167.269                0               0
                       0.0101594         52.8028                0               0         0.201315         77.3684                0               0
                        0.979896         167.268                0               0        0.0199808         72.2618                0               0
76.395                  0.206997         75.1226                0               0        0.0129227         54.0216                0               0
                       0.0214106         68.6106                0               0         0.978784         165.051                0               0
                       0.0129215          54.052                0               0          0.20692         75.1421                0               0
                        0.978769          165.05                0               0        0.0214088         68.6626                0               0
76.44                    0.21229          72.894                0               0        0.0156401         54.0581                0               0
                       0.0227641         65.1005                0               0         0.977622         162.848                0               0
