! TOUCHSTONE file generated by CST MICROWAVE STUDIO
! Date and time: Mon Jun 21 17:06:56 2021
! Project name: HIPS_d_sweep.cst
! Parameters = {a=0.735; b=0.393; d=20.7739; fmax=120; fmin=75; phi=0; theta=0}
! Header version: 2018
! Port assignment regex: !\s*Touchstone port\s*([0-9]+)\s*=\s*(CST MWS port|CST DS port)\s*([0-9]+|Zmin|Zmax)\s*\(\"(.*)\"\)(\s*mode\s*([0-9]+))?.*
! Touchstone port assignment:
! Touchstone port 1 = CST MWS port Zmin ("") mode 1
! Touchstone port 2 = CST MWS port Zmin ("") mode 2
! Touchstone port 3 = CST MWS port Zmax ("") mode 1
! Touchstone port 4 = CST MWS port Zmax ("") mode 2
! S-Parameters are not renormalized. Unphysical impedance of 0 will be written to the file.
# GHz S MA R 0
75                     0.0333233        -13.1561                0               0         0.224146        -40.6111                0               0
                       0.0682845         -35.486                0               0         0.971588        -131.163                0               0
                        0.224147        -40.6111                0               0        0.0333645        -12.9441                0               0
                         0.97159        -131.161                0               0        0.0682676        -35.3733                0               0
75.045                 0.0314679        -11.5418                0               0         0.227537        -41.3462                0               0
                       0.0686985        -36.6067                0               0          0.97145        -131.745                0               0
                        0.227538         -41.346                0               0        0.0315141        -11.3186                0               0
                        0.971444        -131.744                0               0        0.0686798         -36.495                0               0
75.09                   0.029419        -9.37027                0               0         0.230597         -42.136                0               0
                       0.0689884        -37.8246                0               0         0.971013        -132.432                0               0
                        0.230598        -42.1356                0               0        0.0294717        -9.13438                0               0
                        0.971002        -132.431                0               0        0.0689679        -37.7137                0               0
75.135                 0.0272087        -6.45936                0               0         0.233312        -42.9873                0               0
                       0.0691522        -39.1524                0               0         0.970408        -133.218                0               0
                        0.233313        -42.9869                0               0        0.0272694        -6.20971                0               0
                        0.970396        -133.217                0               0        0.0691299        -39.0423                0               0
75.18                  0.0248901        -2.54094                0               0         0.235674        -43.9063                0               0
                       0.0691898        -40.6022                0               0         0.969739        -134.097                0               0
                        0.235675        -43.9059                0               0        0.0249611         -2.2781                0               0
                         0.96973        -134.096                0               0        0.0691655        -40.4926                0               0
75.225                 0.0225511         2.77075                0               0         0.237679         -44.898                0               0
                       0.0691025        -42.1849                0               0         0.969085        -135.065                0               0
                        0.237679        -44.8977                0               0         0.022635         3.04226                0               0
                        0.969079        -135.063                0               0        0.0690761        -42.0757                0               0
75.27                  0.0203344         9.99381                0               0         0.239324        -45.9663                0               0
                        0.068893        -43.9102                0               0         0.968501        -136.114                0               0
                        0.239325        -45.9661                0               0        0.0204338         10.2609                0               0
                        0.968498        -136.113                0               0        0.0688644        -43.8012                0               0
75.315                 0.0184653         19.6958                0               0         0.240614         -47.114                0               0
                        0.068565        -45.7865                0               0          0.96802        -137.241                0               0
                        0.240614        -47.1139                0               0         0.018582         19.9298                0               0
                        0.968021         -137.24                0               0         0.068534        -45.6776                0               0
75.36                  0.0172672         32.1364                0               0         0.241554        -48.3426                0               0
                       0.0681227        -47.8209                0               0         0.967664         -138.44                0               0
                        0.241554        -48.3426                0               0           0.0174         32.2907                0               0
                        0.967669        -138.439                0               0        0.0680893        -47.7119                0               0
75.405                 0.0171084         46.5816                0               0         0.242151        -49.6526                0               0
                       0.0675708        -50.0188                0               0         0.967439        -139.707                0               0
                        0.242151        -49.6527                0               0        0.0172506         46.6124                0               0
                        0.967446        -139.706                0               0        0.0675347        -49.9096                0               0
75.45                  0.0182378         61.0647                0               0         0.242414        -51.0432                0               0
                        0.066914        -52.3846                0               0         0.967342        -141.037                0               0
                        0.242415        -51.0433                0               0        0.0183791         60.9703                0               0
                         0.96735        -141.036                0               0         0.066875         -52.275                0               0
75.495                 0.0206463         73.5488                0               0         0.242356        -52.5124                0               0
                       0.0661571        -54.9209                0               0         0.967361        -142.427                0               0
                        0.242356        -52.5125                0               0         0.020778         73.3716                0               0
                         0.96737        -142.426                0               0        0.0661152        -54.8108                0               0
75.54                  0.0241288          83.186                0               0         0.241987        -54.0575                0               0
                       0.0653049        -57.6294                0               0         0.967479        -143.874                0               0
                        0.241987        -54.0576                0               0        0.0242473         82.9737                0               0
                        0.967487        -143.872                0               0        0.0652598        -57.5185                0               0
75.585                 0.0284434         90.1823                0               0          0.24132        -55.6746                0               0
                       0.0643622        -60.5103                0               0         0.967676        -145.374                0               0
                         0.24132        -55.6747                0               0        0.0285487         89.9653                0               0
                        0.967682        -145.373                0               0        0.0643136        -60.3985                0               0
75.63                  0.0333959          95.104                0               0         0.240369        -57.3592                0               0
                       0.0633337        -63.5627                0               0         0.967927        -146.925                0               0
                        0.240368        -57.3592                0               0        0.0334894         94.8965                0               0
                        0.967931        -146.924                0               0        0.0632815        -63.4499                0               0
75.675                 0.0388488         98.4873                0               0         0.239146         -59.106                0               0
                       0.0622245        -66.7847                0               0         0.968211        -148.525                0               0
                        0.239145        -59.1059                0               0        0.0389323         98.2943                0               0
                        0.968211        -148.524                0               0        0.0621685        -66.6709                0               0
75.72                  0.0447058         100.739                0               0         0.237666        -60.9091                0               0
                       0.0610399        -70.1735                0               0         0.968502        -150.172                0               0
                        0.237665        -60.9089                0               0         0.044781         100.561                0               0
                        0.968498        -150.171                0               0        0.0609799        -70.0585                0               0
75.765                 0.0508963         102.148                0               0         0.235944         -62.762                0               0
                       0.0597859        -73.7252                0               0          0.96878        -151.864                0               0
                        0.235943        -62.7617                0               0        0.0509644         101.985                0               0
                        0.968773        -151.863                0               0        0.0597217        -73.6091                0               0
75.81                  0.0573645         102.916                0               0         0.233996        -64.6582                0               0
                       0.0584692        -77.4355                0               0         0.969028        -153.599                0               0
                        0.233995        -64.6578                0               0        0.0574267         102.766                0               0
                        0.969018        -153.598                0               0        0.0584005        -77.3182                0               0
75.855                 0.0640631         103.186                0               0         0.231838        -66.5906                0               0
                       0.0570971        -81.2992                0               0         0.969232        -155.375                0               0
                        0.231836        -66.5901                0               0        0.0641202         103.048                0               0
                         0.96922        -155.375                0               0        0.0570239        -81.1806                0               0
75.9                   0.0709487          103.06                0               0         0.229486         -68.552                0               0
                        0.055678        -85.3105                0               0         0.969384        -157.191                0               0
                        0.229484        -68.5514                0               0        0.0710015         102.932                0               0
                        0.969371        -157.191                0               0           0.0556        -85.1909                0               0
75.945                 0.0779801         102.615                0               0         0.226958        -70.5353                0               0
                       0.0542212        -89.4633                0               0         0.969482        -159.045                0               0
                        0.226956        -70.5346                0               0        0.0780292         102.495                0               0
                        0.969468        -159.045                0               0        0.0541384        -89.3429                0               0
75.99                  0.0851167         101.907                0               0         0.224272        -72.5333                0               0
                        0.052737        -93.7512                0               0         0.969528        -160.933                0               0
                         0.22427        -72.5326                0               0        0.0851627         101.795                0               0
                        0.969515        -160.934                0               0        0.0526491        -93.6301                0               0
76.035                  0.092318         100.981                0               0         0.221447        -74.5389                0               0
                       0.0512361        -98.1675                0               0          0.96953        -162.855                0               0
                        0.221445        -74.5382                0               0        0.0923612         100.876                0               0
                         0.96952        -162.856                0               0        0.0511432        -98.0462                0               0
76.08                  0.0995433         99.8731                0               0           0.2185        -76.5453                0               0
                       0.0497304        -102.705                0               0           0.9695        -164.805                0               0
                        0.218498        -76.5446                0               0        0.0995843         99.7738                0               0
                        0.969493        -164.806                0               0        0.0496322        -102.584                0               0
76.125                  0.106752         98.6127                0               0         0.215452        -78.5458                0               0
                       0.0482317        -107.358                0               0         0.969448        -166.781                0               0
                         0.21545        -78.5452                0               0         0.106791         98.5186                0               0
                        0.969445        -166.782                0               0        0.0481283        -107.237                0               0
76.17                   0.113905         97.2245                0               0          0.21232        -80.5343                0               0
                       0.0467522        -112.117                0               0         0.969384        -168.777                0               0
                        0.212318        -80.5337                0               0         0.113943          97.135                0               0
                        0.969385        -168.778                0               0        0.0466435        -111.998                0               0
76.215                  0.120964         95.7298                0               0         0.209123        -82.5046                0               0
                       0.0453038        -116.977                0               0         0.969309        -170.788                0               0
                        0.209122        -82.5042                0               0            0.121         95.6444                0               0
                        0.969314        -170.789                0               0          0.04519         -116.86                0               0
76.26                   0.127891         94.1472                0               0          0.20588        -84.4514                0               0
                       0.0438983        -121.928                0               0         0.969219        -172.808                0               0
                        0.205879        -84.4511                0               0         0.127926         94.0653                0               0
                        0.969225        -172.809                0               0        0.0437793        -121.815                0               0
76.305                  0.134652          92.493                0               0         0.202608        -86.3695                0               0
                       0.0425466        -126.964                0               0         0.969093        -174.832                0               0
                        0.202608        -86.3693                0               0         0.134686         92.4144                0               0
                          0.9691        -174.832                0               0        0.0424225        -126.854                0               0
76.35                   0.141217          90.782                0               0         0.199325        -88.2541                0               0
                       0.0412588        -132.075                0               0         0.968902        -176.853                0               0
                        0.199325        -88.2541                0               0          0.14125         90.7062                0               0
                        0.968906        -176.853                0               0        0.0411297         -131.97                0               0
76.395                  0.147557         89.0273                0               0         0.196045        -90.1011                0               0
                       0.0400437        -137.251                0               0         0.968602        -178.866                0               0
                        0.196046        -90.1013                0               0          0.14759          88.954                0               0
                        0.968603        -178.865                0               0        0.0399099        -137.153                0               0
76.44                    0.15365         87.2405                0               0         0.192785        -91.9068                0               0
                       0.0389089        -142.483                0               0         0.968143         179.134                0               0
