! TOUCHSTONE file generated by CST MICROWAVE STUDIO
! Date and time: Mon Jun 21 17:06:24 2021
! Project name: HIPS_d_sweep.cst
! Parameters = {a=0.735; b=0.393; d=16.7035; fmax=120; fmin=75; phi=0; theta=0}
! Header version: 2018
! Port assignment regex: !\s*Touchstone port\s*([0-9]+)\s*=\s*(CST MWS port|CST DS port)\s*([0-9]+|Zmin|Zmax)\s*\(\"(.*)\"\)(\s*mode\s*([0-9]+))?.*
! Touchstone port assignment:
! Touchstone port 1 = CST MWS port Zmin ("") mode 1
! Touchstone port 2 = CST MWS port Zmin ("") mode 2
! Touchstone port 3 = CST MWS port Zmax ("") mode 1
! Touchstone port 4 = CST MWS port Zmax ("") mode 2
! S-Parameters are not renormalized. Unphysical impedance of 0 will be written to the file.
# GHz S MA R 0
75                      0.163033         66.8284                0               0          0.44964         71.9956                0               0
                       0.0897087        -175.862                0               0         0.873611        -17.0215                0               0
                        0.449639         71.9957                0               0         0.163098         66.8599                0               0
                         0.87361        -17.0216                0               0        0.0895905        -175.804                0               0
75.045                  0.163841         66.4666                0               0         0.451825         71.1935                0               0
                       0.0903184        -177.382                0               0          0.87533        -17.7368                0               0
                        0.451817         71.1924                0               0         0.163909         66.4978                0               0
                        0.875331        -17.7369                0               0         0.090197        -177.325                0               0
75.09                   0.164634         66.0751                0               0         0.453903         70.3967                0               0
                       0.0908928         -178.93                0               0         0.876719        -18.4592                0               0
                        0.453891         70.3946                0               0         0.164703         66.1058                0               0
                        0.876721        -18.4594                0               0        0.0907685        -178.876                0               0
75.135                  0.165414         65.6501                0               0         0.455837         69.6048                0               0
                       0.0914247         179.487                0               0         0.877729        -19.1925                0               0
                        0.455823         69.6019                0               0         0.165484         65.6804                0               0
                        0.877733        -19.1927                0               0        0.0912976          179.54                0               0
75.18                   0.166186         65.1882                0               0         0.457588         68.8168                0               0
                       0.0919065         177.865                0               0         0.878319        -19.9412                0               0
                        0.457573         68.8131                0               0         0.166257          65.218                0               0
                        0.878324        -19.9414                0               0         0.091777         177.915                0               0
75.225                  0.166957         64.6859                0               0         0.459112         68.0304                0               0
                       0.0923316         176.196                0               0         0.878456        -20.7108                0               0
                        0.459098         68.0263                0               0          0.16703         64.7152                0               0
                        0.878461         -20.711                0               0        0.0921997         176.244                0               0
75.27                   0.167738         64.1403                0               0         0.460363         67.2424                0               0
                       0.0926942         174.471                0               0         0.878123        -21.5077                0               0
                        0.460351         67.2381                0               0         0.167812         64.1691                0               0
                        0.878129        -21.5079                0               0          0.09256         174.518                0               0
75.315                  0.168539         63.5493                0               0         0.461298         66.4482                0               0
                       0.0929902         172.683                0               0         0.877323         -22.339                0               0
                        0.461289         66.4439                0               0         0.168613         63.5775                0               0
                        0.877329        -22.3391                0               0        0.0928537         172.729                0               0
75.36                   0.169372         62.9116                0               0          0.46188         65.6415                0               0
                       0.0932179         170.821                0               0         0.876084        -23.2118                0               0
                        0.461874         65.6376                0               0         0.169448         62.9391                0               0
                        0.876089        -23.2119                0               0        0.0930792         170.865                0               0
75.405                  0.170253         62.2268                0               0          0.46208          64.815                0               0
                        0.093379         168.873                0               0          0.87446        -24.1334                0               0
                        0.462077         64.8116                0               0         0.170329         62.2537                0               0
                        0.874464        -24.1334                0               0         0.093238         168.916                0               0
75.45                   0.171192         61.4962                0               0         0.461885         63.9602                0               0
                        0.093479         166.829                0               0         0.872534          -25.11                0               0
                        0.461885         63.9576                0               0         0.171269         61.5223                0               0
                        0.872537        -25.1101                0               0        0.0933356          166.87                0               0
75.495                  0.172202         60.7219                0               0           0.4613         63.0681                0               0
                       0.0935278         164.679                0               0         0.870409        -26.1467                0               0
                        0.461302         63.0664                0               0          0.17228         60.7472                0               0
                        0.870411        -26.1468                0               0        0.0933816         164.718                0               0
75.54                   0.173292         59.9071                0               0         0.460352         62.1299                0               0
                       0.0935396         162.411                0               0         0.868208        -27.2467                0               0
                        0.460353         62.1291                0               0         0.173371         59.9316                0               0
                        0.868208        -27.2467                0               0        0.0933905         162.449                0               0
75.585                  0.174467         59.0558                0               0         0.459084         61.1379                0               0
                       0.0935332          160.02                0               0         0.866057        -28.4108                0               0
                        0.459084          61.138                0               0         0.174547         59.0793                0               0
                        0.866056        -28.4108                0               0        0.0933808         160.056                0               0
75.63                   0.175728         58.1723                0               0         0.457558         60.0862                0               0
                       0.0935306         157.501                0               0          0.86408        -29.6377                0               0
                        0.457556         60.0871                0               0         0.175808         58.1948                0               0
                        0.864078        -29.6378                0               0        0.0933745         157.536                0               0
75.675                  0.177071         57.2608                0               0         0.455845         58.9712                0               0
                       0.0935556         154.855                0               0         0.862385        -30.9239                0               0
                        0.455841         58.9728                0               0         0.177153         57.2823                0               0
                        0.862383         -30.924                0               0        0.0933957         154.886                0               0
75.72                   0.178491         56.3252                0               0         0.454021         57.7925                0               0
                       0.0936324         152.084                0               0         0.861058        -32.2642                0               0
                        0.454013         57.7944                0               0         0.178573         56.3457                0               0
                        0.861055        -32.2643                0               0        0.0934685         152.113                0               0
75.765                  0.179974          55.369                0               0         0.452155         56.5519                0               0
                       0.0937833         149.197                0               0         0.860156        -33.6521                0               0
                        0.452144         56.5541                0               0         0.180057         55.3884                0               0
                        0.860153        -33.6522                0               0        0.0936152         149.224                0               0
75.81                   0.181508         54.3946                0               0         0.450306         55.2538                0               0
                       0.0940267         146.208                0               0         0.859709        -35.0806                0               0
                        0.450294         55.2561                0               0         0.181593         54.4128                0               0
                        0.859705        -35.0807                0               0        0.0938543         146.231                0               0
75.855                  0.183076         53.4038                0               0         0.448522         53.9043                0               0
                       0.0943757         143.132                0               0         0.859716        -36.5427                0               0
                        0.448508         53.9065                0               0         0.183162         53.4208                0               0
                        0.859712        -36.5428                0               0        0.0941991         143.151                0               0
75.9                    0.184661         52.3975                0               0         0.446831         52.5106                0               0
                       0.0948368         139.987                0               0         0.860153        -38.0319                0               0
                        0.446817         52.5127                0               0         0.184748         52.4134                0               0
                         0.86015        -38.0321                0               0        0.0946563         140.001                0               0
75.945                  0.186243         51.3762                0               0         0.445249         51.0804                0               0
                       0.0954101         136.791                0               0          0.86098        -39.5424                0               0
                        0.445236         51.0821                0               0         0.186331         51.3909                0               0
                        0.860976        -39.5425                0               0        0.0952258         136.801                0               0
75.99                   0.187803         50.3398                0               0         0.443778          49.621                0               0
                       0.0960891         133.562                0               0          0.86214        -41.0691                0               0
                        0.443765         49.6225                0               0         0.187893         50.3532                0               0
                        0.862136        -41.0692                0               0        0.0959013         133.567                0               0
76.035                  0.189324          49.288                0               0         0.442408         48.1396                0               0
                       0.0968619         130.315                0               0         0.863568        -42.6081                0               0
                        0.442398         48.1408                0               0         0.189414         49.3001                0               0
                        0.863565        -42.6082                0               0        0.0966709         130.315                0               0
76.08                   0.190784         48.2201                0               0         0.441124         46.6425                0               0
                       0.0977124         127.066                0               0         0.865196        -44.1562                0               0
                        0.441116         46.6435                0               0         0.190877          48.231                0               0
                        0.865193        -44.1562                0               0        0.0975185         127.061                0               0
76.125                  0.192168         47.1359                0               0         0.439904         45.1352                0               0
                       0.0986216         123.826                0               0         0.866954        -45.7108                0               0
                        0.439899          45.136                0               0         0.192261         47.1455                0               0
                         0.86695        -45.7109                0               0        0.0984251         123.816                0               0
76.17                   0.193455          46.035                0               0         0.438727         43.6227                0               0
                       0.0995689         120.603                0               0         0.868773        -47.2703                0               0
                        0.438723         43.6233                0               0          0.19355         46.0434                0               0
                        0.868769        -47.2703                0               0          0.09937         120.589                0               0
76.215                   0.19463         44.9176                0               0         0.437567          42.109                0               0
                        0.100533         117.406                0               0         0.870587         -48.833                0               0
                        0.437565         42.1093                0               0         0.194726         44.9246                0               0
                        0.870583        -48.8331                0               0         0.100332         117.386                0               0
76.26                   0.195676         43.7839                0               0         0.436403         40.5975                0               0
                        0.101494         114.238                0               0         0.872335         -50.398                0               0
                        0.436403         40.5978                0               0         0.195773         43.7896                0               0
                        0.872331         -50.398                0               0         0.101291         114.214                0               0
76.305                  0.196578         42.6348                0               0         0.435214         39.0914                0               0
                        0.102433         111.105                0               0         0.873961        -51.9641                0               0
                        0.435216         39.0915                0               0         0.196676         42.6392                0               0
                        0.873957        -51.9641                0               0         0.102229         111.075                0               0
76.35                   0.197321         41.4717                0               0         0.433984         37.5931                0               0
                        0.103332         108.007                0               0         0.875414        -53.5305                0               0
                        0.433986         37.5932                0               0         0.197421         41.4748                0               0
                         0.87541        -53.5305                0               0         0.103126         107.973                0               0
76.395                  0.197893         40.2963                0               0         0.432696         36.1049                0               0
                        0.104176         104.947                0               0         0.876648        -55.0964                0               0
                        0.432699          36.105                0               0         0.197994          40.298                0               0
                        0.876644        -55.0964                0               0         0.103969         104.909                0               0
76.44                   0.198284         39.1109                0               0          0.43134         34.6289                0               0
                        0.104952         101.927                0               0         0.877625        -56.6606                0               0
