! TOUCHSTONE file generated by CST MICROWAVE STUDIO
! Date and time: Mon Jun 21 17:06:44 2021
! Project name: HIPS_d_sweep.cst
! Parameters = {a=0.735; b=0.393; d=19.0653; fmax=120; fmin=75; phi=0; theta=0}
! Header version: 2018
! Port assignment regex: !\s*Touchstone port\s*([0-9]+)\s*=\s*(CST MWS port|CST DS port)\s*([0-9]+|Zmin|Zmax)\s*\(\"(.*)\"\)(\s*mode\s*([0-9]+))?.*
! Touchstone port assignment:
! Touchstone port 1 = CST MWS port Zmin ("") mode 1
! Touchstone port 2 = CST MWS port Zmin ("") mode 2
! Touchstone port 3 = CST MWS port Zmax ("") mode 1
! Touchstone port 4 = CST MWS port Zmax ("") mode 2
! S-Parameters are not renormalized. Unphysical impedance of 0 will be written to the file.
# GHz S MA R 0
75                      0.106978        -3.77116                0               0         0.329664         160.235                0               0
                       0.0987384      -0.0429573                0               0         0.932807         68.2783                0               0
                        0.329664         160.235                0               0         0.107006        -3.87026                0               0
                        0.932807          68.279                0               0        0.0987085       -0.181305                0               0
75.045                  0.104415        -4.67655                0               0         0.330017         158.555                0               0
                       0.0994135        -1.85868                0               0         0.934296         66.8744                0               0
                         0.33002         158.555                0               0         0.104445        -4.77832                0               0
                        0.934287         66.8747                0               0        0.0993843         -1.9966                0               0
75.09                   0.101736        -5.60177                0               0         0.330249         156.872                0               0
                         0.10007        -3.72683                0               0         0.935722         65.4624                0               0
                        0.330254         156.871                0               0         0.101766        -5.70645                0               0
                        0.935703         65.4625                0               0         0.100042        -3.86431                0               0
75.135                  0.098934         -6.5465                0               0         0.330359         155.187                0               0
                        0.100704        -5.64912                0               0         0.937081         64.0426                0               0
                        0.330366         155.186                0               0        0.0989657        -6.65437                0               0
                        0.937054         64.0424                0               0         0.100676        -5.78616                0               0
75.18                  0.0960037        -7.51012                0               0         0.330347         153.501                0               0
                         0.10131        -7.62723                0               0         0.938371         62.6151                0               0
                        0.330356           153.5                0               0        0.0960366         -7.6215                0               0
                        0.938335         62.6147                0               0         0.101284        -7.76384                0               0
75.225                 0.0929388        -8.49164                0               0         0.330215         151.815                0               0
                        0.101885        -9.66279                0               0         0.939588           61.18                0               0
                        0.330226         151.813                0               0        0.0929729         -8.6069                0               0
                        0.939544         61.1793                0               0          0.10186        -9.79898                0               0
75.27                  0.0897331        -9.48957                0               0         0.329964         150.129                0               0
                        0.102422        -11.7574                0               0          0.94073         59.7374                0               0
                        0.329976         150.127                0               0        0.0897683        -9.60915                0               0
                        0.940678         59.7366                0               0         0.102399        -11.8931                0               0
75.315                 0.0863802        -10.5018                0               0         0.329595         148.445                0               0
                        0.102916        -13.9124                0               0         0.941794         58.2876                0               0
                        0.329608         148.442                0               0        0.0864165        -10.6262                0               0
                        0.941734         58.2867                0               0         0.102895        -14.0477                0               0
75.36                  0.0828738        -11.5252                0               0          0.32911         146.764                0               0
                         0.10336        -16.1292                0               0         0.942776         56.8308                0               0
                        0.329124          146.76                0               0        0.0829111         -11.655                0               0
                        0.942709         56.8297                0               0         0.103342        -16.2641                0               0
75.405                 0.0792077        -12.5556                0               0         0.328512         145.086                0               0
                        0.103749        -18.4089                0               0         0.943674         55.3671                0               0
                        0.328528         145.082                0               0        0.0792458        -12.6916                0               0
                        0.943601         55.3659                0               0         0.103734        -18.5435                0               0
75.45                  0.0753757        -13.5872                0               0         0.327804         143.412                0               0
                        0.104075        -20.7525                0               0         0.944486         53.8967                0               0
                         0.32782         143.407                0               0        0.0754146        -13.7302                0               0
                        0.944406         53.8954                0               0         0.104062        -20.8868                0               0
75.495                  0.071372        -14.6119                0               0          0.32699         141.743                0               0
                         0.10433        -23.1608                0               0         0.945208         52.4198                0               0
                        0.327006         141.738                0               0        0.0714115         -14.763                0               0
                        0.945123         52.4184                0               0         0.104321        -23.2949                0               0
75.54                  0.0671914        -15.6186                0               0         0.326072         140.079                0               0
                        0.104508        -25.6343                0               0         0.945838         50.9366                0               0
                        0.326088         140.075                0               0        0.0672313        -15.7792                0               0
                        0.945747         50.9353                0               0         0.104503        -25.7681                0               0
75.585                 0.0628293        -16.5916                0               0         0.325054         138.423                0               0
                        0.104601         -28.173                0               0         0.946374         49.4475                0               0
                        0.325071         138.418                0               0        0.0628693        -16.7633                0               0
                        0.946278         49.4461                0               0           0.1046        -28.3067                0               0
75.63                  0.0582822        -17.5085                0               0         0.323941         136.773                0               0
                        0.104601         -30.777                0               0         0.946813         47.9525                0               0
                        0.323958         136.768                0               0        0.0583219        -17.6936                0               0
                        0.946713         47.9511                0               0         0.104605        -30.9105                0               0
75.675                  0.053548        -18.3368                0               0         0.322738         135.132                0               0
                        0.104501        -33.4456                0               0         0.947153          46.452                0               0
                        0.322754         135.126                0               0        0.0535868         -18.538                0               0
                        0.947049         46.4507                0               0         0.104509        -33.5792                0               0
75.72                  0.0486266        -19.0276                0               0         0.321447         133.499                0               0
                        0.104293        -36.1781                0               0         0.947393         44.9462                0               0
                        0.321464         133.493                0               0         0.048664        -19.2489                0               0
                        0.947285         44.9449                0               0         0.104307        -36.3117                0               0
75.765                 0.0435212        -19.5051                0               0         0.320076         131.875                0               0
                        0.103971        -38.9731                0               0         0.947529         43.4354                0               0
                        0.320091         131.869                0               0        0.0435564         -19.752                0               0
                        0.947418         43.4341                0               0          0.10399        -39.1069                0               0
75.81                    0.03824        -19.6461                0               0         0.318627         130.261                0               0
                        0.103529         -41.829                0               0         0.947561         41.9198                0               0
                        0.318642         130.255                0               0        0.0382716        -19.9266                0               0
                        0.947447         41.9186                0               0         0.103553        -41.9631                0               0
75.855                 0.0327997        -19.2375                0               0         0.317106         128.657                0               0
                        0.102961        -44.7435                0               0         0.947486         40.3997                0               0
                        0.317121         128.651                0               0        0.0328257        -19.5638                0               0
                         0.94737         40.3985                0               0         0.102992        -44.8782                0               0
75.9                   0.0272335        -17.8808                0               0         0.315519         127.064                0               0
                        0.102264        -47.7143                0               0         0.947304         38.8753                0               0
                        0.315533         127.057                0               0        0.0272507        -18.2727                0               0
                        0.947187         38.8743                0               0           0.1023        -47.8496                0               0
75.945                  0.021612        -14.7511                0               0          0.31387         125.481                0               0
                        0.101433        -50.7384                0               0         0.947013         37.3471                0               0
                        0.313883         125.475                0               0        0.0216146        -15.2421                0               0
                        0.946894         37.3461                0               0         0.101476        -50.8744                0               0
75.99                  0.0161065        -7.90764                0               0         0.312163          123.91                0               0
                        0.100468        -53.8125                0               0         0.946612         35.8152                0               0
                        0.312176         123.904                0               0        0.0160832        -8.55348                0               0
                        0.946493         35.8143                0               0         0.100518        -53.9495                0               0
76.035                 0.0112256         7.72717                0               0         0.310405         122.351                0               0
                       0.0993691        -56.9331                0               0           0.9461         34.2799                0               0
                        0.310417         122.344                0               0        0.0111514         6.88633                0               0
                         0.94598         34.2792                0               0        0.0994254        -57.0712                0               0
76.08                 0.00859937         41.3188                0               0           0.3086         120.803                0               0
                       0.0981367        -60.0964                0               0         0.945477         32.7417                0               0
                        0.308611         120.797                0               0       0.00844687          40.715                0               0
                        0.945357          32.741                0               0        0.0981999        -60.2357                0               0
76.125                 0.0104822         78.9513                0               0         0.306753         119.268                0               0
                       0.0967746        -63.2984                0               0         0.944742         31.2007                0               0
                        0.306762         119.262                0               0         0.010311         79.1006                0               0
                        0.944623         31.2002                0               0        0.0968446        -63.4392                0               0
76.17                  0.0154847         98.0654                0               0         0.304868         117.745                0               0
                       0.0952875         -66.535                0               0         0.943894         29.6573                0               0
                        0.304877         117.739                0               0        0.0153378         98.3766                0               0
                        0.943777         29.6569                0               0        0.0953642        -66.6774                0               0
76.215                 0.0216497         106.177                0               0          0.30295         116.235                0               0
                        0.093682        -69.8021                0               0         0.942935         28.1118                0               0
                        0.302958         116.228                0               0        0.0215225         106.453                0               0
                        0.942819         28.1115                0               0        0.0937653        -69.9464                0               0
76.26                  0.0282948         109.653                0               0         0.301004         114.737                0               0
                        0.091966        -73.0959                0               0         0.941864         26.5645                0               0
                        0.301012         114.731                0               0        0.0281807         109.877                0               0
                         0.94175         26.5643                0               0        0.0920558        -73.2421                0               0
76.305                 0.0351847         110.938                0               0         0.299034         113.252                0               0
                       0.0901487        -76.4123                0               0         0.940681         25.0157                0               0
                        0.299041         113.246                0               0        0.0350798          111.12                0               0
                        0.940569         25.0157                0               0        0.0902448        -76.5606                0               0
76.35                  0.0422108         111.043                0               0         0.297045         111.779                0               0
                       0.0882408         -79.748                0               0         0.939388         23.4658                0               0
                         0.29705         111.773                0               0        0.0421129         111.192                0               0
                        0.939279          23.466                0               0        0.0883428        -79.8985                0               0
76.395                 0.0493071         110.445                0               0         0.295039          110.32                0               0
                       0.0862534        -83.0995                0               0         0.937984         21.9151                0               0
                        0.295044         110.314                0               0        0.0492146         110.567                0               0
                        0.937878         21.9154                0               0        0.0863612        -83.2524                0               0
76.44                  0.0564238         109.395                0               0         0.293022         108.873                0               0
                       0.0841987        -86.4641                0               0         0.936472         20.3639                0               0
