! TOUCHSTONE file generated by CST MICROWAVE STUDIO
! Date and time: Mon Jun 21 17:07:38 2021
! Project name: HIPS_d_sweep.cst
! Parameters = {a=0.735; b=0.393; d=25.397; fmax=120; fmin=75; phi=0; theta=0}
! Header version: 2018
! Port assignment regex: !\s*Touchstone port\s*([0-9]+)\s*=\s*(CST MWS port|CST DS port)\s*([0-9]+|Zmin|Zmax)\s*\(\"(.*)\"\)(\s*mode\s*([0-9]+))?.*
! Touchstone port assignment:
! Touchstone port 1 = CST MWS port Zmin ("") mode 1
! Touchstone port 2 = CST MWS port Zmin ("") mode 2
! Touchstone port 3 = CST MWS port Zmax ("") mode 1
! Touchstone port 4 = CST MWS port Zmax ("") mode 2
! S-Parameters are not renormalized. Unphysical impedance of 0 will be written to the file.
# GHz S MA R 0
75                     0.0248163        -38.5065                0               0        0.0852486        -40.2045                0               0
                      0.00717501         156.141                0               0         0.996024         49.6456                0               0
                       0.0852487        -40.2042                0               0        0.0247692        -39.4427                0               0
                        0.996023         49.6482                0               0       0.00725663         157.338                0               0
75.045                 0.0220342        -39.2481                0               0        0.0808857        -40.9372                0               0
                      0.00641365         154.307                0               0         0.996441         48.8918                0               0
                        0.080885        -40.9379                0               0        0.0219878        -40.3073                0               0
                        0.996441         48.8944                0               0       0.00649119         155.666                0               0
75.09                  0.0188012        -39.9788                0               0        0.0770488        -41.8161                0               0
                      0.00582157         151.632                0               0         0.996819         48.0369                0               0
                       0.0770482        -41.8165                0               0        0.0187548        -41.2264                0               0
                        0.996818         48.0395                0               0       0.00589322         153.161                0               0
75.135                 0.0151222        -40.6245                0               0        0.0737021        -42.8161                0               0
                      0.00540154         148.078                0               0          0.99715         47.0819                0               0
                       0.0737019        -42.8158                0               0        0.0150749        -42.1843                0               0
                        0.997149         47.0845                0               0       0.00546522         149.769                0               0
75.18                  0.0110042        -40.9725                0               0        0.0708174        -43.9187                0               0
                      0.00515726          143.73                0               0         0.997428         46.0282                0               0
                       0.0708177        -43.9177                0               0        0.0109539        -43.1287                0               0
                        0.997428         46.0308                0               0       0.00521094         145.553                0               0
75.225                0.00645865        -40.1383                0               0        0.0683739        -45.1113                0               0
                      0.00509175          138.82                0               0         0.997648         44.8772                0               0
                       0.0683743        -45.1096                0               0       0.00639939        -43.8349                0               0
                        0.997648         44.8799                0               0       0.00513388         140.719                0               0
75.27                 0.00155838        -25.3101                0               0        0.0663562        -46.3866                0               0
                      0.00520534         133.685                0               0         0.997807         43.6307                0               0
                       0.0663566        -46.3847                0               0       0.00142453        -40.7405                0               0
                        0.997807         43.6334                0               0       0.00523526          135.59                0               0
75.315                0.00398114         124.042                0               0        0.0647532        -47.7426                0               0
                      0.00549455         128.664                0               0           0.9979         42.2907                0               0
                       0.0647534         -47.741                0               0       0.00397964         130.162                0               0
                          0.9979         42.2934                0               0       0.00551263         130.506                0               0
75.36                 0.00975377         127.369                0               0        0.0635566        -49.1815                0               0
                      0.00595258         123.992                0               0         0.997924         40.8596                0               0
                       0.0635564        -49.1805                0               0       0.00977446         129.879                0               0
                        0.997925         40.8623                0               0       0.00595997          125.72                0               0
75.405                   0.01593         127.082                0               0        0.0627589        -50.7087                0               0
                      0.00657072         119.768                0               0         0.997878         39.3399                0               0
                       0.0627582        -50.7085                0               0        0.0159568          128.63                0               0
                        0.997878         39.3426                0               0         0.006569         121.355                0               0
75.45                  0.0224782         126.021                0               0        0.0623521        -52.3312                0               0
                      0.00733987         115.977                0               0         0.997757         37.7346                0               0
                       0.0623509        -52.3319                0               0        0.0225079         127.126                0               0
                        0.997758         37.7373                0               0       0.00733061         117.415                0               0
75.495                 0.0293755         124.629                0               0        0.0623261        -54.0558                0               0
                      0.00825107         112.542                0               0         0.997559          36.047                0               0
                       0.0623245        -54.0571                0               0        0.0294072         125.481                0               0
                         0.99756         36.0498                0               0       0.00823568         113.836                0               0
75.54                  0.0365979          123.04                0               0        0.0626681        -55.8874                0               0
                      0.00929563         109.366                0               0          0.99728         34.2808                0               0
                       0.0626662         -55.889                0               0         0.036631         123.729                0               0
                        0.997282         34.2836                0               0       0.00927521         110.529                0               0
75.585                 0.0441185         121.311                0               0        0.0633615        -57.8276                0               0
                       0.0104647          106.36                0               0         0.996918         32.4399                0               0
                       0.0633595        -57.8291                0               0        0.0441528         121.887                0               0
                         0.99692         32.4427                0               0        0.0104401         107.406                0               0
75.63                  0.0519077         119.472                0               0         0.064386        -59.8739                0               0
                       0.0117489         103.451                0               0         0.996468         30.5286                0               0
                       0.0643842        -59.8748                0               0         0.051943         119.965                0               0
                         0.99647         30.5314                0               0        0.0117207         104.394                0               0
75.675                 0.0599331         117.541                0               0        0.0657176        -62.0195                0               0
                       0.0131383         100.582                0               0         0.995926         28.5513                0               0
                       0.0657161        -62.0195                0               0        0.0599693          117.97                0               0
                        0.995929         28.5541                0               0        0.0131069         101.436                0               0
75.72                  0.0681594         115.531                0               0        0.0673292        -64.2541                0               0
                       0.0146217         97.7147                0               0         0.995289         26.5129                0               0
                       0.0673282         -64.253                0               0        0.0681965          115.91                0               0
                        0.995292         26.5157                0               0        0.0145873         98.4927                0               0
75.765                 0.0765492         113.451                0               0        0.0691911        -66.5646                0               0
                       0.0161872         94.8244                0               0         0.994553         24.4182                0               0
                       0.0691907        -66.5624                0               0        0.0765872          113.79                0               0
                        0.994557         24.4211                0               0          0.01615         95.5364                0               0
75.81                   0.085063         111.309                0               0        0.0712722        -68.9371                0               0
                       0.0178221         91.8954                0               0         0.993714         22.2725                0               0
                       0.0712724        -68.9338                0               0        0.0851018         111.616                0               0
                        0.993719         22.2754                0               0        0.0177821         92.5504                0               0
75.855                 0.0936598         109.114                0               0        0.0735407        -71.3575                0               0
                       0.0195129         88.9198                0               0         0.992771          20.081                0               0
                       0.0735414        -71.3534                0               0        0.0936994         109.393                0               0
                        0.992776         20.0839                0               0        0.0194702         89.5256                0               0
75.9                    0.102298         106.872                0               0         0.075965        -73.8128                0               0
                       0.0212457          85.895                0               0         0.991723         17.8488                0               0
                        0.075966        -73.8082                0               0         0.102338         107.128                0               0
                        0.991729         17.8517                0               0        0.0212002         86.4581                0               0
75.945                  0.110935          104.59                0               0        0.0785147        -76.2922                0               0
                       0.0230066         82.8219                0               0         0.990571         15.5815                0               0
                       0.0785158        -76.2874                0               0         0.110976         104.826                0               0
                        0.990577         15.5844                0               0        0.0229582         83.3478                0               0
75.99                   0.119529         102.274                0               0        0.0811611        -78.7869                0               0
                       0.0247814         79.7036                0               0         0.989318         13.2841                0               0
                       0.0811622        -78.7824                0               0         0.119571         102.493                0               0
                        0.989324          13.287                0               0        0.0247302          80.197                0               0
76.035                   0.12804         99.9305                0               0        0.0838781        -81.2909                0               0
                       0.0265568         76.5446                0               0         0.987968         10.9618                0               0
                       0.0838791        -81.2868                0               0         0.128082         100.135                0               0
                        0.987975         10.9647                0               0        0.0265026         77.0095                0               0
76.08                   0.136428         97.5654                0               0        0.0866426           -83.8                0               0
                       0.0283198         73.3499                0               0         0.986531         8.61972                0               0
                       0.0866435        -83.7966                0               0         0.136471         97.7571                0               0
                        0.986538         8.62259                0               0        0.0282624         73.7898                0               0
76.125                  0.144655         95.1842                0               0        0.0894348        -86.3123                0               0
                        0.030058         70.1249                0               0         0.985017         6.26261                0               0
                       0.0894354        -86.3098                0               0           0.1447         95.3643                0               0
                        0.985025         6.26546                0               0        0.0299975         70.5426                0               0
76.17                   0.152689         92.7922                0               0        0.0922382        -88.8272                0               0
                       0.0317603         66.8748                0               0         0.983441         3.89509                0               0
                       0.0922387        -88.8255                0               0         0.152734          92.962                0               0
                         0.98345         3.89794                0               0        0.0316966         67.2728                0               0
76.215                  0.160496         90.3944                0               0        0.0950405         -91.345                0               0
                       0.0334163         63.6043                0               0         0.981821         1.52155                0               0
                        0.095041        -91.3441                0               0         0.160542         90.5549                0               0
                        0.981831         1.52438                0               0        0.0333492         63.9848                0               0
76.26                   0.168049         87.9954                0               0        0.0978332        -93.8663                0               0
                       0.0350166         60.3182                0               0         0.980178       -0.853878                0               0
                       0.0978339         -93.866                0               0         0.168095         88.1476                0               0
                        0.980188       -0.851054                0               0        0.0349461         60.6829                0               0
76.305                  0.175322         85.5996                0               0         0.100613        -96.3908                0               0
                        0.036553         57.0207                0               0         0.978534         -3.2273                0               0
                        0.100613        -96.3909                0               0         0.175369         85.7442                0               0
                        0.978544        -3.22448                0               0         0.036479         57.3712                0               0
76.35                   0.182294          83.211                0               0         0.103379        -98.9165                0               0
                       0.0380181         53.7161                0               0         0.976914        -5.59504                0               0
                         0.10338        -98.9164                0               0         0.182341         83.3486                0               0
                        0.976924        -5.59222                0               0        0.0379406         54.0537                0               0
76.395                  0.188945         80.8334                0               0         0.106135        -101.437                0               0
                       0.0394057          50.409                0               0         0.975339        -7.95357                0               0
                        0.106136        -101.437                0               0         0.188993         80.9646                0               0
                        0.975349        -7.95074                0               0        0.0393244         50.7349                0               0
76.44                    0.19526         78.4704                0               0         0.108884         -103.94                0               0
                       0.0407101         47.1047                0               0          0.97383        -10.2995                0               0
