! TOUCHSTONE file generated by CST MICROWAVE STUDIO
! Date and time: Mon Jun 21 17:06:26 2021
! Project name: HIPS_d_sweep.cst
! Parameters = {a=0.735; b=0.393; d=16.9045; fmax=120; fmin=75; phi=0; theta=0}
! Header version: 2018
! Port assignment regex: !\s*Touchstone port\s*([0-9]+)\s*=\s*(CST MWS port|CST DS port)\s*([0-9]+|Zmin|Zmax)\s*\(\"(.*)\"\)(\s*mode\s*([0-9]+))?.*
! Touchstone port assignment:
! Touchstone port 1 = CST MWS port Zmin ("") mode 1
! Touchstone port 2 = CST MWS port Zmin ("") mode 2
! Touchstone port 3 = CST MWS port Zmax ("") mode 1
! Touchstone port 4 = CST MWS port Zmax ("") mode 2
! S-Parameters are not renormalized. Unphysical impedance of 0 will be written to the file.
# GHz S MA R 0
75                      0.195029         51.4603                0               0         0.430637         49.9287                0               0
                       0.0968137          131.46                0               0         0.875862        -40.5661                0               0
                        0.430638         49.9287                0               0         0.195068         51.5036                0               0
                        0.875867        -40.5666                0               0        0.0967783           131.5                0               0
75.045                   0.19361         51.8074                0               0         0.434623         49.4235                0               0
                       0.0973169         130.677                0               0         0.877027        -41.0479                0               0
                         0.43462         49.4227                0               0         0.193789         51.7884                0               0
                        0.877027        -41.0473                0               0        0.0972829         130.722                0               0
75.09                   0.192378         51.5017                0               0         0.437756         48.8858                0               0
                       0.0978057         129.722                0               0         0.877376          -41.59                0               0
                        0.437752         48.8844                0               0         0.192624         51.4987                0               0
                        0.877369        -41.5888                0               0        0.0977724         129.769                0               0
75.135                  0.191751         50.9398                0               0         0.440141          48.299                0               0
                       0.0982894         128.601                0               0         0.877061        -42.2006                0               0
                        0.440138         48.2974                0               0          0.19198          50.957                0               0
                        0.877048        -42.1992                0               0        0.0982566         128.649                0               0
75.18                   0.191541         50.2767                0               0         0.441896         47.6525                0               0
                       0.0987755         127.324                0               0         0.876252        -42.8847                0               0
                        0.441894         47.6508                0               0          0.19173         50.3067                0               0
                        0.876234        -42.8834                0               0         0.098743         127.371                0               0
75.225                  0.191579         49.5661                0               0         0.443139         46.9409                0               0
                       0.0992698         125.898                0               0         0.875117        -43.6445                0               0
                        0.443138         46.9394                0               0         0.191727         49.6026                0               0
                        0.875098        -43.6435                0               0        0.0992376         125.943                0               0
75.27                   0.191758         48.8264                0               0         0.443977         46.1628                0               0
                       0.0997762         124.332                0               0         0.873814        -44.4793                0               0
                        0.443977         46.1616                0               0         0.191873         48.8658                0               0
                        0.873797        -44.4787                0               0        0.0997444         124.375                0               0
75.315                  0.192015         48.0642                0               0         0.444502         45.3196                0               0
                        0.100298         122.635                0               0          0.87248        -45.3863                0               0
                        0.444503         45.3186                0               0         0.192103         48.1044                0               0
                        0.872465         -45.386                0               0         0.100266         122.676                0               0
75.36                   0.192307         47.2812                0               0         0.444788         44.4141                0               0
                        0.100835         120.814                0               0         0.871221        -46.3611                0               0
                         0.44479         44.4135                0               0         0.192375         47.3211                0               0
                         0.87121        -46.3612                0               0         0.100804         120.853                0               0
75.405                  0.192607         46.4775                0               0         0.444894         43.4507                0               0
                        0.101389         118.879                0               0         0.870117        -47.3987                0               0
                        0.444895         43.4503                0               0         0.192661         46.5164                0               0
                        0.870112         -47.399                0               0         0.101359         118.915                0               0
75.45                   0.192896         45.6522                0               0         0.444862         42.4336                0               0
                         0.10196         116.838                0               0         0.869219        -48.4932                0               0
                        0.444863         42.4335                0               0          0.19294         45.6898                0               0
                        0.869219        -48.4937                0               0         0.101931         116.872                0               0
75.495                  0.193157         44.8041                0               0         0.444723         41.3675                0               0
                        0.102545         114.697                0               0         0.868555        -49.6391                0               0
                        0.444724         41.3676                0               0         0.193195         44.8404                0               0
                         0.86856        -49.6397                0               0         0.102517         114.729                0               0
75.54                   0.193381         43.9321                0               0         0.444496         40.2567                0               0
                        0.103144         112.465                0               0         0.868132        -50.8312                0               0
                        0.444497         40.2569                0               0         0.193414         43.9671                0               0
                         0.86814        -50.8318                0               0         0.103117         112.495                0               0
75.585                  0.193557         43.0349                0               0         0.444193          39.105                0               0
                        0.103755         110.149                0               0         0.867939        -52.0648                0               0
                        0.444193         39.1053                0               0         0.193589         43.0686                0               0
                         0.86795        -52.0653                0               0         0.103728         110.177                0               0
75.63                   0.193679         42.1115                0               0         0.443819          37.916                0               0
                        0.104375         107.755                0               0         0.867955        -53.3356                0               0
                        0.443818         37.9163                0               0          0.19371         42.1441                0               0
                        0.867967        -53.3361                0               0         0.104349         107.782                0               0
75.675                   0.19374          41.161                0               0         0.443372         36.6925                0               0
                        0.105002          105.29                0               0         0.868148        -54.6405                0               0
                        0.443371         36.6928                0               0         0.193772         41.1925                0               0
                         0.86816        -54.6409                0               0         0.104978         105.316                0               0
75.72                   0.193736         40.1828                0               0         0.442849         35.4371                0               0
                        0.105634         102.761                0               0         0.868481        -55.9768                0               0
                        0.442849         35.4373                0               0         0.193768         40.2133                0               0
                        0.868491        -55.9772                0               0         0.105611         102.786                0               0
75.765                  0.193662         39.1765                0               0         0.442246         34.1514                0               0
                         0.10627         100.174                0               0         0.868915        -57.3426                0               0
                        0.442245         34.1516                0               0         0.193695         39.2061                0               0
                        0.868923        -57.3431                0               0         0.106248         100.198                0               0
75.81                   0.193515         38.1424                0               0         0.441554         32.8369                0               0
                        0.106908         97.5343                0               0         0.869411        -58.7369                0               0
                        0.441554          32.837                0               0         0.193549         38.1711                0               0
                        0.869417        -58.7374                0               0         0.106887         97.5581                0               0
75.855                   0.19329         37.0811                0               0         0.440771         31.4942                0               0
                        0.107545         94.8483                0               0         0.869934        -60.1591                0               0
                        0.440771         31.4942                0               0         0.193325         37.1088                0               0
                        0.869939        -60.1598                0               0         0.107525         94.8714                0               0
75.9                    0.192985         35.9938                0               0         0.439892         30.1236                0               0
                        0.108181         92.1216                0               0         0.870461        -61.6093                0               0
                        0.439892         30.1236                0               0          0.19302         36.0206                0               0
                        0.870465        -61.6101                0               0         0.108163          92.144                0               0
75.945                  0.192595         34.8823                0               0          0.43892         28.7253                0               0
                        0.108815           89.36                0               0         0.870979         -63.088                0               0
                        0.438921         28.7253                0               0         0.192629         34.9079                0               0
                        0.870982        -63.0889                0               0         0.108798         89.3816                0               0
75.99                   0.192114         33.7487                0               0         0.437864         27.2991                0               0
                        0.109446         86.5694                0               0         0.871492        -64.5952                0               0
                        0.437865         27.2992                0               0         0.192148         33.7732                0               0
                        0.871495        -64.5963                0               0          0.10943         86.5901                0               0
76.035                  0.191538          32.596                0               0         0.436738         25.8456                0               0
                        0.110071         83.7555                0               0         0.872024        -66.1306                0               0
                        0.436739         25.8456                0               0         0.191571         32.6191                0               0
                        0.872028        -66.1317                0               0         0.110057         83.7752                0               0
76.08                   0.190858         31.4272                0               0         0.435564         24.3657                0               0
                         0.11069         80.9242                0               0         0.872611        -67.6923                0               0
                        0.435565         24.3658                0               0         0.190889         31.4488                0               0
                        0.872616        -67.6933                0               0         0.110678         80.9428                0               0
76.125                  0.190066         30.2457                0               0         0.434367         22.8619                0               0
                          0.1113         78.0817                0               0         0.873295        -69.2761                0               0
                        0.434367          22.862                0               0         0.190096         30.2657                0               0
                        0.873299         -69.277                0               0          0.11129         78.0992                0               0
76.17                   0.189153         29.0552                0               0         0.433173         21.3382                0               0
                        0.111897          75.234                0               0         0.874101        -70.8761                0               0
                        0.433173         21.3383                0               0         0.189182         29.0735                0               0
                        0.874105        -70.8768                0               0          0.11189         75.2502                0               0
76.215                   0.18811         27.8594                0               0         0.432004            19.8                0               0
                        0.112479         72.3869                0               0         0.875028        -72.4844                0               0
                        0.432003         19.8002                0               0         0.188138          27.876                0               0
                         0.87503         -72.485                0               0         0.112474         72.4019                0               0
76.26                   0.186929          26.662                0               0         0.430872         18.2541                0               0
                        0.113039         69.5462                0               0         0.876035         -74.093                0               0
                        0.430871         18.2542                0               0         0.186955          26.677                0               0
                        0.876034        -74.0935                0               0         0.113037         69.5602                0               0
76.305                  0.185601          25.467                0               0         0.429778         16.7074                0               0
                        0.113572         66.7175                0               0         0.877046        -75.6949                0               0
                        0.429777         16.7075                0               0         0.185625         25.4803                0               0
                        0.877043        -75.6954                0               0         0.113572         66.7306                0               0
76.35                   0.184119         24.2781                0               0         0.428715         15.1667                0               0
                        0.114073         63.9056                0               0         0.877971        -77.2849                0               0
                        0.428713         15.1667                0               0         0.184143         24.2898                0               0
                        0.877968        -77.2855                0               0         0.114075          63.918                0               0
76.395                  0.182482         23.0992                0               0         0.427667         13.6374                0               0
                        0.114534         61.1149                0               0         0.878726          -78.86                0               0
                        0.427666         13.6375                0               0         0.182504         23.1092                0               0
                        0.878723        -78.8607                0               0         0.114539         61.1267                0               0
76.44                   0.180689         21.9335                0               0         0.426625         12.1229                0               0
                        0.114951         58.3488                0               0         0.879254        -80.4192                0               0
