! TOUCHSTONE file generated by CST MICROWAVE STUDIO
! Date and time: Mon Jun 21 17:07:04 2021
! Project name: HIPS_d_sweep.cst
! Parameters = {a=0.735; b=0.393; d=21.6281; fmax=120; fmin=75; phi=0; theta=0}
! Header version: 2018
! Port assignment regex: !\s*Touchstone port\s*([0-9]+)\s*=\s*(CST MWS port|CST DS port)\s*([0-9]+|Zmin|Zmax)\s*\(\"(.*)\"\)(\s*mode\s*([0-9]+))?.*
! Touchstone port assignment:
! Touchstone port 1 = CST MWS port Zmin ("") mode 1
! Touchstone port 2 = CST MWS port Zmin ("") mode 2
! Touchstone port 3 = CST MWS port Zmax ("") mode 1
! Touchstone port 4 = CST MWS port Zmax ("") mode 2
! S-Parameters are not renormalized. Unphysical impedance of 0 will be written to the file.
# GHz S MA R 0
75                       0.24245         40.2935                0               0         0.150843        -137.694                0               0
                       0.0511936         87.1347                0               0         0.957002         128.942                0               0
                        0.150841        -137.693                0               0         0.242431         40.3044                0               0
                        0.956997         128.942                0               0         0.051234         87.1857                0               0
75.045                  0.242958         39.7321                0               0         0.153704         -138.58                0               0
                       0.0521466         86.2916                0               0         0.959167         128.131                0               0
                        0.153702        -138.579                0               0         0.242943         39.7454                0               0
                        0.959178         128.128                0               0         0.052189         86.3483                0               0
75.09                   0.243061         39.1208                0               0          0.15645        -139.474                0               0
                       0.0530688         85.3755                0               0         0.960901         127.294                0               0
                        0.156449        -139.474                0               0         0.243045         39.1356                0               0
                        0.960931         127.289                0               0        0.0531125         85.4366                0               0
75.135                  0.242786         38.4414                0               0         0.159052         -140.38                0               0
                       0.0539555         84.3763                0               0         0.962186         126.426                0               0
                        0.159051         -140.38                0               0         0.242768         38.4569                0               0
                        0.962236         126.419                0               0            0.054         84.4405                0               0
75.18                   0.242183         37.6801                0               0         0.161483        -141.305                0               0
                        0.054803         83.2836                0               0         0.963011         125.521                0               0
                        0.161482        -141.304                0               0         0.242161         37.6953                0               0
                         0.96308         125.514                0               0        0.0548477         83.3497                0               0
75.225                   0.24131         36.8286                0               0         0.163715        -142.253                0               0
                       0.0556085         82.0873                0               0         0.963382         124.575                0               0
                        0.163715        -142.252                0               0         0.241285         36.8427                0               0
                        0.963468         124.567                0               0        0.0556533         82.1538                0               0
75.27                   0.240226         35.8836                0               0         0.165726        -143.231                0               0
                       0.0563707         80.7772                0               0         0.963322          123.58                0               0
                        0.165726        -143.231                0               0         0.240198         35.8959                0               0
                         0.96342         123.572                0               0        0.0564156         80.8432                0               0
75.315                  0.238982         34.8464                0               0         0.167495        -144.247                0               0
                       0.0570896         79.3446                0               0         0.962868         122.531                0               0
                        0.167495        -144.247                0               0         0.238953         34.8564                0               0
                        0.962972         122.524                0               0        0.0571346         79.4089                0               0
75.36                   0.237615          33.721                0               0         0.169005        -145.308                0               0
                       0.0577662         77.7818                0               0         0.962078         121.423                0               0
                        0.169005        -145.307                0               0         0.237587         33.7286                0               0
                        0.962181         121.417                0               0        0.0578115         77.8436                0               0
75.405                  0.236151         32.5134                0               0         0.170246        -146.419                0               0
                       0.0584027         76.0829                0               0         0.961024         120.252                0               0
                        0.170245        -146.418                0               0         0.236125         32.5186                0               0
                        0.961119         120.247                0               0        0.0584487         76.1417                0               0
75.45                   0.234603         31.2305                0               0         0.171212        -147.587                0               0
                       0.0590018         74.2442                0               0         0.959793         119.013                0               0
                        0.171211        -147.587                0               0         0.234579         31.2331                0               0
                        0.959872         119.009                0               0        0.0590486         74.2998                0               0
75.495                  0.232973         29.8787                0               0         0.171901        -148.817                0               0
                       0.0595663         72.2643                0               0          0.95848         117.704                0               0
                          0.1719        -148.817                0               0         0.232952         29.8788                0               0
                        0.958536         117.702                0               0        0.0596143         72.3166                0               0
75.54                   0.231255         28.4644                0               0         0.172318        -150.113                0               0
                       0.0600988         70.1443                0               0         0.957185         116.324                0               0
                        0.172317        -150.113                0               0         0.231236          28.462                0               0
                        0.957213         116.323                0               0        0.0601482         70.1933                0               0
75.585                  0.229437         26.9929                0               0         0.172472        -151.478                0               0
                       0.0606011         67.8875                0               0         0.956004         114.873                0               0
                         0.17247        -151.478                0               0         0.229421          26.988                0               0
                        0.956002         114.873                0               0        0.0606521         67.9336                0               0
75.63                   0.227504         25.4689                0               0         0.172374        -152.913                0               0
                       0.0610741         65.4996                0               0         0.955027         113.353                0               0
                        0.172371        -152.913                0               0          0.22749         25.4617                0               0
                        0.954993         113.354                0               0        0.0611265         65.5431                0               0
75.675                  0.225436         23.8965                0               0         0.172038        -154.419                0               0
                        0.061517          62.988                0               0         0.954331         111.767                0               0
                        0.172035        -154.419                0               0         0.225424         23.8869                0               0
                        0.954267         111.768                0               0        0.0615707         63.0295                0               0
75.72                   0.223214         22.2792                0               0         0.171482        -155.994                0               0
                       0.0619279         60.3622                0               0         0.953975         110.119                0               0
                        0.171479        -155.994                0               0         0.223204         22.2671                0               0
                        0.953885         110.119                0               0        0.0619826         60.4021                0               0
75.765                  0.220818         20.6198                0               0         0.170722        -157.636                0               0
                       0.0623033         57.6325                0               0         0.953998         108.413                0               0
                        0.170719        -157.636                0               0         0.220809         20.6052                0               0
                        0.953888         108.413                0               0        0.0623586         57.6713                0               0
75.81                   0.218229         18.9211                0               0         0.169778        -159.342                0               0
                       0.0626385         54.8105                0               0          0.95442         106.654                0               0
                        0.169775        -159.342                0               0         0.218221         18.9039                0               0
                        0.954296         106.654                0               0        0.0626941         54.8486                0               0
75.855                  0.215428         17.1855                0               0         0.168666        -161.106                0               0
                        0.062928         51.9082                0               0         0.955237         104.849                0               0
                        0.168663        -161.106                0               0         0.215421         17.1656                0               0
                        0.955107         104.848                0               0        0.0629835          51.946                0               0
75.9                    0.212397         15.4152                0               0         0.167404        -162.925                0               0
                       0.0631657         48.9382                0               0         0.956427         103.002                0               0
                        0.167401        -162.925                0               0          0.21239         15.3924                0               0
                        0.956299         103.001                0               0        0.0632208         48.9759                0               0
75.945                   0.20912         13.6125                0               0         0.166009        -164.792                0               0
                       0.0633454         45.9127                0               0         0.957949         101.119                0               0
                        0.166006        -164.792                0               0         0.209113         13.5867                0               0
                        0.957831         101.118                0               0        0.0633997         45.9504                0               0
75.99                   0.205584         11.7798                0               0         0.164496        -166.703                0               0
                       0.0634612         42.8439                0               0         0.959746         99.2045                0               0
                        0.164493        -166.703                0               0         0.205577         11.7506                0               0
                        0.959647         99.2032                0               0        0.0635147         42.8817                0               0
76.035                  0.201777         9.91921                0               0          0.16288        -168.652                0               0
                       0.0635082         39.7432                0               0         0.961748         97.2627                0               0
                        0.162878        -168.652                0               0          0.20177          9.8866                0               0
                        0.961675         97.2616                0               0        0.0635607          39.781                0               0
76.08                   0.197691         8.03336                0               0         0.161174        -170.633                0               0
                       0.0634822         36.6213                0               0         0.963872         95.2975                0               0
                        0.161172        -170.633                0               0         0.197684         7.99697                0               0
                        0.963833         95.2967                0               0        0.0635338          36.659                0               0
76.125                   0.19332         6.12476                0               0         0.159392        -172.641                0               0
                       0.0633807         33.4878                0               0         0.966023         93.3126                0               0
                         0.15939        -172.641                0               0         0.193313         6.08427                0               0
                        0.966025         93.3122                0               0        0.0634314         33.5252                0               0
76.17                   0.188664         4.19612                0               0         0.157543        -174.673                0               0
                       0.0632022          30.351                0               0         0.968093         91.3111                0               0
                        0.157541        -174.673                0               0         0.188657         4.15118                0               0
                         0.96814          91.311                0               0        0.0632523         30.3878                0               0
76.215                  0.183725         2.25035                0               0          0.15564        -176.723                0               0
                       0.0629471         27.2177                0               0         0.969953         89.2966                0               0
                        0.155638        -176.723                0               0         0.183719         2.20057                0               0
                        0.970045         89.2966                0               0        0.0629966         27.2536                0               0
76.26                    0.17851        0.290601                0               0          0.15369         -178.79                0               0
                       0.0626167         24.0931                0               0         0.971445         87.2741                0               0
                        0.153689         -178.79                0               0         0.178505        0.235534                0               0
                         0.97157         87.2735                0               0        0.0626658         24.1277                0               0
76.305                  0.173033        -1.67962                0               0         0.151704         179.129                0               0
                       0.0622134         20.9804                0               0         0.972366         85.2534                0               0
                        0.151703         179.129                0               0         0.173029        -1.74046                0               0
                        0.972484         85.2515                0               0        0.0622624         21.0133                0               0
76.35                   0.167309        -3.65624                0               0          0.14969         177.035                0               0
                       0.0617405          17.881                0               0         0.972514         83.2576                0               0
                        0.149689         177.035                0               0         0.167306        -3.72336                0               0
                        0.972517         83.2572                0               0        0.0617894          17.912                0               0
76.395                  0.161361        -5.63433                0               0         0.147656          174.93                0               0
                       0.0612015         14.7946                0               0         0.972103         81.3397                0               0
                        0.147655          174.93                0               0          0.16136         -5.7083                0               0
                        0.971918         81.3597                0               0        0.0612505         14.8234                0               0
76.44                   0.155214        -7.60777                0               0          0.14561         172.813                0               0
                       0.0606002         11.7196                0               0         0.973107         79.5318                0               0
