! TOUCHSTONE file generated by CST MICROWAVE STUDIO
! Date and time: Mon Jun 21 17:07:28 2021
! Project name: HIPS_d_sweep.cst
! Parameters = {a=0.735; b=0.393; d=24.2915; fmax=120; fmin=75; phi=0; theta=0}
! Header version: 2018
! Port assignment regex: !\s*Touchstone port\s*([0-9]+)\s*=\s*(CST MWS port|CST DS port)\s*([0-9]+|Zmin|Zmax)\s*\(\"(.*)\"\)(\s*mode\s*([0-9]+))?.*
! Touchstone port assignment:
! Touchstone port 1 = CST MWS port Zmin ("") mode 1
! Touchstone port 2 = CST MWS port Zmin ("") mode 2
! Touchstone port 3 = CST MWS port Zmax ("") mode 1
! Touchstone port 4 = CST MWS port Zmax ("") mode 2
! S-Parameters are not renormalized. Unphysical impedance of 0 will be written to the file.
# GHz S MA R 0
75                      0.180412         87.3833                0               0        0.0166267         76.1943                0               0
                       0.0180288         78.3406                0               0         0.983295          177.45                0               0
                       0.0166265         76.1906                0               0         0.180356         87.3111                0               0
                        0.983285         177.445                0               0         0.018071         77.4685                0               0
75.045                  0.181961         86.7483                0               0        0.0128203         72.1555                0               0
                       0.0174756         79.9247                0               0         0.983184         176.744                0               0
                       0.0128209         72.1511                0               0         0.181906          86.677                0               0
                        0.983173         176.739                0               0        0.0175072          79.018                0               0
75.09                   0.183744         85.9767                0               0       0.00936359         65.9486                0               0
                       0.0170829          81.186                0               0         0.982907         175.949                0               0
                      0.00936434          65.943                0               0         0.183691         85.9069                0               0
                        0.982897         175.944                0               0        0.0171055         80.2507                0               0
75.135                  0.185778         85.0884                0               0       0.00638969         55.1814                0               0
                       0.0168452          82.146                0               0         0.982506         175.063                0               0
                      0.00639031         55.1733                0               0         0.185726         85.0202                0               0
                        0.982495         175.057                0               0        0.0168602         81.1901                0               0
75.18                    0.18806         84.0991                0               0       0.00415931          34.095                0               0
                       0.0167555         82.8163                0               0         0.982016         174.086                0               0
                       0.0041599          34.082                0               0         0.188009         84.0329                0               0
                        0.982005         174.081                0               0        0.0167636         81.8484                0               0
75.225                   0.19058         83.0212                0               0       0.00322795        -2.93276                0               0
                       0.0168057         83.2003                0               0         0.981467         173.021                0               0
                      0.00322895         -2.9466                0               0          0.19053          82.957                0               0
                        0.981457         173.016                0               0        0.0168076         82.2292                0               0
75.27                   0.193318         81.8631                0               0       0.00374492        -36.6168                0               0
                       0.0169872         83.2957                0               0         0.980884         171.868                0               0
                      0.00374628        -36.6212                0               0         0.193269         81.8009                0               0
                        0.980874         171.863                0               0        0.0169836         82.3298                0               0
75.315                  0.196252         80.6304                0               0       0.00478826        -54.0779                0               0
                        0.017291         83.0977                0               0         0.980285         170.628                0               0
                      0.00478967        -54.0764                0               0         0.196204         80.5703                0               0
                        0.980275         170.623                0               0        0.0172824         82.1445                0               0
75.36                   0.199357         79.3263                0               0         0.005759         -62.592                0               0
                       0.0177074         82.6012                0               0         0.979681         169.305                0               0
                      0.00576023        -62.5874                0               0          0.19931         79.2683                0               0
                        0.979671           169.3                0               0        0.0176946         81.6672                0               0
75.405                  0.202606         77.9523                0               0       0.00648467        -66.8749                0               0
                       0.0182258         81.8037                0               0         0.979079         167.901                0               0
                      0.00648559        -66.8681                0               0          0.20256         77.8964                0               0
                        0.979069         167.896                0               0        0.0182097         80.8937                0               0
75.45                    0.20597         76.5087                0               0       0.00693303        -68.7723                0               0
                       0.0188349         80.7061                0               0         0.978479         166.419                0               0
                      0.00693358        -68.7635                0               0         0.205926          76.455                0               0
                        0.978469         166.414                0               0        0.0188164         79.8236                0               0
75.495                   0.20942         74.9952                0               0       0.00711922        -68.9826                0               0
                       0.0195223         79.3142                0               0         0.977879         164.863                0               0
                      0.00711938        -68.9717                0               0         0.209378         74.9436                0               0
                        0.977868         164.858                0               0        0.0195024         78.4612                0               0
75.54                   0.212923         73.4108                0               0       0.00707992        -67.7051                0               0
                       0.0202743         77.6387                0               0         0.977271         163.237                0               0
                      0.00707976        -67.6918                0               0         0.212883         73.3614                0               0
                         0.97726         163.232                0               0        0.0202542          76.816                0               0
75.585                  0.216445          71.755                0               0       0.00686644        -64.8652                0               0
                       0.0210768         75.6954                0               0         0.976646         161.544                0               0
                       0.0068661        -64.8493                0               0         0.216407         71.7079                0               0
                        0.976636         161.539                0               0        0.0210576         74.9026                0               0
75.63                   0.219952         70.0275                0               0       0.00654502        -60.2077                0               0
                       0.0219149         73.5044                0               0         0.975995         159.789                0               0
                      0.00654468        -60.1891                0               0         0.219915         69.9826                0               0
                        0.975985         159.784                0               0        0.0218975         72.7404                0               0
75.675                  0.223403         68.2287                0               0       0.00620082        -53.3909                0               0
                       0.0227734         71.0898                0               0         0.975307         157.976                0               0
                      0.00620069        -53.3701                0               0         0.223368         68.1861                0               0
                        0.975297         157.971                0               0         0.022759         70.3528                0               0
75.72                   0.226761         66.3599                0               0       0.00594121        -44.2046                0               0
                       0.0236378         68.4781                0               0         0.974574          156.11                0               0
                      0.00594147        -44.1832                0               0         0.226726         66.3197                0               0
                        0.974564         156.105                0               0        0.0236272          67.766                0               0
75.765                  0.229983         64.4238                0               0       0.00588804        -32.9806                0               0
                       0.0244944         65.6976                0               0          0.97379         154.196                0               0
                      0.00588879        -32.9617                0               0          0.22995         64.3859                0               0
                        0.973779         154.191                0               0        0.0244882         65.0082                0               0
75.81                   0.233031         62.4242                0               0       0.00614691        -20.9133                0               0
                       0.0253309          62.777                0               0         0.972951         152.238                0               0
                      0.00614808           -20.9                0               0         0.232998         62.3889                0               0
                        0.972941         152.233                0               0        0.0253297         62.1081                0               0
75.855                  0.235864         60.3668                0               0       0.00676622        -9.65468                0               0
                       0.0261372         59.7442                0               0          0.97206          150.24                0               0
                      0.00676759        -9.64853                0               0         0.235831          60.334                0               0
                        0.972051         150.235                0               0        0.0261412         59.0937                0               0
75.9                    0.238447         58.2586                0               0        0.0077277       -0.370444                0               0
                       0.0269051         56.6254                0               0         0.971125         148.206                0               0
                      0.00772902       -0.370555                0               0         0.238415         58.2284                0               0
                        0.971116         148.201                0               0        0.0269146         55.9915                0               0
75.945                  0.240752         56.1082                0               0       0.00897693         6.65023                0               0
                       0.0276289         53.4441                0               0          0.97016         146.141                0               0
                      0.00897801         6.64561                0               0         0.240719         56.0806                0               0
                        0.970152         146.136                0               0         0.027644         52.8253                0               0
75.99                   0.242754         53.9251                0               0        0.0104569         11.6721                0               0
                       0.0283049         50.2206                0               0         0.969186         144.049                0               0
                       0.0104577         11.6645                0               0         0.242722         53.9002                0               0
                        0.969178         144.044                0               0        0.0283255         49.6157                0               0
76.035                  0.244443         51.7195                0               0        0.0121232         15.1174                0               0
                       0.0289313         46.9717                0               0          0.96823         141.932                0               0
                       0.0121235         15.1081                0               0         0.244412         51.6974                0               0
                        0.968222         141.926                0               0        0.0289574         46.3797                0               0
76.08                   0.245815         49.5018                0               0        0.0139454          17.374                0               0
                       0.0295077         43.7106                0               0         0.967326         139.793                0               0
                       0.0139455         17.3638                0               0         0.245785         49.4824                0               0
                        0.967319         139.788                0               0        0.0295391         43.1308                0               0
76.125                  0.246879          47.281                0               0         0.015905         18.7478                0               0
                       0.0300344         40.4472                0               0         0.966516         137.636                0               0
                       0.0159049         18.7372                0               0          0.24685         47.2642                0               0
                         0.96651         137.631                0               0        0.0300711          39.879                0               0
76.17                    0.24765         45.0646                0               0        0.0179917         19.4696                0               0
                       0.0305122         37.1881                0               0         0.965845         135.463                0               0
                       0.0179916         19.4592                0               0         0.247623         45.0503                0               0
                        0.965839         135.458                0               0        0.0305541         36.6311                0               0
76.215                  0.248149         42.8576                0               0        0.0202003         19.7152                0               0
                       0.0309415         33.9374                0               0         0.965359         133.277                0               0
                       0.0202002         19.7053                0               0         0.248123         42.8456                0               0
                        0.965354         133.271                0               0        0.0309886         33.3912                0               0
76.26                   0.248394         40.6619                0               0         0.022527         19.6224                0               0
                       0.0313221         30.6972                0               0         0.965107         131.079                0               0
                       0.0225271         19.6134                0               0          0.24837         40.6522                0               0
                        0.965102         131.074                0               0        0.0313744         30.1613                0               0
76.305                  0.248399         38.4768                0               0        0.0249653         19.3023                0               0
                       0.0316527         27.4679                0               0         0.965129         128.874                0               0
                       0.0249658         19.2946                0               0         0.248377         38.4692                0               0
                        0.965124         128.869                0               0          0.03171         26.9419                0               0
76.35                   0.248166         36.2991                0               0        0.0275002         18.8436                0               0
                       0.0319301          24.249                0               0         0.965452         126.664                0               0
                       0.0275011         18.8376                0               0         0.248145         36.2936                0               0
                        0.965447         126.659                0               0        0.0319926         23.7322                0               0
76.395                  0.247682         34.1248                0               0         0.030102           18.31                0               0
                       0.0321497         21.0396                0               0         0.966082         124.454                0               0
                       0.0301032         18.3057                0               0         0.247662         34.1212                0               0
                        0.966078         124.449                0               0        0.0322173         20.5314                0               0
76.44                    0.24692         31.9498                0               0        0.0327241         17.7312                0               0
                       0.0323048         17.8389                0               0         0.966996         122.248                0               0
