! TOUCHSTONE file generated by CST MICROWAVE STUDIO
! Date and time: Mon Jun 21 17:06:22 2021
! Project name: HIPS_d_sweep.cst
! Parameters = {a=0.735; b=0.393; d=16.5528; fmax=120; fmin=75; phi=0; theta=0}
! Header version: 2018
! Port assignment regex: !\s*Touchstone port\s*([0-9]+)\s*=\s*(CST MWS port|CST DS port)\s*([0-9]+|Zmin|Zmax)\s*\(\"(.*)\"\)(\s*mode\s*([0-9]+))?.*
! Touchstone port assignment:
! Touchstone port 1 = CST MWS port Zmin ("") mode 1
! Touchstone port 2 = CST MWS port Zmin ("") mode 2
! Touchstone port 3 = CST MWS port Zmax ("") mode 1
! Touchstone port 4 = CST MWS port Zmax ("") mode 2
! S-Parameters are not renormalized. Unphysical impedance of 0 will be written to the file.
# GHz S MA R 0
75                      0.124815         73.9109                0               0         0.467847         89.3113                0               0
                       0.0923302        -133.744                0               0         0.870066        0.749973                0               0
                        0.467848         89.3112                0               0         0.124861         73.8408                0               0
                        0.870066        0.750785                0               0        0.0922659        -133.779                0               0
75.045                  0.125597         73.6938                0               0          0.46659         88.5629                0               0
                       0.0928894        -135.155                0               0          0.87178        0.085504                0               0
                        0.466578         88.5621                0               0         0.125642         73.6245                0               0
                        0.871779       0.0861794                0               0        0.0928242        -135.188                0               0
75.09                   0.126445         73.4315                0               0         0.466112         87.7974                0               0
                       0.0933326        -136.593                0               0         0.872998       -0.583683                0               0
                        0.466092         87.7961                0               0         0.126489         73.3632                0               0
                        0.872996       -0.583117                0               0        0.0932667        -136.624                0               0
75.135                  0.127373         73.1238                0               0         0.466307         87.0136                0               0
                       0.0936497         -138.07                0               0         0.873669        -1.26501                0               0
                        0.466282          87.012                0               0         0.127416         73.0565                0               0
                        0.873667        -1.26452                0               0        0.0935832        -138.101                0               0
75.18                   0.128395         72.7715                0               0         0.467073         86.2131                0               0
                       0.0938343        -139.602                0               0         0.873764        -1.96719                0               0
                        0.467045         86.2112                0               0         0.128437         72.7053                0               0
                        0.873762        -1.96675                0               0        0.0937676        -139.633                0               0
75.225                  0.129523         72.3765                0               0         0.468302         85.3994                0               0
                        0.093885        -141.206                0               0         0.873286        -2.69985                0               0
                        0.468274         85.3974                0               0         0.129564         72.3115                0               0
                        0.873284        -2.69942                0               0        0.0938186        -141.237                0               0
75.27                    0.13077         71.9418                0               0         0.469877          84.578                0               0
                       0.0938065        -142.899                0               0         0.872274        -3.47289                0               0
                        0.469852          84.576                0               0          0.13081         71.8781                0               0
                        0.872272        -3.47243                0               0        0.0937408         -142.93                0               0
75.315                  0.132145         71.4715                0               0          0.47166         83.7549                0               0
                       0.0936096        -144.698                0               0         0.870804        -4.29568                0               0
                        0.471639          83.753                0               0         0.132184         71.4091                0               0
                        0.870803        -4.29517                0               0        0.0935451        -144.729                0               0
75.36                   0.133655         70.9697                0               0         0.473482         82.9353                0               0
                       0.0933115        -146.618                0               0         0.868989        -5.17621                0               0
                        0.473466         82.9336                0               0         0.133693         70.9089                0               0
                        0.868988        -5.17564                0               0        0.0932487         -146.65                0               0
75.405                  0.135304          70.441                0               0         0.475141         82.1207                0               0
                       0.0929348        -148.673                0               0         0.866965        -6.12038                0               0
                        0.475131         82.1195                0               0         0.135341         70.3818                0               0
                        0.866964        -6.11972                0               0        0.0928742        -148.706                0               0
75.45                   0.137093         69.8897                0               0         0.476416         81.3059                0               0
                       0.0925065        -150.873                0               0         0.864884        -7.13143                0               0
                        0.476411         81.3052                0               0         0.137129         69.8321                0               0
                        0.864882        -7.13069                0               0        0.0924483        -150.906                0               0
75.495                   0.13902         69.3194                0               0         0.477094         80.4759                0               0
                       0.0920557        -153.224                0               0         0.862893        -8.20981                0               0
                        0.477093         80.4759                0               0         0.139054         69.2635                0               0
                        0.862891        -8.20899                0               0            0.092        -153.258                0               0
75.54                   0.141078         68.7328                0               0         0.477029          79.606                0               0
                       0.0916121        -155.728                0               0         0.861127        -9.35338                0               0
                         0.47703         79.6067                0               0         0.141112         68.6787                0               0
                        0.861125         -9.3525                0               0         0.091559        -155.762                0               0
75.585                  0.143261         68.1319                0               0         0.476191         78.6658                0               0
                       0.0912039        -158.382                0               0         0.859696        -10.5579                0               0
                        0.476191         78.6671                0               0         0.143293         68.0795                0               0
                        0.859694         -10.557                0               0        0.0911533        -158.415                0               0
75.63                   0.145559         67.5172                0               0         0.474688         77.6278                0               0
                       0.0908559        -161.179                0               0         0.858677        -11.8176                0               0
                        0.474686         77.6294                0               0          0.14559         67.4667                0               0
                        0.858674        -11.8167                0               0        0.0908077        -161.212                0               0
75.675                   0.14796         66.8886                0               0         0.472735         76.4759                0               0
                       0.0905886        -164.108                0               0         0.858115        -13.1262                0               0
                         0.47273         76.4774                0               0         0.147989           66.84                0               0
                        0.858112        -13.1252                0               0        0.0905425        -164.141                0               0
75.72                   0.150453          66.245                0               0         0.470576         75.2093                0               0
                       0.0904172        -167.157                0               0         0.858025         -14.477                0               0
                         0.47057         75.2106                0               0         0.150481         66.1983                0               0
                        0.858022         -14.476                0               0        0.0903729        -167.189                0               0
75.765                  0.153024         65.5845                0               0         0.468417         73.8411                0               0
                       0.0903511         -170.31                0               0         0.858394        -15.8639                0               0
                        0.468411         73.8421                0               0          0.15305         65.5397                0               0
                        0.858392        -15.8629                0               0        0.0903083        -170.342                0               0
75.81                    0.15566         64.9049                0               0         0.466386         72.3918                0               0
                       0.0903945        -173.553                0               0         0.859191        -17.2813                0               0
                         0.46638         72.3925                0               0         0.155684          64.862                0               0
                        0.859188        -17.2804                0               0        0.0903529        -173.583                0               0
75.855                  0.158346         64.2035                0               0         0.464534         70.8836                0               0
                       0.0905465        -176.868                0               0         0.860365        -18.7246                0               0
                        0.464529         70.8841                0               0         0.158369         64.1625                0               0
                        0.860363        -18.7237                0               0        0.0905058        -176.898                0               0
75.9                    0.161069         63.4776                0               0         0.462854         69.3366                0               0
                       0.0908019         179.758                0               0         0.861859        -20.1898                0               0
                        0.462851         69.3369                0               0         0.161091         63.4386                0               0
                        0.861857        -20.1889                0               0        0.0907619         179.729                0               0
75.945                  0.163814         62.7245                0               0         0.461309         67.7668                0               0
                       0.0911519          176.34                0               0         0.863606        -21.6739                0               0
                        0.461307         67.7669                0               0         0.163834         62.6874                0               0
                        0.863605         -21.673                0               0        0.0911125         176.312                0               0
75.99                   0.166565         61.9418                0               0         0.459849         66.1863                0               0
                       0.0915854          172.89                0               0         0.865538        -23.1742                0               0
                        0.459848         66.1863                0               0         0.166583         61.9066                0               0
                        0.865537        -23.1734                0               0        0.0915462         172.862                0               0
76.035                  0.169306         61.1271                0               0         0.458422         64.6039                0               0
                       0.0920888         169.419                0               0         0.867586        -24.6889                0               0
                        0.458422         64.6039                0               0         0.169324         61.0939                0               0
                        0.867585        -24.6881                0               0        0.0920499         169.393                0               0
76.08                   0.172022         60.2789                0               0         0.456985          63.026                0               0
                       0.0926477         165.937                0               0         0.869682        -26.2162                0               0
                        0.456985         63.0259                0               0         0.172038         60.2476                0               0
                        0.869681        -26.2154                0               0         0.092609         165.912                0               0
76.125                  0.174695         59.3957                0               0         0.455502         61.4572                0               0
                       0.0932469         162.453                0               0         0.871759        -27.7547                0               0
                        0.455503          61.457                0               0          0.17471         59.3663                0               0
                        0.871759        -27.7539                0               0        0.0932084         162.428                0               0
76.17                   0.177308         58.4768                0               0         0.453946         59.9007                0               0
                       0.0938713         158.973                0               0         0.873757         -29.303                0               0
                        0.453947         59.9006                0               0         0.177322         58.4494                0               0
                        0.873757        -29.3023                0               0        0.0938328         158.949                0               0
76.215                  0.179844         57.5221                0               0           0.4523         58.3593                0               0
                       0.0945058         155.504                0               0         0.875617        -30.8598                0               0
                        0.452301         58.3592                0               0         0.179856         57.4966                0               0
                        0.875617        -30.8591                0               0        0.0944673         155.482                0               0
76.26                   0.182283         56.5321                0               0         0.450551          56.835                0               0
                       0.0951363         152.052                0               0         0.877285        -32.4236                0               0
                        0.450552         56.8348                0               0         0.182295         56.5085                0               0
                        0.877285        -32.4229                0               0        0.0950979         152.031                0               0
76.305                   0.18461         55.5079                0               0         0.448696         55.3293                0               0
                       0.0957496         148.621                0               0         0.878715        -33.9929                0               0
                        0.448697         55.3291                0               0         0.184621         55.4861                0               0
                        0.878715        -33.9922                0               0        0.0957112         148.601                0               0
76.35                   0.186806         54.4512                0               0         0.446734         53.8435                0               0
                       0.0963337         145.217                0               0         0.879865         -35.566                0               0
                        0.446735         53.8434                0               0         0.186816         54.4313                0               0
                        0.879865        -35.5653                0               0        0.0962953         145.198                0               0
76.395                  0.188854         53.3642                0               0         0.444668         52.3788                0               0
                       0.0968781         141.844                0               0           0.8807         -37.141                0               0
                        0.444669         52.3787                0               0         0.188865         53.3462                0               0
                        0.880699        -37.1403                0               0        0.0968397         141.826                0               0
76.44                    0.19074           52.25                0               0         0.442505          50.936                0               0
                       0.0973737         138.505                0               0          0.88119        -38.7159                0               0
