! TOUCHSTONE file generated by CST MICROWAVE STUDIO
! Date and time: Mon Jun 21 17:07:41 2021
! Project name: HIPS_d_sweep.cst
! Parameters = {a=0.735; b=0.393; d=25.6482; fmax=120; fmin=75; phi=0; theta=0}
! Header version: 2018
! Port assignment regex: !\s*Touchstone port\s*([0-9]+)\s*=\s*(CST MWS port|CST DS port)\s*([0-9]+|Zmin|Zmax)\s*\(\"(.*)\"\)(\s*mode\s*([0-9]+))?.*
! Touchstone port assignment:
! Touchstone port 1 = CST MWS port Zmin ("") mode 1
! Touchstone port 2 = CST MWS port Zmin ("") mode 2
! Touchstone port 3 = CST MWS port Zmax ("") mode 1
! Touchstone port 4 = CST MWS port Zmax ("") mode 2
! S-Parameters are not renormalized. Unphysical impedance of 0 will be written to the file.
# GHz S MA R 0
75                      0.104014         107.888                0               0         0.105019        -72.0578                0               0
                       0.0288534          86.912                0               0         0.988601         19.4643                0               0
                        0.105018         -72.058                0               0         0.103968         107.882                0               0
                        0.988593         19.4656                0               0        0.0288382         86.9809                0               0
75.045                  0.106726         107.062                0               0        0.0994061        -73.4327                0               0
                       0.0281201         85.5466                0               0          0.96129         19.8105                0               0
                       0.0994077        -73.4302                0               0         0.106678         107.057                0               0
                        0.961336         19.8082                0               0        0.0281048         85.6173                0               0
75.09                   0.109688           106.2                0               0        0.0948779        -74.6215                0               0
                       0.0275178         84.2206                0               0          0.96642         19.2151                0               0
                       0.0948807         -74.618                0               0         0.109639         106.196                0               0
                        0.966428         19.2136                0               0        0.0275024         84.2928                0               0
75.135                   0.11292         105.293                0               0        0.0912426        -75.7197                0               0
                       0.0270539         82.9243                0               0         0.971895         18.0979                0               0
                       0.0912459        -75.7161                0               0          0.11287          105.29                0               0
                        0.971892         18.0975                0               0        0.0270385         82.9975                0               0
75.18                   0.116438         104.332                0               0         0.088344        -76.7978                0               0
                       0.0267343         81.6403                0               0         0.976231         16.7933                0               0
                        0.088347        -76.7946                0               0         0.116388         104.329                0               0
                        0.976224         16.7935                0               0        0.0267188         81.7142                0               0
75.225                  0.120255         103.306                0               0        0.0860566        -77.9067                0               0
                       0.0265624          80.345                0               0         0.979634         15.3921                0               0
                       0.0860592        -77.9042                0               0         0.120204         103.304                0               0
                        0.979626         15.3927                0               0        0.0265469         80.4193                0               0
75.27                   0.124376         102.204                0               0        0.0842819        -79.0828                0               0
                       0.0265393         79.0101                0               0         0.982286         13.9252                0               0
                       0.0842838        -79.0812                0               0         0.124326         102.203                0               0
                        0.982278         13.9261                0               0        0.0265237         79.0845                0               0
75.315                  0.128804         101.018                0               0        0.0829428        -80.3512                0               0
                       0.0266626         77.6058                0               0         0.984297         12.4045                0               0
                       0.0829439        -80.3503                0               0         0.128753         101.016                0               0
                        0.984288         12.4056                0               0        0.0266469         77.6798                0               0
75.36                   0.133528         99.7363                0               0        0.0819799         -81.728                0               0
                       0.0269269         76.1033                0               0         0.985733         10.8347                0               0
                       0.0819803        -81.7278                0               0         0.133478         99.7351                0               0
                        0.985724          10.836                0               0        0.0269111         76.1768                0               0
75.405                  0.138532          98.354                0               0        0.0813478        -83.2225                0               0
                       0.0273241         74.4784                0               0          0.98664         9.21719                0               0
                       0.0813477        -83.2228                0               0         0.138481         98.3531                0               0
                        0.986631         9.21854                0               0        0.0273081         74.5511                0               0
75.45                   0.143789         96.8664                0               0        0.0810126        -84.8382                0               0
                       0.0278433          72.713                0               0         0.987056         7.55171                0               0
                       0.0810121        -84.8389                0               0         0.143738         96.8658                0               0
                        0.987047         7.55312                0               0        0.0278271         72.7849                0               0
75.495                  0.149265         95.2726                0               0        0.0809491        -86.5742                0               0
                        0.028472         70.7966                0               0         0.987019         5.83728                0               0
                       0.0809483        -86.5751                0               0         0.149214         95.2723                0               0
                         0.98701         5.83874                0               0        0.0284555         70.8675                0               0
75.54                   0.154918         93.5749                0               0         0.081139        -88.4258                0               0
                       0.0291966         68.7257                0               0          0.98657         4.07262                0               0
                        0.081138        -88.4268                0               0         0.154866         93.5749                0               0
                         0.98656         4.07412                0               0        0.0291797         68.7955                0               0
75.585                  0.160702         91.7784                0               0        0.0815688         -90.385                0               0
                       0.0300026         66.5035                0               0         0.985754         2.25646                0               0
                       0.0815678         -90.386                0               0          0.16065         91.7789                0               0
                        0.985744         2.25798                0               0        0.0299854         66.5722                0               0
75.63                   0.166569         89.8911                0               0        0.0822286        -92.4412                0               0
                        0.030876         64.1377                0               0         0.984623         0.38781                0               0
                       0.0822276        -92.4421                0               0         0.166517         89.8921                0               0
                        0.984613        0.389348                0               0        0.0308584         64.2053                0               0
75.675                  0.172471         87.9223                0               0        0.0831105        -94.5819                0               0
                       0.0318029         61.6396                0               0         0.983237        -1.53387                0               0
                       0.0831095        -94.5827                0               0         0.172419         87.9239                0               0
                        0.983227        -1.53231                0               0        0.0317848         61.7061                0               0
75.72                   0.178362         85.8828                0               0        0.0842071        -96.7931                0               0
                       0.0327701         59.0223                0               0         0.981659        -3.50844                0               0
                       0.0842062        -96.7937                0               0         0.178309         85.8848                0               0
                        0.981648        -3.50688                0               0        0.0327515         59.0877                0               0
75.765                  0.184199          83.783                0               0        0.0855107        -99.0602                0               0
                       0.0337653         56.2991                0               0         0.979953        -5.53502                0               0
                         0.08551        -99.0606                0               0         0.184146         83.7855                0               0
                        0.979942        -5.53344                0               0        0.0337461         56.3636                0               0
75.81                   0.189945         81.6333                0               0        0.0870125        -101.369                0               0
                       0.0347769         53.4831                0               0         0.978186        -7.61185                0               0
                        0.087012        -101.369                0               0         0.189891         81.6363                0               0
                        0.978174        -7.61025                0               0        0.0347571         53.5468                0               0
75.855                  0.195564         79.4428                0               0        0.0887016        -103.704                0               0
                       0.0357943         50.5863                0               0         0.976418        -9.73626                0               0
                       0.0887012        -103.704                0               0         0.195511         79.4463                0               0
                        0.976406        -9.73464                0               0        0.0357737         50.6492                0               0
75.9                    0.201028         77.2196                0               0        0.0905649        -106.055                0               0
                       0.0368073         47.6191                0               0         0.974706        -11.9047                0               0
                       0.0905645        -106.054                0               0         0.200974         77.2234                0               0
                        0.974694        -11.9031                0               0        0.0367858         47.6813                0               0
75.945                  0.206308         74.9702                0               0        0.0925866        -108.409                0               0
                       0.0378063         44.5902                0               0         0.973094        -14.1129                0               0
                       0.0925863        -108.408                0               0         0.206254         74.9744                0               0
                        0.973082        -14.1113                0               0         0.037784         44.6519                0               0
75.99                    0.21138         72.6998                0               0         0.094749        -110.758                0               0
                       0.0387824         41.5068                0               0         0.971617        -16.3559                0               0
                       0.0947488        -110.757                0               0         0.211326         72.7044                0               0
                        0.971604        -16.3542                0               0        0.0387591         41.5682                0               0
76.035                  0.216219         70.4126                0               0        0.0970322        -113.096                0               0
                       0.0397266         38.3746                0               0         0.970294        -18.6283                0               0
                        0.097032        -113.095                0               0         0.216165         70.4175                0               0
                        0.970281        -18.6266                0               0        0.0397022         38.4356                0               0
76.08                   0.220802         68.1118                0               0        0.0994148        -115.418                0               0
                       0.0406303         35.1977                0               0          0.96913        -20.9244                0               0
                       0.0994146        -115.418                0               0         0.220748         68.1169                0               0
                        0.969117        -20.9226                0               0        0.0406048         35.2586                0               0
76.125                  0.225104         65.7998                0               0         0.101875        -117.723                0               0
                        0.041485         31.9794                0               0         0.968118        -23.2385                0               0
                        0.101874        -117.723                0               0          0.22505         65.8052                0               0
                        0.968104        -23.2367                0               0        0.0414583         32.0403                0               0
76.17                   0.229102         63.4787                0               0         0.104389        -120.011                0               0
                        0.042282         28.7219                0               0         0.967236         -25.565                0               0
                        0.104389        -120.011                0               0         0.229048         63.4845                0               0
                        0.967222        -25.5632                0               0         0.042254         28.7828                0               0
76.215                  0.232769         61.1506                0               0         0.106936        -122.283                0               0
                        0.043013         25.4269                0               0         0.966453        -27.8987                0               0
                        0.106936        -122.283                0               0         0.232715         61.1566                0               0
                        0.966438        -27.8968                0               0        0.0429835          25.488                0               0
76.26                   0.236082         58.8173                0               0         0.109494        -124.541                0               0
                       0.0436692         22.0956                0               0         0.965728        -30.2346                0               0
                        0.109494        -124.541                0               0         0.236028         58.8237                0               0
                        0.965713        -30.2327                0               0        0.0436382         22.1571                0               0
76.305                  0.239014         56.4813                0               0         0.112042         -126.79                0               0
                       0.0442422         18.7291                0               0         0.965014        -32.5686                0               0
                        0.112042        -126.789                0               0          0.23896         56.4879                0               0
                        0.964999        -32.5667                0               0        0.0442096          18.791                0               0
76.35                   0.241543          54.145                0               0         0.114563        -129.032                0               0
                       0.0447236         15.3286                0               0         0.964264        -34.8968                0               0
                        0.114563        -129.032                0               0         0.241489         54.1519                0               0
                        0.964248        -34.8948                0               0        0.0446893          15.391                0               0
76.395                  0.243646         51.8115                0               0         0.117039        -131.271                0               0
                       0.0451054         11.8953                0               0         0.963425        -37.2159                0               0
                        0.117039        -131.271                0               0         0.243593         51.8188                0               0
                         0.96341        -37.2138                0               0        0.0450693         11.9583                0               0
76.44                   0.245304         49.4845                0               0         0.119455        -133.512                0               0
                         0.04538         8.43098                0               0         0.962451        -39.5232                0               0
