! TOUCHSTONE file generated by CST MICROWAVE STUDIO
! Date and time: Mon Jun 21 17:06:18 2021
! Project name: HIPS_d_sweep.cst
! Parameters = {a=0.735; b=0.393; d=16.1508; fmax=120; fmin=75; phi=0; theta=0}
! Header version: 2018
! Port assignment regex: !\s*Touchstone port\s*([0-9]+)\s*=\s*(CST MWS port|CST DS port)\s*([0-9]+|Zmin|Zmax)\s*\(\"(.*)\"\)(\s*mode\s*([0-9]+))?.*
! Touchstone port assignment:
! Touchstone port 1 = CST MWS port Zmin ("") mode 1
! Touchstone port 2 = CST MWS port Zmin ("") mode 2
! Touchstone port 3 = CST MWS port Zmax ("") mode 1
! Touchstone port 4 = CST MWS port Zmax ("") mode 2
! S-Parameters are not renormalized. Unphysical impedance of 0 will be written to the file.
# GHz S MA R 0
75                     0.0764467         26.2839                0               0          0.50527          138.46                0               0
                        0.120776        -33.9783                0               0         0.851041         47.8524                0               0
                        0.505269          138.46                0               0        0.0764695         26.2688                0               0
                         0.85104         47.8533                0               0         0.120762        -33.9977                0               0
75.045                 0.0779453         25.5062                0               0         0.507822         137.961                0               0
                        0.120899        -35.0689                0               0         0.849852         47.4172                0               0
                        0.507816         137.961                0               0        0.0780009         25.4548                0               0
                        0.849856         47.4179                0               0         0.120884        -35.0879                0               0
75.09                  0.0787433         26.6977                0               0         0.510024         137.387                0               0
                         0.12092        -36.2208                0               0         0.848671         46.8947                0               0
                        0.510016         137.388                0               0        0.0788135         26.6815                0               0
                        0.848678         46.8955                0               0         0.120905        -36.2396                0               0
75.135                  0.078224         27.8579                0               0          0.51191         136.741                0               0
                        0.120838        -37.4403                0               0         0.847565         46.2915                0               0
                          0.5119         136.741                0               0         0.078272         27.8509                0               0
                        0.847572         46.2923                0               0         0.120822        -37.4587                0               0
75.18                  0.0774048         28.8062                0               0         0.513507         136.023                0               0
                        0.120652        -38.7331                0               0         0.846579         45.6134                0               0
                        0.513498         136.023                0               0        0.0774404         28.7977                0               0
                        0.846586         45.6142                0               0         0.120635        -38.7512                0               0
75.225                 0.0765453         29.6876                0               0         0.514841         135.237                0               0
                        0.120361        -40.1046                0               0         0.845742          44.866                0               0
                        0.514832         135.237                0               0        0.0765752         29.6765                0               0
                        0.845749         44.8669                0               0         0.120344        -40.1223                0               0
75.27                  0.0756998         30.5828                0               0         0.515928         134.385                0               0
                        0.119964         -41.559                0               0         0.845071         44.0542                0               0
                        0.515921         134.385                0               0        0.0757271         30.5694                0               0
                        0.845076         44.0551                0               0         0.119947        -41.5762                0               0
75.315                 0.0748823         31.5328                0               0         0.516786         133.471                0               0
                        0.119461         -43.098                0               0         0.844569         43.1824                0               0
                         0.51678         133.471                0               0        0.0749086         31.5177                0               0
                        0.844573         43.1833                0               0         0.119443        -43.1146                0               0
75.36                  0.0740999         32.5608                0               0         0.517426         132.496                0               0
                        0.118849        -44.7177                0               0         0.844235         42.2545                0               0
                        0.517421         132.496                0               0        0.0741259         32.5445                0               0
                        0.844238         42.2554                0               0         0.118831        -44.7335                0               0
75.405                 0.0733597         33.6814                0               0         0.517858         131.464                0               0
                        0.118136        -46.4023                0               0         0.844063         41.2737                0               0
                        0.517854         131.464                0               0        0.0733859          33.664                0               0
                        0.844065         41.2746                0               0          0.11812        -46.4173                0               0
75.45                  0.0726707         34.9042                0               0         0.518087         130.376                0               0
                         0.11739        -48.1237                0               0         0.844041         40.2431                0               0
                        0.518084         130.376                0               0        0.0726973         34.8859                0               0
                        0.844042         40.2439                0               0         0.117375        -48.1385                0               0
75.495                 0.0720441         36.2354                0               0         0.518118         129.237                0               0
                        0.116784        -49.8989                0               0         0.844158         39.1649                0               0
                        0.518116         129.237                0               0        0.0720714         36.2163                0               0
                        0.844158         39.1658                0               0          0.11677        -49.9144                0               0
75.54                  0.0714934         37.6784                0               0         0.517957         128.048                0               0
                        0.116351        -51.8534                0               0         0.844401         38.0413                0               0
                        0.517955         128.047                0               0        0.0715214         37.6584                0               0
                          0.8444         38.0422                0               0         0.116335        -51.8692                0               0
75.585                 0.0710342         39.2335                0               0         0.517606         126.811                0               0
                        0.115847         -54.024                0               0         0.844758         36.8743                0               0
                        0.517605         126.811                0               0        0.0710629         39.2127                0               0
                        0.844758         36.8751                0               0          0.11583        -54.0392                0               0
75.63                  0.0706836         40.8983                0               0         0.517069         125.529                0               0
                        0.115187        -56.3353                0               0         0.845221         35.6654                0               0
                        0.517067         125.529                0               0        0.0707131         40.8765                0               0
                        0.845221         35.6662                0               0         0.115169        -56.3499                0               0
75.675                 0.0704608         42.6666                0               0         0.516349         124.205                0               0
                        0.114422        -58.7453                0               0         0.845782         34.4162                0               0
                        0.516347         124.205                0               0        0.0704911         42.6437                0               0
                        0.845781          34.417                0               0         0.114404        -58.7594                0               0
75.72                  0.0703853         44.5286                0               0         0.515451         122.841                0               0
                          0.1136         -61.245                0               0         0.846434         33.1284                0               0
                         0.51545         122.841                0               0        0.0704165         44.5045                0               0
                        0.846434         33.1292                0               0         0.113581        -61.2585                0               0
75.765                 0.0704776         46.4707                0               0         0.514382         121.439                0               0
                        0.112746        -63.8328                0               0         0.847175         31.8037                0               0
                         0.51438         121.439                0               0        0.0705095         46.4453                0               0
                        0.847175         31.8045                0               0         0.112725        -63.8458                0               0
75.81                  0.0707574         48.4753                0               0         0.513148         120.001                0               0
                        0.111872        -66.5076                0               0         0.848004         30.4439                0               0
                        0.513147         120.001                0               0          0.07079         48.4483                0               0
                        0.848004         30.4447                0               0          0.11185          -66.52                0               0
75.855                 0.0712433         50.5208                0               0          0.51176         118.531                0               0
                        0.110984         -69.267                0               0          0.84892         29.0513                0               0
                        0.511759         118.531                0               0        0.0712766         50.4922                0               0
                         0.84892         29.0521                0               0         0.110962        -69.2787                0               0
75.9                    0.071952         52.5828                0               0         0.510228         117.031                0               0
                        0.110088        -72.1073                0               0         0.849923         27.6283                0               0
                        0.510227         117.031                0               0        0.0719859         52.5525                0               0
                        0.849923         27.6291                0               0         0.110063        -72.1184                0               0
75.945                  0.072897         54.6343                0               0         0.508563         115.503                0               0
                        0.109182        -75.0239                0               0          0.85101         26.1777                0               0
                        0.508563         115.503                0               0        0.0729314         54.6024                0               0
                        0.851011         26.1786                0               0         0.109156        -75.0343                0               0
75.99                  0.0740885         56.6475                0               0         0.506778         113.952                0               0
                        0.108268        -78.0116                0               0         0.852177         24.7027                0               0
                        0.506779         113.952                0               0        0.0741232         56.6138                0               0
                        0.852177         24.7035                0               0          0.10824        -78.0213                0               0
76.035                 0.0755321         58.5944                0               0         0.504886         112.381                0               0
                        0.107344        -81.0644                0               0         0.853414         23.2066                0               0
                        0.504887         112.381                0               0        0.0755671          58.559                0               0
                        0.853414         23.2074                0               0         0.107315        -81.0736                0               0
76.08                   0.077229         60.4486                0               0         0.502899         110.794                0               0
                        0.106408        -84.1764                0               0         0.854705          21.693                0               0
                          0.5029         110.794                0               0        0.0772642         60.4116                0               0
                        0.854705         21.6937                0               0         0.106378        -84.1849                0               0
76.125                 0.0791756         62.1863                0               0         0.500828         109.194                0               0
                         0.10546         -87.341                0               0         0.856031         20.1653                0               0
                        0.500829         109.194                0               0        0.0792108         62.1477                0               0
                        0.856032         20.1661                0               0         0.105428         -87.349                0               0
76.17                  0.0813636         63.7872                0               0         0.498681         107.586                0               0
                        0.104497        -90.5517                0               0         0.857366         18.6272                0               0
                        0.498683         107.586                0               0        0.0813987         63.7471                0               0
                        0.857366          18.628                0               0         0.104462        -90.5592                0               0
76.215                 0.0837805         65.2352                0               0         0.496466         105.975                0               0
                        0.103516         -93.802                0               0         0.858678         17.0819                0               0
                        0.496468         105.975                0               0        0.0838153         65.1938                0               0
                        0.858679         17.0827                0               0         0.103479        -93.8089                0               0
76.26                  0.0864096         66.5186                0               0         0.494187         104.365                0               0
                        0.102517        -97.0851                0               0         0.859935         15.5326                0               0
                        0.494189         104.365                0               0        0.0864441         66.4761                0               0
                        0.859935         15.5334                0               0         0.102478        -97.0916                0               0
76.305                 0.0892313         67.6304                0               0         0.491845         102.759                0               0
                        0.101497        -100.395                0               0         0.861099         13.9819                0               0
                        0.491847          102.76                0               0        0.0892655         67.5868                0               0
                        0.861099         13.9827                0               0         0.101456        -100.401                0               0
76.35                  0.0922231         68.5673                0               0         0.489439         101.164                0               0
                        0.100456        -103.724                0               0         0.862134         12.4323                0               0
                        0.489441         101.164                0               0        0.0922568         68.5228                0               0
                        0.862134         12.4332                0               0         0.100412         -103.73                0               0
76.395                 0.0953606           69.33                0               0         0.486967         99.5807                0               0
                        0.099394        -107.067                0               0         0.863005         10.8859                0               0
                        0.486968         99.5808                0               0        0.0953938         69.2847                0               0
                        0.863005         10.8868                0               0        0.0993478        -107.073                0               0
76.44                   0.098618         69.9223                0               0         0.484425         98.0143                0               0
                       0.0983106        -110.418                0               0         0.863679         9.34436                0               0
