! TOUCHSTONE file generated by CST MICROWAVE STUDIO
! Date and time: Mon Jun 21 17:06:25 2021
! Project name: HIPS_d_sweep.cst
! Parameters = {a=0.735; b=0.393; d=16.804; fmax=120; fmin=75; phi=0; theta=0}
! Header version: 2018
! Port assignment regex: !\s*Touchstone port\s*([0-9]+)\s*=\s*(CST MWS port|CST DS port)\s*([0-9]+|Zmin|Zmax)\s*\(\"(.*)\"\)(\s*mode\s*([0-9]+))?.*
! Touchstone port assignment:
! Touchstone port 1 = CST MWS port Zmin ("") mode 1
! Touchstone port 2 = CST MWS port Zmin ("") mode 2
! Touchstone port 3 = CST MWS port Zmax ("") mode 1
! Touchstone port 4 = CST MWS port Zmax ("") mode 2
! S-Parameters are not renormalized. Unphysical impedance of 0 will be written to the file.
# GHz S MA R 0
75                      0.182611         59.6212                0               0         0.438907         60.8497                0               0
                       0.0921328         157.012                0               0         0.874937        -28.8246                0               0
                        0.438907         60.8498                0               0         0.182697         59.6254                0               0
                        0.874943        -28.8253                0               0        0.0920361         157.021                0               0
75.045                  0.182334         59.2109                0               0         0.441347         60.3566                0               0
                       0.0925831         156.087                0               0         0.873829        -29.3339                0               0
                        0.441347         60.3567                0               0          0.18242          59.215                0               0
                        0.873836        -29.3346                0               0        0.0924872         156.095                0               0
75.09                   0.182188         58.7532                0               0          0.44348         59.8088                0               0
                       0.0929995         155.014                0               0         0.872721        -29.9092                0               0
                        0.443479         59.8089                0               0         0.182274         58.7571                0               0
                        0.872728        -29.9099                0               0        0.0929043         155.022                0               0
75.135                  0.182173         58.2522                0               0         0.445315         59.2048                0               0
                       0.0933941         153.794                0               0          0.87165          -30.55                0               0
                        0.445315         59.2049                0               0         0.182258         58.2559                0               0
                        0.871657        -30.5506                0               0        0.0932998         153.801                0               0
75.18                   0.182285         57.7115                0               0         0.446867         58.5434                0               0
                       0.0937786         152.427                0               0         0.870649        -31.2552                0               0
                        0.446866         58.5435                0               0          0.18237         57.7151                0               0
                        0.870656        -31.2559                0               0        0.0936852         152.433                0               0
75.225                  0.182519         57.1341                0               0         0.448149         57.8241                0               0
                       0.0941631         150.917                0               0         0.869743        -32.0237                0               0
                        0.448148         57.8242                0               0         0.182604         57.1375                0               0
                         0.86975        -32.0244                0               0        0.0940707         150.922                0               0
75.27                    0.18287          56.522                0               0         0.449175         57.0469                0               0
                       0.0945567         149.266                0               0         0.868954        -32.8541                0               0
                        0.449174         57.0469                0               0         0.182955         56.5252                0               0
                         0.86896        -32.8549                0               0        0.0944654          149.27                0               0
75.315                  0.183329         55.8768                0               0         0.449961         56.2122                0               0
                       0.0949669          147.48                0               0         0.868296        -33.7448                0               0
                         0.44996         56.2122                0               0         0.183413         55.8798                0               0
                        0.868303        -33.7456                0               0        0.0948769         147.483                0               0
75.36                   0.183886         55.1996                0               0         0.450521         55.3211                0               0
                       0.0953997         145.564                0               0          0.86778         -34.694                0               0
                        0.450519         55.3212                0               0          0.18397         55.2023                0               0
                        0.867786        -34.6948                0               0        0.0953111         145.566                0               0
75.405                  0.184533         54.4906                0               0         0.450869         54.3752                0               0
                       0.0958593         143.523                0               0          0.86741        -35.6998                0               0
                        0.450868         54.3752                0               0         0.184615          54.493                0               0
                        0.867416        -35.7006                0               0        0.0957722         143.524                0               0
75.45                   0.185257         53.7499                0               0          0.45102         53.3761                0               0
                       0.0963485         141.365                0               0         0.867186          -36.76                0               0
                        0.451018         53.3762                0               0         0.185338         53.7521                0               0
                        0.867193        -36.7608                0               0        0.0962631         141.365                0               0
75.495                  0.186047         52.9774                0               0         0.450985         52.3263                0               0
                       0.0968685         139.097                0               0         0.867104        -37.8725                0               0
                        0.450984         52.3264                0               0         0.186128         52.9793                0               0
                        0.867111        -37.8733                0               0         0.096785         139.095                0               0
75.54                   0.186891         52.1724                0               0         0.450778         51.2282                0               0
                        0.097419         136.725                0               0         0.867156         -39.035                0               0
                        0.450776         51.2283                0               0          0.18697          52.174                0               0
                        0.867162        -39.0358                0               0        0.0973376         136.723                0               0
75.585                  0.187774         51.3344                0               0         0.450408         50.0847                0               0
                       0.0979986         134.259                0               0         0.867329         -40.245                0               0
                        0.450406         50.0847                0               0         0.187852         51.3358                0               0
                        0.867335        -40.2459                0               0        0.0979194         134.256                0               0
75.63                   0.188683         50.4629                0               0         0.449888         48.8986                0               0
                       0.0986045         131.706                0               0         0.867608        -41.5002                0               0
                        0.449886         48.8986                0               0          0.18876          50.464                0               0
                        0.867615        -41.5011                0               0        0.0985276         131.702                0               0
75.675                  0.189602         49.5573                0               0         0.449226         47.6731                0               0
                       0.0992332         129.075                0               0         0.867977         -42.798                0               0
                        0.449224         47.6731                0               0         0.189677         49.5581                0               0
                        0.867984        -42.7989                0               0        0.0991587          129.07                0               0
75.72                   0.190514         48.6174                0               0         0.448432         46.4113                0               0
                       0.0998801         126.373                0               0         0.868417        -44.1356                0               0
                         0.44843         46.4114                0               0         0.190588         48.6179                0               0
                        0.868424        -44.1366                0               0        0.0998084         126.367                0               0
75.765                  0.191405         47.6432                0               0         0.447515         45.1166                0               0
                        0.100541          123.61                0               0         0.868909        -45.5105                0               0
                        0.447514         45.1167                0               0         0.191477         47.6435                0               0
                        0.868915        -45.5114                0               0         0.100472         123.602                0               0
75.81                   0.192255         46.6353                0               0         0.446486         43.7921                0               0
                        0.101209         120.792                0               0         0.869433        -46.9197                0               0
                        0.446484         43.7922                0               0         0.192326         46.6353                0               0
                        0.869439        -46.9207                0               0         0.101143         120.784                0               0
75.855                  0.193049         45.5946                0               0         0.445353         42.4411                0               0
                        0.101882         117.929                0               0          0.86997        -48.3604                0               0
                        0.445351         42.4411                0               0         0.193118         45.5943                0               0
                        0.869976        -48.3614                0               0         0.101818          117.92                0               0
75.9                     0.19377         44.5226                0               0         0.444127         41.0664                0               0
                        0.102552         115.028                0               0         0.870505        -49.8296                0               0
                        0.444125         41.0665                0               0         0.193837          44.522                0               0
                        0.870511        -49.8306                0               0         0.102492         115.019                0               0
75.945                  0.194401         43.4214                0               0         0.442818         39.6711                0               0
                        0.103218         112.097                0               0         0.871021        -51.3243                0               0
                        0.442816         39.6712                0               0         0.194466         43.4206                0               0
                        0.871027        -51.3253                0               0          0.10316         112.087                0               0
75.99                   0.194929         42.2936                0               0         0.441438         38.2579                0               0
                        0.103874         109.143                0               0          0.87151        -52.8414                0               0
                        0.441436          38.258                0               0         0.194993         42.2926                0               0
                        0.871516        -52.8424                0               0          0.10382         109.133                0               0
76.035                  0.195342         41.1425                0               0         0.439998         36.8293                0               0
                        0.104518         106.174                0               0         0.871965        -54.3777                0               0
                        0.439997         36.8293                0               0         0.195403         41.1412                0               0
                        0.871971        -54.3787                0               0         0.104467         106.163                0               0
76.08                    0.19563         39.9716                0               0         0.438514         35.3874                0               0
                         0.10515         103.195                0               0         0.872386        -55.9302                0               0
                        0.438513         35.3875                0               0         0.195689           39.97                0               0
                        0.872391        -55.9311                0               0         0.105102         103.184                0               0
76.125                  0.195786         38.7848                0               0         0.436999         33.9343                0               0
                        0.105769         100.214                0               0         0.872776        -57.4955                0               0
                        0.436998         33.9344                0               0         0.195843          38.783                0               0
                        0.872782        -57.4965                0               0         0.105725         100.203                0               0
76.17                   0.195807          37.586                0               0         0.435471         32.4717                0               0
                        0.106377         97.2349                0               0         0.873148        -59.0708                0               0
                         0.43547         32.4717                0               0         0.195862          37.584                0               0
                        0.873153        -59.0718                0               0         0.106336         97.2236                0               0
76.215                  0.195693         36.3793                0               0         0.433945         31.0008                0               0
                        0.106976         94.2635                0               0         0.873518        -60.6528                0               0
                        0.433945         31.0009                0               0         0.195745          36.377                0               0
                        0.873524        -60.6538                0               0         0.106939         94.2522                0               0
76.26                   0.195447         35.1682                0               0         0.432443          29.523                0               0
                        0.107572         91.3043                0               0          0.87391        -62.2387                0               0
                        0.432442         29.5231                0               0         0.195497         35.1657                0               0
                        0.873916        -62.2397                0               0         0.107538         91.2931                0               0
76.305                  0.195073          33.956                0               0         0.430982         28.0392                0               0
                        0.108167         88.3614                0               0         0.874352        -63.8256                0               0
                        0.430981         28.0393                0               0          0.19512         33.9533                0               0
                        0.874357        -63.8266                0               0         0.108137         88.3505                0               0
76.35                   0.194578         32.7454                0               0         0.429583         26.5502                0               0
                        0.108768         85.4388                0               0          0.87487        -65.4108                0               0
                        0.429583         26.5503                0               0         0.194623         32.7425                0               0
                        0.874875        -65.4118                0               0         0.108741         85.4282                0               0
76.395                  0.193967         31.5387                0               0         0.428265         25.0571                0               0
                        0.109379           82.54                0               0         0.875491        -66.9918                0               0
                        0.428265         25.0572                0               0          0.19401         31.5355                0               0
                        0.875496        -66.9928                0               0         0.109355         82.5299                0               0
76.44                   0.193245         30.3375                0               0         0.427045          23.561                0               0
                        0.110002         79.6688                0               0         0.876233        -68.5662                0               0
