! TOUCHSTONE file generated by CST MICROWAVE STUDIO
! Date and time: Mon Jun 21 17:06:59 2021
! Project name: HIPS_d_sweep.cst
! Parameters = {a=0.735; b=0.393; d=21.0754; fmax=120; fmin=75; phi=0; theta=0}
! Header version: 2018
! Port assignment regex: !\s*Touchstone port\s*([0-9]+)\s*=\s*(CST MWS port|CST DS port)\s*([0-9]+|Zmin|Zmax)\s*\(\"(.*)\"\)(\s*mode\s*([0-9]+))?.*
! Touchstone port assignment:
! Touchstone port 1 = CST MWS port Zmin ("") mode 1
! Touchstone port 2 = CST MWS port Zmin ("") mode 2
! Touchstone port 3 = CST MWS port Zmax ("") mode 1
! Touchstone port 4 = CST MWS port Zmax ("") mode 2
! S-Parameters are not renormalized. Unphysical impedance of 0 will be written to the file.
# GHz S MA R 0
75                      0.116459         99.2039                0               0         0.195914        -78.4773                0               0
                       0.0424056        -110.617                0               0         0.972757        -167.187                0               0
                        0.195916         -78.477                0               0         0.116417         99.3006                0               0
                        0.972757        -167.185                0               0        0.0425155        -110.745                0               0
75.045                  0.118266         98.5231                0               0         0.198855        -79.3574                0               0
                       0.0428143        -112.061                0               0         0.971597        -167.766                0               0
                        0.198858        -79.3576                0               0         0.118218         98.6143                0               0
                        0.971594        -167.765                0               0        0.0429241        -112.185                0               0
75.09                   0.120227         97.8055                0               0         0.201681         -80.194                0               0
                       0.0431681        -113.671                0               0         0.970642        -168.459                0               0
                        0.201685        -80.1945                0               0         0.120176         97.8933                0               0
                        0.970639        -168.457                0               0        0.0432788        -113.791                0               0
75.135                  0.122358         97.0519                0               0         0.204316        -80.9833                0               0
                       0.0434617        -115.461                0               0         0.969863        -169.255                0               0
                         0.20432        -80.9837                0               0         0.122306         97.1383                0               0
                         0.96986        -169.254                0               0        0.0435744        -115.577                0               0
75.18                   0.124677         96.2627                0               0         0.206663        -81.7248                0               0
                       0.0436901        -117.445                0               0         0.969226        -170.148                0               0
                        0.206666         -81.725                0               0         0.124627         96.3495                0               0
                        0.969224        -170.146                0               0        0.0438056        -117.556                0               0
75.225                  0.127203         95.4377                0               0         0.208606        -82.4245                0               0
                       0.0438486        -119.634                0               0           0.9687        -171.128                0               0
                        0.208608        -82.4242                0               0         0.127157          95.526                0               0
                          0.9687        -171.127                0               0        0.0439678        -119.741                0               0
75.27                   0.129953         94.5755                0               0         0.210016        -83.0968                0               0
                       0.0439335        -122.041                0               0         0.968256        -172.191                0               0
                        0.210014         -83.096                0               0         0.129915          94.666                0               0
                        0.968256        -172.189                0               0        0.0440568        -122.144                0               0
75.315                  0.132948         93.6731                0               0         0.210761        -83.7687                0               0
                        0.043942        -124.677                0               0         0.967863        -173.328                0               0
                        0.210752        -83.7677                0               0          0.13292         93.7658                0               0
                        0.967864        -173.327                0               0        0.0440695        -124.774                0               0
75.36                   0.136205         92.7257                0               0         0.210724         -84.483                0               0
                       0.0438726        -127.548                0               0         0.967494        -174.536                0               0
                        0.210706        -84.4827                0               0          0.13619         92.8198                0               0
                        0.967496        -174.534                0               0        0.0440043        -127.641                0               0
75.405                  0.139737         91.7261                0               0          0.20984        -85.3014                0               0
                       0.0437259        -130.663                0               0         0.967124        -175.809                0               0
                        0.209812         -85.303                0               0         0.139737         91.8202                0               0
                        0.967127        -175.807                0               0        0.0438614        -130.751                0               0
75.45                   0.143555         90.6652                0               0          0.20814        -86.3044                0               0
                       0.0435049        -134.024                0               0          0.96673        -177.143                0               0
                        0.208105        -86.3099                0               0         0.143569         90.7573                0               0
                        0.966733        -177.141                0               0        0.0436436        -134.106                0               0
75.495                  0.147654         89.5323                0               0         0.205815        -87.5862                0               0
                       0.0432149        -137.631                0               0         0.966294        -178.534                0               0
                         0.20578        -87.5973                0               0         0.147679         89.6201                0               0
                        0.966297        -178.532                0               0         0.043356        -137.707                0               0
75.54                   0.152018         88.3162                0               0         0.203287        -89.2314                0               0
                       0.0428646        -141.482                0               0         0.965799        -179.979                0               0
                        0.203268        -89.2483                0               0         0.152049         88.3982                0               0
                        0.965801        -179.977                0               0        0.0430072        -141.551                0               0
75.585                  0.156613         87.0082                0               0         0.201245        -91.2599                0               0
                       0.0424656        -145.571                0               0         0.965233         178.525                0               0
                        0.201254        -91.2788                0               0          0.15664         87.0836                0               0
                        0.965234         178.527                0               0        0.0426087        -145.632                0               0
75.63                   0.161383         85.6038                0               0         0.200467        -93.5334                0               0
                       0.0420325        -149.886                0               0         0.964589         176.981                0               0
                        0.200504        -93.5473                0               0         0.161399          85.673                0               0
                        0.964589         176.983                0               0        0.0421751        -149.938                0               0
75.675                  0.166262         84.1053                0               0         0.201253        -95.7196                0               0
                       0.0415826        -154.413                0               0         0.963864         175.391                0               0
                        0.201295        -95.7241                0               0         0.166259           84.17                0               0
                        0.963862         175.393                0               0        0.0417237        -154.455                0               0
75.72                   0.171176         82.5223                0               0         0.202834        -97.4885                0               0
                       0.0411352        -159.134                0               0         0.963061         173.756                0               0
                        0.202855        -97.4872                0               0         0.171149         82.5852                0               0
                        0.963058         173.758                0               0         0.041274        -159.166                0               0
75.765                  0.176057         80.8709                0               0         0.203812        -98.8117                0               0
                       0.0407104        -164.028                0               0         0.962192         172.079                0               0
                        0.203813        -98.8115                0               0         0.176008         80.9344                0               0
                        0.962187          172.08                0               0        0.0408463        -164.049                0               0
75.81                   0.180854         79.1705                0               0          0.20336        -99.9391                0               0
                       0.0403288         -169.07                0               0         0.961272          170.36                0               0
                        0.203356        -99.9424                0               0         0.180787         79.2364                0               0
                        0.961265         170.361                0               0        0.0404613        -169.078                0               0
75.855                  0.185536         77.4402                0               0         0.201567        -101.126                0               0
                       0.0400097        -174.231                0               0         0.960326         168.601                0               0
                        0.201567        -101.131                0               0         0.185457          77.509                0               0
                        0.960318         168.602                0               0        0.0401386        -174.227                0               0
75.9                    0.190091         75.6956                0               0         0.198924        -102.496                0               0
                       0.0397703        -179.482                0               0         0.959385         166.804                0               0
                        0.198929        -102.501                0               0         0.190007         75.7668                0               0
                        0.959376         166.805                0               0        0.0398955        -179.465                0               0
75.945                  0.194519         73.9474                0               0         0.195883        -104.063                0               0
                       0.0396249         175.209                0               0         0.958486          164.97                0               0
                        0.195892        -104.067                0               0         0.194438         74.0196                0               0
                        0.958476         164.972                0               0        0.0397464         175.237                0               0
75.99                   0.198829         72.2008                0               0         0.192733        -105.797                0               0
                        0.039584         169.872                0               0         0.957673         163.103                0               0
                        0.192743          -105.8                0               0         0.198753         72.2726                0               0
                        0.957662         163.104                0               0        0.0397018         169.911                0               0
76.035                  0.203027         70.4571                0               0         0.189625        -107.653                0               0
                       0.0396539         164.537                0               0         0.956987         161.205                0               0
                        0.189634        -107.655                0               0         0.202958          70.527                0               0
                        0.956976         161.206                0               0        0.0397683         164.587                0               0
76.08                   0.207114         68.7145                0               0         0.186622        -109.589                0               0
                       0.0398364         159.232                0               0         0.956468          159.28                0               0
                        0.186629         -109.59                0               0         0.207052         68.7813                0               0
                        0.956457         159.282                0               0        0.0399476         159.291                0               0
76.125                  0.211087         66.9696                0               0         0.183743        -111.571                0               0
                       0.0401293         153.981                0               0         0.956149         157.333                0               0
                        0.183748        -111.571                0               0          0.21103         67.0327                0               0
                        0.956138         157.335                0               0        0.0402373         154.047                0               0
76.17                   0.214931         65.2186                0               0         0.180982        -113.571                0               0
                        0.040526         148.805                0               0         0.956046          155.37                0               0
                        0.180986        -113.571                0               0         0.214879         65.2777                0               0
                        0.956036         155.372                0               0         0.040631         148.878                0               0
76.215                   0.21863         63.4579                0               0         0.178326         -115.57                0               0
                       0.0410166          143.72                0               0          0.95616         153.397                0               0
                        0.178329        -115.569                0               0          0.21858         63.5131                0               0
                         0.95615         153.399                0               0        0.0411186         143.798                0               0
76.26                   0.222159         61.6847                0               0         0.175758         -117.55                0               0
                       0.0415879         138.739                0               0         0.956467          151.42                0               0
                         0.17576        -117.549                0               0         0.222109         61.7362                0               0
                        0.956457         151.422                0               0        0.0416867         138.821                0               0
76.305                  0.225491         59.8972                0               0         0.173262        -119.499                0               0
                       0.0422244          133.87                0               0         0.956924         149.445                0               0
                        0.173263        -119.499                0               0          0.22544         59.9456                0               0
                        0.956914         149.446                0               0        0.0423198         133.956                0               0
76.35                   0.228595         58.0948                0               0         0.170826        -121.409                0               0
                       0.0429087         129.121                0               0         0.957465         147.477                0               0
                        0.170827        -121.409                0               0         0.228543         58.1407                0               0
                        0.957455         147.478                0               0        0.0430005         129.209                0               0
76.395                  0.231442         56.2781                0               0         0.168441        -123.272                0               0
                       0.0436226         124.495                0               0          0.95801         145.521                0               0
                        0.168442        -123.272                0               0         0.231389         56.3221                0               0
                           0.958         145.522                0               0        0.0437105         124.585                0               0
76.44                   0.234003         54.4489                0               0         0.166101        -125.083                0               0
                       0.0443475         119.996                0               0         0.958472          143.58                0               0
