! TOUCHSTONE file generated by CST MICROWAVE STUDIO
! Date and time: Mon Jun 21 17:07:42 2021
! Project name: HIPS_d_sweep.cst
! Parameters = {a=0.735; b=0.393; d=25.7487; fmax=120; fmin=75; phi=0; theta=0}
! Header version: 2018
! Port assignment regex: !\s*Touchstone port\s*([0-9]+)\s*=\s*(CST MWS port|CST DS port)\s*([0-9]+|Zmin|Zmax)\s*\(\"(.*)\"\)(\s*mode\s*([0-9]+))?.*
! Touchstone port assignment:
! Touchstone port 1 = CST MWS port Zmin ("") mode 1
! Touchstone port 2 = CST MWS port Zmin ("") mode 2
! Touchstone port 3 = CST MWS port Zmax ("") mode 1
! Touchstone port 4 = CST MWS port Zmax ("") mode 2
! S-Parameters are not renormalized. Unphysical impedance of 0 will be written to the file.
# GHz S MA R 0
75                      0.148305         96.1666                0               0         0.111118        -84.9282                0               0
                       0.0360942         69.9132                0               0          0.98202         7.57158                0               0
                        0.111119        -84.9286                0               0         0.148286         96.1019                0               0
                        0.982016         7.57189                0               0        0.0360978         69.8374                0               0
75.045                  0.150359         95.5025                0               0         0.106786        -85.7751                0               0
                       0.0352394         69.2238                0               0         0.982036         6.82193                0               0
                        0.106786        -85.7755                0               0         0.150355         95.4385                0               0
                        0.982033         6.82234                0               0        0.0352432         69.1469                0               0
75.09                   0.152766         94.7426                0               0         0.102863         -86.717                0               0
                       0.0345334         68.4165                0               0         0.982057          5.9735                0               0
                        0.102862        -86.7174                0               0         0.152765         94.6783                0               0
                        0.982054         5.97395                0               0        0.0345376         68.3386                0               0
75.135                  0.155504         93.8806                0               0        0.0993604         -87.758                0               0
                       0.0339754         67.4905                0               0         0.982029         5.02753                0               0
                       0.0993595        -87.7584                0               0         0.155501         93.8163                0               0
                        0.982026         5.02797                0               0        0.0339799         67.4117                0               0
75.18                   0.158551          92.914                0               0        0.0962835        -88.9007                0               0
                       0.0335628         66.4444                0               0         0.981916         3.98542                0               0
                       0.0962828        -88.9011                0               0         0.158544         92.8497                0               0
                        0.981913         3.98584                0               0        0.0335676         66.3648                0               0
75.225                  0.161883         91.8423                0               0        0.0936312        -90.1463                0               0
                        0.033291         65.2764                0               0         0.981698         2.84881                0               0
                       0.0936307        -90.1467                0               0         0.161871         91.7784                0               0
                        0.981695          2.8492                0               0        0.0332961         65.1961                0               0
75.27                   0.165474         90.6669                0               0        0.0913973        -91.4943                0               0
                       0.0331541         63.9846                0               0         0.981365         1.61959                0               0
                        0.091397        -91.4945                0               0          0.16546         90.6035                0               0
                        0.981361         1.61996                0               0        0.0331595         63.9037                0               0
75.315                  0.169299         89.3907                0               0        0.0895718        -92.9425                0               0
                       0.0331449         62.5671                0               0         0.980914        0.299968                0               0
                       0.0895717        -92.9426                0               0         0.169283         89.3278                0               0
                        0.980911        0.300321                0               0        0.0331506         62.4857                0               0
75.36                    0.17333         88.0172                0               0        0.0881414        -94.4872                0               0
                       0.0332551         61.0223                0               0         0.980352        -1.10754                0               0
                       0.0881414        -94.4873                0               0         0.173314         87.9547                0               0
                        0.980348        -1.10719                0               0        0.0332611         60.9404                0               0
75.405                  0.177539         86.5505                0               0        0.0870904        -96.1237                0               0
                       0.0334754          59.349                0               0         0.979685        -2.60007                0               0
                       0.0870905        -96.1236                0               0         0.177522         86.4884                0               0
                        0.979682        -2.59973                0               0        0.0334817         59.2668                0               0
75.45                   0.181894         84.9951                0               0        0.0864012        -97.8458                0               0
                       0.0337958         57.5469                0               0         0.978925        -4.17447                0               0
                       0.0864014        -97.8456                0               0         0.181878         84.9332                0               0
                        0.978922        -4.17412                0               0        0.0338024         57.4644                0               0
75.495                  0.186363         83.3556                0               0        0.0860549        -99.6468                0               0
                       0.0342054         55.6164                0               0         0.978084        -5.82724                0               0
                       0.0860551        -99.6465                0               0         0.186349         83.2939                0               0
                        0.978082         -5.8269                0               0        0.0342123         55.5337                0               0
75.54                   0.190913         81.6367                0               0        0.0860316         -101.52                0               0
                        0.034693         53.5588                0               0         0.977175        -7.55464                0               0
                        0.086032        -101.519                0               0           0.1909         81.5752                0               0
                        0.977174        -7.55429                0               0        0.0347002          53.476                0               0
75.585                  0.195508         79.8433                0               0        0.0863112        -103.457                0               0
                       0.0352468         51.3763                0               0          0.97621        -9.35265                0               0
                       0.0863115        -103.456                0               0         0.195496         79.7819                0               0
                        0.976209         -9.3523                0               0        0.0352544         51.2934                0               0
75.63                   0.200112         77.9802                0               0        0.0868727        -105.451                0               0
                       0.0358548         49.0717                0               0         0.975201        -11.2171                0               0
                       0.0868732         -105.45                0               0         0.200101          77.919                0               0
                          0.9752        -11.2167                0               0        0.0358628         48.9888                0               0
75.675                  0.204687         76.0522                0               0        0.0876955        -107.495                0               0
                       0.0365048         46.6488                0               0         0.974157        -13.1434                0               0
                       0.0876961        -107.494                0               0         0.204676         75.9913                0               0
                        0.974157        -13.1431                0               0        0.0365131          46.566                0               0
75.72                   0.209195         74.0641                0               0        0.0887589        -109.582                0               0
                       0.0371843          44.112                0               0          0.97309        -15.1273                0               0
                       0.0887596        -109.582                0               0         0.209185         74.0036                0               0
                         0.97309        -15.1269                0               0         0.037193         44.0293                0               0
75.765                  0.213599          72.021                0               0        0.0900422        -111.706                0               0
                       0.0378811         41.4659                0               0         0.972006         -17.164                0               0
                       0.0900431        -111.706                0               0         0.213589         71.9608                0               0
                        0.972006        -17.1637                0               0        0.0378903         41.3833                0               0
75.81                   0.217861         69.9278                0               0        0.0915254        -113.862                0               0
                       0.0385832         38.7158                0               0         0.970915        -19.2489                0               0
                       0.0915265        -113.861                0               0         0.217851          69.868                0               0
                        0.970915        -19.2486                0               0        0.0385928         38.6333                0               0
75.855                  0.221945         67.7893                0               0        0.0931887        -116.043                0               0
                       0.0392787         35.8671                0               0         0.969823        -21.3774                0               0
                       0.0931899        -116.042                0               0         0.221935         67.7299                0               0
                        0.969823        -21.3771                0               0        0.0392888         35.7848                0               0
75.9                    0.225817         65.6107                0               0        0.0950128        -118.245                0               0
                       0.0399563         32.9255                0               0         0.968739        -23.5449                0               0
                       0.0950142        -118.244                0               0         0.225807         65.5515                0               0
                        0.968739        -23.5446                0               0        0.0399669         32.8434                0               0
75.945                  0.229444         63.3969                0               0        0.0969792        -120.462                0               0
                       0.0406053         29.8968                0               0         0.967671        -25.7468                0               0
                       0.0969807        -120.462                0               0         0.229435         63.3378                0               0
                         0.96767        -25.7465                0               0        0.0406164         29.8149                0               0
75.99                   0.232798         61.1526                0               0        0.0990701        -122.691                0               0
                       0.0412157         26.7867                0               0         0.966627        -27.9787                0               0
                       0.0990717         -122.69                0               0          0.23279         61.0936                0               0
                        0.966627        -27.9784                0               0        0.0412273          26.705                0               0
76.035                  0.235852         58.8826                0               0         0.101269        -124.926                0               0
                       0.0417786         23.6009                0               0         0.965619        -30.2364                0               0
                         0.10127        -124.926                0               0         0.235845         58.8236                0               0
                        0.965619        -30.2361                0               0        0.0417907         23.5194                0               0
76.08                   0.238585         56.5916                0               0         0.103559        -127.163                0               0
                       0.0422859         20.3451                0               0         0.964659        -32.5157                0               0
                         0.10356        -127.163                0               0         0.238579         56.5326                0               0
                        0.964658        -32.5154                0               0        0.0422985         20.2638                0               0
76.125                  0.240977          54.284                0               0         0.105926        -129.398                0               0
                       0.0427308         17.0245                0               0         0.963759        -34.8127                0               0
                        0.105927        -129.398                0               0         0.240972         54.2248                0               0
                        0.963759        -34.8124                0               0        0.0427439         16.9435                0               0
76.17                   0.243014         51.9639                0               0         0.108356        -131.626                0               0
                       0.0431078         13.6444                0               0         0.962936        -37.1235                0               0
                        0.108357        -131.626                0               0          0.24301         51.9047                0               0
                        0.962935        -37.1231                0               0        0.0431215         13.5636                0               0
76.215                  0.244685         49.6353                0               0         0.110836        -133.844                0               0
                       0.0434127         10.2095                0               0         0.962205        -39.4444                0               0
                        0.110838        -133.844                0               0         0.244682          49.576                0               0
                        0.962205         -39.444                0               0        0.0434268          10.129                0               0
76.26                   0.245984         47.3018                0               0         0.113357        -136.047                0               0
                       0.0436424          6.7243                0               0         0.961583         -41.772                0               0
                        0.113358        -136.047                0               0         0.245981         47.2427                0               0
                        0.961583        -41.7716                0               0         0.043657         6.64398                0               0
76.305                  0.246904         44.9671                0               0         0.115906        -138.232                0               0
                       0.0437951         3.19271                0               0         0.961085        -44.1027                0               0
                        0.115907        -138.232                0               0         0.246902         44.9081                0               0
                        0.961086        -44.1023                0               0        0.0438103         3.11265                0               0
76.35                   0.247445         42.6344                0               0         0.118474        -140.397                0               0
                         0.04387        -0.38163                0               0         0.960725        -46.4333                0               0
                        0.118475        -140.397                0               0         0.247443         42.5758                0               0
                        0.960726        -46.4329                0               0        0.0438857       -0.461415                0               0
76.395                  0.247606         40.3071                0               0         0.121052         -142.54                0               0
                       0.0438669        -3.99552                0               0         0.960507        -48.7604                0               0
                        0.121053        -142.539                0               0         0.247604         40.2488                0               0
                        0.960509          -48.76                0               0        0.0438831        -4.07503                0               0
76.44                   0.247387         37.9884                0               0         0.123631         -144.66                0               0
                       0.0437857        -7.64618                0               0         0.960429        -51.0809                0               0
