! TOUCHSTONE file generated by CST MICROWAVE STUDIO
! Date and time: Mon Jun 21 17:07:07 2021
! Project name: HIPS_d_sweep.cst
! Parameters = {a=0.735; b=0.393; d=21.9296; fmax=120; fmin=75; phi=0; theta=0}
! Header version: 2018
! Port assignment regex: !\s*Touchstone port\s*([0-9]+)\s*=\s*(CST MWS port|CST DS port)\s*([0-9]+|Zmin|Zmax)\s*\(\"(.*)\"\)(\s*mode\s*([0-9]+))?.*
! Touchstone port assignment:
! Touchstone port 1 = CST MWS port Zmin ("") mode 1
! Touchstone port 2 = CST MWS port Zmin ("") mode 2
! Touchstone port 3 = CST MWS port Zmax ("") mode 1
! Touchstone port 4 = CST MWS port Zmax ("") mode 2
! S-Parameters are not renormalized. Unphysical impedance of 0 will be written to the file.
# GHz S MA R 0
75                      0.193145         6.96557                0               0         0.141668        -171.058                0               0
                        0.060076         32.5045                0               0         0.969025         94.5792                0               0
                        0.141666        -171.058                0               0         0.193135         6.97463                0               0
                         0.96903         94.5792                0               0        0.0601515         32.6493                0               0
75.045                  0.191385         6.37949                0               0          0.14499        -171.906                0               0
                       0.0608606          31.772                0               0         0.969765         93.9229                0               0
                        0.144989        -171.907                0               0         0.191375         6.38828                0               0
                         0.96977          93.923                0               0        0.0609359         31.9162                0               0
75.09                   0.189368         5.73428                0               0         0.148168        -172.787                0               0
                       0.0615722         30.9668                0               0         0.970118         93.1901                0               0
                        0.148167        -172.787                0               0         0.189357         5.74279                0               0
                        0.970122         93.1902                0               0        0.0616473         31.1103                0               0
75.135                  0.187098         5.02596                0               0         0.151164        -173.705                0               0
                       0.0622045         30.0738                0               0         0.970173         92.3784                0               0
                        0.151163        -173.705                0               0         0.187086         5.03418                0               0
                        0.970177         92.3785                0               0        0.0622796         30.2164                0               0
75.18                    0.18458         4.25117                0               0         0.153944        -174.669                0               0
                       0.0627535         29.0779                0               0         0.970022         91.4864                0               0
                        0.153943        -174.669                0               0         0.184568         4.25908                0               0
                        0.970026         91.4864                0               0        0.0628287         29.2196                0               0
75.225                  0.181818         3.40722                0               0         0.156474        -175.685                0               0
                       0.0632175         27.9648                0               0          0.96975         90.5134                0               0
                        0.156473        -175.685                0               0         0.181805         3.41478                0               0
                        0.969754         90.5134                0               0        0.0632929         28.1056                0               0
75.27                   0.178815         2.49197                0               0         0.158725        -176.761                0               0
                        0.063597         26.7215                0               0         0.969439         89.4598                0               0
                        0.158724        -176.761                0               0         0.178801         2.49916                0               0
                        0.969443         89.4598                0               0        0.0636727         26.8617                0               0
75.315                  0.175572         1.50384                0               0         0.160672        -177.905                0               0
                       0.0638941          25.337                0               0          0.96916         88.3266                0               0
                         0.16067        -177.905                0               0         0.175557         1.51062                0               0
                        0.969164         88.3266                0               0        0.0639699         25.4768                0               0
75.36                   0.172089        0.441731                0               0         0.162295        -179.123                0               0
                       0.0641118         23.8029                0               0         0.968975         87.1155                0               0
                        0.162293        -179.124                0               0         0.172073        0.448057                0               0
                        0.968979         87.1156                0               0        0.0641877         23.9425                0               0
75.405                  0.168363       -0.694983                0               0         0.163583         179.577                0               0
                       0.0642534          22.113                0               0         0.968936         85.8288                0               0
                        0.163581         179.577                0               0         0.168347       -0.689161                0               0
                        0.968939         85.8288                0               0        0.0643292         22.2527                0               0
75.45                   0.164392         -1.9065                0               0         0.164528         178.191                0               0
                       0.0643218         20.2643                0               0          0.96908         84.4691                0               0
                        0.164525         178.191                0               0         0.164376        -1.90123                0               0
                        0.969084         84.4692                0               0        0.0643971         20.4045                0               0
75.495                  0.160172        -3.19256                0               0         0.165131         176.715                0               0
                       0.0643186         18.2561                0               0         0.969437         83.0394                0               0
                        0.165128         176.715                0               0         0.160154        -3.18793                0               0
                        0.969441         83.0395                0               0        0.0643932         18.3971                0               0
75.54                   0.155695         -4.5525                0               0         0.165397         175.148                0               0
                       0.0642442         16.0904                0               0         0.970023         81.5429                0               0
                        0.165395         175.147                0               0         0.155677        -4.54856                0               0
                        0.970026          81.543                0               0        0.0643176         16.2325                0               0
75.585                  0.150958        -5.98514                0               0         0.165339         173.489                0               0
                       0.0640971         13.7714                0               0         0.970843          79.983                0               0
                        0.165336         173.488                0               0         0.150939        -5.98197                0               0
                        0.970846         79.9831                0               0         0.064169          13.915                0               0
75.63                   0.145951        -7.48877                0               0         0.164971          171.74                0               0
                       0.0638744         11.3053                0               0         0.971892         78.3631                0               0
                        0.164968         171.739                0               0         0.145932        -7.48646                0               0
                        0.971895         78.3632                0               0        0.0639443         11.4507                0               0
75.675                   0.14067        -9.06109                0               0         0.164311         169.904                0               0
                       0.0635715         8.70012                0               0         0.973158         76.6867                0               0
                        0.164309         169.904                0               0          0.14065        -9.05973                0               0
                        0.973161         76.6868                0               0         0.063639         8.84763                0               0
75.72                   0.135108         -10.699                0               0         0.163381         167.987                0               0
                       0.0631828         5.96533                0               0         0.974617         74.9572                0               0
                        0.163379         167.987                0               0         0.135088        -10.6987                0               0
                         0.97462         74.9573                0               0        0.0632475         6.11535                0               0
75.765                  0.129261        -12.3987                0               0         0.162203         165.995                0               0
                        0.062702         3.11183                0               0         0.976241         73.1781                0               0
                        0.162201         165.995                0               0          0.12924        -12.3996                0               0
                        0.976243         73.1781                0               0        0.0627637         3.26472                0               0
75.81                   0.123125         -14.155                0               0         0.160797         163.936                0               0
                       0.0621232        0.151635                0               0         0.977994         71.3526                0               0
                        0.160795         163.936                0               0         0.123103        -14.1572                0               0
                        0.977996         71.3527                0               0        0.0621815        0.307748                0               0
75.855                    0.1167        -15.9617                0               0         0.159187         161.818                0               0
                       0.0614407        -2.90231                0               0         0.979836         69.4842                0               0
                        0.159186         161.817                0               0         0.116677        -15.9654                0               0
                        0.979837         69.4843                0               0        0.0614954         -2.7426                0               0
75.9                    0.109987        -17.8108                0               0         0.157395         159.649                0               0
                       0.0606504        -6.03634                0               0         0.981721         67.5761                0               0
                        0.157393         159.649                0               0         0.109964        -17.8163                0               0
                        0.981722         67.5761                0               0        0.0607014        -5.87266                0               0
75.945                  0.102992        -19.6921                0               0          0.15544         157.441                0               0
                       0.0597497        -9.23636                0               0         0.983603         65.6314                0               0
                        0.155439         157.441                0               0         0.102969        -19.6995                0               0
                        0.983604         65.6315                0               0        0.0597969        -9.06834                0               0
75.99                  0.0957245        -21.5927                0               0         0.153342         155.201                0               0
                       0.0587382        -12.4881                0               0         0.985433         63.6534                0               0
                        0.153341         155.201                0               0        0.0957002        -21.6023                0               0
                        0.985433         63.6535                0               0        0.0587817        -12.3154                0               0
76.035                  0.088197        -23.4956                0               0          0.15112          152.94                0               0
                        0.057618        -15.7775                0               0         0.987159         61.6452                0               0
                        0.151119          152.94                0               0        0.0881719        -23.5078                0               0
                        0.987159         61.6452                0               0        0.0576578        -15.5998                0               0
76.08                  0.0804276        -25.3781                0               0          0.14879         150.666                0               0
                       0.0563935        -19.0911                0               0         0.988732         59.6099                0               0
                        0.148789         150.666                0               0        0.0804017        -25.3934                0               0
                        0.988732         59.6099                0               0        0.0564298         -18.908                0               0
76.125                 0.0724386         -27.209                0               0         0.146367         148.388                0               0
                       0.0550713        -22.4162                0               0         0.990103         57.5506                0               0
                        0.146367         148.388                0               0        0.0724119         -27.228                0               0
                        0.990104         57.5506                0               0        0.0551042        -22.2275                0               0
76.17                  0.0642574        -28.9433                0               0         0.143867         146.115                0               0
                       0.0536602        -25.7415                0               0         0.991227         55.4704                0               0
                        0.143866         146.115                0               0        0.0642299        -28.9667                0               0
                        0.991227         55.4705                0               0        0.0536899         -25.547                0               0
76.215                 0.0559163        -30.5117                0               0         0.141301         143.853                0               0
                       0.0521703        -29.0573                0               0          0.99206         53.3724                0               0
                          0.1413         143.853                0               0        0.0558879        -30.5407                0               0
                        0.992061         53.3725                0               0         0.052197        -28.8568                0               0
76.26                  0.0474535           -31.8                0               0         0.138681         141.611                0               0
                        0.050613        -32.3557                0               0         0.992564         51.2596                0               0
                        0.138681         141.611                0               0        0.0474239        -31.8365                0               0
                        0.992565         51.2598                0               0        0.0506367        -32.1491                0               0
76.305                 0.0389146        -32.6004                0               0         0.136018         139.394                0               0
                       0.0489999        -35.6309                0               0         0.992705         49.1353                0               0
                        0.136018         139.394                0               0        0.0388837        -32.6469                0               0
                        0.992706         49.1354                0               0        0.0490208         -35.418                0               0
76.35                  0.0303594        -32.4814                0               0         0.133322          137.21                0               0
                       0.0473427        -38.8792                0               0         0.992457         47.0022                0               0
                        0.133321          137.21                0               0        0.0303266        -32.5423                0               0
                        0.992459         47.0024                0               0        0.0473609        -38.6599                0               0
76.395                 0.0218832        -30.3697                0               0           0.1306         135.064                0               0
                       0.0456527        -42.0993                0               0           0.9918         44.8634                0               0
                        0.130599         135.063                0               0        0.0218474        -30.4523                0               0
                        0.991802         44.8637                0               0         0.045668        -41.8734                0               0
76.44                  0.0137218        -22.7294                0               0          0.12786          132.96                0               0
                       0.0439401        -45.2921                0               0         0.990722         42.7218                0               0
