! TOUCHSTONE file generated by CST MICROWAVE STUDIO
! Date and time: Mon Jun 21 17:06:34 2021
! Project name: HIPS_d_sweep.cst
! Parameters = {a=0.735; b=0.393; d=17.7588; fmax=120; fmin=75; phi=0; theta=0}
! Header version: 2018
! Port assignment regex: !\s*Touchstone port\s*([0-9]+)\s*=\s*(CST MWS port|CST DS port)\s*([0-9]+|Zmin|Zmax)\s*\(\"(.*)\"\)(\s*mode\s*([0-9]+))?.*
! Touchstone port assignment:
! Touchstone port 1 = CST MWS port Zmin ("") mode 1
! Touchstone port 2 = CST MWS port Zmin ("") mode 2
! Touchstone port 3 = CST MWS port Zmax ("") mode 1
! Touchstone port 4 = CST MWS port Zmax ("") mode 2
! S-Parameters are not renormalized. Unphysical impedance of 0 will be written to the file.
# GHz S MA R 0
75                     0.0465716         39.2522                0               0         0.412489        -49.6541                0               0
                         0.10203         -49.436                0               0         0.904033        -139.668                0               0
                        0.412488        -49.6542                0               0        0.0466102         39.2727                0               0
                        0.904032        -139.667                0               0         0.102013        -49.4468                0               0
75.045                 0.0469003         40.6224                0               0         0.415269        -50.2381                0               0
                          0.1022        -50.3904                0               0         0.903214        -140.189                0               0
                        0.415269        -50.2381                0               0        0.0469409         40.6406                0               0
                        0.903213        -140.188                0               0         0.102183        -50.4023                0               0
75.09                  0.0472429         42.1886                0               0         0.417697        -50.8873                0               0
                         0.10223        -51.4768                0               0         0.902295        -140.788                0               0
                        0.417696        -50.8874                0               0        0.0472855          42.204                0               0
                        0.902294        -140.787                0               0         0.102212        -51.4895                0               0
75.135                 0.0476171         43.9435                0               0         0.419784        -51.6037                0               0
                        0.102135        -52.6986                0               0         0.901343        -141.463                0               0
                        0.419783        -51.6037                0               0        0.0476617         43.9556                0               0
                        0.901342        -141.462                0               0         0.102116        -52.7119                0               0
75.18                  0.0480436         45.8776                0               0         0.421543        -52.3883                0               0
                        0.101931        -54.0578                0               0         0.900415        -142.212                0               0
                        0.421543        -52.3883                0               0        0.0480904         45.8858                0               0
                        0.900414        -142.211                0               0         0.101911        -54.0716                0               0
75.225                 0.0485465         47.9777                0               0          0.42299        -53.2416                0               0
                         0.10163         -55.555                0               0         0.899557        -143.032                0               0
                        0.422989        -53.2417                0               0        0.0485953         47.9816                0               0
                        0.899556        -143.031                0               0          0.10161        -55.5694                0               0
75.27                   0.049152         50.2266                0               0         0.424137        -54.1636                0               0
                        0.101245        -57.1903                0               0         0.898803         -143.92                0               0
                        0.424137        -54.1636                0               0        0.0492027         50.2257                0               0
                        0.898803        -143.919                0               0         0.101225        -57.2051                0               0
75.315                  0.049888         52.6016                0               0         0.424999        -55.1534                0               0
                        0.100786        -58.9626                0               0         0.898181        -144.873                0               0
                        0.424998        -55.1535                0               0        0.0499404         52.5956                0               0
                        0.898181        -144.872                0               0         0.100764        -58.9779                0               0
75.36                  0.0507833          55.075                0               0         0.425588        -56.2099                0               0
                         0.10026        -60.8705                0               0         0.897708        -145.888                0               0
                        0.425587        -56.2099                0               0        0.0508371         55.0634                0               0
                        0.897708        -145.888                0               0         0.100238        -60.8865                0               0
75.405                 0.0518661         57.6134                0               0         0.425915        -57.3312                0               0
                       0.0996741        -62.9121                0               0         0.897393        -146.963                0               0
                        0.425914        -57.3313                0               0        0.0519211         57.5962                0               0
                        0.897394        -146.962                0               0        0.0996509        -62.9289                0               0
75.45                  0.0531633         60.1791                0               0         0.425992        -58.5152                0               0
                       0.0990331        -65.0853                0               0          0.89724        -148.095                0               0
                        0.425991        -58.5153                0               0        0.0532191         60.1561                0               0
                        0.897241        -148.094                0               0        0.0990091        -65.1029                0               0
75.495                 0.0546988         62.7312                0               0         0.425827        -59.7594                0               0
                        0.098341        -67.3875                0               0         0.897246         -149.28                0               0
                        0.425826        -59.7595                0               0         0.054755         62.7027                0               0
                        0.897246        -149.279                0               0        0.0983164        -67.4061                0               0
75.54                  0.0564928          65.228                0               0         0.425428        -61.0608                0               0
                       0.0976006        -69.8161                0               0         0.897402        -150.516                0               0
                        0.425427        -61.0609                0               0         0.056549         65.1941                0               0
                        0.897403        -150.516                0               0        0.0975755        -69.8358                0               0
75.585                 0.0585604         67.6285                0               0         0.424804        -62.4164                0               0
                       0.0968143        -72.3683                0               0         0.897699        -151.802                0               0
                        0.424803        -62.4164                0               0        0.0586162         67.5896                0               0
                          0.8977        -151.801                0               0        0.0967887        -72.3892                0               0
75.63                  0.0609113         69.8953                0               0          0.42396        -63.8226                0               0
                       0.0959837        -75.0409                0               0         0.898119        -153.134                0               0
                        0.423959        -63.8227                0               0        0.0609663         69.8519                0               0
                         0.89812        -153.133                0               0        0.0959579        -75.0633                0               0
75.675                 0.0635495          71.996                0               0         0.422903         -65.276                0               0
                       0.0951104        -77.8309                0               0         0.898647         -154.51                0               0
                        0.422902        -65.2761                0               0        0.0636032         71.9485                0               0
                        0.898648        -154.509                0               0        0.0950844        -77.8548                0               0
75.72                  0.0664728         73.9045                0               0         0.421638        -66.7728                0               0
                       0.0941958        -80.7349                0               0         0.899263        -155.927                0               0
                        0.421637        -66.7729                0               0        0.0665249         73.8537                0               0
                        0.899264        -155.927                0               0        0.0941699        -80.7603                0               0
75.765                 0.0696736         75.6022                0               0         0.420173        -68.3093                0               0
                       0.0932419        -83.7491                0               0         0.899947        -157.385                0               0
                        0.420172        -68.3094                0               0        0.0697238         75.5484                0               0
                        0.899948        -157.384                0               0        0.0932161        -83.7763                0               0
75.81                  0.0731393          77.077                0               0         0.418514        -69.8816                0               0
                       0.0922509        -86.8698                0               0          0.90068        -158.881                0               0
                        0.418513        -69.8816                0               0        0.0731874         77.0209                0               0
                        0.900681         -158.88                0               0        0.0922254        -86.8988                0               0
75.855                 0.0768527          78.324                0               0         0.416669        -71.4858                0               0
                       0.0912257         -90.093                0               0         0.901443        -160.412                0               0
                        0.416668        -71.4858                0               0        0.0768984          78.266                0               0
                        0.901443        -160.411                0               0        0.0912007        -90.1238                0               0
75.9                   0.0807929         79.3437                0               0         0.414646        -73.1181                0               0
                       0.0901704        -93.4142                0               0         0.902219        -161.977                0               0
                        0.414645        -73.1181                0               0         0.080836         79.2843                0               0
                        0.902218        -161.976                0               0        0.0901459        -93.4469                0               0
75.945                 0.0849362         80.1417                0               0         0.412458        -74.7747                0               0
                       0.0890898        -96.8288                0               0         0.902992        -163.573                0               0
                        0.412457        -74.7747                0               0        0.0849765         80.0812                0               0
                        0.902991        -163.572                0               0         0.089066        -96.8634                0               0
75.99                  0.0892566         80.7275                0               0         0.410114        -76.4517                0               0
                         0.08799        -100.332                0               0          0.90375        -165.198                0               0
                        0.410113        -76.4517                0               0        0.0892941         80.6663                0               0
                        0.903749        -165.197                0               0         0.087967        -100.368                0               0
76.035                 0.0937272         81.1134                0               0         0.407632        -78.1455                0               0
                       0.0868784        -103.918                0               0         0.904485        -166.848                0               0
                        0.407631        -78.1455                0               0        0.0937617         81.0518                0               0
                        0.904485        -166.847                0               0        0.0868563        -103.956                0               0
76.08                  0.0983205          81.314                0               0         0.405026        -79.8525                0               0
                       0.0857637        -107.581                0               0         0.905192        -168.522                0               0
                        0.405025        -79.8525                0               0        0.0983519         81.2521                0               0
                        0.905192        -168.521                0               0        0.0857428        -107.621                0               0
76.125                  0.103009         81.3448                0               0         0.402316        -81.5691                0               0
                        0.084656        -111.315                0               0         0.905871        -170.214                0               0
                        0.402315        -81.5691                0               0         0.103038         81.2829                0               0
                        0.905871        -170.213                0               0        0.0846363        -111.357                0               0
76.17                   0.107768         81.2223                0               0         0.399523        -83.2917                0               0
                       0.0835665        -115.113                0               0         0.906523        -171.921                0               0
                        0.399522        -83.2917                0               0         0.107794         81.1605                0               0
                        0.906523         -171.92                0               0        0.0835481        -115.157                0               0
76.215                  0.112573         80.9629                0               0         0.396671        -85.0169                0               0
                       0.0825071        -118.966                0               0         0.907154        -173.638                0               0
                         0.39667        -85.0169                0               0         0.112595         80.9012                0               0
                        0.907155        -173.637                0               0        0.0824903        -119.012                0               0
76.26                   0.117402         80.5824                0               0         0.393784        -86.7412                0               0
                       0.0814907        -122.867                0               0         0.907773        -175.359                0               0
                        0.393783        -86.7412                0               0         0.117421          80.521                0               0
                        0.907774        -175.358                0               0        0.0814757        -122.916                0               0
76.305                  0.122235         80.0962                0               0          0.39089         -88.461                0               0
                       0.0805297        -126.807                0               0         0.908393        -177.076                0               0
                        0.390889         -88.461                0               0         0.122252          80.035                0               0
                        0.908394        -177.076                0               0        0.0805169        -126.857                0               0
76.35                   0.127056         79.5179                0               0         0.388015        -90.1728                0               0
                        0.079636        -130.775                0               0         0.909031        -178.785                0               0
                        0.388014        -90.1728                0               0          0.12707          79.457                0               0
                        0.909033        -178.784                0               0        0.0796257        -130.827                0               0
76.395                  0.131847         78.8601                0               0         0.385184        -91.8732                0               0
                       0.0788196        -134.762                0               0         0.909719         179.522                0               0
                        0.385183        -91.8733                0               0         0.131858         78.7994                0               0
                         0.90972         179.523                0               0        0.0788121        -134.816                0               0
76.44                   0.136593         78.1329                0               0         0.382419        -93.5592                0               0
                       0.0780872        -138.757                0               0         0.910495         177.848                0               0
