! TOUCHSTONE file generated by CST MICROWAVE STUDIO
! Date and time: Mon Jun 21 17:07:39 2021
! Project name: HIPS_d_sweep.cst
! Parameters = {a=0.735; b=0.393; d=25.4472; fmax=120; fmin=75; phi=0; theta=0}
! Header version: 2018
! Port assignment regex: !\s*Touchstone port\s*([0-9]+)\s*=\s*(CST MWS port|CST DS port)\s*([0-9]+|Zmin|Zmax)\s*\(\"(.*)\"\)(\s*mode\s*([0-9]+))?.*
! Touchstone port assignment:
! Touchstone port 1 = CST MWS port Zmin ("") mode 1
! Touchstone port 2 = CST MWS port Zmin ("") mode 2
! Touchstone port 3 = CST MWS port Zmax ("") mode 1
! Touchstone port 4 = CST MWS port Zmax ("") mode 2
! S-Parameters are not renormalized. Unphysical impedance of 0 will be written to the file.
# GHz S MA R 0
75                    0.00222875         105.377                0               0        0.0895576        -46.4261                0               0
                       0.0112862         132.518                0               0         0.995915         43.5764                0               0
                       0.0895577        -46.4257                0               0       0.00216895         105.858                0               0
                        0.995916         43.5747                0               0        0.0112897         132.863                0               0
75.045                0.00491276         120.614                0               0        0.0858126         -48.156                0               0
                       0.0102069         129.955                0               0         0.996272         42.7871                0               0
                       0.0858195        -48.1513                0               0          0.00486         121.015                0               0
                        0.996269         42.7861                0               0        0.0102511         130.326                0               0
75.09                 0.00811714          124.84                0               0        0.0820787        -49.6019                0               0
                       0.0095416          127.31                0               0         0.996549         41.9142                0               0
                       0.0820901        -49.5957                0               0       0.00806739         125.111                0               0
                        0.996544         41.9135                0               0       0.00959553         127.696                0               0
75.135                 0.0117645         126.329                0               0        0.0785487        -50.7645                0               0
                      0.00919419          124.61                0               0         0.996761         40.9547                0               0
                       0.0785617        -50.7588                0               0        0.0117163         126.522                0               0
                        0.996755         40.9541                0               0       0.00924222             125                0               0
75.18                  0.0158403         126.692                0               0        0.0753826        -51.6919                0               0
                      0.00910019         121.888                0               0         0.996919         39.9062                0               0
                       0.0753943        -51.6878                0               0         0.015793         126.835                0               0
                        0.996914         39.9056                0               0        0.0091351         122.272                0               0
75.225                 0.0203378         126.445                0               0        0.0726862        -52.4718                0               0
                      0.00921492          119.17                0               0          0.99703         38.7671                0               0
                       0.0726947        -52.4693                0               0        0.0202912         126.555                0               0
                        0.997026         38.7661                0               0       0.00923428         119.542                0               0
75.27                    0.02525         125.807                0               0        0.0705069        -53.2122                0               0
                      0.00950653         116.476                0               0         0.997095         37.5361                0               0
                       0.0705113        -53.2109                0               0        0.0252039         125.894                0               0
                        0.997092         37.5348                0               0       0.00951065         116.828                0               0
75.315                 0.0305676         124.887                0               0        0.0688439        -54.0204                0               0
                      0.00995176         113.812                0               0         0.997111         36.2128                0               0
                       0.0688443        -54.0198                0               0        0.0305218         124.956                0               0
                         0.99711         36.2111                0               0       0.00994247         114.139                0               0
75.36                  0.0362779         123.746                0               0        0.0676661        -54.9852                0               0
                       0.0105333         111.175                0               0         0.997071         34.7975                0               0
                       0.0676631        -54.9847                0               0        0.0362324           123.8                0               0
                        0.997071         34.7954                0               0        0.0105132         111.475                0               0
75.405                 0.0423644         122.421                0               0        0.0669291        -56.1671                0               0
                       0.0112379         108.556                0               0         0.996963         33.2913                0               0
                       0.0669236        -56.1665                0               0        0.0423192         122.465                0               0
                        0.996964          33.289                0               0          0.01121         108.828                0               0
75.45                  0.0488066         120.941                0               0        0.0665876        -57.5973                0               0
                       0.0120552         105.942                0               0         0.996774         31.6962                0               0
                       0.0665808        -57.5965                0               0        0.0487617         120.976                0               0
                        0.996775         31.6936                0               0        0.0120225         106.185                0               0
75.495                 0.0555795         119.324                0               0         0.066603        -59.2805                0               0
                       0.0129769         103.321                0               0         0.996487         30.0149                0               0
                       0.0665958        -59.2797                0               0        0.0555349         119.352                0               0
                        0.996488         30.0121                0               0        0.0129422         103.535                0               0
75.54                  0.0626545         117.588                0               0        0.0669446        -61.2013                0               0
                        0.013996         100.679                0               0         0.996087         28.2508                0               0
                       0.0669378        -61.2004                0               0        0.0626101          117.61                0               0
                        0.996087         28.2479                0               0        0.0139618         100.865                0               0
75.585                 0.0699986         115.745                0               0        0.0675889        -63.3302                0               0
                        0.015106         98.0066                0               0         0.995557         26.4082                0               0
                        0.067583        -63.3294                0               0        0.0699547         115.762                0               0
                        0.995556         26.4054                0               0        0.0150746          98.166                0               0
75.63                   0.077576         113.809                0               0        0.0685172        -65.6298                0               0
                       0.0163013         95.2952                0               0         0.994887          24.492                0               0
                       0.0685127        -65.6291                0               0        0.0775324         113.822                0               0
                        0.994884         24.4894                0               0        0.0162742         95.4284                0               0
75.675                 0.0853479         111.792                0               0        0.0697133        -68.0596                0               0
                       0.0175757         92.5381                0               0         0.994067         22.5076                0               0
                       0.0697102         -68.059                0               0        0.0853048           111.8                0               0
                        0.994064         22.5053                0               0        0.0175544         92.6464                0               0
75.72                  0.0932738         109.703                0               0        0.0711608        -70.5799                0               0
                       0.0189234          89.731                0               0         0.993097         20.4609                0               0
                       0.0711592        -70.5793                0               0        0.0932312         109.708                0               0
                        0.993093          20.459                0               0        0.0189085         89.8159                0               0
75.765                  0.101312         107.553                0               0        0.0728424        -73.1547                0               0
                       0.0203377         86.8716                0               0         0.991981         18.3582                0               0
                       0.0728421        -73.1542                0               0          0.10127         107.556                0               0
                        0.991977         18.3566                0               0        0.0203295         86.9346                0               0
75.81                   0.109421         105.353                0               0        0.0747388        -75.7536                0               0
                       0.0218116         83.9591                0               0         0.990729         16.2056                0               0
                       0.0747396         -75.753                0               0         0.109379         105.352                0               0
                        0.990725         16.2045                0               0        0.0218097         84.0022                0               0
75.855                  0.117559          103.11                0               0        0.0768288        -78.3524                0               0
                        0.023337         80.9945                0               0         0.989361         14.0096                0               0
                       0.0768305        -78.3517                0               0         0.117518         103.107                0               0
                        0.989357         14.0088                0               0         0.023341         81.0197                0               0
75.9                    0.125686         100.834                0               0        0.0790899        -80.9332                0               0
                       0.0249054         77.9803                0               0         0.987899         11.7763                0               0
                       0.0790922        -80.9325                0               0         0.125647         100.829                0               0
                        0.987896         11.7758                0               0        0.0249143         77.9897                0               0
75.945                  0.133766         98.5315                0               0        0.0814986        -83.4845                0               0
                       0.0265071         74.9199                0               0         0.986375         9.51158                0               0
                       0.0815013        -83.4837                0               0         0.133727         98.5238                0               0
                        0.986373         9.51127                0               0        0.0265198         74.9158                0               0
75.99                   0.141763         96.2094                0               0        0.0840313        -85.9995                0               0
                       0.0281318         71.8182                0               0          0.98482           7.221                0               0
                        0.084034        -85.9986                0               0         0.141724         96.1996                0               0
                        0.984818          7.2208                0               0        0.0281469         71.8027                0               0
76.035                  0.149643         93.8736                0               0        0.0866643        -88.4758                0               0
                       0.0297682         68.6804                0               0         0.983269         4.90965                0               0
                       0.0866669         -88.475                0               0         0.149606         93.8617                0               0
                        0.983268         4.90945                0               0        0.0297846         68.6555                0               0
76.08                   0.157378         91.5289                0               0        0.0893749        -90.9143                0               0
                       0.0314046         65.5123                0               0         0.981756         2.58216                0               0
                       0.0893772        -90.9136                0               0          0.15734          91.515                0               0
                        0.981755         2.58185                0               0         0.031421           65.48                0               0
76.125                  0.164937         89.1793                0               0        0.0921411        -93.3179                0               0
                       0.0330284         62.3202                0               0         0.980312          0.2427                0               0
                        0.092143        -93.3174                0               0         0.164901         89.1635                0               0
                         0.98031        0.242194                0               0        0.0330438          62.282                0               0
76.17                   0.172296         86.8281                0               0        0.0949419        -95.6912                0               0
                       0.0346267         59.1099                0               0         0.978963        -2.10497                0               0
                       0.0949434        -95.6908                0               0          0.17226         86.8104                0               0
                         0.97896        -2.10574                0               0        0.0346407         59.0671                0               0
76.215                  0.179428         84.4777                0               0        0.0977573        -98.0395                0               0
                       0.0361865         55.8872                0               0         0.977726        -4.45744                0               0
                       0.0977584        -98.0393                0               0         0.179393         84.4582                0               0
                        0.977721        -4.45852                0               0        0.0361988         55.8406                0               0
76.26                    0.18631         82.1301                0               0         0.100569        -100.368                0               0
                       0.0376947         52.6569                0               0          0.97661        -6.81155                0               0
                        0.100569        -100.368                0               0         0.186275         82.1088                0               0
                        0.976603        -6.81297                0               0        0.0377053         52.6072                0               0
76.305                  0.192916         79.7868                0               0         0.103357        -102.684                0               0
                       0.0391381         49.4231                0               0         0.975613        -9.16431                0               0
                        0.103358        -102.684                0               0         0.192881         79.7637                0               0
                        0.975604        -9.16604                0               0        0.0391476         49.3704                0               0
76.35                    0.19922         77.4487                0               0         0.106106        -104.991                0               0
                       0.0405039          46.189                0               0         0.974717        -11.5128                0               0
                        0.106106        -104.991                0               0         0.199186         77.4239                0               0
                        0.974708        -11.5148                0               0        0.0405133         46.1333                0               0
76.395                  0.205196         75.1169                0               0         0.108797        -107.295                0               0
                       0.0417799         42.9565                0               0         0.973895         -13.854                0               0
                        0.108798        -107.295                0               0         0.205163         75.0904                0               0
                        0.973883        -13.8562                0               0        0.0417901         42.8973                0               0
76.44                   0.210816         72.7923                0               0         0.111415          -109.6                0               0
                       0.0429543         39.7263                0               0         0.973099        -16.1849                0               0
