! TOUCHSTONE file generated by CST MICROWAVE STUDIO
! Date and time: Mon Jun 21 17:06:35 2021
! Project name: HIPS_d_sweep.cst
! Parameters = {a=0.735; b=0.393; d=17.809; fmax=120; fmin=75; phi=0; theta=0}
! Header version: 2018
! Port assignment regex: !\s*Touchstone port\s*([0-9]+)\s*=\s*(CST MWS port|CST DS port)\s*([0-9]+|Zmin|Zmax)\s*\(\"(.*)\"\)(\s*mode\s*([0-9]+))?.*
! Touchstone port assignment:
! Touchstone port 1 = CST MWS port Zmin ("") mode 1
! Touchstone port 2 = CST MWS port Zmin ("") mode 2
! Touchstone port 3 = CST MWS port Zmax ("") mode 1
! Touchstone port 4 = CST MWS port Zmax ("") mode 2
! S-Parameters are not renormalized. Unphysical impedance of 0 will be written to the file.
# GHz S MA R 0
75                     0.0483707         59.0846                0               0         0.408774        -55.9513                0               0
                       0.0983029         -61.027                0               0         0.906034        -145.575                0               0
                        0.408775        -55.9513                0               0        0.0487572         58.9983                0               0
                        0.906035        -145.574                0               0        0.0981162          -60.94                0               0
75.045                 0.0492694           59.93                0               0         0.411543        -56.5318                0               0
                       0.0983976        -62.0104                0               0         0.904037        -146.109                0               0
                        0.411543        -56.5318                0               0        0.0496538         59.8358                0               0
                        0.904032        -146.108                0               0        0.0982085        -61.9242                0               0
75.09                  0.0502632         60.9475                0               0         0.413919        -57.1749                0               0
                       0.0983832         -63.131                0               0         0.902757        -146.718                0               0
                        0.413919        -57.1749                0               0        0.0506452         60.8439                0               0
                        0.902751        -146.717                0               0        0.0981916        -63.0455                0               0
75.135                 0.0513602         62.1157                0               0         0.415926        -57.8842                0               0
                       0.0982693        -64.3915                0               0         0.901953        -147.398                0               0
                        0.415926        -57.8841                0               0        0.0517393         62.0015                0               0
                        0.901949        -147.398                0               0        0.0980753        -64.3065                0               0
75.18                  0.0525715         63.4111                0               0         0.417587         -58.662                0               0
                       0.0980651        -65.7938                0               0         0.901452        -148.149                0               0
                        0.417587         -58.662                0               0        0.0529472         63.2857                0               0
                         0.90145        -148.148                0               0        0.0978685        -65.7094                0               0
75.225                 0.0539103         64.8086                0               0         0.418927        -59.5097                0               0
                       0.0977786        -67.3389                0               0         0.901127        -148.966                0               0
                        0.418927        -59.5097                0               0        0.0542818         64.6716                0               0
                        0.901128        -148.965                0               0        0.0975794        -67.2549                0               0
75.27                  0.0553914         66.2818                0               0         0.419969        -60.4275                0               0
                       0.0974171        -69.0271                0               0         0.900893        -149.848                0               0
                         0.41997        -60.4276                0               0         0.055758         66.1334                0               0
                        0.900896        -149.847                0               0        0.0972151        -68.9436                0               0
75.315                 0.0570302         67.8033                0               0         0.420737        -61.4148                0               0
                       0.0969867         -70.858                0               0         0.900692        -150.794                0               0
                        0.420738        -61.4149                0               0         0.057391          67.644                0               0
                        0.900696        -150.793                0               0        0.0967818         -70.775                0               0
75.36                   0.058842         69.3452                0               0         0.421248        -62.4702                0               0
                       0.0964926        -72.8306                0               0         0.900491        -151.801                0               0
                         0.42125        -62.4702                0               0        0.0591961         69.1758                0               0
                        0.900496        -151.801                0               0        0.0962847        -72.7482                0               0
75.405                 0.0608413         70.8797                0               0          0.42152        -63.5914                0               0
                       0.0959392        -74.9433                0               0         0.900276        -152.869                0               0
                        0.421522        -63.5915                0               0        0.0611878         70.7013                0               0
                        0.900281        -152.869                0               0        0.0957282        -74.8618                0               0
75.45                  0.0630409         72.3796                0               0         0.421565        -64.7758                0               0
                       0.0953301        -77.1944                0               0         0.900048        -153.997                0               0
                        0.421567        -64.7759                0               0        0.0633791         72.1936                0               0
                        0.900052        -153.996                0               0         0.095116        -77.1137                0               0
75.495                 0.0654517         73.8194                0               0         0.421392        -66.0203                0               0
                       0.0946684        -79.5814                0               0         0.899817        -155.181                0               0
                        0.421394        -66.0203                0               0        0.0657808         73.6273                0               0
                         0.89982         -155.18                0               0        0.0944511        -79.5017                0               0
75.54                  0.0680816         75.1754                0               0         0.421008        -67.3212                0               0
                       0.0939569        -82.1015                0               0         0.899603        -156.422                0               0
                        0.421009        -67.3212                0               0         0.068401         74.9789                0               0
                        0.899604        -156.421                0               0        0.0937364        -82.0231                0               0
75.585                 0.0709355         76.4269                0               0         0.420417        -68.6748                0               0
                        0.093198        -84.7517                0               0          0.89943        -157.716                0               0
                        0.420417        -68.6747                0               0        0.0712447         76.2275                0               0
                        0.899429        -157.715                0               0        0.0929743        -84.6746                0               0
75.63                  0.0740148         77.5561                0               0         0.419619        -70.0772                0               0
                       0.0923945        -87.5284                0               0         0.899322        -159.061                0               0
                        0.419618         -70.077                0               0        0.0743134         77.3555                0               0
                        0.899319         -159.06                0               0        0.0921675        -87.4529                0               0
75.675                 0.0773172         78.5488                0               0         0.418614        -71.5242                0               0
                        0.091549        -90.4278                0               0         0.899303        -160.454                0               0
                        0.418612         -71.524                0               0         0.077605         78.3484                0               0
                        0.899299        -160.453                0               0        0.0913189        -90.3541                0               0
75.72                  0.0808367         79.3945                0               0         0.417401        -73.0118                0               0
                       0.0906647        -93.4458                0               0         0.899395        -161.893                0               0
                        0.417398        -73.0115                0               0        0.0811138         79.1956                0               0
                        0.899389        -161.892                0               0        0.0904316        -93.3741                0               0
75.765                  0.084564         80.0862                0               0         0.415976        -74.5359                0               0
                       0.0897456         -96.578                0               0         0.899612        -163.373                0               0
                        0.415972        -74.5356                0               0        0.0848303         79.8899                0               0
                        0.899606        -163.372                0               0        0.0895094        -96.5085                0               0
75.81                  0.0884859         80.6205                0               0         0.414339        -76.0925                0               0
                        0.088796        -99.8196                0               0         0.899964         -164.89                0               0
                        0.414333        -76.0922                0               0        0.0887416         80.4277                0               0
                        0.899958         -164.89                0               0         0.088557        -99.7524                0               0
75.855                 0.0925865          80.997                0               0         0.412488         -77.678                0               0
                       0.0878214        -103.166                0               0         0.900454        -166.442                0               0
                        0.412481        -77.6777                0               0        0.0928319         80.8084                0               0
                        0.900448        -166.441                0               0        0.0875797        -103.101                0               0
75.9                    0.096847         81.2183                0               0         0.410425        -79.2889                0               0
                        0.086828        -106.611                0               0         0.901076        -168.024                0               0
                        0.410416        -79.2886                0               0        0.0970823         81.0344                0               0
                         0.90107        -168.023                0               0        0.0865837        -106.549                0               0
75.945                  0.101247         81.2895                0               0         0.408153        -80.9218                0               0
                        0.085823        -110.149                0               0         0.901818        -169.632                0               0
                        0.408144        -80.9216                0               0         0.101472         81.1108                0               0
                        0.901813        -169.631                0               0        0.0855764         -110.09                0               0
75.99                   0.105762         81.2177                0               0         0.405682        -82.5741                0               0
                       0.0848146        -113.775                0               0         0.902662        -171.263                0               0
                        0.405672        -82.5739                0               0         0.105979         81.0445                0               0
                        0.902658        -171.262                0               0        0.0845658        -113.719                0               0
76.035                  0.110371         81.0118                0               0         0.403025        -84.2431                0               0
                       0.0838117        -117.482                0               0         0.903584        -172.913                0               0
                        0.403016         -84.243                0               0         0.110578         80.8442                0               0
                        0.903582        -172.912                0               0        0.0835609         -117.43                0               0
76.08                   0.115049         80.6818                0               0         0.400204        -85.9264                0               0
                       0.0828239        -121.264                0               0         0.904557        -174.579                0               0
                        0.400195        -85.9265                0               0         0.115247         80.5198                0               0
                        0.904556        -174.578                0               0        0.0825715        -121.216                0               0
76.125                  0.119772         80.2384                0               0         0.397248        -87.6218                0               0
                       0.0818614        -125.114                0               0         0.905551        -176.258                0               0
                        0.397241        -87.6219                0               0         0.119962         80.0821                0               0
                        0.905551        -176.257                0               0        0.0816076        -125.069                0               0
76.17                   0.124517         79.6929                0               0         0.394195        -89.3265                0               0
                       0.0809344        -129.023                0               0         0.906532        -177.947                0               0
                         0.39419        -89.3266                0               0         0.124699         79.5422                0               0
                        0.906533        -177.946                0               0        0.0806795        -128.983                0               0
76.215                  0.129262         79.0564                0               0         0.391091         -91.037                0               0
                       0.0800529        -132.983                0               0         0.907469        -179.644                0               0
                        0.391088        -91.0371                0               0         0.129437         78.9113                0               0
                        0.907471        -179.643                0               0        0.0797972        -132.948                0               0
76.26                   0.133988         78.3396                0               0         0.387989        -92.7485                0               0
                       0.0792263        -136.986                0               0         0.908329         178.653                0               0
                        0.387988        -92.7485                0               0         0.134155            78.2                0               0
                        0.908331         178.654                0               0        0.0789702        -136.955                0               0
76.305                  0.138674         77.5525                0               0          0.38494        -94.4547                0               0
                       0.0784626        -141.021                0               0         0.909083         176.947                0               0
                        0.384941        -94.4546                0               0         0.138834         77.4184                0               0
                        0.909085         176.947                0               0        0.0782065        -140.995                0               0
76.35                   0.143303          76.704                0               0         0.381993        -96.1476                0               0
                       0.0777681        -145.078                0               0         0.909703         175.238                0               0
                        0.381994        -96.1475                0               0         0.143457         76.5753                0               0
                        0.909706         175.239                0               0        0.0775124        -145.057                0               0
76.395                  0.147858         75.8017                0               0         0.379185         -97.819                0               0
                       0.0771465        -149.145                0               0         0.910166          173.53                0               0
                        0.379186        -97.8189                0               0         0.148005         75.6784                0               0
                        0.910169         173.531                0               0        0.0768917         -149.13                0               0
76.44                   0.152321         74.8518                0               0         0.376539         -99.461                0               0
                       0.0765985        -153.211                0               0         0.910455         171.823                0               0
