! TOUCHSTONE file generated by CST MICROWAVE STUDIO
! Date and time: Mon Jun 21 17:06:41 2021
! Project name: HIPS_d_sweep.cst
! Parameters = {a=0.735; b=0.393; d=18.6131; fmax=120; fmin=75; phi=0; theta=0}
! Header version: 2018
! Port assignment regex: !\s*Touchstone port\s*([0-9]+)\s*=\s*(CST MWS port|CST DS port)\s*([0-9]+|Zmin|Zmax)\s*\(\"(.*)\"\)(\s*mode\s*([0-9]+))?.*
! Touchstone port assignment:
! Touchstone port 1 = CST MWS port Zmin ("") mode 1
! Touchstone port 2 = CST MWS port Zmin ("") mode 2
! Touchstone port 3 = CST MWS port Zmax ("") mode 1
! Touchstone port 4 = CST MWS port Zmax ("") mode 2
! S-Parameters are not renormalized. Unphysical impedance of 0 will be written to the file.
# GHz S MA R 0
75                      0.215151         35.2655                0               0         0.333568        -147.381                0               0
                       0.0912565         89.8392                0               0           0.9133         120.478                0               0
                        0.333567        -147.381                0               0          0.21517         35.3126                0               0
                        0.913298         120.479                0               0         0.091192         89.8629                0               0
75.045                  0.214064         34.8472                0               0         0.336585        -147.932                0               0
                        0.091905         89.0686                0               0         0.912395         119.922                0               0
                        0.336584        -147.932                0               0         0.214084         34.8948                0               0
                        0.912392         119.922                0               0        0.0918394         89.0925                0               0
75.09                   0.212988         34.3668                0               0         0.339325        -148.547                0               0
                       0.0925435         88.1503                0               0         0.911569         119.296                0               0
                        0.339324        -148.547                0               0         0.213009          34.415                0               0
                        0.911566         119.296                0               0        0.0924769         88.1744                0               0
75.135                  0.211918         33.8253                0               0         0.341792        -149.227                0               0
                       0.0931737         87.0871                0               0         0.910828         118.599                0               0
                        0.341791        -149.227                0               0          0.21194         33.8743                0               0
                        0.910825           118.6                0               0         0.093106         87.1113                0               0
75.18                   0.210848          33.224                0               0         0.343993         -149.97                0               0
                       0.0937967         85.8825                0               0         0.910178         117.834                0               0
                        0.343992         -149.97                0               0         0.210871         33.2737                0               0
                        0.910176         117.834                0               0        0.0937278         85.9069                0               0
75.225                   0.20977         32.5639                0               0         0.345934        -150.777                0               0
                       0.0944128         84.5404                0               0         0.909623         117.001                0               0
                        0.345933        -150.777                0               0         0.209794         32.6145                0               0
                        0.909621         117.001                0               0        0.0943429         84.5649                0               0
75.27                   0.208675         31.8462                0               0         0.347624        -151.647                0               0
                        0.095022         83.0652                0               0         0.909164         116.101                0               0
                        0.347623        -151.647                0               0           0.2087         31.8978                0               0
                        0.909162         116.101                0               0         0.094951         83.0898                0               0
75.315                  0.207551         31.0724                0               0         0.349072        -152.579                0               0
                       0.0956239         81.4617                0               0         0.908803         115.135                0               0
                        0.349071        -152.578                0               0         0.207577         31.1249                0               0
                          0.9088         115.135                0               0        0.0955518         81.4863                0               0
75.36                   0.206389         30.2439                0               0         0.350286        -153.571                0               0
                       0.0962175          79.735                0               0         0.908539         114.106                0               0
                        0.350286        -153.571                0               0         0.206416         30.2975                0               0
                        0.908536         114.106                0               0        0.0961442         79.7596                0               0
75.405                  0.205176         29.3622                0               0         0.351278        -154.622                0               0
                       0.0968013         77.8905                0               0         0.908371         113.016                0               0
                        0.351278        -154.622                0               0         0.205204          29.417                0               0
                        0.908368         113.016                0               0        0.0967268         77.9152                0               0
75.45                     0.2039         28.4292                0               0         0.352058        -155.731                0               0
                       0.0973737          75.934                0               0         0.908298         111.865                0               0
                        0.352057        -155.731                0               0         0.203929         28.4853                0               0
                        0.908295         111.866                0               0        0.0972981         75.9588                0               0
75.495                  0.202549         27.4468                0               0         0.352636        -156.895                0               0
                       0.0979327         73.8715                0               0         0.908318         110.658                0               0
                        0.352636        -156.895                0               0         0.202579         27.5042                0               0
                        0.908315         110.658                0               0        0.0978559         73.8963                0               0
75.54                   0.201109         26.4171                0               0         0.353024        -158.114                0               0
                        0.098476          71.709                0               0         0.908429         109.396                0               0
                        0.353024        -158.114                0               0         0.201141         26.4759                0               0
                        0.908426         109.396                0               0         0.098398         71.7338                0               0
75.585                   0.19957         25.3423                0               0         0.353233        -159.386                0               0
                       0.0990012         69.4527                0               0         0.908629         108.081                0               0
                        0.353232        -159.385                0               0         0.199603         25.4026                0               0
                        0.908626         108.082                0               0         0.098922         69.4776                0               0
75.63                   0.197919         24.2249                0               0         0.353273        -160.707                0               0
                       0.0995058         67.1091                0               0         0.908915         106.717                0               0
                        0.353272        -160.707                0               0         0.197953         24.2869                0               0
                        0.908912         106.717                0               0        0.0994254          67.134                0               0
75.675                  0.196145         23.0676                0               0         0.353156        -162.076                0               0
                       0.0999871         64.6845                0               0         0.909285         105.306                0               0
                        0.353156        -162.076                0               0          0.19618         23.1313                0               0
                        0.909283         105.306                0               0        0.0999055         64.7093                0               0
75.72                   0.194238         21.8732                0               0         0.352894        -163.492                0               0
                        0.100442         62.1852                0               0         0.909738         103.851                0               0
                        0.352894        -163.492                0               0         0.194275         21.9387                0               0
                        0.909736         103.852                0               0          0.10036         62.2101                0               0
75.765                  0.192189         20.6446                0               0         0.352497        -164.951                0               0
                        0.100869         59.6177                0               0          0.91027         102.355                0               0
                        0.352496        -164.951                0               0         0.192227          20.712                0               0
                        0.910268         102.356                0               0         0.100785         59.6425                0               0
75.81                   0.189988         19.3849                0               0         0.351976        -166.452                0               0
                        0.101264         56.9883                0               0          0.91088         100.822                0               0
                        0.351976        -166.452                0               0         0.190028         19.4544                0               0
                        0.910878         100.822                0               0         0.101179          57.013                0               0
75.855                   0.18763         18.0974                0               0         0.351342        -167.992                0               0
                        0.101625         54.3031                0               0         0.911565         99.2528                0               0
                        0.351342        -167.992                0               0          0.18767         18.1691                0               0
                        0.911563         99.2531                0               0         0.101539         54.3278                0               0
75.9                    0.185107         16.7855                0               0         0.350606        -169.568                0               0
                        0.101949         51.5682                0               0         0.912321         97.6524                0               0
                        0.350606        -169.568                0               0         0.185149         16.8596                0               0
                        0.912319         97.6527                0               0         0.101862         51.5928                0               0
75.945                  0.182415         15.4528                0               0         0.349778        -171.178                0               0
                        0.102234         48.7895                0               0         0.913147         96.0234                0               0
                        0.349778        -171.178                0               0         0.182459         15.5292                0               0
                        0.913145         96.0237                0               0         0.102146         48.8141                0               0
75.99                    0.17955         14.1028                0               0         0.348868         -172.82                0               0
                        0.102477         45.9729                0               0         0.914036         94.3689                0               0
                        0.348868         -172.82                0               0         0.179596         14.1819                0               0
                        0.914034         94.3693                0               0         0.102387         45.9974                0               0
76.035                   0.17651         12.7394                0               0         0.347885         -174.49                0               0
                        0.102676         43.1239                0               0         0.914985         92.6923                0               0
                        0.347885         -174.49                0               0         0.176558         12.8212                0               0
                        0.914983         92.6926                0               0         0.102585         43.1483                0               0
76.08                   0.173295         11.3666                0               0         0.346839        -176.187                0               0
                        0.102828         40.2478                0               0         0.915988         90.9966                0               0
                        0.346839        -176.186                0               0         0.173345         11.4513                0               0
                        0.915986         90.9969                0               0         0.102736         40.2721                0               0
76.125                  0.169904         9.98837                0               0         0.345738        -177.906                0               0
                        0.102931         37.3499                0               0         0.917038         89.2849                0               0
                        0.345738        -177.906                0               0         0.169956         10.0762                0               0
                        0.917036         89.2853                0               0         0.102838         37.3741                0               0
76.17                    0.16634         8.60909                0               0          0.34459        -179.645                0               0
                        0.102983          34.435                0               0         0.918128         87.5604                0               0
                        0.344589        -179.645                0               0         0.166394         8.70016                0               0
                        0.918126         87.5608                0               0         0.102889         34.4591                0               0
76.215                  0.162606         7.23321                0               0         0.343402         178.598                0               0
                        0.102984         31.5079                0               0          0.91925          85.826                0               0
                        0.343402         178.598                0               0         0.162663         7.32775                0               0
                        0.919248         85.8264                0               0         0.102889          31.532                0               0
76.26                   0.158707         5.86536                0               0         0.342182         176.828                0               0
                        0.102931         28.5732                0               0         0.920396         84.0847                0               0
                        0.342182         176.828                0               0         0.158766         5.96359                0               0
                        0.920394          84.085                0               0         0.102835         28.5971                0               0
76.305                   0.15465         4.51033                0               0         0.340937         175.045                0               0
                        0.102825         25.6349                0               0          0.92156         82.3392                0               0
                        0.340937         175.046                0               0         0.154711         4.61249                0               0
                        0.921558         82.3396                0               0         0.102728         25.6587                0               0
76.35                   0.150443         3.17303                0               0         0.339674         173.255                0               0
                        0.102665         22.6972                0               0         0.922736         80.5922                0               0
                        0.339674         173.255                0               0         0.150507         3.27938                0               0
                        0.922734         80.5926                0               0         0.102567         22.7208                0               0
76.395                  0.146096         1.85842                0               0         0.338402         171.458                0               0
                        0.102454         19.7637                0               0         0.923921         78.8464                0               0
                        0.338402         171.458                0               0         0.146162         1.96922                0               0
                         0.92392         78.8467                0               0         0.102355         19.7872                0               0
76.44                   0.141621        0.571397                0               0         0.337128         169.658                0               0
                        0.102194         16.8377                0               0         0.925118         77.1041                0               0
