! TOUCHSTONE file generated by CST MICROWAVE STUDIO
! Date and time: Mon Jun 21 17:07:32 2021
! Project name: HIPS_d_sweep.cst
! Parameters = {a=0.735; b=0.393; d=24.7437; fmax=120; fmin=75; phi=0; theta=0}
! Header version: 2018
! Port assignment regex: !\s*Touchstone port\s*([0-9]+)\s*=\s*(CST MWS port|CST DS port)\s*([0-9]+|Zmin|Zmax)\s*\(\"(.*)\"\)(\s*mode\s*([0-9]+))?.*
! Touchstone port assignment:
! Touchstone port 1 = CST MWS port Zmin ("") mode 1
! Touchstone port 2 = CST MWS port Zmin ("") mode 2
! Touchstone port 3 = CST MWS port Zmax ("") mode 1
! Touchstone port 4 = CST MWS port Zmax ("") mode 2
! S-Parameters are not renormalized. Unphysical impedance of 0 will be written to the file.
# GHz S MA R 0
75                      0.248149         35.6197                0               0        0.0405683         24.5534                0               0
                       0.0328298         17.8081                0               0          0.96731         125.923                0               0
                       0.0405686         24.5534                0               0         0.248165         35.6104                0               0
                        0.967315         125.926                0               0        0.0328322         17.7873                0               0
75.045                  0.247627         34.9321                0               0        0.0375053         22.2226                0               0
                       0.0326265         18.6758                0               0         0.968186         125.215                0               0
                       0.0375019         22.2293                0               0         0.247644         34.9224                0               0
                         0.96819         125.218                0               0        0.0326281         18.6557                0               0
75.09                   0.246949         34.1596                0               0        0.0343276         19.9026                0               0
                       0.0324354         19.4223                0               0         0.968731          124.42                0               0
                       0.0343226         19.9132                0               0         0.246965         34.1494                0               0
                        0.968735         124.423                0               0        0.0324363         19.4028                0               0
75.135                  0.246125         33.3001                0               0        0.0311635         17.5785                0               0
                       0.0322633         20.0168                0               0         0.969033         123.536                0               0
                       0.0311587         17.5897                0               0          0.24614         33.2894                0               0
                        0.969037         123.539                0               0        0.0322639         19.9979                0               0
75.18                   0.245162         32.3522                0               0        0.0281398         15.2233                0               0
                       0.0321155         20.4295                0               0         0.969176         122.563                0               0
                       0.0281362         15.2325                0               0         0.245177          32.341                0               0
                         0.96918         122.566                0               0         0.032116         20.4113                0               0
75.225                  0.244063         31.3154                0               0        0.0253694         12.8084                0               0
                       0.0319945          20.633                0               0         0.969233           121.5                0               0
                       0.0253677         12.8135                0               0         0.244078         31.3035                0               0
                        0.969237         121.503                0               0        0.0319948         20.6153                0               0
75.27                   0.242828         30.1896                0               0        0.0229434         10.3184                0               0
                       0.0318994          20.603                0               0         0.969269          120.35                0               0
                       0.0229437         10.3184                0               0         0.242842          30.177                0               0
                        0.969273         120.353                0               0        0.0318999         20.5859                0               0
75.315                   0.24145         28.9752                0               0        0.0209252         7.77033                0               0
                       0.0318266         20.3202                0               0          0.96934         119.113                0               0
                       0.0209274         7.76562                0               0         0.241463         28.9619                0               0
                        0.969343         119.116                0               0        0.0318271         20.3036                0               0
75.36                   0.239921         27.6731                0               0         0.019349         5.22717                0               0
                       0.0317686          19.771                0               0         0.969487         117.792                0               0
                       0.0193526         5.21899                0               0         0.239933         27.6589                0               0
                         0.96949         117.795                0               0        0.0317692         19.7548                0               0
75.405                  0.238224         26.2845                0               0        0.0182214         2.79591                0               0
                       0.0317157         18.9486                0               0         0.969743         116.388                0               0
                       0.0182259         2.78613                0               0         0.238236         26.2694                0               0
                        0.969745         116.391                0               0        0.0317163         18.9327                0               0
75.45                   0.236344         24.8111                0               0        0.0175269        0.604291                0               0
                       0.0316559          17.853                0               0         0.970129         114.904                0               0
                       0.0175316        0.594769                0               0         0.236355         24.7951                0               0
                        0.970131         114.907                0               0        0.0316565         17.8372                0               0
75.495                  0.234259          23.255                0               0        0.0172344        -1.23709                0               0
                        0.031576         16.4908                0               0         0.970656         113.343                0               0
                       0.0172388        -1.24499                0               0         0.234268         23.2378                0               0
                        0.970658         113.346                0               0        0.0315765         16.4751                0               0
75.54                   0.231945         21.6184                0               0        0.0173052        -2.66876                0               0
                       0.0314628         14.8746                0               0         0.971324         111.708                0               0
                       0.0173087        -2.67436                0               0         0.231954         21.6001                0               0
                        0.971325         111.712                0               0        0.0314632         14.8589                0               0
75.585                  0.229379         19.9045                0               0        0.0176991        -3.69562                0               0
                       0.0313039         13.0218                0               0         0.972124         110.003                0               0
                       0.0177016        -3.69883                0               0         0.229386         19.8849                0               0
                        0.972125         110.006                0               0        0.0313041         13.0059                0               0
75.63                   0.226533         18.1168                0               0        0.0183789        -4.37704                0               0
                       0.0310883         10.9528                0               0         0.973041         108.229                0               0
                       0.0183804         -4.3782                0               0          0.22654         18.0958                0               0
                        0.973042         108.232                0               0        0.0310882         10.9367                0               0
75.675                  0.223385         16.2593                0               0        0.0193121        -4.80406                0               0
                       0.0308067          8.6896                0               0          0.97405         106.391                0               0
                       0.0193125        -4.80366                0               0         0.223391         16.2369                0               0
                        0.974051         106.394                0               0        0.0308064          8.6732                0               0
75.72                    0.21991         14.3369                0               0        0.0204709        -5.07604                0               0
                       0.0304524         6.25401                0               0         0.975125         104.492                0               0
                       0.0204705        -5.07467                0               0         0.219915         14.3129                0               0
                        0.975126         104.495                0               0        0.0304518         6.23721                0               0
75.765                  0.216088         12.3547                0               0        0.0218326        -5.28445                0               0
                       0.0300201         3.66637                0               0         0.976234         102.535                0               0
                       0.0218315        -5.28261                0               0         0.216092          12.329                0               0
                        0.976235         102.538                0               0        0.0300193         3.64909                0               0
75.81                   0.211903         10.3188                0               0        0.0233783        -5.50469                0               0
                       0.0295067         0.94438                0               0         0.977346         100.525                0               0
                        0.023377        -5.50282                0               0         0.211905         10.2912                0               0
                        0.977346         100.528                0               0        0.0295057        0.926494                0               0
75.855                  0.207342         8.23509                0               0        0.0250935        -5.79433                0               0
                       0.0289099        -1.89779                0               0         0.978431         98.4646                0               0
                       0.0250921        -5.79273                0               0         0.207342         8.20561                0               0
                         0.97843         98.4679                0               0        0.0289087        -1.91639                0               0
75.9                    0.202399         6.10992                0               0         0.026967         -6.1947                0               0
                       0.0282283        -4.85006                0               0         0.979462         96.3583                0               0
                       0.0269657        -6.19355                0               0         0.202398         6.07834                0               0
                        0.979461         96.3616                0               0        0.0282269         -4.8695                0               0
75.945                  0.197073         3.94923                0               0        0.0289912        -6.73387                0               0
                       0.0274606        -7.90694                0               0         0.980424           94.21                0               0
                       0.0289902        -6.73325                0               0          0.19707         3.91539                0               0
                        0.980422         94.2134                0               0        0.0274591        -7.92736                0               0
75.99                   0.191368         1.75834                0               0        0.0311619        -7.42971                0               0
                       0.0266054        -11.0681                0               0          0.98131         92.0238                0               0
                       0.0311615        -7.42959                0               0         0.191364         1.72205                0               0
                        0.981308         92.0272                0               0        0.0266038        -11.0896                0               0
76.035                  0.185294       -0.458559                0               0        0.0334786         -8.2922                0               0
                       0.0256608        -14.3389                0               0         0.982129         89.8038                0               0
                       0.0334788        -8.29248                0               0         0.185288       -0.497507                0               0
                        0.982127         89.8072                0               0        0.0256591        -14.3617                0               0
76.08                   0.178862        -2.69885                0               0        0.0359447        -9.32488                0               0
                       0.0246244        -17.7321                0               0          0.98291         87.5541                0               0
                       0.0359456        -9.32538                0               0         0.178855        -2.74069                0               0
                        0.982907         87.5576                0               0        0.0246226        -17.7564                0               0
76.125                  0.172089        -4.96191                0               0        0.0385677        -10.5251                0               0
                       0.0234936        -21.2697                0               0         0.983699         85.2787                0               0
                       0.0385691        -10.5256                0               0          0.17208        -5.00694                0               0
                        0.983696         85.2822                0               0        0.0234917        -21.2956                0               0
76.17                    0.16499        -7.24947                0               0        0.0413594         -11.883                0               0
                       0.0222662        -24.9866                0               0         0.984563         82.9814                0               0
                       0.0413613        -11.8834                0               0         0.164979          -7.298                0               0
                        0.984559         82.9849                0               0        0.0222641        -25.0144                0               0
76.215                  0.157582        -9.56563                0               0        0.0443352        -13.3796                0               0
                       0.0209423        -28.9359                0               0         0.985581         80.6659                0               0
                       0.0443373        -13.3798                0               0          0.15757        -9.61808                0               0
                        0.985578         80.6694                0               0        0.0209399         -28.966                0               0
76.26                   0.149884        -11.9167                0               0        0.0475111        -14.9839                0               0
                       0.0195265        -33.1954                0               0         0.986839         78.3359                0               0
                        0.047513         -14.984                0               0          0.14987        -11.9735                0               0
                        0.986835         78.3395                0               0        0.0195238        -33.2285                0               0
76.305                  0.141917        -14.3102                0               0        0.0508953        -16.6512                0               0
                       0.0180319        -37.8726                0               0         0.988407         75.9951                0               0
                       0.0508967        -16.6514                0               0         0.141901        -14.3719                0               0
                        0.988403         75.9987                0               0        0.0180288        -37.9098                0               0
76.35                   0.133702        -16.7532                0               0        0.0544737        -18.3271                0               0
                       0.0164835        -43.1024                0               0         0.990322         73.6477                0               0
                       0.0544744         -18.328                0               0         0.133685        -16.8207                0               0
                        0.990319         73.6512                0               0          0.01648        -43.1454                0               0
76.395                  0.125268        -19.2498                0               0        0.0581904        -19.9632                0               0
                       0.0149172        -49.0302                0               0         0.992563          71.298                0               0
                       0.0581906        -19.9653                0               0         0.125249        -19.3237                0               0
                        0.992561         71.3016                0               0        0.0149137         -49.081                0               0
76.44                   0.116644        -21.7969                0               0        0.0619376        -21.5437                0               0
                       0.0133724        -55.7822                0               0         0.995028         68.9509                0               0
