! TOUCHSTONE file generated by CST MICROWAVE STUDIO
! Date and time: Mon Jun 21 17:06:17 2021
! Project name: HIPS_d_sweep.cst
! Parameters = {a=0.735; b=0.393; d=16.0503; fmax=120; fmin=75; phi=0; theta=0}
! Header version: 2018
! Port assignment regex: !\s*Touchstone port\s*([0-9]+)\s*=\s*(CST MWS port|CST DS port)\s*([0-9]+|Zmin|Zmax)\s*\(\"(.*)\"\)(\s*mode\s*([0-9]+))?.*
! Touchstone port assignment:
! Touchstone port 1 = CST MWS port Zmin ("") mode 1
! Touchstone port 2 = CST MWS port Zmin ("") mode 2
! Touchstone port 3 = CST MWS port Zmax ("") mode 1
! Touchstone port 4 = CST MWS port Zmax ("") mode 2
! S-Parameters are not renormalized. Unphysical impedance of 0 will be written to the file.
# GHz S MA R 0
75                     0.0965007         18.2694                0               0         0.508522         150.884                0               0
                        0.126214        -12.4067                0               0         0.846264          59.494                0               0
                        0.508522         150.884                0               0        0.0965507           18.33                0               0
                        0.846265         59.4947                0               0         0.126177        -12.3636                0               0
75.045                 0.0957848         18.4872                0               0          0.51098         150.199                0               0
                        0.126514        -13.5011                0               0          0.84603         58.8585                0               0
                        0.510982         150.199                0               0        0.0958358         18.5484                0               0
                        0.846028          58.859                0               0         0.126475        -13.4576                0               0
75.09                  0.0950098         18.7448                0               0         0.513258         149.492                0               0
                        0.126719         -14.626                0               0         0.845748          58.202                0               0
                        0.513261         149.492                0               0        0.0950621         18.8066                0               0
                        0.845744         58.2024                0               0         0.126679        -14.5821                0               0
75.135                 0.0941736         19.0442                0               0         0.515336         148.761                0               0
                        0.126822        -15.7875                0               0         0.845399         57.5222                0               0
                         0.51534         148.761                0               0        0.0942273         19.1066                0               0
                        0.845394         57.5225                0               0          0.12678        -15.7433                0               0
75.18                  0.0932743         19.3876                0               0         0.517195         148.005                0               0
                        0.126814        -16.9925                0               0         0.844963         56.8163                0               0
                          0.5172         148.005                0               0        0.0933298         19.4506                0               0
                        0.844958         56.8166                0               0         0.126771        -16.9479                0               0
75.225                 0.0923112         19.7775                0               0         0.518815          147.22                0               0
                        0.126692         -18.249                0               0         0.844427         56.0814                0               0
                         0.51882          147.22                0               0        0.0923687         19.8412                0               0
                        0.844422         56.0816                0               0         0.126647         -18.204                0               0
75.27                   0.091284         20.2166                0               0          0.52018         146.404                0               0
                        0.126451        -19.5655                0               0         0.843779         55.3139                0               0
                        0.520185         146.404                0               0        0.0913438          20.281                0               0
                        0.843774         55.3142                0               0         0.126405        -19.5201                0               0
75.315                 0.0901936         20.7082                0               0         0.521277         145.552                0               0
                        0.126093         -20.951                0               0         0.843016         54.5103                0               0
                         0.52128         145.552                0               0        0.0902561         20.7734                0               0
                        0.843013         54.5106                0               0         0.126046        -20.9051                0               0
75.36                  0.0890419         21.2559                0               0         0.522094         144.662                0               0
                        0.125622        -22.4148                0               0         0.842145         53.6665                0               0
                        0.522097         144.662                0               0        0.0891073         21.3218                0               0
                        0.842142         53.6669                0               0         0.125574        -22.3682                0               0
75.405                  0.087832          21.864                0               0         0.522629          143.73                0               0
                        0.125045        -23.9658                0               0         0.841179         52.7787                0               0
                        0.522631          143.73                0               0        0.0879005         21.9306                0               0
                        0.841177         52.7792                0               0         0.124996        -23.9185                0               0
75.45                  0.0865682         22.5372                0               0         0.522882         142.752                0               0
                        0.124374        -25.6124                0               0         0.840146         51.8432                0               0
                        0.522884         142.752                0               0        0.0866402         22.6046                0               0
                        0.840146         51.8437                0               0         0.124323        -25.5644                0               0
75.495                 0.0852563         23.2811                0               0         0.522862         141.725                0               0
                        0.123622         -27.362                0               0         0.839085         50.8564                0               0
                        0.522863         141.725                0               0         0.085332         23.3491                0               0
                        0.839086         50.8571                0               0          0.12357        -27.3132                0               0
75.54                  0.0839035         24.1018                0               0         0.522585         140.644                0               0
                        0.122807        -29.2203                0               0         0.838046         49.8156                0               0
                        0.522585         140.644                0               0        0.0839834         24.1704                0               0
                        0.838047         49.8165                0               0         0.122754        -29.1705                0               0
75.585                 0.0825189         25.0063                0               0         0.522072         139.509                0               0
                        0.121945        -31.1913                0               0         0.837088         48.7192                0               0
                        0.522072         139.508                0               0        0.0826032         25.0753                0               0
                        0.837089         48.7201                0               0         0.121891        -31.1405                0               0
75.63                  0.0811133          26.002                0               0         0.521353         138.315                0               0
                        0.121057        -33.2767                0               0         0.836275         47.5663                0               0
                        0.521352         138.315                0               0        0.0812023         26.0712                0               0
                        0.836276         47.5674                0               0         0.121001        -33.2248                0               0
75.675                 0.0796994          27.097                0               0         0.520461         137.064                0               0
                        0.120159        -35.4763                0               0         0.835673         46.3579                0               0
                         0.52046         137.063                0               0        0.0797935         27.1662                0               0
                        0.835673         46.3591                0               0           0.1201        -35.4232                0               0
75.72                  0.0782921         28.2995                0               0         0.519432         135.754                0               0
                        0.119267        -37.7874                0               0         0.835343         45.0961                0               0
                         0.51943         135.753                0               0        0.0783916         28.3684                0               0
                        0.835343         45.0973                0               0         0.119206        -37.7332                0               0
75.765                 0.0769088         29.6179                0               0         0.518302         134.387                0               0
                        0.118393        -40.2058                0               0         0.835337         43.7844                0               0
                          0.5183         134.386                0               0         0.077014         29.6861                0               0
                        0.835336         43.7856                0               0         0.118329        -40.1503                0               0
75.81                  0.0755689           31.06                0               0         0.517106         132.966                0               0
                        0.117547        -42.7255                0               0         0.835692         42.4273                0               0
                        0.517105         132.965                0               0        0.0756801          31.127                0               0
                         0.83569         42.4285                0               0         0.117481        -42.6688                0               0
75.855                 0.0742946         32.6324                0               0         0.515874         131.494                0               0
                        0.116735        -45.3391                0               0         0.836426         41.0304                0               0
                        0.515873         131.493                0               0         0.074412         32.6975                0               0
                        0.836424         41.0316                0               0         0.116665        -45.2812                0               0
75.9                   0.0731103         34.3398                0               0          0.51463         129.976                0               0
                        0.115958        -48.0388                0               0          0.83754         39.5996                0               0
                        0.514629         129.976                0               0        0.0732341         34.4025                0               0
                        0.837537         39.6007                0               0         0.115885        -47.9797                0               0
75.945                 0.0720428         36.1841                0               0          0.51339         128.418                0               0
                        0.115215        -50.8161                0               0         0.839013         38.1407                0               0
                        0.513389         128.418                0               0         0.072173         36.2436                0               0
                         0.83901         38.1418                0               0         0.115138        -50.7558                0               0
75.99                  0.0711205         38.1632                0               0         0.512161         126.827                0               0
                          0.1145        -53.6625                0               0         0.840809         36.6595                0               0
                        0.512161         126.827                0               0        0.0712572         38.2186                0               0
                        0.840806         36.6605                0               0          0.11442        -53.6011                0               0
76.035                 0.0703732         40.2699                0               0         0.510942         125.208                0               0
                        0.113808        -56.5697                0               0         0.842877         35.1611                0               0
                        0.510942         125.207                0               0        0.0705163         40.3203                0               0
                        0.842874          35.162                0               0         0.113723        -56.5072                0               0
76.08                  0.0698309          42.491                0               0         0.509726         123.567                0               0
                        0.113129        -59.5299                0               0         0.845154         33.6499                0               0
                        0.509726         123.567                0               0        0.0699803         42.5354                0               0
                        0.845152         33.6508                0               0         0.113039        -59.4663                0               0
76.125                 0.0695229         44.8065                0               0         0.508497         121.912                0               0
                        0.112452        -62.5355                0               0         0.847573         32.1297                0               0
                        0.508497         121.912                0               0        0.0696782         44.8441                0               0
                        0.847571         32.1305                0               0         0.112357         -62.471                0               0
76.17                  0.0694761         47.1896                0               0         0.507237         120.249                0               0
                        0.111766        -65.5796                0               0         0.850063         30.6036                0               0
                        0.507237         120.249                0               0         0.069637         47.2196                0               0
                        0.850062         30.6044                0               0         0.111667        -65.5141                0               0
76.215                 0.0697139         49.6074                0               0         0.505923         118.582                0               0
                        0.111062        -68.6558                0               0         0.852554         29.0739                0               0
                        0.505923         118.582                0               0        0.0698796         49.6291                0               0
                        0.852554         29.0747                0               0         0.110958        -68.5895                0               0
76.26                   0.070254         52.0219                0               0         0.504532         116.917                0               0
                        0.110327        -71.7582                0               0         0.854979         27.5426                0               0
                        0.504532         116.917                0               0         0.070424          52.035                0               0
                        0.854979         27.5433                0               0         0.110218         -71.691                0               0
76.305                 0.0711082         54.3927                0               0         0.503041         115.258                0               0
                        0.109553        -74.8811                0               0         0.857275         26.0111                0               0
                        0.503041         115.258                0               0        0.0712817         54.3969                0               0
                        0.857276         26.0119                0               0         0.109439        -74.8131                0               0
76.35                  0.0722803         56.6789                0               0          0.50143          113.61                0               0
                        0.108732        -78.0194                0               0         0.859386         24.4808                0               0
                         0.50143          113.61                0               0        0.0724566         56.6744                0               0
                        0.859387         24.4815                0               0         0.108612        -77.9507                0               0
76.395                 0.0737668         58.8422                0               0          0.49968         111.976                0               0
                        0.107855        -81.1681                0               0         0.861262         22.9525                0               0
                         0.49968         111.976                0               0        0.0739452         58.8294                0               0
                        0.861263         22.9533                0               0          0.10773        -81.0988                0               0
76.44                  0.0755563         60.8493                0               0         0.497777         110.359                0               0
                        0.106919        -84.3225                0               0         0.862862         21.4274                0               0
