! TOUCHSTONE file generated by CST MICROWAVE STUDIO
! Date and time: Mon Jun 21 17:07:28 2021
! Project name: HIPS_d_sweep.cst
! Parameters = {a=0.735; b=0.393; d=24.392; fmax=120; fmin=75; phi=0; theta=0}
! Header version: 2018
! Port assignment regex: !\s*Touchstone port\s*([0-9]+)\s*=\s*(CST MWS port|CST DS port)\s*([0-9]+|Zmin|Zmax)\s*\(\"(.*)\"\)(\s*mode\s*([0-9]+))?.*
! Touchstone port assignment:
! Touchstone port 1 = CST MWS port Zmin ("") mode 1
! Touchstone port 2 = CST MWS port Zmin ("") mode 2
! Touchstone port 3 = CST MWS port Zmax ("") mode 1
! Touchstone port 4 = CST MWS port Zmax ("") mode 2
! S-Parameters are not renormalized. Unphysical impedance of 0 will be written to the file.
# GHz S MA R 0
75                      0.211933          75.613                0               0        0.0232486         63.1764                0               0
                       0.0240879         63.7574                0               0          0.97671         165.804                0               0
                       0.0232481         63.1781                0               0         0.211941         75.6732                0               0
                        0.976711         165.803                0               0        0.0240515         64.2329                0               0
75.045                  0.213006         75.0187                0               0        0.0195168          59.679                0               0
                       0.0236368          65.024                0               0         0.976743         165.102                0               0
                       0.0195385         59.6955                0               0         0.213014          75.079                0               0
                        0.976745           165.1                0               0        0.0236048         65.5086                0               0
75.09                   0.214258         74.2661                0               0        0.0161009         55.4699                0               0
                       0.0232698         66.0169                0               0         0.976583          164.31                0               0
                       0.0161268         55.4991                0               0         0.214266         74.3266                0               0
                        0.976584         164.309                0               0        0.0232429         66.5115                0               0
75.135                  0.215704         73.3863                0               0        0.0130618         50.1671                0               0
                       0.0230047         66.7384                0               0         0.976276          163.43                0               0
                       0.0130815          50.203                0               0         0.215712         73.4471                0               0
                        0.976278         163.429                0               0        0.0229831         67.2429                0               0
75.18                   0.217335         72.4009                0               0        0.0104622         43.2319                0               0
                       0.0228525         67.1934                0               0         0.975867         162.461                0               0
                       0.0104714         43.2614                0               0         0.217342         72.4621                0               0
                        0.975868          162.46                0               0         0.022836         67.7063                0               0
75.225                  0.219131         71.3244                0               0        0.0083686         34.0238                0               0
                       0.0228184         67.3862                0               0         0.975392         161.404                0               0
                      0.00836801         34.0246                0               0         0.219138          71.386                0               0
                        0.975393         161.402                0               0        0.0228066         67.9056                0               0
75.27                   0.221068         70.1665                0               0        0.0068454         22.1543                0               0
                       0.0229028         67.3199                0               0         0.974883         160.259                0               0
                      0.00683934         22.1004                0               0         0.221075         70.2285                0               0
                        0.974885         160.258                0               0        0.0228949          67.843                0               0
75.315                  0.223122         68.9333                0               0       0.00592197         8.31219                0               0
                       0.0231016         66.9954                0               0         0.974367         159.029                0               0
                      0.00591586         8.20021                0               0         0.223129         68.9957                0               0
                        0.974368         159.028                0               0        0.0230969         67.5193                0               0
75.36                   0.225267         67.6285                0               0       0.00553552        -5.25632                0               0
                       0.0234074         66.4128                0               0         0.973862         157.716                0               0
                       0.0055326        -5.38476                0               0         0.225274         67.6914                0               0
                        0.973863         157.714                0               0        0.0234051         66.9347                0               0
75.405                  0.227478         66.2544                0               0       0.00552335        -16.0612                0               0
                       0.0238099         65.5722                0               0         0.973382         156.322                0               0
                      0.00552319        -16.1465                0               0         0.227485         66.3177                0               0
                        0.973383         156.321                0               0         0.023809           66.09                0               0
75.45                   0.229729          64.812                0               0        0.0057056        -23.0228                0               0
                       0.0242961         64.4759                0               0         0.972934          154.85                0               0
                      0.00570587        -23.0274                0               0         0.229737         64.8758                0               0
                        0.972935         154.849                0               0        0.0242958         64.9877                0               0
75.495                  0.231993         63.3019                0               0       0.00596219        -26.3387                0               0
                       0.0248511         63.1288                0               0         0.972522         153.304                0               0
                      0.00596094        -26.2506                0               0         0.232001         63.3663                0               0
                        0.972522         153.303                0               0        0.0248505         63.6336                0               0
75.54                   0.234242         61.7245                0               0       0.00624506          -26.64                0               0
                       0.0254585         61.5395                0               0         0.972143         151.687                0               0
                      0.00624176        -26.4615                0               0         0.234252         61.7895                0               0
                        0.972143         151.686                0               0        0.0254569          62.037                0               0
75.585                  0.236449         60.0799                0               0       0.00655847        -24.5795                0               0
                       0.0261014         59.7207                0               0         0.971793         150.004                0               0
                      0.00655398        -24.3222                0               0         0.236459         60.1455                0               0
                        0.971794         150.002                0               0        0.0260981         60.2109                0               0
75.63                   0.238583         58.3687                0               0       0.00693652        -20.7819                0               0
                       0.0267623         57.6884                0               0         0.971465         148.257                0               0
                      0.00693258        -20.4656                0               0         0.238594          58.435                0               0
                        0.971466         148.255                0               0        0.0267568          58.172                0               0
75.675                  0.240612         56.5916                0               0       0.00742428        -15.8808                0               0
                       0.0274247         55.4614                0               0         0.971151         146.451                0               0
                       0.0074227        -15.5324                0               0         0.240623         56.6586                0               0
                        0.971152          146.45                0               0        0.0274167         55.9393                0               0
75.72                   0.242503           54.75                0               0       0.00806258        -10.5076                0               0
                       0.0280731         53.0605                0               0         0.970843         144.591                0               0
                      0.00806457        -10.1566                0               0         0.242516         54.8179                0               0
                        0.970843          144.59                0               0        0.0280624         53.5337                0               0
75.765                  0.244223         52.8462                0               0       0.00887818        -5.21729                0               0
                       0.0286938         50.5071                0               0         0.970532         142.681                0               0
                      0.00888391         -4.8895                0               0         0.244237         52.9149                0               0
                        0.970533         142.679                0               0        0.0286803         50.9767                0               0
75.81                   0.245738         50.8829                0               0       0.00988083       -0.410328                0               0
                       0.0292753         47.8222                0               0         0.970215         140.724                0               0
                      0.00988957       -0.123183                0               0         0.245753         50.9525                0               0
                        0.970216         140.723                0               0         0.029259         48.2892                0               0
75.855                  0.247017         48.8641                0               0        0.0110664          3.6927                0               0
                       0.0298082         45.0255                0               0          0.96989         138.726                0               0
                       0.0110768         3.93088                0               0         0.247032         48.9348                0               0
                         0.96989         138.725                0               0        0.0297892          45.491                0               0
75.9                    0.248027         46.7947                0               0        0.0124223         7.02027                0               0
                       0.0302858         42.1348                0               0         0.969557         136.691                0               0
                        0.012433         7.20827                0               0         0.248043         46.8664                0               0
                        0.969558         136.689                0               0        0.0302641         42.5996                0               0
75.945                  0.248741         44.6803                0               0        0.0139331         9.59593                0               0
                       0.0307034         39.1653                0               0         0.969224         134.622                0               0
                       0.0139427         9.73694                0               0         0.248759         44.7532                0               0
                        0.969225          134.62                0               0         0.030679         39.6302                0               0
75.99                   0.249137         42.5276                0               0        0.0155833         11.4905                0               0
                       0.0310581         36.1295                0               0         0.968902         132.523                0               0
                        0.015591           11.59                0               0         0.249155         42.6018                0               0
                        0.968903         132.521                0               0        0.0310311         36.5952                0               0
76.035                  0.249196         40.3438                0               0        0.0173601          12.791                0               0
                       0.0313487         33.0375                0               0         0.968608         130.398                0               0
                       0.0173656         12.8553                0               0         0.249216         40.4193                0               0
                         0.96861         130.396                0               0        0.0313189         33.5046                0               0
76.08                    0.24891         38.1364                0               0        0.0192535         13.5842                0               0
                       0.0315751         29.8966                0               0         0.968365          128.25                0               0
                        0.019257         13.6199                0               0         0.248931         38.2133                0               0
                        0.968367         128.248                0               0        0.0315423         30.3659                0               0
76.125                  0.248274         35.9127                0               0        0.0212568         13.9501                0               0
                       0.0317378         26.7126                0               0         0.968197         126.082                0               0
                       0.0212589         13.9639                0               0         0.248296          35.991                0               0
                        0.968199          126.08                0               0        0.0317018         27.1845                0               0
76.17                   0.247292         33.6795                0               0         0.023366         13.9611                0               0
                       0.0318378         23.4897                0               0         0.968133         123.897                0               0
                       0.0233676         13.9596                0               0         0.247316         33.7593                0               0
                        0.968136         123.896                0               0        0.0317982         23.9647                0               0
76.215                  0.245973         31.4423                0               0        0.0255789         13.6827                0               0
                       0.0318756         20.2311                0               0         0.968203         121.699                0               0
                       0.0255808         13.6725                0               0         0.245998         31.5237                0               0
                        0.968207         121.697                0               0        0.0318319         20.7099                0               0
76.26                   0.244328         29.2053                0               0        0.0278929         13.1757                0               0
                       0.0318514         16.9401                0               0         0.968434          119.49                0               0
                       0.0278957         13.1626                0               0         0.244355         29.2884                0               0
                        0.968437         119.489                0               0        0.0318033          17.423                0               0
76.305                  0.242371         26.9708                0               0        0.0303022         12.4961                0               0
                       0.0317644         13.6198                0               0         0.968845         117.274                0               0
                       0.0303056         12.4849                0               0         0.242399         27.0556                0               0
                        0.968849         117.272                0               0        0.0317115         14.1075                0               0
76.35                   0.240107         24.7396                0               0        0.0327933          11.693                0               0
                       0.0316126         10.2745                0               0         0.969444         115.053                0               0
                       0.0327965         11.6865                0               0         0.240137         24.8263                0               0
                        0.969448         115.052                0               0        0.0315546         10.7674                0               0
76.395                  0.237539         22.5114                0               0        0.0353412         10.8026                0               0
                       0.0313927         6.90901                0               0         0.970223         112.832                0               0
                       0.0353427         10.8014                0               0          0.23757            22.6                0               0
                        0.970227         112.831                0               0        0.0313292         7.40778                0               0
76.44                   0.234659         20.2856                0               0        0.0379085         9.84039                0               0
                       0.0310997         3.52939                0               0         0.971149         110.615                0               0
