! TOUCHSTONE file generated by CST MICROWAVE STUDIO
! Date and time: Mon Jun 21 17:06:59 2021
! Project name: HIPS_d_sweep.cst
! Parameters = {a=0.735; b=0.393; d=21.1759; fmax=120; fmin=75; phi=0; theta=0}
! Header version: 2018
! Port assignment regex: !\s*Touchstone port\s*([0-9]+)\s*=\s*(CST MWS port|CST DS port)\s*([0-9]+|Zmin|Zmax)\s*\(\"(.*)\"\)(\s*mode\s*([0-9]+))?.*
! Touchstone port assignment:
! Touchstone port 1 = CST MWS port Zmin ("") mode 1
! Touchstone port 2 = CST MWS port Zmin ("") mode 2
! Touchstone port 3 = CST MWS port Zmax ("") mode 1
! Touchstone port 4 = CST MWS port Zmax ("") mode 2
! S-Parameters are not renormalized. Unphysical impedance of 0 will be written to the file.
# GHz S MA R 0
75                      0.157627          89.456                0               0         0.184894        -90.2051                0               0
                       0.0369297        -143.614                0               0         0.969331        -179.073                0               0
                        0.184894        -90.2045                0               0          0.15765         89.3646                0               0
                         0.96933        -179.073                0               0        0.0368818        -143.653                0               0
75.045                  0.158851         88.9813                0               0         0.188201        -90.7977                0               0
                       0.0376573        -144.967                0               0         0.968459        -179.807                0               0
                        0.188199         -90.797                0               0         0.158872         88.8925                0               0
                        0.968457        -179.809                0               0        0.0376049         -145.01                0               0
75.09                   0.160241         88.3234                0               0         0.191127        -91.4828                0               0
                       0.0382536        -146.531                0               0         0.967363         179.439                0               0
                        0.191125        -91.4821                0               0          0.16026         88.2356                0               0
                        0.967352         179.436                0               0        0.0381994        -146.577                0               0
75.135                  0.161898         87.5159                0               0         0.193669        -92.2555                0               0
                       0.0387336         -148.33                0               0         0.966262         178.665                0               0
                        0.193667        -92.2549                0               0         0.161917         87.4282                0               0
                        0.966239         178.662                0               0        0.0386795        -148.376                0               0
75.18                   0.163868         86.5991                0               0         0.195826        -93.1108                0               0
                       0.0391154        -150.377                0               0         0.965474         177.862                0               0
                        0.195824        -93.1102                0               0         0.163889         86.5114                0               0
                        0.965449          177.86                0               0        0.0390623        -150.422                0               0
75.225                  0.166147         85.6091                0               0         0.197602        -94.0434                0               0
                       0.0394184         -152.68                0               0         0.965295         177.004                0               0
                        0.197601        -94.0428                0               0         0.166171         85.5218                0               0
                        0.965294         177.004                0               0        0.0393664        -152.723                0               0
75.27                   0.168699          84.572                0               0         0.199003        -95.0481                0               0
                       0.0396616         -155.24                0               0           0.9657         176.053                0               0
                        0.199003        -95.0476                0               0         0.168726         84.4857                0               0
                        0.965741         176.054                0               0        0.0396104        -155.281                0               0
75.315                  0.171471         83.5032                0               0         0.200041        -96.1197                0               0
                       0.0398633        -158.051                0               0         0.966178         174.981                0               0
                        0.200042        -96.1194                0               0         0.171501         83.4182                0               0
                        0.966246          174.98                0               0        0.0398121        -158.091                0               0
75.36                    0.17441         82.4085                0               0         0.200728        -97.2533                0               0
                       0.0400398        -161.103                0               0         0.966088         173.791                0               0
                        0.200728         -97.253                0               0          0.17444          82.325                0               0
                        0.966151         173.789                0               0        0.0399879        -161.143                0               0
75.405                  0.177464         81.2874                0               0         0.201078        -98.4441                0               0
                       0.0402049        -164.383                0               0         0.965155         172.513                0               0
                        0.201078        -98.4439                0               0         0.177493         81.2051                0               0
                        0.965194          172.51                0               0        0.0401517        -164.426                0               0
75.45                   0.180591         80.1347                0               0         0.201107        -99.6877                0               0
                       0.0403702        -167.874                0               0         0.963496         171.168                0               0
                        0.201107        -99.6874                0               0         0.180618         80.0535                0               0
                        0.963513         171.167                0               0        0.0403153        -167.921                0               0
75.495                  0.183757         78.9431                0               0         0.200834         -100.98                0               0
                       0.0405445        -171.556                0               0         0.961381         169.771                0               0
                        0.200834         -100.98                0               0         0.183781         78.8627                0               0
                        0.961382         169.771                0               0        0.0404879         -171.61                0               0
75.54                   0.186937         77.7042                0               0         0.200276        -102.317                0               0
                        0.040734         -175.41                0               0         0.959059         168.325                0               0
                        0.200275        -102.317                0               0         0.186958         77.6241                0               0
                        0.959052         168.326                0               0        0.0406761        -175.474                0               0
75.585                  0.190116         76.4097                0               0         0.199453        -103.696                0               0
                       0.0409427        -179.415                0               0         0.956722         166.828                0               0
                        0.199451        -103.696                0               0         0.190135         76.3296                0               0
                         0.95671         166.831                0               0        0.0408842         -179.49                0               0
75.63                   0.193289         75.0521                0               0         0.198383        -105.115                0               0
                       0.0411724         176.448                0               0         0.954503         165.282                0               0
                         0.19838        -105.114                0               0         0.193306         74.9719                0               0
                        0.954489         165.285                0               0        0.0411144          176.36                0               0
75.675                  0.196457          73.626                0               0         0.197087         -106.57                0               0
                       0.0414231         172.199                0               0         0.952498         163.685                0               0
                        0.197083         -106.57                0               0         0.196474         73.5458                0               0
                        0.952484         163.688                0               0        0.0413669         172.097                0               0
75.72                   0.199631         72.1287                0               0         0.195584        -108.061                0               0
                       0.0416937         167.854                0               0         0.950778         162.038                0               0
                         0.19558        -108.061                0               0         0.199648         72.0486                0               0
                        0.950762         162.042                0               0        0.0416407         167.739                0               0
75.765                  0.202822         70.5607                0               0         0.193894        -109.586                0               0
                       0.0419824         163.428                0               0         0.949391         160.344                0               0
                        0.193889        -109.586                0               0         0.202841         70.4809                0               0
                        0.949374         160.348                0               0        0.0419341         163.301                0               0
75.81                   0.206043         68.9259                0               0         0.192038        -111.145                0               0
                       0.0422875         158.933                0               0         0.948369         158.606                0               0
                        0.192032        -111.145                0               0         0.206065         68.8469                0               0
                        0.948351         158.609                0               0        0.0422451         158.797                0               0
75.855                  0.209301         67.2314                0               0         0.190035        -112.738                0               0
                       0.0426083         154.379                0               0         0.947729         156.826                0               0
                        0.190029        -112.738                0               0         0.209325         67.1537                0               0
                        0.947712          156.83                0               0        0.0425724         154.237                0               0
75.9                    0.212593         65.4867                0               0         0.187908        -114.364                0               0
                       0.0429458         149.773                0               0         0.947474          155.01                0               0
                        0.187902        -114.364                0               0         0.212619         65.4105                0               0
                        0.947458         155.013                0               0        0.0429162         149.629                0               0
75.945                  0.215905          63.702                0               0         0.185678        -116.023                0               0
                       0.0433037         145.122                0               0         0.947595         153.162                0               0
                        0.185672        -116.022                0               0         0.215933         63.6275                0               0
                        0.947579         153.164                0               0        0.0432795         144.981                0               0
75.99                   0.219212         61.8874                0               0         0.183368        -117.714                0               0
                       0.0436888         140.435                0               0         0.948067         151.287                0               0
                        0.183363        -117.714                0               0          0.21924         61.8148                0               0
                        0.948053         151.288                0               0        0.0436677         140.299                0               0
76.035                  0.222475         60.0518                0               0            0.181        -119.438                0               0
                       0.0441107         135.721                0               0         0.948855         149.389                0               0
                        0.180996        -119.438                0               0         0.222503         59.9811                0               0
                        0.948843          149.39                0               0        0.0440898         135.594                0               0
76.08                   0.225651         58.2019                0               0         0.178599        -121.191                0               0
                       0.0445811         130.997                0               0         0.949913         147.473                0               0
                        0.178595        -121.191                0               0         0.225678          58.133                0               0
                        0.949904         147.473                0               0        0.0445568          130.88                0               0
76.125                  0.228692         56.3428                0               0         0.176186        -122.972                0               0
                       0.0451109         126.285                0               0         0.951185         145.543                0               0
                        0.176183        -122.972                0               0         0.228718         56.2754                0               0
                        0.951179         145.544                0               0          0.04508         126.176                0               0
76.17                   0.231551         54.4775                0               0         0.173782        -124.777                0               0
                        0.045708         121.613                0               0         0.952608         143.605                0               0
                         0.17378        -124.777                0               0         0.231575         54.4116                0               0
                        0.952605         143.605                0               0         0.045668         121.511                0               0
76.215                  0.234184         52.6081                0               0         0.171406          -126.6                0               0
                       0.0463736         117.015                0               0         0.954115         141.661                0               0
                        0.171406          -126.6                0               0         0.234206         52.5434                0               0
                        0.954114         141.661                0               0        0.0463235         116.914                0               0
76.26                    0.23655         50.7358                0               0         0.169074        -128.433                0               0
                       0.0471006         112.519                0               0         0.955634         139.715                0               0
                        0.169074        -128.433                0               0         0.236571          50.672                0               0
                        0.955636         139.714                0               0        0.0470411         112.418                0               0
76.305                  0.238617         48.8614                0               0         0.166795        -130.271                0               0
                       0.0478736         108.154                0               0         0.957093          137.77                0               0
                        0.166796         -130.27                0               0         0.238636         48.7986                0               0
                        0.957096          137.77                0               0        0.0478068         108.049                0               0
76.35                   0.240355          46.986                0               0         0.164578        -132.102                0               0
                       0.0486708         103.935                0               0          0.95842         135.829                0               0
                        0.164579        -132.102                0               0         0.240373          46.924                0               0
                        0.958425         135.828                0               0        0.0485994         103.826                0               0
76.395                  0.241742          45.111                0               0         0.162424        -133.919                0               0
                       0.0494678         99.8702                0               0         0.959549         133.894                0               0
                        0.162425        -133.919                0               0          0.24176         45.0497                0               0
                        0.959555         133.893                0               0        0.0493946         99.7562                0               0
76.44                   0.242762          43.238                0               0         0.160332        -135.713                0               0
                       0.0502401         95.9567                0               0         0.960417         131.967                0               0
