! TOUCHSTONE file generated by CST MICROWAVE STUDIO
! Date and time: Mon Jun 21 17:07:38 2021
! Project name: HIPS_d_sweep.cst
! Parameters = {a=0.735; b=0.393; d=25.3467; fmax=120; fmin=75; phi=0; theta=0}
! Header version: 2018
! Port assignment regex: !\s*Touchstone port\s*([0-9]+)\s*=\s*(CST MWS port|CST DS port)\s*([0-9]+|Zmin|Zmax)\s*\(\"(.*)\"\)(\s*mode\s*([0-9]+))?.*
! Touchstone port assignment:
! Touchstone port 1 = CST MWS port Zmin ("") mode 1
! Touchstone port 2 = CST MWS port Zmin ("") mode 2
! Touchstone port 3 = CST MWS port Zmax ("") mode 1
! Touchstone port 4 = CST MWS port Zmax ("") mode 2
! S-Parameters are not renormalized. Unphysical impedance of 0 will be written to the file.
# GHz S MA R 0
75                     0.0506359        -34.1692                0               0        0.0809326        -34.2046                0               0
                      0.00491233         -156.73                0               0         0.995422         55.6857                0               0
                       0.0809322        -34.2039                0               0        0.0506051        -33.9292                0               0
                        0.995421         55.6842                0               0       0.00485077        -156.956                0               0
75.045                 0.0479112        -34.7941                0               0        0.0770649        -35.0437                0               0
                      0.00417115        -151.613                0               0          0.99575          54.914                0               0
                       0.0770636        -35.0432                0               0        0.0478817        -34.5422                0               0
                        0.995751         54.9127                0               0       0.00410722        -151.804                0               0
75.09                  0.0447297        -35.5783                0               0        0.0734443        -35.9576                0               0
                      0.00356889        -147.585                0               0         0.996095          54.052                0               0
                       0.0734426        -35.9571                0               0        0.0447012        -35.3105                0               0
                        0.996097         54.0507                0               0       0.00350433        -147.731                0               0
75.135                 0.0410945        -36.5064                0               0        0.0701289         -36.946                0               0
                      0.00306809        -145.365                0               0         0.996451         53.0976                0               0
                       0.0701271        -36.9455                0               0        0.0410666        -36.2175                0               0
                        0.996454         53.0963                0               0        0.0030042        -145.477                0               0
75.18                  0.0370099        -37.5649                0               0        0.0671676        -38.0091                0               0
                      0.00264138        -145.878                0               0          0.99681         52.0495                0               0
                        0.067166        -38.0085                0               0        0.0369826        -37.2472                0               0
                        0.996813         52.0482                0               0       0.00257908        -146.002                0               0
75.225                  0.032482        -38.7409                0               0        0.0645987        -39.1484                0               0
                      0.00228126         -150.34                0               0         0.997161          50.907                0               0
                       0.0645972        -39.1477                0               0        0.0324554        -38.3828                0               0
                        0.997163         50.9056                0               0       0.00222143        -150.577                0               0
75.27                  0.0275187        -40.0209                0               0         0.062449        -40.3672                0               0
                      0.00201402        -160.155                0               0         0.997492           49.67                0               0
                       0.0624479        -40.3664                0               0        0.0274928        -39.6034                0               0
                        0.997494         49.6685                0               0       0.00195852        -160.667                0               0
75.315                 0.0221297        -41.3878                0               0        0.0607349        -41.6701                0               0
                      0.00191082        -175.735                0               0         0.997789         48.3393                0               0
                        0.060734        -41.6693                0               0        0.0221048        -40.8761                0               0
                         0.99779         48.3378                0               0       0.00186363        -176.638                0               0
75.36                  0.0163268         -42.812                0               0        0.0594619         -43.063                0               0
                      0.00205987         165.907                0               0         0.998038         46.9163                0               0
                       0.0594612        -43.0621                0               0        0.0163033        -42.1295                0               0
                        0.998039         46.9148                0               0       0.00202514         164.778                0               0
75.405                  0.010124        -44.2056                0               0        0.0586264        -44.5519                0               0
                      0.00249124         149.781                0               0         0.998225         45.4032                0               0
                       0.0586259         -44.551                0               0        0.0101029        -43.1246                0               0
                        0.998226         45.4016                0               0       0.00246881         148.736                0               0
75.45                 0.00353829        -44.8534                0               0         0.058217        -46.1418                0               0
                      0.00316586         137.928                0               0         0.998338         43.8026                0               0
                       0.0582166        -46.1408                0               0       0.00352481        -41.8148                0               0
                        0.998339          43.801                0               0       0.00315228         137.098                0               0
75.495                0.00341631          130.11                0               0        0.0582156        -47.8359                0               0
                       0.0040334         129.554                0               0         0.998366          42.118                0               0
                       0.0582153        -47.8348                0               0       0.00344865         127.102                0               0
                        0.998367         42.1162                0               0       0.00402529         128.926                0               0
75.54                  0.0107112         129.398                0               0        0.0585994        -49.6346                0               0
                       0.0050595         123.399                0               0           0.9983         40.3529                0               0
                       0.0585991        -49.6336                0               0        0.0107351         128.456                0               0
                        0.998301         40.3512                0               0       0.00505458         122.926                0               0
75.585                 0.0183275         127.707                0               0        0.0593422        -51.5357                0               0
                      0.00622335         118.563                0               0         0.998133         38.5118                0               0
                       0.0593419        -51.5347                0               0        0.0183484         127.172                0               0
                        0.998135           38.51                0               0       0.00622021         118.204                0               0
75.63                  0.0262385         125.825                0               0        0.0604156        -53.5342                0               0
                      0.00751125         114.495                0               0         0.997863         36.5991                0               0
                       0.0604152        -53.5332                0               0         0.026257         125.464                0               0
                        0.997865         36.5973                0               0         0.007509         114.221                0               0
75.675                  0.034416         123.843                0               0        0.0617902         -55.623                0               0
                      0.00891254          110.87                0               0         0.997488         34.6197                0               0
                       0.0617898        -55.6219                0               0        0.0344322         123.578                0               0
                         0.99749         34.6179                0               0       0.00891062         110.658                0               0
75.72                  0.0428293         121.789                0               0        0.0634365        -57.7933                0               0
                       0.0104175         107.493                0               0          0.99701         32.5788                0               0
                        0.063436        -57.7922                0               0        0.0428433         121.585                0               0
                        0.997013         32.5769                0               0        0.0104155         107.329                0               0
75.765                 0.0514457         119.675                0               0        0.0653256        -60.0357                0               0
                       0.0120161         104.249                0               0         0.996434         30.4813                0               0
                        0.065325        -60.0347                0               0        0.0514575         119.513                0               0
                        0.996436         30.4794                0               0        0.0120138         104.123                0               0
75.81                  0.0602306         117.511                0               0        0.0674292        -62.3408                0               0
                       0.0136978         101.066                0               0         0.995764         28.3327                0               0
                       0.0674287        -62.3398                0               0        0.0602401         117.379                0               0
                        0.995766         28.3307                0               0        0.0136951          100.97                0               0
75.855                 0.0691477         115.302                0               0        0.0697207        -64.6994                0               0
                       0.0154512         97.9041                0               0         0.995008          26.138                0               0
                       0.0697202        -64.6983                0               0        0.0691548         115.194                0               0
                         0.99501         26.1361                0               0        0.0154479         97.8318                0               0
75.9                   0.0781591         113.054                0               0        0.0721744        -67.1028                0               0
                       0.0172639         94.7377                0               0         0.994174         23.9026                0               0
                       0.0721739        -67.1018                0               0        0.0781638         112.964                0               0
                        0.994176         23.9006                0               0        0.0172598          94.685                0               0
75.945                 0.0872256         110.772                0               0        0.0747663        -69.5435                0               0
                       0.0191227          91.554                0               0         0.993269         21.6316                0               0
                       0.0747659        -69.5425                0               0        0.0872278         110.697                0               0
                        0.993271         21.6295                0               0        0.0191179         91.5174                0               0
75.99                  0.0963073          108.46                0               0        0.0774735        -72.0146                0               0
                       0.0210138         88.3471                0               0         0.992302         19.3298                0               0
                       0.0774731        -72.0136                0               0         0.096307         108.397                0               0
                        0.992303         19.3277                0               0        0.0210082          88.324                0               0
76.035                  0.105364         106.123                0               0        0.0802743        -74.5102                0               0
                       0.0229231         85.1156                0               0         0.991277         17.0024                0               0
                        0.080274        -74.5091                0               0         0.105361          106.07                0               0
                        0.991278         17.0002                0               0        0.0229167         85.1037                0               0
76.08                   0.114354         103.764                0               0        0.0831481        -77.0251                0               0
                       0.0248364         81.8609                0               0         0.990199          14.654                0               0
                       0.0831479         -77.024                0               0         0.114348          103.72                0               0
                        0.990199         14.6517                0               0        0.0248291         81.8585                0               0
76.125                  0.123236         101.388                0               0        0.0860751        -79.5547                0               0
                       0.0267393         78.5862                0               0          0.98907         12.2893                0               0
                       0.0860749        -79.5536                0               0         0.123228         101.351                0               0
                        0.989069         12.2869                0               0        0.0267312         78.5917                0               0
76.17                   0.131971          98.997                0               0        0.0890359        -82.0952                0               0
                       0.0286179         75.2952                0               0         0.987887          9.9128                0               0
                       0.0890358        -82.0941                0               0         0.131961         98.9669                0               0
                        0.987886         9.91038                0               0         0.028609         75.3073                0               0
76.215                  0.140519         96.5958                0               0        0.0920117         -84.643                0               0
                       0.0304586          71.992                0               0         0.986646         7.52894                0               0
                       0.0920116        -84.6419                0               0         0.140506         96.5714                0               0
                        0.986644         7.52646                0               0        0.0304488         72.0096                0               0
76.26                   0.148841         94.1876                0               0        0.0949836         -87.195                0               0
                       0.0322484         68.6804                0               0         0.985338         5.14199                0               0
                       0.0949835        -87.1938                0               0         0.148826         94.1683                0               0
                        0.985335         5.13947                0               0        0.0322378         68.7025                0               0
76.305                  0.156901         91.7757                0               0        0.0979329        -89.7484                0               0
                        0.033975         65.3637                0               0         0.983949         2.75613                0               0
                       0.0979327        -89.7473                0               0         0.156883          91.761                0               0
                        0.983945         2.75357                0               0        0.0339635         65.3896                0               0
76.35                   0.164661         89.3635                0               0          0.10084        -92.3009                0               0
                       0.0356264          62.045                0               0         0.982461        0.375382                0               0
                         0.10084        -92.2997                0               0         0.164641          89.353                0               0
                        0.982456        0.372789                0               0        0.0356141         62.0739                0               0
76.395                  0.172091         86.9544                0               0         0.103687        -94.8502                0               0
                       0.0371917         58.7266                0               0         0.980852        -1.99635                0               0
                        0.103687        -94.8491                0               0         0.172069         86.9476                0               0
                        0.980847        -1.99896                0               0        0.0371786         58.7578                0               0
76.44                   0.179159         84.5516                0               0         0.106453        -97.3948                0               0
                       0.0386604         55.4103                0               0         0.979097        -4.35534                0               0
