! TOUCHSTONE file generated by CST MICROWAVE STUDIO
! Date and time: Mon Jun 21 17:06:40 2021
! Project name: HIPS_d_sweep.cst
! Parameters = {a=0.735; b=0.393; d=18.5628; fmax=120; fmin=75; phi=0; theta=0}
! Header version: 2018
! Port assignment regex: !\s*Touchstone port\s*([0-9]+)\s*=\s*(CST MWS port|CST DS port)\s*([0-9]+|Zmin|Zmax)\s*\(\"(.*)\"\)(\s*mode\s*([0-9]+))?.*
! Touchstone port assignment:
! Touchstone port 1 = CST MWS port Zmin ("") mode 1
! Touchstone port 2 = CST MWS port Zmin ("") mode 2
! Touchstone port 3 = CST MWS port Zmax ("") mode 1
! Touchstone port 4 = CST MWS port Zmax ("") mode 2
! S-Parameters are not renormalized. Unphysical impedance of 0 will be written to the file.
# GHz S MA R 0
75                      0.217347         40.2016                0               0         0.335016        -141.995                0               0
                       0.0884475         100.714                0               0         0.912521         126.237                0               0
                        0.335015        -141.995                0               0         0.217403         40.1453                0               0
                        0.912525         126.235                0               0        0.0883573          100.63                0               0
75.045                  0.216876         39.6937                0               0         0.338191        -142.782                0               0
                        0.089263         99.6177                0               0         0.914991         125.593                0               0
                        0.338189        -142.782                0               0         0.216932         39.6373                0               0
                        0.914994         125.591                0               0        0.0891726         99.5322                0               0
75.09                    0.21629         39.1562                0               0         0.341158        -143.545                0               0
                       0.0900386         98.4789                0               0         0.916495         124.932                0               0
                        0.341155        -143.545                0               0         0.216347         39.0996                0               0
                        0.916497          124.93                0               0        0.0899482         98.3929                0               0
75.135                  0.215589         38.5847                0               0         0.343849         -144.29                0               0
                       0.0907685         97.2922                0               0         0.916998         124.241                0               0
                        0.343845         -144.29                0               0         0.215647          38.528                0               0
                        0.917001         124.239                0               0        0.0906781         97.2057                0               0
75.18                   0.214776         37.9752                0               0         0.346194        -145.023                0               0
                       0.0914472         96.0508                0               0         0.916527         123.506                0               0
                        0.346191        -145.024                0               0         0.214834         37.9184                0               0
                        0.916529         123.504                0               0         0.091357         95.9638                0               0
75.225                  0.213856         37.3236                0               0         0.348135        -145.757                0               0
                       0.0920701         94.7471                0               0         0.915169         122.713                0               0
                        0.348132        -145.758                0               0         0.213915         37.2666                0               0
                        0.915172         122.712                0               0        0.0919803         94.6596                0               0
75.27                   0.212837         36.6264                0               0         0.349627        -146.505                0               0
                       0.0926341         93.3727                0               0         0.913076         121.851                0               0
                        0.349625        -146.505                0               0         0.212897         36.5693                0               0
                         0.91308         121.849                0               0        0.0925447         93.2848                0               0
75.315                  0.211728         35.8806                0               0         0.350649        -147.281                0               0
                       0.0931376          91.919                0               0         0.910445         120.911                0               0
                        0.350648        -147.282                0               0         0.211788         35.8233                0               0
                         0.91045         120.909                0               0        0.0930487         91.8307                0               0
75.36                    0.21054         35.0838                0               0         0.351209        -148.102                0               0
                       0.0935814         90.3767                0               0         0.907502         119.886                0               0
                        0.351209        -148.103                0               0           0.2106         35.0264                0               0
                        0.907508         119.885                0               0         0.093493         90.2879                0               0
75.405                  0.209281         34.2347                0               0         0.351341        -148.983                0               0
                       0.0939687         88.7366                0               0         0.904476         118.777                0               0
                        0.351342        -148.983                0               0         0.209342         34.1771                0               0
                        0.904483         118.776                0               0        0.0938809         88.6476                0               0
75.45                   0.207964         33.3326                0               0         0.351108        -149.935                0               0
                       0.0943056         86.9903                0               0         0.901579         117.586                0               0
                        0.351109        -149.935                0               0         0.208025         33.2748                0               0
                        0.901585         117.585                0               0        0.0942184         86.9008                0               0
75.495                  0.206595         32.3778                0               0         0.350585        -150.968                0               0
                       0.0946011           85.13                0               0         0.898985          116.32                0               0
                        0.350586        -150.967                0               0         0.206656         32.3199                0               0
                        0.898992         116.318                0               0        0.0945144         85.0401                0               0
75.54                   0.205181         31.3714                0               0         0.349858        -152.084                0               0
                       0.0948665         83.1495                0               0         0.896827         114.985                0               0
                        0.349858        -152.083                0               0         0.205242         31.3132                0               0
                        0.896834         114.984                0               0        0.0947803         83.0592                0               0
75.585                  0.203726         30.3149                0               0         0.349009        -153.286                0               0
                       0.0951157         81.0449                0               0          0.89519         113.591                0               0
                        0.349009        -153.285                0               0         0.203788         30.2565                0               0
                        0.895197          113.59                0               0        0.0950299         80.9541                0               0
75.63                    0.20223         29.2108                0               0         0.348113        -154.569                0               0
                       0.0953633         78.8147                0               0         0.894116         112.148                0               0
                        0.348112        -154.567                0               0         0.202292          29.152                0               0
                        0.894123         112.147                0               0        0.0952779         78.7233                0               0
75.675                  0.200692         28.0615                0               0         0.347227        -155.927                0               0
                       0.0956244         76.4603                0               0         0.893611         110.665                0               0
                        0.347226        -155.925                0               0         0.200755         28.0024                0               0
                        0.893617         110.663                0               0        0.0955393         76.3681                0               0
75.72                   0.199107         26.8699                0               0         0.346394        -157.353                0               0
                       0.0959129         73.9861                0               0         0.893652         109.148                0               0
                        0.346392        -157.351                0               0          0.19917         26.8105                0               0
                        0.893659         109.147                0               0         0.095828          73.893                0               0
75.765                  0.197467         25.6391                0               0          0.34564        -158.839                0               0
                       0.0962404         71.3994                0               0         0.894199         107.605                0               0
                        0.345637        -158.837                0               0          0.19753         25.5792                0               0
                        0.894205         107.604                0               0        0.0961558         71.3051                0               0
75.81                   0.195761          24.372                0               0         0.344977        -160.375                0               0
                       0.0966152         68.7097                0               0         0.895196         106.042                0               0
                        0.344973        -160.374                0               0         0.195825         24.3116                0               0
                        0.895201         106.041                0               0         0.096531         68.6142                0               0
75.855                  0.193979         23.0718                0               0         0.344405        -161.956                0               0
                       0.0970415         65.9287                0               0          0.89658         104.462                0               0
                        0.344402        -161.954                0               0         0.194043         23.0109                0               0
                        0.896586         104.461                0               0        0.0969576         65.8317                0               0
75.9                    0.192107         21.7416                0               0         0.343918        -163.572                0               0
                       0.0975186         63.0692                0               0         0.898288         102.869                0               0
                        0.343914        -163.571                0               0         0.192172         21.6801                0               0
                        0.898294         102.868                0               0        0.0974354         62.9706                0               0
75.945                  0.190131         20.3844                0               0         0.343499        -165.218                0               0
                       0.0980416         60.1444                0               0         0.900254         101.265                0               0
                        0.343496        -165.217                0               0         0.190196         20.3222                0               0
                         0.90026         101.263                0               0        0.0979592          60.044                0               0
75.99                   0.188037         19.0033                0               0         0.343133        -166.889                0               0
                        0.098601         57.1674                0               0         0.902415         99.6516                0               0
                         0.34313        -166.888                0               0         0.188102         18.9405                0               0
                        0.902421         99.6502                0               0        0.0985195         57.0652                0               0
76.035                  0.185809         17.6018                0               0         0.342798        -168.579                0               0
                       0.0991835         54.1508                0               0         0.904711         98.0305                0               0
                        0.342795        -168.579                0               0         0.185875         17.5382                0               0
                        0.904717         98.0289                0               0        0.0991033         54.0465                0               0
76.08                   0.183433         16.1831                0               0         0.342473        -170.286                0               0
                       0.0997734          51.106                0               0         0.907083         96.4021                0               0
                        0.342471        -170.285                0               0           0.1835         16.1186                0               0
                         0.90709         96.4005                0               0        0.0996946         50.9996                0               0
76.125                  0.180897         14.7509                0               0         0.342138        -172.004                0               0
                        0.100353         48.0432                0               0          0.90948         94.7672                0               0
                        0.342136        -172.004                0               0         0.180965         14.6856                0               0
                        0.909487         94.7655                0               0         0.100276         47.9347                0               0
76.17                   0.178188         13.3095                0               0         0.341771        -173.733                0               0
                        0.100903         44.9716                0               0         0.911851          93.126                0               0
                         0.34177        -173.732                0               0         0.178256         13.2432                0               0
                        0.911858         93.1243                0               0         0.100827         44.8608                0               0
76.215                  0.175296         11.8632                0               0         0.341355        -175.467                0               0
                        0.101404          41.899                0               0          0.91415          91.479                0               0
                        0.341354        -175.467                0               0         0.175365         11.7959                0               0
                        0.914157         91.4773                0               0         0.101331         41.7861                0               0
76.26                   0.172212          10.417                0               0         0.340871        -177.206                0               0
                         0.10184         38.8326                0               0         0.916334         89.8265                0               0
                        0.340871        -177.206                0               0         0.172281         10.3485                0               0
                        0.916341         89.8246                0               0         0.101769         38.7173                0               0
76.305                  0.168931         8.97644                0               0         0.340304        -178.947                0               0
                        0.102194         35.7782                0               0         0.918363         88.1687                0               0
                        0.340305        -178.947                0               0            0.169         8.90675                0               0
                        0.918369         88.1668                0               0         0.102125         35.6607                0               0
76.35                   0.165447         7.54776                0               0          0.33964         179.313                0               0
                        0.102451         32.7414                0               0         0.920199         86.5061                0               0
                        0.339641         179.313                0               0         0.165517         7.47673                0               0
                        0.920206         86.5042                0               0         0.102384         32.6216                0               0
76.395                  0.161762         6.13779                0               0         0.338868         177.575                0               0
                        0.102599         29.7272                0               0         0.921809         84.8393                0               0
                        0.338869         177.575                0               0         0.161833         6.06531                0               0
                        0.921816         84.8373                0               0         0.102535          29.605                0               0
76.44                   0.157878         4.75414                0               0         0.337977         175.842                0               0
                        0.102629         26.7398                0               0         0.923161         83.1689                0               0
