! TOUCHSTONE file generated by CST MICROWAVE STUDIO
! Date and time: Mon Jun 21 17:06:40 2021
! Project name: HIPS_d_sweep.cst
! Parameters = {a=0.735; b=0.393; d=18.5126; fmax=120; fmin=75; phi=0; theta=0}
! Header version: 2018
! Port assignment regex: !\s*Touchstone port\s*([0-9]+)\s*=\s*(CST MWS port|CST DS port)\s*([0-9]+|Zmin|Zmax)\s*\(\"(.*)\"\)(\s*mode\s*([0-9]+))?.*
! Touchstone port assignment:
! Touchstone port 1 = CST MWS port Zmin ("") mode 1
! Touchstone port 2 = CST MWS port Zmin ("") mode 2
! Touchstone port 3 = CST MWS port Zmax ("") mode 1
! Touchstone port 4 = CST MWS port Zmax ("") mode 2
! S-Parameters are not renormalized. Unphysical impedance of 0 will be written to the file.
# GHz S MA R 0
75                      0.217237         45.0434                0               0         0.337306        -136.635                0               0
                       0.0853939         111.958                0               0         0.912007          132.01                0               0
                        0.337306        -136.635                0               0         0.217148         45.0535                0               0
                        0.911998         132.008                0               0        0.0855342             112                0               0
75.045                  0.216375          44.659                0               0         0.340302        -137.162                0               0
                       0.0861801         111.112                0               0          0.91122         131.497                0               0
                        0.340303        -137.162                0               0         0.216286         44.6691                0               0
                        0.911206         131.495                0               0        0.0863208         111.155                0               0
75.09                   0.215628         44.1723                0               0          0.34296        -137.757                0               0
                       0.0868937         110.133                0               0         0.910377         130.891                0               0
                        0.342961        -137.757                0               0         0.215539         44.1824                0               0
                        0.910362         130.889                0               0        0.0870342         110.176                0               0
75.135                  0.214982         43.6003                0               0           0.3453         -138.42                0               0
                       0.0875488         109.015                0               0         0.909544         130.199                0               0
                        0.345301         -138.42                0               0         0.214892         43.6103                0               0
                         0.90953         130.197                0               0        0.0876886         109.058                0               0
75.18                   0.214415         42.9556                0               0         0.347341        -139.148                0               0
                       0.0881603         107.754                0               0          0.90877         129.426                0               0
                        0.347342        -139.148                0               0         0.214325         42.9655                0               0
                        0.908757         129.424                0               0        0.0882992         107.798                0               0
75.225                  0.213909         42.2473                0               0           0.3491        -139.941                0               0
                       0.0887431         106.351                0               0         0.908084         128.578                0               0
                        0.349101        -139.941                0               0         0.213818         42.2572                0               0
                        0.908073         128.577                0               0         0.088881         106.395                0               0
75.27                   0.213441         41.4823                0               0         0.350595        -140.797                0               0
                        0.089311         104.807                0               0         0.907504         127.662                0               0
                        0.350596        -140.797                0               0          0.21335         41.4921                0               0
                        0.907496          127.66                0               0        0.0894479         104.851                0               0
75.315                  0.212994         40.6656                0               0         0.351842        -141.713                0               0
                       0.0898765         103.124                0               0         0.907039          126.68                0               0
                        0.351843        -141.713                0               0         0.212903         40.6751                0               0
                        0.907032         126.679                0               0        0.0900123         103.168                0               0
75.36                   0.212549         39.8007                0               0         0.352856        -142.688                0               0
                       0.0904495         101.309                0               0         0.906689         125.639                0               0
                        0.352857        -142.688                0               0         0.212457         39.8101                0               0
                        0.906683         125.638                0               0        0.0905843         101.353                0               0
75.405                  0.212088         38.8903                0               0         0.353651        -143.719                0               0
                       0.0910375         99.3675                0               0         0.906449          124.54                0               0
                        0.353652        -143.719                0               0         0.211996         38.8996                0               0
                        0.906442         124.539                0               0        0.0911714         99.4116                0               0
75.45                   0.211596         37.9365                0               0         0.354239        -144.803                0               0
                       0.0916454         97.3076                0               0         0.906308         123.388                0               0
                         0.35424        -144.803                0               0         0.211504         37.9456                0               0
                        0.906302         123.387                0               0        0.0917784         97.3521                0               0
75.495                  0.211058         36.9407                0               0         0.354632         -145.94                0               0
                       0.0922753         95.1373                0               0         0.906258         122.184                0               0
                        0.354633         -145.94                0               0         0.210966         36.9497                0               0
                        0.906251         122.184                0               0        0.0924072         95.1825                0               0
75.54                   0.210459          35.904                0               0         0.354841        -147.126                0               0
                       0.0929265          92.865                0               0         0.906284         120.933                0               0
                        0.354843        -147.126                0               0         0.210367         35.9128                0               0
                        0.906277         120.932                0               0        0.0930573         92.9112                0               0
75.585                  0.209788         34.8274                0               0         0.354877        -148.359                0               0
                       0.0935961         90.4995                0               0         0.906376         119.634                0               0
                        0.354878        -148.359                0               0         0.209696         34.8361                0               0
                        0.906368         119.634                0               0        0.0937256         90.5469                0               0
75.63                   0.209031         33.7116                0               0         0.354749        -149.638                0               0
                        0.094279          88.049                0               0         0.906523         118.291                0               0
                         0.35475        -149.638                0               0          0.20894         33.7201                0               0
                        0.906515          118.29                0               0         0.094407         88.0978                0               0
75.675                  0.208179         32.5576                0               0         0.354468         -150.96                0               0
                       0.0949684         85.5218                0               0         0.906719         116.905                0               0
                        0.354469         -150.96                0               0         0.208088         32.5659                0               0
                        0.906711         116.904                0               0        0.0950945         85.5723                0               0
75.72                    0.20722          31.366                0               0         0.354044        -152.324                0               0
                       0.0956559         82.9257                0               0         0.906959         115.477                0               0
                        0.354045        -152.324                0               0         0.207129         31.3741                0               0
                        0.906952         115.475                0               0        0.0957799         82.9779                0               0
75.765                  0.206147          30.138                0               0         0.353487        -153.728                0               0
                       0.0963322          80.268                0               0         0.907245         114.008                0               0
                        0.353488        -153.728                0               0         0.206056         30.1459                0               0
                        0.907239         114.006                0               0        0.0964539         80.3219                0               0
75.81                    0.20495         28.8748                0               0         0.352809         -155.17                0               0
                       0.0969875         77.5553                0               0         0.907582           112.5                0               0
                         0.35281         -155.17                0               0          0.20486         28.8825                0               0
                        0.907577         112.498                0               0        0.0971065          77.611                0               0
75.855                  0.203623         27.5779                0               0         0.352021         -156.65                0               0
                       0.0976118         74.7939                0               0         0.907981         110.954                0               0
                        0.352022         -156.65                0               0         0.203534         27.5855                0               0
                        0.907977         110.952                0               0        0.0977279         74.8512                0               0
75.9                    0.202159         26.2493                0               0         0.351137        -158.165                0               0
                       0.0981956         71.9891                0               0         0.908455         109.373                0               0
                        0.351138        -158.165                0               0          0.20207         26.2567                0               0
                        0.908453         109.371                0               0        0.0983087         72.0479                0               0
75.945                  0.200552         24.8914                0               0         0.350171        -159.714                0               0
                       0.0987305         69.1458                0               0         0.909023         107.758                0               0
                        0.350172        -159.715                0               0         0.200464         24.8985                0               0
                        0.909022         107.756                0               0        0.0988406         69.2056                0               0
75.99                   0.198797         23.5069                0               0         0.349137        -161.296                0               0
                       0.0992097         66.2677                0               0         0.909702         106.113                0               0
                        0.349138        -161.296                0               0         0.198709         23.5137                0               0
                        0.909702         106.111                0               0        0.0993171         66.3283                0               0
76.035                  0.196889         22.0989                0               0          0.34805        -162.908                0               0
                       0.0996292         63.3582                0               0          0.91051         104.441                0               0
                         0.34805        -162.908                0               0         0.196802         22.1055                0               0
                        0.910509         104.439                0               0        0.0997341          63.419                0               0
76.08                   0.194824         20.6712                0               0         0.346925        -164.548                0               0
                        0.099988         60.4198                0               0         0.911456         102.746                0               0
                        0.346926        -164.549                0               0         0.194737         20.6776                0               0
                        0.911454         102.745                0               0         0.100091         60.4805                0               0
76.125                  0.192597         19.2279                0               0         0.345778        -166.214                0               0
                         0.10029         57.4553                0               0         0.912543         101.033                0               0
                        0.345778        -166.214                0               0         0.192512          19.234                0               0
                         0.91254         101.032                0               0         0.100392         57.5155                0               0
76.17                   0.190205         17.7734                0               0          0.34462        -167.902                0               0
                        0.100542         54.4678                0               0         0.913762          99.307                0               0
                        0.344621        -167.902                0               0          0.19012         17.7793                0               0
                        0.913756         99.3056                0               0         0.100645         54.5274                0               0
76.215                  0.187644         16.3125                0               0         0.343463        -169.608                0               0
                        0.100757         51.4622                0               0         0.915092         97.5723                0               0
                        0.343464        -169.608                0               0         0.187561         16.3181                0               0
                        0.915084          97.571                0               0         0.100862         51.5215                0               0
76.26                   0.184911         14.8503                0               0         0.342315        -171.329                0               0
                        0.100951         48.4467                0               0         0.916498         95.8339                0               0
                        0.342315        -171.329                0               0         0.184829         14.8556                0               0
                        0.916487         95.8327                0               0         0.101057         48.5061                0               0
76.305                  0.182004          13.392                0               0         0.341178        -173.059                0               0
                        0.101136         45.4327                0               0         0.917935          94.096                0               0
                        0.341179         -173.06                0               0         0.181923         13.3971                0               0
                        0.917922         94.0948                0               0         0.101244          45.493                0               0
76.35                   0.178922         11.9432                0               0         0.340053        -174.796                0               0
                         0.10132         42.4352                0               0          0.91935         92.3622                0               0
                        0.340053        -174.796                0               0         0.178842          11.948                0               0
                        0.919335          92.361                0               0         0.101429          42.497                0               0
76.395                  0.175663         10.5094                0               0         0.338933        -176.533                0               0
                        0.101502         39.4698                0               0         0.920683         90.6353                0               0
                        0.338934        -176.533                0               0         0.175584         10.5139                0               0
                        0.920668         90.6341                0               0          0.10161         39.5333                0               0
76.44                   0.172228         9.09638                0               0         0.337809        -178.266                0               0
                        0.101668         36.5497                0               0         0.921876         88.9174                0               0
