! TOUCHSTONE file generated by CST MICROWAVE STUDIO
! Date and time: Mon Jun 21 17:06:56 2021
! Project name: HIPS_d_sweep.cst
! Parameters = {a=0.735; b=0.393; d=20.8241; fmax=120; fmin=75; phi=0; theta=0}
! Header version: 2018
! Port assignment regex: !\s*Touchstone port\s*([0-9]+)\s*=\s*(CST MWS port|CST DS port)\s*([0-9]+|Zmin|Zmax)\s*\(\"(.*)\"\)(\s*mode\s*([0-9]+))?.*
! Touchstone port assignment:
! Touchstone port 1 = CST MWS port Zmin ("") mode 1
! Touchstone port 2 = CST MWS port Zmin ("") mode 2
! Touchstone port 3 = CST MWS port Zmax ("") mode 1
! Touchstone port 4 = CST MWS port Zmax ("") mode 2
! S-Parameters are not renormalized. Unphysical impedance of 0 will be written to the file.
# GHz S MA R 0
75                     0.0150564         25.8566                0               0         0.220414         -47.099                0               0
                       0.0641956        -46.2949                0               0         0.973176         -137.17                0               0
                        0.220414        -47.0987                0               0        0.0153344         26.0662                0               0
                        0.973175         -137.17                0               0        0.0641322        -46.2541                0               0
75.045                  0.014684         33.6043                0               0         0.223717        -47.7732                0               0
                       0.0645595          -47.46                0               0         0.973396        -137.769                0               0
                        0.223717        -47.7729                0               0        0.0149676         33.6669                0               0
                        0.973394        -137.769                0               0        0.0644934        -47.4186                0               0
75.09                  0.0146792         42.7301                0               0         0.226699        -48.5279                0               0
                        0.064805        -48.7389                0               0         0.973209         -138.46                0               0
                        0.226699        -48.5277                0               0        0.0149625         42.6099                0               0
                        0.973206         -138.46                0               0        0.0647366         -48.697                0               0
75.135                  0.015181         52.6551                0               0         0.229347        -49.3656                0               0
                       0.0649312        -50.1421                0               0         0.972727        -139.242                0               0
                        0.229347        -49.3654                0               0        0.0154549         52.3475                0               0
                        0.972723        -139.242                0               0        0.0648609        -50.0996                0               0
75.18                  0.0162908         62.5307                0               0         0.231654        -50.2878                0               0
                       0.0649382        -51.6793                0               0         0.972051        -140.114                0               0
                        0.231654        -50.2875                0               0        0.0165463         62.0719                0               0
                        0.972047        -140.114                0               0        0.0648663         -51.636                0               0
75.225                 0.0180463         71.5564                0               0         0.233613        -51.2948                0               0
                        0.064827         -53.359                0               0         0.971269        -141.073                0               0
                        0.233614        -51.2945                0               0         0.018277         71.0077                0               0
                        0.971265        -141.073                0               0        0.0647537        -53.3147                0               0
75.27                  0.0204265         79.2575                0               0         0.235222        -52.3863                0               0
                       0.0645991        -55.1887                0               0         0.970454        -142.116                0               0
                        0.235222         -52.386                0               0          0.02063         78.6779                0               0
                         0.97045        -142.116                0               0        0.0645245        -55.1434                0               0
75.315                 0.0233777         85.5182                0               0         0.236478         -53.561                0               0
                       0.0642566         -57.175                0               0         0.969665         -143.24                0               0
                        0.236478        -53.5606                0               0        0.0235547         84.9487                0               0
                        0.969662         -143.24                0               0        0.0641808        -57.1284                0               0
75.36                  0.0268386         90.4494                0               0         0.237383        -54.8165                0               0
                       0.0638019        -59.3233                0               0         0.968948         -144.44                0               0
                        0.237383        -54.8161                0               0        0.0269916         89.9123                0               0
                        0.968946         -144.44                0               0        0.0637249        -59.2752                0               0
75.405                 0.0307534         94.2493                0               0          0.23794        -56.1499                0               0
                       0.0632379        -61.6379                0               0         0.968337        -145.713                0               0
                         0.23794        -56.1495                0               0        0.0308853         93.7536                0               0
                        0.968335        -145.713                0               0        0.0631595        -61.5881                0               0
75.45                   0.035075         97.1211                0               0         0.238154        -57.5575                0               0
                       0.0625677        -64.1223                0               0         0.967851        -147.055                0               0
                        0.238154        -57.5571                0               0         0.035189         96.6683                0               0
                         0.96785        -147.055                0               0        0.0624877        -64.0705                0               0
75.495                 0.0397651         99.2407                0               0         0.238034        -59.0349                0               0
                       0.0617947         -66.779                0               0         0.967501        -148.462                0               0
                        0.238034        -59.0345                0               0        0.0398638         98.8286                0               0
                        0.967501        -148.462                0               0        0.0617129         -66.725                0               0
75.54                  0.0447915          100.75                0               0         0.237589        -60.5774                0               0
                       0.0609231        -69.6094                0               0         0.967289        -149.929                0               0
                        0.237589         -60.577                0               0        0.0448772         100.375                0               0
                        0.967288        -149.929                0               0        0.0608391         -69.553                0               0
75.585                 0.0501259         101.758                0               0          0.23683        -62.1798                0               0
                       0.0599576        -72.6144                0               0         0.967207        -151.453                0               0
                         0.23683        -62.1794                0               0        0.0502006         101.416                0               0
                        0.967207        -151.453                0               0         0.059871        -72.5554                0               0
75.63                  0.0557423         102.351                0               0         0.235772        -63.8365                0               0
                       0.0589035         -75.794                0               0         0.967244        -153.029                0               0
                        0.235771        -63.8361                0               0        0.0558077         102.039                0               0
                        0.967243        -153.029                0               0        0.0588139        -75.7322                0               0
75.675                 0.0616157         102.596                0               0         0.234428        -65.5421                0               0
                       0.0577674        -79.1475                0               0         0.967379        -154.655                0               0
                        0.234428        -65.5417                0               0        0.0616731         102.309                0               0
                        0.967378        -154.655                0               0        0.0576744        -79.0829                0               0
75.72                  0.0677205         102.544                0               0         0.232816        -67.2908                0               0
                       0.0565569         -82.674                0               0         0.967592        -156.326                0               0
                        0.232815        -67.2904                0               0        0.0677713         102.279                0               0
                         0.96759        -156.326                0               0          0.05646        -82.6063                0               0
75.765                 0.0740305         102.235                0               0         0.230954        -69.0772                0               0
                       0.0552807        -86.3719                0               0         0.967856        -158.039                0               0
                        0.230953        -69.0768                0               0        0.0740758          101.99                0               0
                        0.967854        -158.039                0               0        0.0551795        -86.3011                0               0
75.81                  0.0805182         101.705                0               0         0.228861        -70.8959                0               0
                       0.0539489        -90.2394                0               0         0.968146        -159.791                0               0
                        0.228861        -70.8955                0               0        0.0805587         101.477                0               0
                        0.968143        -159.791                0               0        0.0538429        -90.1656                0               0
75.855                 0.0871541          100.98                0               0         0.226558        -72.7417                0               0
                        0.052573        -94.2746                0               0         0.968434        -161.579                0               0
                        0.226557        -72.7413                0               0        0.0871908         100.767                0               0
                         0.96843        -161.579                0               0        0.0524618        -94.1979                0               0
75.9                   0.0939074         100.085                0               0         0.224065        -74.6101                0               0
                       0.0511657        -98.4756                0               0         0.968692        -163.399                0               0
                        0.224065        -74.6097                0               0         0.093941         99.8855                0               0
                        0.968688        -163.399                0               0         0.051049        -98.3962                0               0
75.945                  0.100746         99.0394                0               0         0.221405        -76.4966                0               0
                       0.0497409         -102.84                0               0         0.968898        -165.249                0               0
                        0.221405        -76.4963                0               0         0.100777         98.8522                0               0
                        0.968893        -165.249                0               0        0.0496182        -102.759                0               0
75.99                   0.107636         97.8626                0               0         0.218599        -78.3977                0               0
                       0.0483134        -107.367                0               0         0.969027        -167.126                0               0
                        0.218599        -78.3973                0               0         0.107665          97.686                0               0
                        0.969022        -167.126                0               0        0.0481845        -107.283                0               0
76.035                  0.114544         96.5712                0               0         0.215669        -80.3098                0               0
                       0.0468989        -112.053                0               0         0.969064        -169.027                0               0
                        0.215669        -80.3095                0               0         0.114571         96.4041                0               0
                        0.969057        -169.027                0               0        0.0467635        -111.968                0               0
76.08                   0.121437         95.1808                0               0         0.212638        -82.2303                0               0
                       0.0455137        -116.897                0               0         0.968994        -170.951                0               0
                        0.212638          -82.23                0               0         0.121462         95.0223                0               0
                        0.968987         -170.95                0               0        0.0453717        -116.812                0               0
76.125                  0.128281         93.7061                0               0         0.209527        -84.1569                0               0
                       0.0441742        -121.895                0               0         0.968813        -172.893                0               0
                        0.209527        -84.1565                0               0         0.128306         93.5552                0               0
                        0.968806        -172.893                0               0        0.0440254         -121.81                0               0
76.17                   0.135048         92.1608                0               0         0.206358        -86.0876                0               0
                       0.0428969        -127.043                0               0         0.968522        -174.852                0               0
                        0.206358        -86.0873                0               0         0.135072          92.017                0               0
                        0.968515        -174.852                0               0        0.0427413        -126.961                0               0
76.215                  0.141709          90.558                0               0         0.203154        -88.0208                0               0
                       0.0416977        -132.336                0               0         0.968134        -176.825                0               0
                        0.203154        -88.0204                0               0         0.141732         90.4205                0               0
                        0.968126        -176.825                0               0        0.0415352        -132.257                0               0
76.26                   0.148241         88.9097                0               0         0.199936        -89.9549                0               0
                       0.0405918        -137.765                0               0         0.967667        -178.809                0               0
                        0.199936        -89.9546                0               0         0.148264         88.7779                0               0
                        0.967659        -178.808                0               0        0.0404226        -137.691                0               0
76.305                  0.154624          87.227                0               0         0.196726        -91.8883                0               0
                       0.0395932        -143.318                0               0         0.967152           179.2                0               0
                        0.196726        -91.8879                0               0         0.154647         87.1005                0               0
                        0.967144           179.2                0               0        0.0394173        -143.251                0               0
76.35                   0.160843         85.5199                0               0         0.193546        -93.8185                0               0
                        0.038714        -148.978                0               0         0.966626         177.203                0               0
                        0.193546        -93.8182                0               0         0.160865         85.3982                0               0
                        0.966619         177.204                0               0        0.0385316         -148.92                0               0
76.395                  0.166886         83.7969                0               0         0.190416        -95.7427                0               0
                       0.0379638        -154.725                0               0         0.966129         175.208                0               0
                        0.190415        -95.7424                0               0         0.166907         83.6797                0               0
                        0.966122         175.208                0               0        0.0377752        -154.678                0               0
76.44                   0.172743          82.065                0               0         0.187354        -97.6563                0               0
                        0.037349        -160.531                0               0         0.965698         173.218                0               0
