! TOUCHSTONE file generated by CST MICROWAVE STUDIO
! Date and time: Mon Jun 21 17:07:06 2021
! Project name: HIPS_d_sweep.cst
! Parameters = {a=0.735; b=0.393; d=21.8794; fmax=120; fmin=75; phi=0; theta=0}
! Header version: 2018
! Port assignment regex: !\s*Touchstone port\s*([0-9]+)\s*=\s*(CST MWS port|CST DS port)\s*([0-9]+|Zmin|Zmax)\s*\(\"(.*)\"\)(\s*mode\s*([0-9]+))?.*
! Touchstone port assignment:
! Touchstone port 1 = CST MWS port Zmin ("") mode 1
! Touchstone port 2 = CST MWS port Zmin ("") mode 2
! Touchstone port 3 = CST MWS port Zmax ("") mode 1
! Touchstone port 4 = CST MWS port Zmax ("") mode 2
! S-Parameters are not renormalized. Unphysical impedance of 0 will be written to the file.
# GHz S MA R 0
75                      0.207017         12.5683                0               0         0.143097        -165.144                0               0
                       0.0597422         41.3441                0               0         0.965975         100.361                0               0
                        0.143097        -165.145                0               0         0.207022         12.5558                0               0
                         0.96597         100.363                0               0        0.0596338         41.1586                0               0
75.045                   0.20552         12.0374                0               0         0.146221        -166.142                0               0
                       0.0604398         40.6023                0               0         0.967234         99.7679                0               0
                        0.146221        -166.143                0               0         0.205528         12.0243                0               0
                        0.967229         99.7693                0               0        0.0603304         40.4172                0               0
75.09                   0.203749         11.4188                0               0         0.149256        -167.128                0               0
                       0.0611076         39.7805                0               0         0.967869         99.0771                0               0
                        0.149257        -167.129                0               0         0.203759         11.4053                0               0
                        0.967863         99.0786                0               0        0.0609974         39.5959                0               0
75.135                  0.201726         10.7134                0               0          0.15216        -168.109                0               0
                       0.0617412         38.8688                0               0         0.968049          98.289                0               0
                        0.152161         -168.11                0               0         0.201737         10.6996                0               0
                        0.968043         98.2905                0               0        0.0616307         38.6847                0               0
75.18                   0.199468         9.92273                0               0         0.154889        -169.093                0               0
                       0.0623363          37.857                0               0         0.967929         97.4052                0               0
                        0.154891        -169.093                0               0          0.19948         9.90874                0               0
                        0.967923         97.4066                0               0        0.0622258         37.6737                0               0
75.225                  0.196986         9.04893                0               0         0.157402        -170.089                0               0
                       0.0628886         36.7353                0               0         0.967642         96.4284                0               0
                        0.157404         -170.09                0               0         0.196998         9.03477                0               0
                        0.967636         96.4299                0               0        0.0627784         36.5527                0               0
75.27                   0.194287         8.09435                0               0         0.159659        -171.111                0               0
                       0.0633937          35.494                0               0         0.967299         95.3626                0               0
                         0.15966        -171.111                0               0         0.194299         8.08003                0               0
                        0.967294          95.364                0               0        0.0632843         35.3121                0               0
75.315                  0.191374         7.06154                0               0         0.161625        -172.172                0               0
                       0.0638469          34.124                0               0          0.96699         94.2121                0               0
                        0.161626        -172.172                0               0         0.191384         7.04704                0               0
                        0.966986         94.2136                0               0        0.0637387         33.9427                0               0
75.36                   0.188244         5.95312                0               0         0.163277        -173.285                0               0
                       0.0642434         32.6174                0               0         0.966783         92.9818                0               0
                        0.163278        -173.286                0               0         0.188254         5.93837                0               0
                        0.966779         92.9833                0               0        0.0641366         32.4364                0               0
75.405                  0.184895         4.77173                0               0         0.164599        -174.466                0               0
                       0.0645776         30.9675                0               0         0.966726         91.6766                0               0
                        0.164599        -174.466                0               0         0.184904         4.75667                0               0
                        0.966723          91.678                0               0        0.0644726         30.7865                0               0
75.45                   0.181321         3.52003                0               0         0.165585        -175.726                0               0
                       0.0648435         29.1696                0               0          0.96685         90.3013                0               0
                        0.165584        -175.727                0               0          0.18133         3.50458                0               0
                        0.966846         90.3028                0               0        0.0647405         28.9882                0               0
75.495                  0.177516         2.20076                0               0         0.166239        -177.078                0               0
                       0.0650343         27.2209                0               0         0.967169         88.8606                0               0
                        0.166238        -177.078                0               0         0.177523         2.18482                0               0
                        0.967165         88.8621                0               0        0.0649337         27.0386                0               0
75.54                    0.17347        0.816686                0               0         0.166573        -178.528                0               0
                       0.0651429         25.1213                0               0         0.967685          87.359                0               0
                        0.166571        -178.529                0               0         0.173477        0.800165                0               0
                        0.967682         87.3605                0               0        0.0650447         24.9375                0               0
75.585                  0.169175       -0.629262                0               0         0.166604         179.917                0               0
                       0.0651617         22.8735                0               0         0.968389         85.8006                0               0
                        0.166602         179.916                0               0         0.169181        -0.64649                0               0
                        0.968386         85.8021                0               0        0.0650661         22.6875                0               0
75.63                   0.164623          -2.134                0               0         0.166354         178.255                0               0
                       0.0650832          20.483                0               0         0.969262         84.1889                0               0
                        0.166351         178.254                0               0         0.164629        -2.15206                0               0
                         0.96926         84.1905                0               0        0.0649902         20.2941                0               0
75.675                  0.159805         -3.6942                0               0         0.165844         176.486                0               0
                       0.0649007         17.9585                0               0         0.970281         82.5275                0               0
                        0.165841         176.485                0               0         0.159811        -3.71325                0               0
                        0.970278         82.5291                0               0        0.0648103          17.766                0               0
75.72                   0.154715        -5.30625                0               0         0.165097         174.614                0               0
                        0.064609         15.3112                0               0         0.971413          80.819                0               0
                        0.165095         174.613                0               0         0.154721        -5.32643                0               0
                         0.97141         80.8206                0               0        0.0645211         15.1145                0               0
75.765                  0.149347        -6.96616                0               0         0.164134         172.646                0               0
                       0.0642049         12.5551                0               0         0.972626          79.066                0               0
                        0.164132         172.645                0               0         0.149352        -6.98765                0               0
                        0.972624         79.0676                0               0        0.0641195         12.3536                0               0
75.81                   0.143696        -8.66952                0               0         0.162971         170.588                0               0
                       0.0636882         9.70548                0               0         0.973886         77.2704                0               0
                         0.16297         170.587                0               0         0.143702        -8.69251                0               0
                        0.973883         77.2721                0               0        0.0636051         9.49875                0               0
75.855                  0.137762        -10.4114                0               0         0.161624          168.45                0               0
                       0.0630619         6.77855                0               0         0.975157         75.4339                0               0
                        0.161624         168.449                0               0         0.137767        -10.4361                0               0
                        0.975154         75.4356                0               0        0.0629813         6.56621                0               0
75.9                    0.131544        -12.1864                0               0         0.160104         166.242                0               0
                       0.0623325         3.78996                0               0          0.97641         73.5577                0               0
                        0.160105         166.242                0               0         0.131549         -12.213                0               0
                        0.976407         73.5593                0               0        0.0622544         3.57173                0               0
75.945                  0.125046        -13.9882                0               0          0.15842         163.977                0               0
                        0.061509        0.753651                0               0         0.977622         71.6426                0               0
                        0.158423         163.977                0               0         0.125051        -14.0171                0               0
                        0.977619         71.6443                0               0        0.0614338        0.529281                0               0
75.99                   0.118274          -15.81                0               0         0.156578         161.665                0               0
                       0.0606028         -2.3193                0               0          0.97878         69.6895                0               0
                        0.156583         161.665                0               0         0.118279        -15.8414                0               0
                        0.978777         69.6911                0               0        0.0605308        -2.55008                0               0
76.035                  0.111239        -17.6438                0               0         0.154582         159.318                0               0
                       0.0596255        -5.42156                0               0         0.979884          67.699                0               0
                        0.154589         159.319                0               0         0.111243        -17.6782                0               0
                        0.979881         67.7007                0               0        0.0595573         -5.6591                0               0
76.08                   0.103951        -19.4805                0               0         0.152428         156.948                0               0
                       0.0585877        -8.54992                0               0         0.980951         65.6725                0               0
                        0.152439         156.949                0               0         0.103954        -19.5182                0               0
                        0.980949         65.6742                0               0        0.0585239         -8.7947                0               0
76.125                 0.0964272        -21.3093                0               0           0.1501         154.567                0               0
                       0.0574975        -11.7051                0               0         0.982016         63.6121                0               0
                        0.150118         154.569                0               0        0.0964292        -21.3508                0               0
                        0.982014         63.6138                0               0        0.0574387        -11.9577                0               0
76.17                  0.0886861         -23.117                0               0         0.147539          152.19                0               0
                       0.0563594        -14.8909                0               0         0.983123         61.5215                0               0
                        0.147568         152.193                0               0        0.0886866        -23.1631                0               0
                        0.983121         61.5232                0               0         0.056306        -15.1522                0               0
76.215                 0.0807496         -24.887                0               0         0.144453         149.893                0               0
                       0.0551732        -18.1129                0               0         0.984319         59.4062                0               0
                        0.144509         149.889                0               0        0.0807481        -24.9386                0               0
                        0.984318          59.408                0               0        0.0551255        -18.3837                0               0
76.26                  0.0726424        -26.5969                0               0         0.142631         148.862                0               0
                       0.0539346        -21.3765                0               0         0.985635         57.2743                0               0
                        0.142631         148.861                0               0        0.0726385        -26.6551                0               0
                        0.985634         57.2762                0               0        0.0538928        -21.6578                0               0
76.305                 0.0643919        -28.2144                0               0         0.141515         145.518                0               0
                       0.0526358        -24.6852                0               0         0.987065         55.1352                0               0
                        0.141502         145.501                0               0        0.0643853        -28.2809                0               0
                        0.987064         55.1371                0               0           0.0526        -24.9779                0               0
76.35                  0.0560287        -29.6898                0               0          0.13844         143.075                0               0
                       0.0512671        -28.0389                0               0         0.988554         52.9991                0               0
                        0.138426         143.067                0               0        0.0560191        -29.7672                0               0
                        0.988553          53.001                0               0        0.0512373        -28.3438                0               0
76.395                 0.0475862         -30.939                0               0         0.135499         140.806                0               0
                       0.0498189        -31.4323                0               0         0.989999         50.8749                0               0
                         0.13549         140.801                0               0        0.0475734        -31.0313                0               0
                        0.989998         50.8769                0               0         0.049795        -31.7503                0               0
76.44                  0.0391022         -31.806                0               0         0.132583         138.622                0               0
                       0.0482837        -34.8547                0               0         0.991258         48.7694                0               0
