! TOUCHSTONE file generated by CST MICROWAVE STUDIO
! Date and time: Mon Jun 21 17:07:04 2021
! Project name: HIPS_d_sweep.cst
! Parameters = {a=0.735; b=0.393; d=21.6784; fmax=120; fmin=75; phi=0; theta=0}
! Header version: 2018
! Port assignment regex: !\s*Touchstone port\s*([0-9]+)\s*=\s*(CST MWS port|CST DS port)\s*([0-9]+|Zmin|Zmax)\s*\(\"(.*)\"\)(\s*mode\s*([0-9]+))?.*
! Touchstone port assignment:
! Touchstone port 1 = CST MWS port Zmin ("") mode 1
! Touchstone port 2 = CST MWS port Zmin ("") mode 2
! Touchstone port 3 = CST MWS port Zmax ("") mode 1
! Touchstone port 4 = CST MWS port Zmax ("") mode 2
! S-Parameters are not renormalized. Unphysical impedance of 0 will be written to the file.
# GHz S MA R 0
75                      0.240091         34.7601                0               0         0.148964        -142.928                0               0
                       0.0536318         77.2275                0               0          0.95775         123.253                0               0
                        0.148963        -142.928                0               0         0.240081         34.7957                0               0
                        0.957753         123.253                0               0        0.0537164         77.3569                0               0
75.045                  0.239226         34.1969                0               0         0.152381        -143.682                0               0
                       0.0545734           76.78                0               0         0.957758          122.62                0               0
                         0.15238        -143.683                0               0         0.239216         34.2331                0               0
                        0.957762          122.62                0               0        0.0546574          76.907                0               0
75.09                   0.238258         33.5504                0               0         0.155562         -144.46                0               0
                       0.0554305         76.1811                0               0         0.957583          121.91                0               0
                        0.155562         -144.46                0               0         0.238248         33.5873                0               0
                        0.957586          121.91                0               0        0.0555138         76.3062                0               0
75.135                  0.237204         32.8219                0               0         0.158477        -145.273                0               0
                       0.0562166         75.4146                0               0         0.957294         121.122                0               0
                        0.158477        -145.273                0               0         0.237195         32.8596                0               0
                        0.957297         121.122                0               0        0.0562989         75.5381                0               0
75.18                   0.236075         32.0133                0               0         0.161102        -146.132                0               0
                       0.0569473           74.47                0               0         0.956957         120.255                0               0
                        0.161101        -146.133                0               0         0.236066         32.0519                0               0
                        0.956961         120.255                0               0        0.0570283         74.5923                0               0
75.225                  0.234878         31.1265                0               0         0.163419         -147.05                0               0
                       0.0576384         73.3428                0               0         0.956634          119.31                0               0
                        0.163418         -147.05                0               0         0.234869         31.1661                0               0
                        0.956638          119.31                0               0        0.0577179         73.4643                0               0
75.27                   0.233612         30.1637                0               0          0.16542        -148.035                0               0
                       0.0583041         72.0333                0               0         0.956377         118.287                0               0
                        0.165419        -148.035                0               0         0.233604         30.2043                0               0
                        0.956381         118.287                0               0         0.058382         72.1541                0               0
75.315                  0.232276         29.1269                0               0         0.167102        -149.095                0               0
                       0.0589562         70.5456                0               0          0.95623         117.189                0               0
                        0.167101        -149.095                0               0         0.232269         29.1687                0               0
                        0.956234         117.189                0               0        0.0590323          70.666                0               0
75.36                   0.230863         28.0182                0               0          0.16847        -150.236                0               0
                       0.0596029         68.8866                0               0         0.956229         116.017                0               0
                        0.168469        -150.236                0               0         0.230857         28.0612                0               0
                        0.956234         116.017                0               0         0.059677         69.0068                0               0
75.405                  0.229362         26.8395                0               0         0.169532        -151.461                0               0
                       0.0602485         67.0646                0               0         0.956403         114.773                0               0
                        0.169531        -151.462                0               0         0.229357         26.8839                0               0
                        0.956408         114.773                0               0        0.0603206         67.1848                0               0
75.45                   0.227762         25.5925                0               0         0.170301        -152.773                0               0
                       0.0608942         65.0892                0               0         0.956768         113.459                0               0
                        0.170301        -152.773                0               0         0.227758         25.6384                0               0
                        0.956773         113.459                0               0        0.0609642         65.2094                0               0
75.495                  0.226047          24.279                0               0         0.170793         -154.17                0               0
                       0.0615373         62.9699                0               0         0.957336         112.078                0               0
                        0.170792        -154.171                0               0         0.226044         24.3265                0               0
                        0.957341         112.078                0               0        0.0616051         63.0904                0               0
75.54                   0.224199         22.9005                0               0         0.171024         -155.65                0               0
                       0.0621725         60.7165                0               0         0.958106         110.633                0               0
                        0.171023        -155.651                0               0         0.224197         22.9497                0               0
                        0.958111         110.634                0               0         0.062238         60.8374                0               0
75.585                    0.2222         21.4588                0               0         0.171011         -157.21                0               0
                       0.0627918         58.3386                0               0         0.959072         109.127                0               0
                        0.171011        -157.211                0               0         0.222199         21.5098                0               0
                        0.959077         109.127                0               0        0.0628549           58.46                0               0
75.63                    0.22003         19.9555                0               0         0.170772        -158.844                0               0
                        0.063385         55.8458                0               0          0.96022         107.563                0               0
                        0.170771        -158.844                0               0         0.220031         20.0085                0               0
                        0.960225         107.563                0               0        0.0634456         55.9677                0               0
75.675                  0.217668         18.3925                0               0         0.170323        -160.546                0               0
                       0.0639406         53.2474                0               0         0.961529         105.944                0               0
                        0.170322        -160.546                0               0          0.21767         18.4477                0               0
                        0.961535         105.944                0               0        0.0639986           53.37                0               0
75.72                   0.215093          16.772                0               0          0.16968        -162.308                0               0
                       0.0644458         50.5531                0               0         0.962973         104.272                0               0
                         0.16968        -162.309                0               0         0.215095         16.8295                0               0
                        0.962979         104.272                0               0        0.0645011         50.6764                0               0
75.765                  0.212282         15.0966                0               0         0.168859        -164.124                0               0
                       0.0648874         47.7726                0               0          0.96452         102.552                0               0
                        0.168859        -164.125                0               0         0.212286         15.1565                0               0
                        0.964527         102.552                0               0        0.0649398         47.8967                0               0
75.81                   0.209216         13.3691                0               0         0.167875        -165.986                0               0
                       0.0652523         44.9163                0               0         0.966135         100.787                0               0
                        0.167875        -165.987                0               0         0.209221         13.4316                0               0
                        0.966142         100.787                0               0        0.0653017         45.0412                0               0
75.855                  0.205875          11.593                0               0         0.166741        -167.886                0               0
                       0.0655277         41.9947                0               0         0.967778          98.979                0               0
                        0.166741        -167.886                0               0         0.205881         11.6583                0               0
                        0.967785         98.9792                0               0         0.065574         42.1206                0               0
75.9                     0.20224         9.77243                0               0         0.165471        -169.815                0               0
                       0.0657022         39.0191                0               0         0.969408         97.1325                0               0
                        0.165471        -169.816                0               0         0.202248          9.8407                0               0
                        0.969415         97.1327                0               0        0.0657454         39.1459                0               0
75.945                  0.198296         7.91226                0               0         0.164078        -171.767                0               0
                        0.065766         36.0011                0               0         0.970981         95.2505                0               0
                        0.164078        -171.767                0               0         0.198306         7.98371                0               0
                        0.970989         95.2506                0               0        0.0658059         36.1288                0               0
75.99                   0.194031          6.0181                0               0         0.162575        -173.734                0               0
                       0.0657112         32.9527                0               0         0.972454         93.3364                0               0
                        0.162575        -173.734                0               0         0.194043         6.09297                0               0
                        0.972462         93.3366                0               0        0.0657478         33.0814                0               0
76.035                  0.189435         4.09646                0               0         0.160973        -175.709                0               0
                       0.0655327          29.886                0               0         0.973784         91.3938                0               0
                        0.160973         -175.71                0               0         0.189449           4.175                0               0
                        0.973792         91.3939                0               0        0.0655659         30.0157                0               0
76.08                   0.184505          2.1548                0               0         0.159284        -177.686                0               0
                       0.0652277         26.8133                0               0         0.974929         89.4261                0               0
                        0.159284        -177.687                0               0          0.18452         2.23728                0               0
                        0.974937         89.4262                0               0        0.0652574          26.944                0               0
76.125                  0.179238        0.201547                0               0          0.15752         -179.66                0               0
                       0.0647962         23.7465                0               0         0.975848         87.4368                0               0
                         0.15752         -179.66                0               0         0.179256        0.288261                0               0
                        0.975856         87.4369                0               0        0.0648225         23.8783                0               0
76.17                   0.173642        -1.75384                0               0         0.155693         178.376                0               0
                       0.0642411         20.6971                0               0         0.976505         85.4296                0               0
                        0.155693         178.376                0               0         0.173662        -1.66256                0               0
                        0.976513         85.4297                0               0        0.0642639           20.83                0               0
76.215                  0.167726        -3.70084                0               0         0.153812         176.426                0               0
                       0.0635675         17.6758                0               0         0.976867         83.4079                0               0
                        0.153812         176.426                0               0         0.167748        -3.60463                0               0
                        0.976875          83.408                0               0        0.0635869         17.8098                0               0
76.26                   0.161506        -5.62782                0               0         0.151889         174.495                0               0
                       0.0627828         14.6924                0               0         0.976904         81.3754                0               0
                        0.151889         174.494                0               0         0.161531        -5.52627                0               0
                        0.976912         81.3755                0               0        0.0627988         14.8275                0               0
76.305                  0.155002        -7.52201                0               0         0.149933         172.585                0               0
                       0.0618961         11.7557                0               0         0.976593         79.3357                0               0
                        0.149932         172.585                0               0          0.15503        -7.41467                0               0
                        0.976601         79.3356                0               0        0.0619088          11.892                0               0
76.35                   0.148242        -9.36941                0               0         0.147953           170.7                0               0
                       0.0609178          8.8731                0               0         0.975916          77.292                0               0
                        0.147952           170.7                0               0         0.148274        -9.25577                0               0
                        0.975923          77.292                0               0        0.0609273         9.01057                0               0
76.395                  0.141256        -11.1547                0               0         0.145959         168.843                0               0
                       0.0598592         6.05085                0               0         0.974859          75.248                0               0
                        0.145958         168.843                0               0         0.141291        -11.0341                0               0
                        0.974866         75.2479                0               0        0.0598655         6.18955                0               0
76.44                   0.134077        -12.8608                0               0         0.143958         167.016                0               0
                       0.0587318         3.29383                0               0         0.973415         73.2068                0               0
