! TOUCHSTONE file generated by CST MICROWAVE STUDIO
! Date and time: Mon Jun 21 17:06:49 2021
! Project name: HIPS_d_sweep.cst
! Parameters = {a=0.735; b=0.393; d=19.8693; fmax=120; fmin=75; phi=0; theta=0}
! Header version: 2018
! Port assignment regex: !\s*Touchstone port\s*([0-9]+)\s*=\s*(CST MWS port|CST DS port)\s*([0-9]+|Zmin|Zmax)\s*\(\"(.*)\"\)(\s*mode\s*([0-9]+))?.*
! Touchstone port assignment:
! Touchstone port 1 = CST MWS port Zmin ("") mode 1
! Touchstone port 2 = CST MWS port Zmin ("") mode 2
! Touchstone port 3 = CST MWS port Zmax ("") mode 1
! Touchstone port 4 = CST MWS port Zmax ("") mode 2
! S-Parameters are not renormalized. Unphysical impedance of 0 will be written to the file.
# GHz S MA R 0
75                      0.213539          63.654                0               0          0.25768         63.5828                0               0
                          0.0585         151.404                0               0         0.940523        -26.5278                0               0
                        0.257682         63.5829                0               0          0.21351         63.6177                0               0
                        0.940521        -26.5291                0               0        0.0585788         151.368                0               0
75.045                  0.213696         63.1006                0               0         0.260908         62.9972                0               0
                       0.0592539         150.449                0               0         0.939887        -27.0887                0               0
                         0.26091         62.9973                0               0         0.213666         63.0643                0               0
                        0.939885          -27.09                0               0        0.0593325         150.415                0               0
75.09                   0.213844         62.4865                0               0         0.263617         62.3708                0               0
                        0.059995         149.329                0               0         0.939001        -27.7486                0               0
                         0.26362         62.3709                0               0         0.213814         62.4505                0               0
                        0.938999        -27.7498                0               0        0.0600726         149.295                0               0
75.135                  0.214006         61.8106                0               0         0.265846         61.6902                0               0
                       0.0607233         148.037                0               0            0.938        -28.5011                0               0
                        0.265849         61.6903                0               0         0.213977         61.7754                0               0
                        0.937997        -28.5023                0               0        0.0607993         148.004                0               0
75.18                   0.214202         61.0731                0               0         0.267642         60.9463                0               0
                       0.0614391          146.57                0               0         0.936982        -29.3396                0               0
                        0.267645         60.9463                0               0         0.214175         61.0391                0               0
                         0.93698        -29.3409                0               0        0.0615131         146.538                0               0
75.225                  0.214454         60.2755                0               0         0.269057         60.1333                0               0
                       0.0621431         144.927                0               0         0.936022        -30.2577                0               0
                        0.269059         60.1333                0               0         0.214429         60.2429                0               0
                         0.93602         -30.259                0               0        0.0622148         144.895                0               0
75.27                   0.214777         59.4198                0               0         0.270141          59.249                0               0
                       0.0628359         143.105                0               0         0.935168        -31.2492                0               0
                        0.270143         59.2489                0               0         0.214755          59.389                0               0
                        0.935166        -31.2505                0               0        0.0629052         143.073                0               0
75.315                   0.21519          58.509                0               0         0.270944         58.2935                0               0
                       0.0635184         141.107                0               0          0.93445        -32.3083                0               0
                        0.270946         58.2933                0               0         0.215172         58.4801                0               0
                        0.934448        -32.3096                0               0        0.0635853         141.076                0               0
75.36                   0.215704         57.5462                0               0         0.271506         57.2688                0               0
                       0.0641915         138.937                0               0         0.933881        -33.4298                0               0
                        0.271509         57.2685                0               0         0.215691         57.5193                0               0
                        0.933879        -33.4311                0               0        0.0642561         138.907                0               0
75.405                  0.216333         56.5344                0               0         0.271865         56.1784                0               0
                       0.0648562         136.599                0               0         0.933463        -34.6091                0               0
                        0.271867         56.1782                0               0         0.216325         56.5096                0               0
                        0.933461        -34.6104                0               0        0.0649187          136.57                0               0
75.45                   0.217087         55.4759                0               0         0.272048         55.0268                0               0
                       0.0655136         134.103                0               0         0.933187         -35.842                0               0
                         0.27205         55.0265                0               0         0.217086         55.4528                0               0
                        0.933185        -35.8433                0               0        0.0655742         134.075                0               0
75.495                  0.217976         54.3716                0               0         0.272077         53.8188                0               0
                       0.0661648         131.457                0               0         0.933036        -37.1251                0               0
                        0.272079         53.8186                0               0         0.217982         54.3497                0               0
                        0.933034        -37.1264                0               0        0.0662239         131.431                0               0
75.54                    0.21901         53.2196                0               0         0.271967         52.5597                0               0
                        0.066811         128.674                0               0          0.93299        -38.4555                0               0
                         0.27197         52.5595                0               0         0.219024         53.1981                0               0
                        0.932987        -38.4568                0               0        0.0668687         128.651                0               0
75.585                  0.220193         52.0139                0               0         0.271729         51.2546                0               0
                       0.0674534         125.767                0               0         0.933022        -39.8309                0               0
                        0.271732         51.2545                0               0         0.220214         51.9916                0               0
                         0.93302        -39.8322                0               0        0.0675099         125.746                0               0
75.63                   0.221515         50.7432                0               0         0.271366         49.9085                0               0
                       0.0680932         122.752                0               0         0.933108        -41.2495                0               0
                        0.271369         49.9085                0               0         0.221541         50.7188                0               0
                        0.933106        -41.2508                0               0        0.0681487         122.733                0               0
75.675                  0.222934         49.3914                0               0         0.270878          48.526                0               0
                       0.0687317         119.642                0               0         0.933223        -42.7101                0               0
                        0.270881         48.5261                0               0         0.222955         49.3643                0               0
                        0.933221        -42.7114                0               0        0.0687862         119.625                0               0
75.72                   0.224346         47.9441                0               0          0.27026         47.1111                0               0
                       0.0693701         116.454                0               0         0.933346        -44.2119                0               0
                        0.270263         47.1113                0               0         0.224355         47.9152                0               0
                        0.933343        -44.2132                0               0        0.0694234          116.44                0               0
75.765                  0.225597         46.4024                0               0         0.269504         45.6669                0               0
                       0.0700094         113.204                0               0         0.933463        -45.7545                0               0
                        0.269507         45.6672                0               0         0.225589          46.374                0               0
                         0.93346        -45.7559                0               0        0.0700613         113.192                0               0
75.81                   0.226539         44.7924                0               0           0.2686         44.1956                0               0
                       0.0706504         109.906                0               0         0.933566        -47.3378                0               0
                        0.268602          44.196                0               0         0.226518         44.7672                0               0
                        0.933563        -47.3392                0               0        0.0707008         109.896                0               0
75.855                  0.227119         43.1561                0               0         0.267537         42.6977                0               0
                       0.0712938         106.575                0               0         0.933662        -48.9616                0               0
                        0.267538         42.6981                0               0         0.227096         43.1348                0               0
                        0.933659         -48.963                0               0        0.0713422         106.566                0               0
75.9                    0.227392         41.5269                0               0         0.266307         41.1723                0               0
                       0.0719397         103.222                0               0         0.933768        -50.6254                0               0
                        0.266308         41.1727                0               0         0.227374         41.5082                0               0
                        0.933765        -50.6267                0               0        0.0719857         103.215                0               0
75.945                  0.227453         39.9162                0               0          0.26491         39.6169                0               0
                       0.0725875         99.8592                0               0         0.933913        -52.3279                0               0
                        0.264911         39.6173                0               0         0.227442         39.8985                0               0
                         0.93391        -52.3293                0               0        0.0726306         99.8523                0               0
75.99                   0.227369         38.3185                0               0         0.263355         38.0279                0               0
                       0.0732361         96.4943                0               0         0.934133         -54.067                0               0
                        0.263356         38.0282                0               0         0.227364         38.3007                0               0
                        0.934131        -54.0683                0               0        0.0732758         96.4877                0               0
76.035                  0.227167         36.7226                0               0         0.261667         36.4019                0               0
                       0.0738832          93.135                0               0         0.934466         -55.839                0               0
                        0.261668         36.4021                0               0         0.227164         36.7044                0               0
                        0.934464        -55.8404                0               0        0.0739191         93.1282                0               0
76.08                    0.22684         35.1184                0               0         0.259883         34.7371                0               0
                       0.0745256         89.7866                0               0         0.934943         -57.639                0               0
                        0.259885         34.7373                0               0         0.226836         35.0999                0               0
                        0.934941        -57.6403                0               0        0.0745574         89.7793                0               0
76.125                  0.226363         33.4992                0               0         0.258052         33.0355                0               0
                       0.0751591         86.4529                0               0         0.935576        -59.4607                0               0
                        0.258054         33.0357                0               0         0.226359         33.4806                0               0
                        0.935574         -59.462                0               0        0.0751864         86.4448                0               0
76.17                   0.225708         31.8612                0               0         0.256221         31.3033                0               0
                       0.0757784         83.1362                0               0         0.936354         -61.297                0               0
                        0.256223         31.3036                0               0         0.225703         31.8429                0               0
                        0.936352        -61.2984                0               0         0.075801         83.1271                0               0
76.215                  0.224845         30.2034                0               0         0.254426         29.5509                0               0
                       0.0763769         79.8381                0               0          0.93724        -63.1411                0               0
                        0.254428         29.5513                0               0         0.224839         30.1855                0               0
                        0.937238        -63.1424                0               0        0.0763947         79.8276                0               0
76.26                   0.223747         28.5264                0               0         0.252687         27.7907                0               0
                       0.0769476         76.5591                0               0         0.938173        -64.9864                0               0
                        0.252689         27.7912                0               0         0.223741         28.5091                0               0
                         0.93817        -64.9877                0               0        0.0769607         76.5472                0               0
76.305                   0.22239         26.8322                0               0         0.251008         26.0351                0               0
                       0.0774829         73.2996                0               0         0.939077        -66.8276                0               0
                         0.25101         26.0357                0               0         0.222385         26.8156                0               0
                        0.939075         -66.829                0               0        0.0774915         73.2861                0               0
76.35                   0.220757         25.1237                0               0         0.249378         24.2942                0               0
                       0.0779758         70.0602                0               0         0.939878        -68.6609                0               0
                         0.24938         24.2947                0               0         0.220754         25.1079                0               0
                        0.939875        -68.6623                0               0        0.0779802          70.045                0               0
76.395                  0.218839         23.4047                0               0         0.247786         22.5745                0               0
                       0.0784204         66.8421                0               0         0.940513        -70.4838                0               0
                        0.247788          22.575                0               0         0.218838         23.3898                0               0
                        0.940511        -70.4852                0               0        0.0784208         66.8251                0               0
76.44                   0.216637           21.68                0               0         0.246219         20.8779                0               0
                       0.0788136         63.6479                0               0         0.940954        -72.2953                0               0
