! TOUCHSTONE file generated by CST MICROWAVE STUDIO
! Date and time: Mon Jun 21 17:06:39 2021
! Project name: HIPS_d_sweep.cst
! Parameters = {a=0.735; b=0.393; d=18.4121; fmax=120; fmin=75; phi=0; theta=0}
! Header version: 2018
! Port assignment regex: !\s*Touchstone port\s*([0-9]+)\s*=\s*(CST MWS port|CST DS port)\s*([0-9]+|Zmin|Zmax)\s*\(\"(.*)\"\)(\s*mode\s*([0-9]+))?.*
! Touchstone port assignment:
! Touchstone port 1 = CST MWS port Zmin ("") mode 1
! Touchstone port 2 = CST MWS port Zmin ("") mode 2
! Touchstone port 3 = CST MWS port Zmax ("") mode 1
! Touchstone port 4 = CST MWS port Zmax ("") mode 2
! S-Parameters are not renormalized. Unphysical impedance of 0 will be written to the file.
# GHz S MA R 0
75                      0.210518         54.7171                0               0          0.34333        -125.957                0               0
                       0.0799144         136.011                0               0         0.911817         143.578                0               0
                        0.343331        -125.957                0               0         0.210508         54.7275                0               0
                         0.91182         143.577                0               0        0.0799946         136.027                0               0
75.045                  0.210615         54.2335                0               0         0.346594        -126.666                0               0
                        0.080641         134.844                0               0           0.9143         143.006                0               0
                        0.346595        -126.666                0               0         0.210604         54.2437                0               0
                        0.914304         143.004                0               0        0.0807227          134.86                0               0
75.09                   0.210649         53.7044                0               0         0.349506        -127.368                0               0
                       0.0813419         133.605                0               0         0.915642         142.394                0               0
                        0.349508        -127.368                0               0         0.210638         53.7144                0               0
                        0.915646         142.393                0               0         0.081425         133.621                0               0
75.135                  0.210632         53.1262                0               0         0.352022        -128.071                0               0
                       0.0820163         132.288                0               0         0.915935         141.729                0               0
                        0.352024        -128.071                0               0          0.21062         53.1361                0               0
                        0.915939         141.728                0               0        0.0821002         132.305                0               0
75.18                   0.210574          52.496                0               0         0.354113        -128.787                0               0
                       0.0826634         130.887                0               0         0.915325         140.999                0               0
                        0.354115        -128.787                0               0         0.210562         52.5057                0               0
                        0.915329         140.998                0               0         0.082748         130.905                0               0
75.225                  0.210491         51.8117                0               0         0.355766        -129.527                0               0
                       0.0832838         129.397                0               0         0.913999         140.196                0               0
                        0.355767        -129.527                0               0         0.210478         51.8212                0               0
                        0.914003         140.194                0               0        0.0833687         129.414                0               0
75.27                   0.210394         51.0722                0               0         0.356984        -130.302                0               0
                       0.0838785          127.81                0               0         0.912165         139.314                0               0
                        0.356985        -130.302                0               0         0.210381         51.0815                0               0
                        0.912168         139.312                0               0        0.0839633         127.828                0               0
75.315                  0.210297         50.2772                0               0          0.35779        -131.122                0               0
                       0.0844497         126.122                0               0          0.91003         138.351                0               0
                        0.357791        -131.121                0               0         0.210284         50.2862                0               0
                        0.910033          138.35                0               0        0.0845342         126.141                0               0
75.36                   0.210211         49.4273                0               0         0.358221        -131.995                0               0
                       0.0850006         124.326                0               0         0.907788          137.31                0               0
                        0.358222        -131.994                0               0         0.210198         49.4361                0               0
                        0.907791         137.308                0               0        0.0850845         124.346                0               0
75.405                  0.210145         48.5239                0               0         0.358325        -132.928                0               0
                       0.0855353         122.419                0               0         0.905603         136.193                0               0
                        0.358325        -132.928                0               0         0.210132         48.5325                0               0
                        0.905606         136.192                0               0        0.0856184         122.439                0               0
75.45                   0.210105         47.5691                0               0         0.358155        -133.925                0               0
                       0.0860591         120.396                0               0         0.903609         135.007                0               0
                        0.358154        -133.925                0               0         0.210092         47.5775                0               0
                        0.903612         135.005                0               0        0.0861413         120.417                0               0
75.495                  0.210094         46.5653                0               0         0.357767        -134.989                0               0
                        0.086578         118.254                0               0         0.901902         133.758                0               0
                        0.357766        -134.989                0               0         0.210081         46.5735                0               0
                        0.901905         133.757                0               0        0.0866591         118.276                0               0
75.54                    0.21011         45.5153                0               0         0.357215        -136.118                0               0
                       0.0870985         115.993                0               0         0.900546         132.453                0               0
                        0.357214        -136.118                0               0         0.210098         45.5232                0               0
                        0.900549         132.452                0               0        0.0871786         116.015                0               0
75.585                  0.210151          44.422                0               0         0.356546        -137.311                0               0
                       0.0876278         113.612                0               0         0.899574           131.1                0               0
                        0.356545        -137.311                0               0         0.210138         44.4296                0               0
                        0.899577         131.099                0               0        0.0877068         113.634                0               0
75.63                   0.210208         43.2881                0               0         0.355802        -138.564                0               0
                       0.0881726         111.112                0               0         0.898999         129.705                0               0
                          0.3558        -138.564                0               0         0.210195         43.2954                0               0
                        0.899002         129.703                0               0        0.0882508         111.135                0               0
75.675                  0.210271         42.1162                0               0         0.355014        -139.873                0               0
                       0.0887395         108.498                0               0         0.898812         128.273                0               0
                        0.355012        -139.873                0               0         0.210258         42.1233                0               0
                        0.898815         128.271                0               0        0.0888172         108.522                0               0
75.72                   0.210328         40.9089                0               0         0.354206        -141.232                0               0
                       0.0893341         105.774                0               0         0.898991          126.81                0               0
                        0.354205        -141.232                0               0         0.210315         40.9157                0               0
                        0.898994         126.809                0               0        0.0894113         105.799                0               0
75.765                  0.210363         39.6684                0               0         0.353396        -142.638                0               0
                       0.0899604         102.949                0               0         0.899506         125.321                0               0
                        0.353395        -142.638                0               0          0.21035         39.6748                0               0
                        0.899509         125.319                0               0        0.0900376         102.974                0               0
75.81                   0.210361         38.3965                0               0         0.352593        -144.084                0               0
                       0.0906208          100.03                0               0         0.900319         123.809                0               0
                        0.352592        -144.084                0               0         0.210348         38.4026                0               0
                        0.900322         123.807                0               0        0.0906983         100.056                0               0
75.855                  0.210304         37.0953                0               0         0.351803        -145.565                0               0
                       0.0913155         97.0279                0               0         0.901388         122.277                0               0
                        0.351802        -145.565                0               0          0.21029          37.101                0               0
                        0.901392         122.275                0               0        0.0913935         97.0547                0               0
75.9                    0.210172         35.7663                0               0         0.351024        -147.077                0               0
                       0.0920423         93.9539                0               0         0.902671         120.727                0               0
                        0.351023        -147.077                0               0         0.210159         35.7716                0               0
                        0.902674         120.726                0               0         0.092121         93.9818                0               0
75.945                  0.209948         34.4113                0               0         0.350253        -148.615                0               0
                       0.0927962         90.8199                0               0         0.904123         119.163                0               0
                        0.350252        -148.615                0               0         0.209934         34.4162                0               0
                        0.904127         119.161                0               0         0.092876         90.8492                0               0
75.99                   0.209611         33.0319                0               0         0.349485        -150.175                0               0
                       0.0935703         87.6385                0               0         0.905701         117.584                0               0
                        0.349484        -150.175                0               0         0.209598         33.0364                0               0
                        0.905705         117.582                0               0        0.0936511         87.6692                0               0
76.035                  0.209143           31.63                0               0         0.348712        -151.753                0               0
                       0.0943549         84.4221                0               0         0.907363         115.993                0               0
                        0.348712        -151.753                0               0          0.20913          31.634                0               0
                        0.907367         115.992                0               0        0.0944369         84.4546                0               0
76.08                   0.208525         30.2076                0               0         0.347926        -153.347                0               0
                       0.0951388         81.1831                0               0         0.909067         114.392                0               0
                        0.347926        -153.346                0               0         0.208512         30.2111                0               0
                        0.909071          114.39                0               0         0.095222         81.2174                0               0
76.125                   0.20774         28.7669                0               0         0.347118        -154.952                0               0
                       0.0959091         77.9331                0               0         0.910774         112.779                0               0
                        0.347118        -154.951                0               0         0.207726           28.77                0               0
                        0.910778         112.778                0               0        0.0959934         77.9694                0               0
76.17                    0.20677         27.3106                0               0         0.346278        -156.565                0               0
                       0.0966523         74.6834                0               0         0.912445         111.158                0               0
                        0.346278        -156.565                0               0         0.206756         27.3131                0               0
                        0.912449         111.156                0               0        0.0967376         74.7218                0               0
76.215                  0.205601         25.8415                0               0         0.345399        -158.186                0               0
                       0.0973544         71.4442                0               0         0.914043         109.528                0               0
                        0.345399        -158.185                0               0         0.205588         25.8436                0               0
                        0.914048         109.526                0               0        0.0974405         71.4847                0               0
76.26                    0.20422         24.3632                0               0         0.344472         -159.81                0               0
                       0.0980019         68.2249                0               0         0.915536          107.89                0               0
                        0.344472        -159.809                0               0         0.204207         24.3648                0               0
                         0.91554         107.889                0               0        0.0980885         68.2675                0               0
76.305                  0.202617         22.8794                0               0         0.343489        -161.435                0               0
                       0.0985821         65.0338                0               0         0.916889         106.246                0               0
                        0.343489        -161.435                0               0         0.202603         22.8805                0               0
                        0.916893         106.244                0               0         0.098669         65.0785                0               0
76.35                   0.200782         21.3944                0               0         0.342445        -163.061                0               0
                       0.0990835         61.8784                0               0         0.918071         104.595                0               0
                        0.342445         -163.06                0               0         0.200768          21.395                0               0
                        0.918076         104.593                0               0        0.0991705          61.925                0               0
76.395                   0.19871         19.9128                0               0         0.341333        -164.683                0               0
                       0.0994966         58.7651                0               0         0.919055         102.939                0               0
                        0.341333        -164.683                0               0         0.198696         19.9128                0               0
                         0.91906         102.937                0               0        0.0995833         58.8136                0               0
76.44                     0.1964         18.4398                0               0          0.34015        -166.301                0               0
                       0.0998137         55.6995                0               0         0.919813         101.279                0               0
