! TOUCHSTONE file generated by CST MICROWAVE STUDIO
! Date and time: Mon Jun 21 17:06:57 2021
! Project name: HIPS_d_sweep.cst
! Parameters = {a=0.735; b=0.393; d=20.9246; fmax=120; fmin=75; phi=0; theta=0}
! Header version: 2018
! Port assignment regex: !\s*Touchstone port\s*([0-9]+)\s*=\s*(CST MWS port|CST DS port)\s*([0-9]+|Zmin|Zmax)\s*\(\"(.*)\"\)(\s*mode\s*([0-9]+))?.*
! Touchstone port assignment:
! Touchstone port 1 = CST MWS port Zmin ("") mode 1
! Touchstone port 2 = CST MWS port Zmin ("") mode 2
! Touchstone port 3 = CST MWS port Zmax ("") mode 1
! Touchstone port 4 = CST MWS port Zmax ("") mode 2
! S-Parameters are not renormalized. Unphysical impedance of 0 will be written to the file.
# GHz S MA R 0
75                     0.0467768         106.249                0               0         0.211498        -59.9176                0               0
                       0.0553245        -69.5482                0               0          0.97469        -149.197                0               0
                        0.211497        -59.9173                0               0        0.0468601         106.028                0               0
                        0.974689        -149.196                0               0        0.0552541        -69.3903                0               0
75.045                  0.048756         105.984                0               0         0.214818        -60.6023                0               0
                       0.0557236        -70.7831                0               0         0.974095        -149.824                0               0
                        0.214817        -60.6019                0               0        0.0488383         105.772                0               0
                        0.974094        -149.822                0               0        0.0556512        -70.6269                0               0
75.09                  0.0510485         105.695                0               0         0.217798        -61.3474                0               0
                       0.0559823        -72.1542                0               0         0.973344        -150.534                0               0
                        0.217797         -61.347                0               0        0.0511297         105.491                0               0
                        0.973343        -150.532                0               0        0.0559076        -71.9992                0               0
75.135                  0.053653         105.385                0               0         0.220419        -62.1601                0               0
                       0.0561042        -73.6763                0               0         0.972503        -151.327                0               0
                        0.220418        -62.1597                0               0        0.0537327         105.191                0               0
                        0.972503        -151.326                0               0        0.0560268        -73.5224                0               0
75.18                  0.0565666         105.055                0               0         0.222668        -63.0461                0               0
                       0.0560943        -75.3626                0               0         0.971634        -152.203                0               0
                        0.222667        -63.0457                0               0        0.0566445          104.87                0               0
                        0.971633        -152.201                0               0         0.056014        -75.2094                0               0
75.225                  0.059785           104.7                0               0         0.224538          -64.01                0               0
                        0.055959        -77.2242                0               0         0.970786        -153.159                0               0
                        0.224538        -64.0097                0               0        0.0598608         104.524                0               0
                        0.970785        -153.157                0               0        0.0558755        -77.0715                0               0
75.27                  0.0633027         104.314                0               0         0.226027        -65.0551                0               0
                       0.0557053        -79.2702                0               0             0.97        -154.194                0               0
                        0.226026        -65.0548                0               0        0.0633763         104.147                0               0
                        0.969998        -154.192                0               0        0.0556184         -79.118                0               0
75.315                 0.0671133         103.888                0               0         0.227136        -66.1829                0               0
                       0.0553407        -81.5081                0               0         0.969306        -155.305                0               0
                        0.227135        -66.1827                0               0        0.0671843          103.73                0               0
                        0.969304        -155.303                0               0        0.0552502        -81.3562                0               0
75.36                   0.071209         103.414                0               0         0.227871        -67.3936                0               0
                       0.0548728        -83.9439                0               0         0.968725         -156.49                0               0
                        0.227871        -67.3935                0               0        0.0712773         103.264                0               0
                        0.968723        -156.488                0               0        0.0547786        -83.7921                0               0
75.405                 0.0755808         102.883                0               0         0.228243         -68.686                0               0
                       0.0543095         -86.582                0               0         0.968269        -157.746                0               0
                        0.228242        -68.6858                0               0        0.0756462         102.741                0               0
                        0.968267        -157.744                0               0        0.0542114        -86.4302                0               0
75.45                  0.0802178         102.286                0               0         0.228262        -70.0573                0               0
                       0.0536587        -89.4253                0               0         0.967944         -159.07                0               0
                        0.228261        -70.0571                0               0        0.0802802         102.151                0               0
                        0.967941        -159.069                0               0        0.0535565        -89.2735                0               0
75.495                 0.0851076         101.616                0               0         0.227943        -71.5036                0               0
                       0.0529284        -92.4756                0               0         0.967743        -160.461                0               0
                        0.227942        -71.5034                0               0        0.0851667         101.488                0               0
                        0.967741        -160.459                0               0         0.052822        -92.3239                0               0
75.54                  0.0902351         100.867                0               0         0.227302        -73.0201                0               0
                       0.0521268        -95.7337                0               0         0.967658        -161.914                0               0
                        0.227301        -73.0198                0               0         0.090291         100.746                0               0
                        0.967656        -161.912                0               0         0.052016        -95.5821                0               0
75.585                 0.0955833         100.033                0               0         0.226357        -74.6008                0               0
                       0.0512624        -99.1992                0               0         0.967671        -163.426                0               0
                        0.226356        -74.6005                0               0        0.0956359         99.9186                0               0
                        0.967668        -163.424                0               0         0.051147        -99.0479                0               0
75.63                   0.101132         99.1124                0               0         0.225126        -76.2395                0               0
                       0.0503442        -102.871                0               0          0.96776        -164.995                0               0
                        0.225124        -76.2391                0               0         0.101181         99.0035                0               0
                        0.967758        -164.993                0               0         0.050224         -102.72                0               0
75.675                  0.106858         98.1021                0               0         0.223628        -77.9291                0               0
                       0.0493819        -106.745                0               0           0.9679        -166.617                0               0
                        0.223626        -77.9287                0               0         0.106904         97.9986                0               0
                        0.967897        -166.616                0               0        0.0492566        -106.596                0               0
75.72                   0.112737          97.002                0               0         0.221884        -79.6626                0               0
                       0.0483856         -110.82                0               0         0.968062         -168.29                0               0
                        0.221883         -79.662                0               0          0.11278         96.9037                0               0
                        0.968059        -168.288                0               0        0.0482551        -110.672                0               0
75.765                   0.11874         95.8132                0               0         0.219916        -81.4326                0               0
                       0.0473663        -115.091                0               0         0.968215        -170.009                0               0
                        0.219914         -81.432                0               0         0.118779         95.7198                0               0
                        0.968213        -170.007                0               0        0.0472305        -114.945                0               0
75.81                   0.124836         94.5382                0               0         0.217744        -83.2321                0               0
                       0.0463358        -119.551                0               0          0.96833        -171.771                0               0
                        0.217742        -83.2314                0               0         0.124872         94.4493                0               0
                        0.968327         -171.77                0               0        0.0461946        -119.409                0               0
75.855                  0.130993         93.1809                0               0          0.21539        -85.0543                0               0
                       0.0453064        -124.195                0               0         0.968376        -173.573                0               0
                        0.215388        -85.0536                0               0         0.131026         93.0962                0               0
                        0.968374        -173.572                0               0        0.0451597        -124.057                0               0
75.9                    0.137177         91.7462                0               0         0.212876        -86.8928                0               0
                        0.044291        -129.014                0               0         0.968329        -175.411                0               0
                        0.212874        -86.8921                0               0         0.137207         91.6655                0               0
                        0.968327         -175.41                0               0        0.0441389        -128.881                0               0
75.945                  0.143356         90.2403                0               0         0.210223        -88.7419                0               0
                        0.043303            -134                0               0         0.968166        -177.282                0               0
                        0.210221        -88.7412                0               0         0.143382         90.1633                0               0
                        0.968163         -177.28                0               0        0.0431455        -133.874                0               0
75.99                   0.149495         88.6701                0               0         0.207453        -90.5963                0               0
                       0.0423558        -139.142                0               0         0.967872         -179.18                0               0
                         0.20745        -90.5956                0               0         0.149519         88.5965                0               0
                        0.967869        -179.178                0               0        0.0421931        -139.024                0               0
76.035                  0.155564         87.0431                0               0         0.204586        -92.4517                0               0
                       0.0414629        -144.426                0               0          0.96744         178.898                0               0
                        0.204583        -92.4511                0               0         0.155585         86.9727                0               0
                        0.967436           178.9                0               0        0.0412952        -144.318                0               0
76.08                   0.161534         85.3674                0               0         0.201641        -94.3046                0               0
                       0.0406372         -149.84                0               0         0.966874         176.957                0               0
                        0.201639         -94.304                0               0         0.161552            85.3                0               0
                         0.96687         176.958                0               0         0.040465        -149.743                0               0
76.125                  0.167382         83.6511                0               0         0.198639        -96.1523                0               0
                       0.0398913        -155.367                0               0         0.966188             175                0               0
                        0.198637        -96.1518                0               0         0.167397         83.5865                0               0
                        0.966183         175.001                0               0        0.0397151        -155.283                0               0
76.17                   0.173087         81.9023                0               0         0.195598         -97.993                0               0
                       0.0392368        -160.989                0               0         0.965409         173.032                0               0
                        0.195596        -97.9925                0               0           0.1731         81.8403                0               0
                        0.965404         173.033                0               0        0.0390572        -160.919                0               0
76.215                  0.178634         80.1286                0               0         0.192536        -99.8257                0               0
                       0.0386842        -166.684                0               0         0.964577         171.058                0               0
                        0.192534        -99.8253                0               0         0.178644         80.0691                0               0
                        0.964571         171.059                0               0        0.0385019        -166.629                0               0
76.26                   0.184011         78.3372                0               0         0.189471         -101.65                0               0
                       0.0382428        -172.429                0               0         0.963738         169.081                0               0
                        0.189469         -101.65                0               0         0.184019           78.28                0               0
                        0.963731         169.083                0               0        0.0380586        -172.391                0               0
76.305                  0.189211         76.5346                0               0         0.186421        -103.466                0               0
                         0.03792        -178.199                0               0         0.962946         167.106                0               0
                         0.18642        -103.466                0               0         0.189216         76.4795                0               0
                        0.962939         167.108                0               0        0.0377346        -178.178                0               0
76.35                   0.194226         74.7262                0               0         0.183405        -105.275                0               0
                       0.0377211         176.036                0               0         0.962253         165.137                0               0
                        0.183404        -105.275                0               0         0.194229         74.6732                0               0
                        0.962245         165.138                0               0        0.0375355         176.039                0               0
76.395                  0.199052         72.9166                0               0         0.180442        -107.077                0               0
                       0.0376486         170.306                0               0         0.961701         163.176                0               0
                         0.18044        -107.077                0               0         0.199051         72.8656                0               0
                        0.961692         163.178                0               0        0.0374635         170.292                0               0
76.44                   0.203677         71.1096                0               0          0.17755         -108.87                0               0
                       0.0377011         164.646                0               0         0.961308         161.227                0               0
