! TOUCHSTONE file generated by CST MICROWAVE STUDIO
! Date and time: Mon Jun 21 17:07:05 2021
! Project name: HIPS_d_sweep.cst
! Parameters = {a=0.735; b=0.393; d=21.7789; fmax=120; fmin=75; phi=0; theta=0}
! Header version: 2018
! Port assignment regex: !\s*Touchstone port\s*([0-9]+)\s*=\s*(CST MWS port|CST DS port)\s*([0-9]+|Zmin|Zmax)\s*\(\"(.*)\"\)(\s*mode\s*([0-9]+))?.*
! Touchstone port assignment:
! Touchstone port 1 = CST MWS port Zmin ("") mode 1
! Touchstone port 2 = CST MWS port Zmin ("") mode 2
! Touchstone port 3 = CST MWS port Zmax ("") mode 1
! Touchstone port 4 = CST MWS port Zmax ("") mode 2
! S-Parameters are not renormalized. Unphysical impedance of 0 will be written to the file.
# GHz S MA R 0
75                      0.228341         23.7046                0               0         0.145683        -153.764                0               0
                        0.057489          58.773                0               0         0.960917         111.839                0               0
                        0.145682        -153.764                0               0         0.228258          23.674                0               0
                          0.9609         111.839                0               0        0.0575441         58.8146                0               0
75.045                  0.225917         23.4464                0               0         0.148254        -154.098                0               0
                       0.0588277         58.4505                0               0         0.960927         111.211                0               0
                        0.148251        -154.097                0               0         0.225832         23.4155                0               0
                        0.960923         111.216                0               0        0.0588832         58.4929                0               0
75.09                    0.22393         22.9862                0               0         0.150923        -154.604                0               0
                       0.0599041         57.9928                0               0         0.960788         110.499                0               0
                        0.150918        -154.601                0               0         0.223844         22.9551                0               0
                        0.960787         110.508                0               0        0.0599591         58.0351                0               0
75.135                  0.222191         22.3523                0               0         0.153617        -155.283                0               0
                       0.0607506         57.3419                0               0         0.960577         109.704                0               0
                        0.153613        -155.279                0               0         0.222105         22.3211                0               0
                        0.960574         109.715                0               0        0.0608047         57.3832                0               0
75.18                   0.220568         21.5677                0               0         0.156264        -156.133                0               0
                       0.0614151         56.4655                0               0         0.960362         108.828                0               0
                        0.156261        -156.129                0               0         0.220482         21.5363                0               0
                        0.960354         108.839                0               0        0.0614682         56.5053                0               0
75.225                  0.218962         20.6514                0               0         0.158791        -157.144                0               0
                       0.0619478         55.3545                0               0         0.960198         107.871                0               0
                        0.158789         -157.14                0               0         0.218877         20.6199                0               0
                        0.960185         107.881                0               0            0.062         55.3924                0               0
75.27                   0.217299         19.6195                0               0         0.161132        -158.303                0               0
                       0.0623918         54.0166                0               0          0.96013         106.834                0               0
                        0.161131          -158.3                0               0         0.217214         19.5877                0               0
                        0.960114         106.844                0               0        0.0624434         54.0526                0               0
75.315                  0.215521         18.4856                0               0          0.16323        -159.592                0               0
                       0.0627791         52.4691                0               0          0.96019         105.721                0               0
                         0.16323         -159.59                0               0         0.215438         18.4535                0               0
                        0.960172         105.728                0               0        0.0628302         52.5033                0               0
75.36                   0.213584         17.2613                0               0         0.165044        -160.993                0               0
                       0.0631307         50.7338                0               0         0.960401         104.532                0               0
                        0.165043        -160.991                0               0         0.213501         17.2289                0               0
                        0.960383         104.537                0               0        0.0631812         50.7663                0               0
75.405                   0.21145          15.957                0               0         0.166544        -162.485                0               0
                       0.0634575          48.833                0               0         0.960773         103.271                0               0
                        0.166543        -162.485                0               0         0.211368         15.9242                0               0
                        0.960756         103.274                0               0        0.0635076          48.864                0               0
75.45                   0.209091         14.5818                0               0         0.167716        -164.052                0               0
                       0.0637633         46.7875                0               0         0.961307          101.94                0               0
                        0.167714        -164.052                0               0          0.20901         14.5486                0               0
                        0.961293          101.94                0               0        0.0638128         46.8171                0               0
75.495                  0.206485         13.1441                0               0         0.168556        -165.677                0               0
                       0.0640465         44.6158                0               0         0.961997         100.541                0               0
                        0.168554        -165.678                0               0         0.206404         13.1103                0               0
                        0.961985         100.538                0               0        0.0640952         44.6442                0               0
75.54                   0.203614         11.6512                0               0         0.169072        -167.346                0               0
                        0.064302         42.3339                0               0         0.962827         99.0778                0               0
                        0.169069        -167.347                0               0         0.203534         11.6169                0               0
                        0.962819         99.0723                0               0        0.0643498         42.3612                0               0
75.585                  0.200465         10.1101                0               0         0.169279        -169.049                0               0
                       0.0645227         39.9553                0               0         0.963778          97.552                0               0
                        0.169275        -169.051                0               0         0.200387         10.0751                0               0
                        0.963771         97.5445                0               0        0.0645694         39.9815                0               0
75.63                    0.19703         8.52671                0               0         0.169193        -170.778                0               0
                       0.0647002         37.4915                0               0         0.964822         95.9668                0               0
                        0.169189        -170.779                0               0         0.196953         8.49108                0               0
                        0.964817         95.9578                0               0        0.0647457         37.5167                0               0
75.675                  0.193303         6.90666                0               0         0.168838        -172.527                0               0
                       0.0648259         34.9522                0               0         0.965931         94.3253                0               0
                        0.168833        -172.529                0               0         0.193227         6.87024                0               0
                        0.965927         94.3153                0               0        0.0648701         34.9763                0               0
75.72                   0.189282         5.25475                0               0         0.168234        -174.293                0               0
                       0.0648913         32.3454                0               0         0.967077         92.6305                0               0
                        0.168229        -174.295                0               0         0.189207         5.21745                0               0
                        0.967072         92.6199                0               0         0.064934         32.3685                0               0
75.765                  0.184967         3.57511                0               0         0.167402        -176.076                0               0
                       0.0648884          29.678                0               0         0.968228         90.8855                0               0
                        0.167397        -176.078                0               0         0.184893         3.53683                0               0
                        0.968222          90.875                0               0        0.0649295         29.7001                0               0
75.81                    0.18036         1.87114                0               0         0.166363        -177.877                0               0
                       0.0648098         26.9558                0               0         0.969358         89.0938                0               0
                        0.166357        -177.879                0               0         0.180287         1.83178                0               0
                        0.969351         89.0838                0               0        0.0648492         26.9767                0               0
75.855                  0.175464        0.145461                0               0         0.165132        -179.698                0               0
                       0.0646492         24.1832                0               0         0.970447         87.2587                0               0
                        0.165127          -179.7                0               0         0.175392        0.104904                0               0
                        0.970438         87.2497                0               0        0.0646869          24.203                0               0
75.9                    0.170285        -1.60013                0               0         0.163727         178.456                0               0
                       0.0644015          21.364                0               0         0.971479         85.3838                0               0
                        0.163723         178.455                0               0         0.170215        -1.64203                0               0
                        0.971469         85.3761                0               0        0.0644374         21.3825                0               0
75.945                  0.164829        -3.36473                0               0         0.162162         176.582                0               0
                       0.0640626         18.5005                0               0          0.97245         83.4728                0               0
                        0.162158         176.581                0               0          0.16476        -3.40811                0               0
                         0.97244         83.4665                0               0        0.0640968         18.5177                0               0
75.99                   0.159102        -5.14829                0               0          0.16045         174.673                0               0
                       0.0636301         15.5942                0               0         0.973365         81.5292                0               0
                        0.160447         174.672                0               0         0.159034        -5.19335                0               0
                        0.973355         81.5245                0               0        0.0636624           15.61                0               0
76.035                  0.153113        -6.95167                0               0         0.158604         172.724                0               0
                       0.0631029         12.6455                0               0         0.974242         79.5567                0               0
                        0.158601         172.723                0               0         0.153047         -6.9986                0               0
                        0.974233         79.5536                0               0        0.0631335         12.6598                0               0
76.08                   0.146871        -8.77649                0               0         0.156638         170.728                0               0
                       0.0624815         9.65385                0               0         0.975111         77.5589                0               0
                        0.156636         170.728                0               0         0.146806        -8.82554                0               0
                        0.975103         77.5572                0               0        0.0625104          9.6666                0               0
76.125                  0.140385         -10.625                0               0         0.154566         168.682                0               0
                       0.0617686         6.61807                0               0          0.97601         75.5393                0               0
                        0.154564         168.681                0               0         0.140322        -10.6764                0               0
                        0.976004         75.5388                0               0        0.0617958         6.62908                0               0
76.17                   0.133669        -12.4997                0               0         0.152405          166.58                0               0
                       0.0609683         3.53662                0               0         0.976987         73.5014                0               0
                        0.152404         166.579                0               0         0.133607        -12.5539                0               0
                        0.976982         73.5016                0               0        0.0609941         3.54574                0               0
76.215                  0.126735        -14.4029                0               0         0.150173         164.421                0               0
                        0.060087        0.408308                0               0         0.978088         71.4487                0               0
                        0.150171          164.42                0               0         0.126675        -14.4602                0               0
                        0.978085         71.4492                0               0        0.0601113        0.415405                0               0
76.26                   0.119599        -16.3359                0               0         0.147886         162.204                0               0
                       0.0591324        -2.76677                0               0         0.979356         69.3846                0               0
                        0.147885         162.204                0               0         0.119541        -16.3969                0               0
                        0.979353         69.3851                0               0        0.0591553        -2.76185                0               0
76.305                   0.11228        -18.2981                0               0         0.145565         159.935                0               0
                        0.058113        -5.98626                0               0         0.980818         67.3128                0               0
                        0.145564         159.935                0               0         0.112224        -18.3633                0               0
                        0.980815         67.3128                0               0        0.0581348        -5.98367                0               0
76.35                   0.104796        -20.2855                0               0         0.143224         157.622                0               0
                       0.0570374         -9.2445                0               0         0.982474         65.2368                0               0
                        0.143223         157.621                0               0         0.104742        -20.3556                0               0
                        0.982471         65.2363                0               0        0.0570581        -9.24441                0               0
76.395                 0.0971668        -22.2892                0               0         0.140876         155.275                0               0
                       0.0559124        -12.5319                0               0         0.984296         63.1607                0               0
                        0.140875         155.275                0               0        0.0971144        -22.3651                0               0
                        0.984292         63.1594                0               0        0.0559321        -12.5345                0               0
76.44                  0.0894107        -24.2936                0               0         0.138528         152.913                0               0
                       0.0547419        -15.8351                0               0         0.986213         61.0881                0               0
