! TOUCHSTONE file generated by CST MICROWAVE STUDIO
! Date and time: Mon Jun 21 17:07:03 2021
! Project name: HIPS_d_sweep.cst
! Parameters = {a=0.735; b=0.393; d=21.5779; fmax=120; fmin=75; phi=0; theta=0}
! Header version: 2018
! Port assignment regex: !\s*Touchstone port\s*([0-9]+)\s*=\s*(CST MWS port|CST DS port)\s*([0-9]+|Zmin|Zmax)\s*\(\"(.*)\"\)(\s*mode\s*([0-9]+))?.*
! Touchstone port assignment:
! Touchstone port 1 = CST MWS port Zmin ("") mode 1
! Touchstone port 2 = CST MWS port Zmin ("") mode 2
! Touchstone port 3 = CST MWS port Zmax ("") mode 1
! Touchstone port 4 = CST MWS port Zmax ("") mode 2
! S-Parameters are not renormalized. Unphysical impedance of 0 will be written to the file.
# GHz S MA R 0
75                      0.242403         45.7863                0               0          0.15292        -132.527                0               0
                       0.0485116         97.4486                0               0         0.956822          134.63                0               0
                        0.152921        -132.527                0               0         0.242371          45.826                0               0
                        0.956819         134.632                0               0        0.0486106         97.5779                0               0
75.045                  0.242266         45.1948                0               0         0.155904        -133.281                0               0
                       0.0494463         96.7753                0               0         0.958046         134.003                0               0
                        0.155906        -133.281                0               0         0.242233         45.2351                0               0
                        0.958041         134.005                0               0        0.0495464         96.9041                0               0
75.09                   0.241999         44.5328                0               0         0.158752        -134.065                0               0
                       0.0503471         95.9949                0               0         0.958617         133.304                0               0
                        0.158753        -134.065                0               0         0.241965         44.5734                0               0
                        0.958611         133.305                0               0        0.0504479         96.1232                0               0
75.135                  0.241624         43.7974                0               0         0.161434        -134.882                0               0
                       0.0512119         95.0949                0               0         0.958655         132.527                0               0
                        0.161435        -134.882                0               0         0.241589         43.8383                0               0
                        0.958648         132.529                0               0        0.0513132         95.2228                0               0
75.18                   0.241158         42.9873                0               0         0.163919        -135.738                0               0
                       0.0520403         94.0636                0               0         0.958284         131.671                0               0
                         0.16392        -135.738                0               0         0.241122         43.0283                0               0
                        0.958276         131.673                0               0        0.0521416         94.1911                0               0
75.225                  0.240617          42.102                0               0         0.166181        -136.637                0               0
                       0.0528329         92.8903                0               0         0.957625         130.735                0               0
                        0.166181        -136.637                0               0         0.240581         42.1432                0               0
                        0.957618         130.737                0               0        0.0529341         93.0175                0               0
75.27                   0.240015         41.1421                0               0         0.168195        -137.585                0               0
                       0.0535921         91.5659                0               0         0.956794         129.719                0               0
                        0.168195        -137.584                0               0         0.239978         41.1835                0               0
                        0.956787         129.721                0               0         0.053693         91.6928                0               0
75.315                  0.239359         40.1089                0               0         0.169941        -138.586                0               0
                        0.054321         90.0833                0               0         0.955892         128.625                0               0
                        0.169941        -138.585                0               0         0.239323         40.1504                0               0
                        0.955886         128.626                0               0        0.0544214         90.2101                0               0
75.36                   0.238653          39.004                0               0         0.171404        -139.645                0               0
                       0.0550237         88.4379                0               0         0.955008         127.454                0               0
                        0.171404        -139.644                0               0         0.238618         39.0457                0               0
                        0.955003         127.456                0               0        0.0551235         88.5648                0               0
75.405                  0.237898         37.8296                0               0         0.172573        -140.765                0               0
                       0.0557043         86.6278                0               0         0.954217          126.21                0               0
                        0.172573        -140.765                0               0         0.237863         37.8715                0               0
                        0.954212         126.211                0               0        0.0558033          86.755                0               0
75.45                   0.237089         36.5878                0               0         0.173444        -141.952                0               0
                       0.0563664          84.654                0               0         0.953576         124.896                0               0
                        0.173444        -141.952                0               0         0.237054           36.63                0               0
                        0.953572         124.897                0               0        0.0564646         84.7816                0               0
75.495                  0.236218         35.2809                0               0         0.174018        -143.206                0               0
                        0.057013           82.52                0               0         0.953129         123.515                0               0
                        0.174019        -143.206                0               0         0.236183         35.3234                0               0
                        0.953125         123.517                0               0        0.0571104         82.6485                0               0
75.54                   0.235271         33.9113                0               0         0.174303        -144.529                0               0
                       0.0576458         80.2322                0               0         0.952903         122.073                0               0
                        0.174304        -144.529                0               0         0.235236         33.9542                0               0
                          0.9529         122.075                0               0        0.0577422         80.3617                0               0
75.585                  0.234235         32.4813                0               0          0.17431        -145.922                0               0
                       0.0582648         77.7991                0               0         0.952914         120.572                0               0
                         0.17431        -145.922                0               0         0.234201         32.5246                0               0
                        0.952911         120.574                0               0        0.0583602         77.9301                0               0
75.63                   0.233092          30.993                0               0         0.174054        -147.384                0               0
                       0.0588681         75.2313                0               0         0.953166         119.018                0               0
                        0.174055        -147.384                0               0         0.233058         31.0369                0               0
                        0.953163         119.019                0               0        0.0589626         75.3642                0               0
75.675                  0.231823         29.4489                0               0         0.173555        -148.911                0               0
                       0.0594524         72.5411                0               0         0.953651         117.412                0               0
                        0.173556        -148.911                0               0         0.231788         29.4933                0               0
                        0.953648         117.414                0               0        0.0595458         72.6761                0               0
75.72                   0.230406         27.8511                0               0         0.172834        -150.502                0               0
                       0.0600124         69.7419                0               0         0.954353          115.76                0               0
                        0.172834        -150.503                0               0          0.23037         27.8962                0               0
                         0.95435         115.762                0               0        0.0601048         69.8793                0               0
75.765                  0.228819         26.2023                0               0         0.171913        -152.153                0               0
                       0.0605418         66.8478                0               0         0.955251         114.065                0               0
                        0.171914        -152.153                0               0         0.228783         26.2481                0               0
                        0.955248         114.067                0               0        0.0606331          66.988                0               0
75.81                   0.227039         24.5051                0               0         0.170816        -153.858                0               0
                       0.0610333         63.8737                0               0         0.956315         112.329                0               0
                        0.170817        -153.858                0               0         0.227003         24.5517                0               0
                        0.956311         112.331                0               0        0.0611235         64.0168                0               0
75.855                  0.225045         22.7623                0               0         0.169566        -155.613                0               0
                       0.0614794         60.8344                0               0         0.957512         110.556                0               0
                        0.169567        -155.612                0               0         0.225008         22.8098                0               0
                        0.957508         110.557                0               0        0.0615684         60.9807                0               0
75.9                    0.222814         20.9775                0               0         0.168186        -157.411                0               0
                       0.0618724         57.7446                0               0         0.958807         108.748                0               0
                        0.168187        -157.411                0               0         0.222776         21.0259                0               0
                        0.958803         108.749                0               0        0.0619602         57.8942                0               0
75.945                  0.220327         19.1542                0               0         0.166697        -159.249                0               0
                       0.0622058         54.6184                0               0         0.960163         106.907                0               0
                        0.166698        -159.249                0               0         0.220288         19.2037                0               0
                        0.960158         106.909                0               0        0.0622922         54.7714                0               0
75.99                   0.217564         17.2967                0               0         0.165118         -161.12                0               0
                       0.0624736          51.469                0               0         0.961541         105.037                0               0
                        0.165119         -161.12                0               0         0.217525         17.3473                0               0
                        0.961536         105.039                0               0        0.0625588         51.6255                0               0
76.035                  0.214512         15.4098                0               0         0.163467        -163.019                0               0
                       0.0626718         48.3088                0               0         0.962904         103.139                0               0
                        0.163468        -163.019                0               0         0.214472         15.4616                0               0
                        0.962899         103.141                0               0        0.0627555         48.4688                0               0
76.08                   0.211158         13.4987                0               0          0.16176        -164.943                0               0
                       0.0627977         45.1485                0               0         0.964219         101.216                0               0
                        0.161761        -164.942                0               0         0.211117         13.5518                0               0
                        0.964214         101.217                0               0        0.0628799          45.312                0               0
76.125                  0.207496         11.5692                0               0          0.16001        -166.886                0               0
                       0.0628505          41.997                0               0         0.965457          99.268                0               0
                        0.160011        -166.886                0               0         0.207455         11.6235                0               0
                        0.965452         99.2696                0               0         0.062931          42.164                0               0
76.17                   0.203524         9.62705                0               0         0.158228        -168.847                0               0
                       0.0628307         38.8614                0               0         0.966595         97.2985                0               0
                        0.158229        -168.847                0               0         0.203483         9.68277                0               0
                         0.96659         97.3001                0               0        0.0629094         39.0319                0               0
76.215                  0.199247         7.67847                0               0         0.156423        -170.822                0               0
                       0.0627403         35.7464                0               0         0.967622          95.309                0               0
                        0.156424        -170.822                0               0         0.199206         7.73558                0               0
                        0.967617         95.3106                0               0        0.0628171         35.9204                0               0
76.26                   0.194674         5.72916                0               0           0.1546        -172.811                0               0
                       0.0625823         32.6544                0               0         0.968538         93.3017                0               0
                        0.154601         -172.81                0               0         0.194633         5.78768                0               0
                        0.968533         93.3034                0               0         0.062657         32.8319                0               0
76.305                  0.189823         3.78404                0               0         0.152763        -174.812                0               0
                       0.0623599          29.585                0               0         0.969363         91.2795                0               0
                        0.152764        -174.811                0               0         0.189783         3.84398                0               0
                        0.969358         91.2812                0               0        0.0624323         29.7662                0               0
76.35                   0.184717         1.84643                0               0         0.150912        -176.825                0               0
                       0.0620763         26.5355                0               0         0.970135         89.2461                0               0
                        0.150913        -176.825                0               0         0.184677         1.90783                0               0
                         0.97013         89.2479                0               0        0.0621463         26.7204                0               0
76.395                  0.179384      -0.0828475                0               0         0.149047        -178.853                0               0
                       0.0617339         23.5004                0               0         0.970915         87.2069                0               0
                        0.149048        -178.853                0               0         0.179344      -0.0199519                0               0
                        0.970911         87.2088                0               0        0.0618014         23.6892                0               0
76.44                   0.173855         -2.0065                0               0         0.147162         179.102                0               0
                       0.0613342         20.4722                0               0         0.971783         85.1698                0               0
