! TOUCHSTONE file generated by CST MICROWAVE STUDIO
! Date and time: Mon Jun 21 17:07:31 2021
! Project name: HIPS_d_sweep.cst
! Parameters = {a=0.735; b=0.393; d=24.6432; fmax=120; fmin=75; phi=0; theta=0}
! Header version: 2018
! Port assignment regex: !\s*Touchstone port\s*([0-9]+)\s*=\s*(CST MWS port|CST DS port)\s*([0-9]+|Zmin|Zmax)\s*\(\"(.*)\"\)(\s*mode\s*([0-9]+))?.*
! Touchstone port assignment:
! Touchstone port 1 = CST MWS port Zmin ("") mode 1
! Touchstone port 2 = CST MWS port Zmin ("") mode 2
! Touchstone port 3 = CST MWS port Zmax ("") mode 1
! Touchstone port 4 = CST MWS port Zmax ("") mode 2
! S-Parameters are not renormalized. Unphysical impedance of 0 will be written to the file.
# GHz S MA R 0
75                      0.250031         46.9609                0               0        0.0361121          34.381                0               0
                       0.0324093         31.0399                0               0         0.967026         137.262                0               0
                       0.0361135         34.3829                0               0         0.250005         47.0048                0               0
                        0.967022          137.26                0               0        0.0324483         30.8446                0               0
75.045                  0.250074          46.329                0               0        0.0325143         32.4099                0               0
                       0.0320909         32.4173                0               0         0.967643         136.562                0               0
                       0.0325115         32.4087                0               0         0.250049         46.3731                0               0
                         0.96764          136.56                0               0        0.0321257          32.223                0               0
75.09                   0.250014         45.5869                0               0        0.0291645         30.0856                0               0
                        0.031839          33.391                0               0         0.968029         135.773                0               0
                       0.0291596         30.0819                0               0          0.24999          45.631                0               0
                        0.968026         135.771                0               0        0.0318697         33.1969                0               0
75.135                  0.249876         44.7388                0               0        0.0261105         27.3865                0               0
                       0.0316521         34.0097                0               0         0.968241         134.894                0               0
                       0.0261051         27.3811                0               0         0.249852         44.7829                0               0
                        0.968238         134.892                0               0        0.0316791         33.8159                0               0
75.18                   0.249672         43.7893                0               0        0.0233896         24.3122                0               0
                       0.0315256         34.3118                0               0         0.968331         133.926                0               0
                       0.0233847          24.306                0               0         0.249648         43.8333                0               0
                        0.968328         133.924                0               0        0.0315492         34.1188                0               0
75.225                  0.249408         42.7431                0               0         0.021027         20.8948                0               0
                        0.031453         34.3269                0               0         0.968344         132.869                0               0
                       0.0210231          20.889                0               0         0.249385         42.7868                0               0
                        0.968341         132.867                0               0        0.0314736         34.1354                0               0
75.27                   0.249081         41.6044                0               0        0.0190353         17.2118                0               0
                       0.0314269         34.0783                0               0         0.968321         131.726                0               0
                       0.0190326         17.2075                0               0         0.249058          41.648                0               0
                        0.968317         131.724                0               0        0.0314449         33.8891                0               0
75.315                  0.248681         40.3773                0               0        0.0174139         13.3939                0               0
                       0.0314392         33.5837                0               0         0.968293         130.497                0               0
                       0.0174124         13.3921                0               0         0.248658         40.4207                0               0
                        0.968289         130.495                0               0         0.031455         33.3977                0               0
75.36                   0.248195         39.0656                0               0        0.0161505         9.62082                0               0
                       0.0314813         32.8575                0               0         0.968288         129.185                0               0
                         0.01615         9.62206                0               0         0.248172         39.1088                0               0
                        0.968284         129.184                0               0        0.0314953         32.6754                0               0
75.405                  0.247604         37.6725                0               0        0.0152232         6.10066                0               0
                       0.0315444         31.9107                0               0         0.968326         127.793                0               0
                       0.0152235         6.10503                0               0         0.247581         37.7156                0               0
                        0.968322         127.791                0               0        0.0315569         31.7335                0               0
75.45                   0.246888         36.2011                0               0        0.0146051         3.03462                0               0
                       0.0316192         30.7527                0               0         0.968423         126.322                0               0
                       0.0146058         3.04163                0               0         0.246865         36.2442                0               0
                        0.968419         126.321                0               0        0.0316305         30.5809                0               0
75.495                  0.246021         34.6543                0               0        0.0142687        0.577369                0               0
                       0.0316962         29.3915                0               0         0.968588         124.776                0               0
                       0.0142696        0.586162                0               0         0.245998         34.6973                0               0
                        0.968584         124.774                0               0        0.0317068         29.2257                0               0
75.54                   0.244981         33.0348                0               0        0.0141905         -1.1922                0               0
                       0.0317658         27.8341                0               0         0.968828         123.158                0               0
                       0.0141915        -1.18265                0               0         0.244958         33.0777                0               0
                        0.968824         123.156                0               0        0.0317759         27.6748                0               0
75.585                   0.24374         31.3453                0               0        0.0143537        -2.28117                0               0
                        0.031818         26.0872                0               0         0.969144          121.47                0               0
                       0.0143547        -2.27178                0               0         0.243717         31.3882                0               0
                        0.969139         121.468                0               0        0.0318278         25.9348                0               0
75.63                   0.242273         29.5886                0               0        0.0147479         -2.7728                0               0
                       0.0318429         24.1578                0               0         0.969534         119.716                0               0
                       0.0147487        -2.76423                0               0          0.24225         29.6314                0               0
                         0.96953         119.714                0               0        0.0318527         24.0126                0               0
75.675                  0.240555         27.7675                0               0        0.0153675        -2.80273                0               0
                       0.0318307         22.0529                0               0         0.969996         117.899                0               0
                        0.015368        -2.79532                0               0         0.240531         27.8104                0               0
                        0.969993         117.898                0               0        0.0318407          21.915                0               0
75.72                    0.23856         25.8853                0               0        0.0162092        -2.52954                0               0
                       0.0317719         19.7798                0               0         0.970526         116.024                0               0
                       0.0162095        -2.52332                0               0         0.238537         25.9283                0               0
                        0.970522         116.022                0               0        0.0317821         19.6493                0               0
75.765                  0.236268         23.9453                0               0        0.0172697        -2.10777                0               0
                       0.0316573         17.3464                0               0         0.971116         114.093                0               0
                       0.0172698        -2.10257                0               0         0.236244         23.9883                0               0
                        0.971112         114.091                0               0         0.031668         17.2236                0               0
75.81                   0.233657          21.951                0               0        0.0185442        -1.66888                0               0
                       0.0314788          14.761                0               0         0.971762          112.11                0               0
                       0.0185441        -1.66442                0               0         0.233633          21.994                0               0
                        0.971759         112.108                0               0        0.0314898          14.646                0               0
75.855                  0.230711         19.9063                0               0        0.0200257        -1.31208                0               0
                       0.0312289         12.0322                0               0          0.97246          110.08                0               0
                       0.0200256        -1.30807                0               0         0.230687         19.9495                0               0
                        0.972456         110.078                0               0        0.0312403         11.9251                0               0
75.9                    0.227416         17.8153                0               0        0.0217055        -1.10363                0               0
                       0.0309014         9.16868                0               0         0.973204         108.005                0               0
                       0.0217054        -1.09983                0               0         0.227391         17.8586                0               0
                        0.973201         108.003                0               0        0.0309131         9.06961                0               0
75.945                  0.223761         15.6823                0               0        0.0235731        -1.08147                0               0
                       0.0304913          6.1789                0               0         0.973992          105.89                0               0
                       0.0235732        -1.07769                0               0         0.223736         15.7257                0               0
                         0.97399         105.888                0               0        0.0305033         6.08807                0               0
75.99                   0.219741         13.5116                0               0        0.0256172        -1.26189                0               0
                        0.029995         3.07079                0               0         0.974824         103.738                0               0
                       0.0256175        -1.25801                0               0         0.219716         13.5552                0               0
                        0.974822         103.736                0               0        0.0300071         2.98846                0               0
76.035                  0.215353         11.3077                0               0        0.0278258        -1.64633                0               0
                       0.0294103       -0.148632                0               0           0.9757         101.554                0               0
                       0.0278265         -1.6423                0               0         0.215328         11.3516                0               0
                        0.975697         101.552                0               0        0.0294224       -0.222142                0               0
76.08                   0.210599         9.07514                0               0        0.0301864        -2.22691                0               0
                       0.0287362        -3.47364                0               0          0.97662         99.3409                0               0
                       0.0301876        -2.22271                0               0         0.210574         9.11926                0               0
                        0.976618         99.3392                0               0         0.028748        -3.53794                0               0
76.125                  0.205484          6.8182                0               0        0.0326863        -2.99057                0               0
                       0.0279729        -6.90021                0               0         0.977586         97.1033                0               0
                       0.0326879        -2.98623                0               0         0.205458         6.86263                0               0
                        0.977584         97.1016                0               0        0.0279844        -6.95484                0               0
76.17                   0.200015         4.54117                0               0         0.035312        -3.92189                0               0
                       0.0271217        -10.4265                0               0         0.978598         94.8447                0               0
                       0.0353141        -3.91749                0               0         0.199989         4.58596                0               0
                        0.978597          94.843                0               0        0.0271325        -10.4709                0               0
76.215                  0.194204         2.24815                0               0        0.0380494        -5.00495                0               0
                       0.0261846         -14.053                0               0         0.979657          92.569                0               0
                       0.0380519        -5.00057                0               0         0.194178         2.29337                0               0
                        0.979656         92.5673                0               0        0.0261947        -14.0866                0               0
76.26                   0.188062      -0.0568884                0               0        0.0408832         -6.2244                0               0
                       0.0251645        -17.7835                0               0         0.980758         90.2801                0               0
                        0.040886        -6.22013                0               0         0.188036      -0.0111671                0               0
                        0.980757         90.2783                0               0        0.0251736        -17.8055                0               0
76.305                  0.181605        -2.37011                0               0         0.043797        -7.56604                0               0
                       0.0240649        -21.6252                0               0         0.981894         87.9815                0               0
                       0.0437998        -7.56201                0               0         0.181579         -2.3238                0               0
                        0.981894         87.9797                0               0        0.0240727        -21.6348                0               0
76.35                   0.174849         -4.6877                0               0        0.0467728        -9.01716                0               0
                       0.0228897        -25.5895                0               0         0.983053          85.677                0               0
                       0.0467755         -9.0135                0               0         0.174822        -4.64071                0               0
                        0.983052         85.6753                0               0         0.022896        -25.5857                0               0
76.395                  0.167809        -7.00581                0               0        0.0497913        -10.5665                0               0
                       0.0216436        -29.6932                0               0         0.984217         83.3703                0               0
                       0.0497936        -10.5633                0               0         0.167782        -6.95803                0               0
                        0.984216         83.3685                0               0         0.021648        -29.6749                0               0
76.44                   0.160503        -9.32043                0               0         0.052832        -12.2041                0               0
                       0.0203322        -33.9601                0               0         0.985365         81.0647                0               0
