! TOUCHSTONE file generated by CST MICROWAVE STUDIO
! Date and time: Mon Jun 21 17:07:25 2021
! Project name: HIPS_d_sweep.cst
! Parameters = {a=0.735; b=0.393; d=24.0905; fmax=120; fmin=75; phi=0; theta=0}
! Header version: 2018
! Port assignment regex: !\s*Touchstone port\s*([0-9]+)\s*=\s*(CST MWS port|CST DS port)\s*([0-9]+|Zmin|Zmax)\s*\(\"(.*)\"\)(\s*mode\s*([0-9]+))?.*
! Touchstone port assignment:
! Touchstone port 1 = CST MWS port Zmin ("") mode 1
! Touchstone port 2 = CST MWS port Zmin ("") mode 2
! Touchstone port 3 = CST MWS port Zmax ("") mode 1
! Touchstone port 4 = CST MWS port Zmax ("") mode 2
! S-Parameters are not renormalized. Unphysical impedance of 0 will be written to the file.
# GHz S MA R 0
75                     0.0946619         111.215                0               0       0.00116692         102.964                0               0
                      0.00192183          108.44                0               0         0.995519        -158.808                0               0
                      0.00116688         102.833                0               0        0.0945668          111.16                0               0
                        0.995506        -158.811                0               0       0.00192379         107.406                0               0
75.045                 0.0969141         110.509                0               0       0.00295812        -68.1811                0               0
                      0.00136357          123.66                0               0         0.995308        -159.518                0               0
                      0.00295867        -68.1198                0               0         0.096819         110.457                0               0
                        0.995294        -159.521                0               0       0.00135626         122.187                0               0
75.09                  0.0995536         109.705                0               0       0.00659474        -70.1193                0               0
                      0.00113326         146.793                0               0         0.995033        -160.323                0               0
                      0.00659521        -70.0902                0               0        0.0994585         109.654                0               0
                        0.995018        -160.326                0               0       0.00111211         145.263                0               0
75.135                   0.10257         108.804                0               0       0.00977287         -71.149                0               0
                      0.00121645         166.697                0               0         0.994698        -161.222                0               0
                      0.00977328        -71.1298                0               0         0.102475         108.755                0               0
                        0.994684        -161.225                0               0       0.00118525         165.688                0               0
75.18                    0.10595          107.81                0               0        0.0125063        -72.1026                0               0
                      0.00146192         175.601                0               0         0.994309        -162.214                0               0
                       0.0125066        -72.0886                0               0         0.105854         107.764                0               0
                        0.994294        -162.218                0               0       0.00142661         174.967                0               0
75.225                  0.109678         106.726                0               0        0.0148084        -73.0955                0               0
                       0.0017651         176.221                0               0         0.993869        -163.297                0               0
                       0.0148086        -73.0848                0               0         0.109583         106.682                0               0
                        0.993854        -163.301                0               0       0.00172836         175.714                0               0
75.27                   0.113739         105.554                0               0         0.016692         -74.151                0               0
                      0.00210362         172.051                0               0         0.993379         -164.47                0               0
                       0.0166922        -74.1427                0               0         0.113643         105.513                0               0
                        0.993364        -164.473                0               0       0.00206674         171.559                0               0
75.315                  0.118111         104.297                0               0        0.0181698        -75.2682                0               0
                      0.00249189         165.279                0               0          0.99284        -165.729                0               0
                       0.0181699        -75.2615                0               0         0.118015         104.258                0               0
                        0.992825        -165.732                0               0        0.0024559         164.769                0               0
75.36                   0.122773         102.957                0               0        0.0192547        -76.4361                0               0
                      0.00295375         157.311                0               0         0.992253        -167.072                0               0
                       0.0192548        -76.4306                0               0         0.122678         102.921                0               0
                        0.992238        -167.076                0               0       0.00291955         156.788                0               0
75.405                  0.127702         101.537                0               0        0.0199605        -77.6383                0               0
                      0.00350961         149.077                0               0         0.991617        -168.497                0               0
                       0.0199607        -77.6336                0               0         0.127606         101.503                0               0
                        0.991602        -168.501                0               0       0.00347789         148.559                0               0
75.45                   0.132871          100.04                0               0        0.0203024        -78.8538                0               0
                      0.00417158         141.129                0               0         0.990931        -170.001                0               0
                       0.0203026        -78.8498                0               0         0.132775         100.008                0               0
                        0.990915        -170.004                0               0        0.0041427         140.634                0               0
75.495                  0.138251          98.467                0               0        0.0202969        -80.0571                0               0
                      0.00494327         133.727                0               0         0.990194        -171.579                0               0
                       0.0202971        -80.0534                0               0         0.138155         98.4377                0               0
                        0.990178        -171.583                0               0       0.00491734         133.265                0               0
75.54                   0.143813         96.8223                0               0        0.0199626        -81.2163                0               0
                      0.00582179         126.936                0               0         0.989406         -173.23                0               0
                       0.0199628        -81.2127                0               0         0.143716         96.7952                0               0
                         0.98939        -173.233                0               0       0.00579875         126.512                0               0
75.585                  0.149523         95.1091                0               0        0.0193201        -82.2911                0               0
                      0.00680002         120.723                0               0         0.988567        -174.947                0               0
                       0.0193203        -82.2875                0               0         0.149427          95.084                0               0
                         0.98855        -174.951                0               0       0.00677971         120.335                0               0
75.63                    0.15535         93.3307                0               0        0.0183921        -83.2287                0               0
                      0.00786823          115.01                0               0         0.987677        -176.729                0               0
                       0.0183924        -83.2248                0               0         0.155253         93.3077                0               0
                         0.98766        -176.732                0               0       0.00785047         114.656                0               0
75.675                  0.161257         91.4911                0               0        0.0172036        -83.9558                0               0
                      0.00901527         109.714                0               0         0.986738         -178.57                0               0
                        0.017204        -83.9517                0               0          0.16116           91.47                0               0
                         0.98672        -178.573                0               0       0.00899988          109.39                0               0
75.72                   0.167209         89.5944                0               0        0.0157823        -84.3663                0               0
                       0.0102291         104.758                0               0         0.985752         179.534                0               0
                       0.0157828        -84.3618                0               0         0.167112         89.5752                0               0
                        0.985733         179.531                0               0        0.0102159         104.461                0               0
75.765                   0.17317         87.6451                0               0        0.0141588        -84.2954                0               0
                       0.0114974         100.079                0               0         0.984724         177.587                0               0
                       0.0141594        -84.2903                0               0         0.173073         87.6276                0               0
                        0.984704         177.584                0               0        0.0114863         99.8044                0               0
75.81                   0.179103         85.6475                0               0        0.0123689        -83.4701                0               0
                       0.0128076         95.6227                0               0         0.983657         175.595                0               0
                       0.0123696        -83.4645                0               0         0.179007         85.6317                0               0
                        0.983637         175.592                0               0        0.0127984         95.3684                0               0
75.855                  0.184974         83.6066                0               0        0.0104574        -81.4019                0               0
                       0.0141472           91.35                0               0          0.98256         173.561                0               0
                       0.0104582        -81.3956                0               0         0.184878         83.5924                0               0
                        0.982538         173.558                0               0        0.0141399         91.1128                0               0
75.9                    0.190748          81.527                0               0       0.00848958        -77.1388                0               0
                       0.0155041         87.2287                0               0         0.981438         171.491                0               0
                      0.00849054         -77.132                0               0         0.190652         81.5144                0               0
                        0.981417         171.488                0               0        0.0154987         87.0063                0               0
75.945                  0.196391         79.4136                0               0       0.00658311         -68.684                0               0
                       0.0168665         83.2344                0               0         0.980303         169.389                0               0
                      0.00658423        -68.6774                0               0         0.196296         79.4025                0               0
                        0.980281         169.386                0               0        0.0168628         83.0249                0               0
75.99                   0.201872         77.2714                0               0        0.0050002        -52.0204                0               0
                       0.0182232         79.3483                0               0         0.979163         167.259                0               0
                      0.00500145        -52.0171                0               0         0.201777         77.2617                0               0
                        0.979141         167.256                0               0        0.0182212         79.1499                0               0
76.035                  0.207161         75.1049                0               0       0.00430614        -23.7415                0               0
                       0.0195634         75.5557                0               0         0.978031         165.107                0               0
                      0.00430725         -23.747                0               0         0.207067         75.0965                0               0
                        0.978008         165.104                0               0        0.0195631          75.367                0               0
76.08                   0.212232         72.9188                0               0       0.00500534         5.27802                0               0
                       0.0208773         71.8455                0               0         0.976916         162.936                0               0
                      0.00500595         5.26792                0               0         0.212138         72.9117                0               0
                        0.976893         162.933                0               0        0.0208786         71.6652                0               0
76.125                   0.21706         70.7174                0               0       0.00672715         22.8614                0               0
                       0.0221555         68.2086                0               0         0.975832         160.751                0               0
                       0.0067273         22.8534                0               0         0.216967         70.7116                0               0
                        0.975809         160.748                0               0        0.0221584         68.0357                0               0
76.17                   0.221623          68.505                0               0       0.00891717         31.8084                0               0
                       0.0233895          64.638                0               0         0.974789         158.555                0               0
                      0.00891702         31.8032                0               0          0.22153         68.5004                0               0
                        0.974766         158.552                0               0        0.0233941         64.4715                0               0
76.215                    0.2259         66.2853                0               0        0.0113087         36.3115                0               0
                       0.0245714         61.1281                0               0         0.973796         156.353                0               0
                       0.0113083         36.3083                0               0         0.225808          66.282                0               0
                        0.973773          156.35                0               0        0.0245775         60.9673                0               0
76.26                   0.229876         64.0622                0               0        0.0137887         38.4918                0               0
                       0.0256938         57.6744                0               0          0.97286         154.149                0               0
                       0.0137882           38.49                0               0         0.229784           64.06                0               0
                        0.972838         154.146                0               0        0.0257016         57.5185                0               0
76.305                  0.233532         61.8388                0               0        0.0163018         39.3518                0               0
                       0.0267501         54.2731                0               0         0.971985         151.945                0               0
                       0.0163012          39.351                0               0         0.233442         61.8378                0               0
                        0.971964         151.942                0               0        0.0267594         54.1215                0               0
76.35                   0.236857         59.6185                0               0        0.0188161         39.3975                0               0
                       0.0277338         50.9214                0               0          0.97117         149.744                0               0
                       0.0188153         39.3974                0               0         0.236768         59.6185                0               0
                        0.971149         149.742                0               0        0.0277447         50.7735                0               0
76.395                  0.239836         57.4039                0               0          0.02131         38.9043                0               0
                       0.0286391          47.617                0               0         0.970407         147.551                0               0
                       0.0213092         38.9048                0               0         0.239748          57.405                0               0
                        0.970387         147.548                0               0        0.0286516         47.4723                0               0
76.44                   0.242458          55.198                0               0         0.023768         38.0321                0               0
                       0.0294603         44.3585                0               0         0.969681         145.367                0               0
