! TOUCHSTONE file generated by CST MICROWAVE STUDIO
! Date and time: Mon Jun 21 17:06:20 2021
! Project name: HIPS_d_sweep.cst
! Parameters = {a=0.735; b=0.393; d=16.3015; fmax=120; fmin=75; phi=0; theta=0}
! Header version: 2018
! Port assignment regex: !\s*Touchstone port\s*([0-9]+)\s*=\s*(CST MWS port|CST DS port)\s*([0-9]+|Zmin|Zmax)\s*\(\"(.*)\"\)(\s*mode\s*([0-9]+))?.*
! Touchstone port assignment:
! Touchstone port 1 = CST MWS port Zmin ("") mode 1
! Touchstone port 2 = CST MWS port Zmin ("") mode 2
! Touchstone port 3 = CST MWS port Zmax ("") mode 1
! Touchstone port 4 = CST MWS port Zmax ("") mode 2
! S-Parameters are not renormalized. Unphysical impedance of 0 will be written to the file.
# GHz S MA R 0
75                     0.0687435         54.6736                0               0         0.495631         119.786                0               0
                        0.109405        -68.4979                0               0         0.858869         30.3444                0               0
                        0.495631         119.786                0               0        0.0685752         54.8352                0               0
                         0.85887         30.3443                0               0         0.109511        -68.3916                0               0
75.045                 0.0691693         55.0681                0               0         0.498673          119.15                0               0
                        0.109569        -69.5496                0               0         0.860185         29.8274                0               0
                        0.498674         119.149                0               0        0.0690023         55.2303                0               0
                        0.860186         29.8273                0               0         0.109675        -69.4429                0               0
75.09                  0.0696949         55.5234                0               0         0.501289         118.489                0               0
                        0.109607         -70.686                0               0         0.860873         29.2675                0               0
                         0.50129         118.488                0               0        0.0695299         55.6863                0               0
                        0.860874         29.2674                0               0         0.109712         -70.579                0               0
75.135                 0.0703215         56.0422                0               0         0.503466         117.797                0               0
                        0.109523        -71.9155                0               0         0.860999         28.6575                0               0
                        0.503467         117.797                0               0        0.0701592         56.2056                0               0
                        0.861001         28.6574                0               0         0.109628        -71.8082                0               0
75.18                  0.0710501         56.6253                0               0         0.505202         117.069                0               0
                        0.109326        -73.2455                0               0         0.860651         27.9914                0               0
                        0.505204         117.068                0               0        0.0708911         56.7892                0               0
                        0.860653         27.9913                0               0          0.10943        -73.1381                0               0
75.225                 0.0718815         57.2715                0               0         0.506509         116.297                0               0
                        0.109024        -74.6827                0               0         0.859931         27.2646                0               0
                        0.506512         116.297                0               0        0.0717264         57.4359                0               0
                        0.859932         27.2645                0               0         0.109126        -74.5753                0               0
75.27                  0.0728174         57.9779                0               0         0.507406         115.478                0               0
                        0.108626        -76.2332                0               0         0.858949         26.4741                0               0
                        0.507409         115.478                0               0        0.0726666         58.1427                0               0
                         0.85895          26.474                0               0         0.108727        -76.1256                0               0
75.315                 0.0738596         58.7395                0               0         0.507922         114.607                0               0
                        0.108144        -77.9015                0               0         0.857816         25.6187                0               0
                        0.507924         114.606                0               0        0.0737136         58.9048                0               0
                        0.857817         25.6186                0               0         0.108243         -77.794                0               0
75.36                  0.0750107           59.55                0               0         0.508091          113.68                0               0
                        0.107589        -79.6915                0               0         0.856637         24.6988                0               0
                        0.508093          113.68                0               0        0.0748699         59.7156                0               0
                        0.856638         24.6986                0               0         0.107686         -79.584                0               0
75.405                 0.0762742         60.4013                0               0         0.507951         112.696                0               0
                        0.106973        -81.6058                0               0         0.855506          23.716                0               0
                        0.507953         112.696                0               0        0.0761389          60.567                0               0
                        0.855507         23.7159                0               0         0.107068        -81.4984                0               0
75.45                   0.077654         61.2841                0               0         0.507543         111.654                0               0
                        0.106306        -83.6458                0               0         0.854503         22.6732                0               0
                        0.507544         111.654                0               0        0.0775243         61.4498                0               0
                        0.854504         22.6731                0               0         0.106399        -83.5384                0               0
75.495                 0.0791547         62.1881                0               0         0.506905         110.554                0               0
                          0.1056        -85.8119                0               0         0.853688          21.574                0               0
                        0.506905         110.554                0               0        0.0790309         62.3536                0               0
                        0.853689         21.5739                0               0         0.105691        -85.7045                0               0
75.54                  0.0807813         63.1023                0               0         0.506072         109.397                0               0
                        0.104865        -88.1032                0               0         0.853108         20.4226                0               0
                        0.506072         109.397                0               0        0.0806633         63.2674                0               0
                        0.853108         20.4224                0               0         0.104954        -87.9959                0               0
75.585                 0.0825387         64.0151                0               0         0.505076         108.187                0               0
                        0.104109        -90.5181                0               0         0.852789         19.2232                0               0
                        0.505076         108.187                0               0        0.0824265         64.1795                0               0
                         0.85279          19.223                0               0         0.104196        -90.4107                0               0
75.63                  0.0844319         64.9146                0               0         0.503944         106.925                0               0
                        0.103341        -93.0537                0               0         0.852746         17.9802                0               0
                        0.503943         106.925                0               0        0.0843254          65.078                0               0
                        0.852746           17.98                0               0         0.103425        -92.9462                0               0
75.675                 0.0864651          65.789                0               0         0.502695         105.615                0               0
                        0.102568        -95.7063                0               0         0.852977         16.6977                0               0
                        0.502694         105.615                0               0        0.0863643         65.9511                0               0
                        0.852977         16.6975                0               0         0.102649        -95.5988                0               0
75.72                  0.0886421         66.6267                0               0         0.501345         104.262                0               0
                        0.101794        -98.4715                0               0          0.85347         15.3796                0               0
                        0.501344         104.262                0               0        0.0885467         66.7872                0               0
                         0.85347         15.3794                0               0         0.101874        -98.3639                0               0
75.765                 0.0909653         67.4162                0               0         0.499904         102.868                0               0
                        0.101026        -101.344                0               0         0.854204         14.0295                0               0
                        0.499903         102.868                0               0         0.090875          67.575                0               0
                        0.854204         14.0294                0               0         0.101102        -101.236                0               0
75.81                  0.0934359         68.1471                0               0         0.498377          101.44                0               0
                        0.100265        -104.318                0               0         0.855152         12.6506                0               0
                        0.498376          101.44                0               0        0.0933505         68.3038                0               0
                        0.855152         12.6504                0               0         0.100339         -104.21                0               0
75.855                 0.0960534         68.8094                0               0         0.496765         99.9806                0               0
                        0.099515        -107.387                0               0          0.85628         11.2454                0               0
                        0.496764         99.9806                0               0        0.0959725         68.9639                0               0
                        0.856279         11.2452                0               0         0.099587        -107.279                0               0
75.9                   0.0988154         69.3944                0               0         0.495066         98.4946                0               0
                       0.0987777        -110.544                0               0          0.85755         9.81655                0               0
                        0.495066         98.4945                0               0        0.0987387         69.5465                0               0
                        0.857549         9.81633                0               0        0.0988473        -110.436                0               0
75.945                  0.101718         69.8943                0               0         0.493277         96.9861                0               0
                        0.098054        -113.782                0               0         0.858923         8.36599                0               0
                        0.493276         96.9861                0               0         0.101645         70.0439                0               0
                        0.858922         8.36576                0               0        0.0981212        -113.674                0               0
75.99                   0.104753         70.3025                0               0         0.491391         95.4593                0               0
                       0.0973445        -117.092                0               0         0.860357         6.89553                0               0
                         0.49139         95.4593                0               0         0.104683         70.4497                0               0
                        0.860356         6.89529                0               0        0.0974095        -116.984                0               0
76.035                  0.107913          70.614                0               0         0.489401         93.9181                0               0
                       0.0966495        -120.468                0               0         0.861809         5.40666                0               0
                        0.489401         93.9181                0               0         0.107846         70.7586                0               0
                        0.861808         5.40641                0               0        0.0967123         -120.36                0               0
76.08                   0.111186         70.8249                0               0         0.487303         92.3662                0               0
                       0.0959689        -123.901                0               0         0.863238         3.90068                0               0
                        0.487303         92.3662                0               0         0.111122          70.967                0               0
                        0.863237         3.90043                0               0        0.0960297        -123.792                0               0
76.125                  0.114558         70.9328                0               0          0.48509          90.807                0               0
                        0.095303        -127.382                0               0         0.864603         2.37868                0               0
                         0.48509         90.8071                0               0         0.114496         71.0724                0               0
                        0.864601         2.37842                0               0        0.0953618        -127.274                0               0
76.17                   0.118014         70.9368                0               0         0.482757         89.2438                0               0
                       0.0946519        -130.903                0               0         0.865864        0.841565                0               0
                        0.482757         89.2439                0               0         0.117954         71.0739                0               0
                        0.865862        0.841294                0               0        0.0947089        -130.795                0               0
76.215                  0.121536         70.8373                0               0         0.480301         87.6794                0               0
                       0.0940163        -134.458                0               0         0.866986       -0.709922                0               0
                        0.480302         87.6795                0               0         0.121478         70.9721                0               0
                        0.866984       -0.710199                0               0        0.0940716         -134.35                0               0
76.26                   0.125103         70.6363                0               0         0.477724         86.1166                0               0
                       0.0933975        -138.036                0               0         0.867937        -2.27521                0               0
                        0.477725         86.1167                0               0         0.125047         70.7688                0               0
                        0.867934        -2.27549                0               0        0.0934514        -137.929                0               0
76.305                  0.128696         70.3371                0               0         0.475029         84.5574                0               0
                       0.0927978        -141.631                0               0         0.868694        -3.85386                0               0
                         0.47503         84.5575                0               0         0.128641         70.4675                0               0
                        0.868691        -3.85414                0               0        0.0928505        -141.524                0               0
76.35                   0.132292         69.9448                0               0         0.472225         83.0038                0               0
                       0.0922206        -145.236                0               0         0.869244        -5.44551                0               0
                        0.472226         83.0039                0               0         0.132238         70.0731                0               0
                        0.869242         -5.4458                0               0        0.0922722         -145.13                0               0
76.395                  0.135869          69.466                0               0         0.469329         81.4572                0               0
                       0.0916711        -148.843                0               0         0.869594        -7.04962                0               0
                         0.46933         81.4573                0               0         0.135816         69.5923                0               0
                        0.869591        -7.04992                0               0         0.091722        -148.737                0               0
76.44                   0.139405         68.9096                0               0          0.46637         79.9187                0               0
                       0.0911569        -152.446                0               0         0.869774         -8.6649                0               0
