! TOUCHSTONE file generated by CST MICROWAVE STUDIO
! Date and time: Mon Jun 21 17:06:44 2021
! Project name: HIPS_d_sweep.cst
! Parameters = {a=0.735; b=0.393; d=19.0151; fmax=120; fmin=75; phi=0; theta=0}
! Header version: 2018
! Port assignment regex: !\s*Touchstone port\s*([0-9]+)\s*=\s*(CST MWS port|CST DS port)\s*([0-9]+|Zmin|Zmax)\s*\(\"(.*)\"\)(\s*mode\s*([0-9]+))?.*
! Touchstone port assignment:
! Touchstone port 1 = CST MWS port Zmin ("") mode 1
! Touchstone port 2 = CST MWS port Zmin ("") mode 2
! Touchstone port 3 = CST MWS port Zmax ("") mode 1
! Touchstone port 4 = CST MWS port Zmax ("") mode 2
! S-Parameters are not renormalized. Unphysical impedance of 0 will be written to the file.
# GHz S MA R 0
75                       0.12553       -0.796529                0               0         0.330524         166.431                0               0
                        0.100204         9.83841                0               0         0.930032         74.1289                0               0
                        0.330525         166.431                0               0         0.125525       -0.750302                0               0
                         0.93003         74.1286                0               0         0.100203         9.88263                0               0
75.045                  0.123768       -0.917657                0               0         0.333708         165.792                0               0
                        0.100627         8.98521                0               0         0.929367         73.5504                0               0
                        0.333708         165.792                0               0         0.123764       -0.870195                0               0
                        0.929365         73.5501                0               0         0.100624         9.02905                0               0
75.09                   0.121818        -1.07883                0               0         0.336606         165.092                0               0
                        0.100961         8.00943                0               0         0.928645         72.8996                0               0
                        0.336606         165.092                0               0         0.121815        -1.02984                0               0
                        0.928643         72.8993                0               0         0.100958         8.05293                0               0
75.135                  0.119678        -1.27881                0               0         0.339217         164.327                0               0
                        0.101215         6.90777                0               0         0.927923         72.1768                0               0
                        0.339217         164.328                0               0         0.119676        -1.22799                0               0
                        0.927921         72.1765                0               0         0.101209         6.95098                0               0
75.18                   0.117347        -1.51545                0               0         0.341542         163.494                0               0
                        0.101394         5.67812                0               0          0.92725         71.3825                0               0
                        0.341542         163.495                0               0         0.117346        -1.46252                0               0
                        0.927248         71.3822                0               0         0.101386         5.72108                0               0
75.225                  0.114823        -1.78565                0               0         0.343586          162.59                0               0
                        0.101504         4.31946                0               0         0.926666         70.5177                0               0
                        0.343587          162.59                0               0         0.114824        -1.73032                0               0
                        0.926664         70.5174                0               0         0.101495          4.3622                0               0
75.27                   0.112105        -2.08515                0               0         0.345355         161.613                0               0
                         0.10155         2.83174                0               0         0.926204         69.5838                0               0
                        0.345356         161.613                0               0         0.112108        -2.02711                0               0
                        0.926202         69.5835                0               0         0.101538         2.87429                0               0
75.315                  0.109191        -2.40838                0               0         0.346856         160.562                0               0
                        0.101534         1.21579                0               0         0.925887         68.5822                0               0
                        0.346856         160.563                0               0         0.109196         -2.3473                0               0
                        0.925885         68.5819                0               0          0.10152         1.25819                0               0
75.36                   0.106078        -2.74817                0               0         0.348095         159.438                0               0
                        0.101457       -0.526805                0               0         0.925732         67.5148                0               0
                        0.348096         159.438                0               0         0.106086        -2.68369                0               0
                         0.92573         67.5146                0               0          0.10144       -0.484519                0               0
75.405                  0.102767        -3.09542                0               0         0.349081         158.241                0               0
                        0.101319        -2.39377                0               0         0.925746         66.3836                0               0
                        0.349081         158.241                0               0         0.102776        -3.02715                0               0
                        0.925744         66.3833                0               0         0.101301        -2.35156                0               0
75.45                  0.0992563        -3.43877                0               0          0.34982         156.972                0               0
                         0.10112        -4.38221                0               0         0.925928         65.1904                0               0
                         0.34982         156.972                0               0        0.0992683        -3.36626                0               0
                        0.925926         65.1902                0               0         0.101099        -4.34005                0               0
75.495                 0.0955475          -3.764                0               0         0.350317         155.635                0               0
                        0.100857        -6.48869                0               0         0.926272         63.9377                0               0
                        0.350318         155.635                0               0        0.0955624        -3.68674                0               0
                         0.92627         63.9374                0               0         0.100833        -6.44656                0               0
75.54                  0.0916435         -4.0534                0               0          0.35058         154.232                0               0
                        0.100526        -8.70929                0               0         0.926765         62.6276                0               0
                         0.35058         154.232                0               0        0.0916615        -3.97079                0               0
                        0.926763         62.6273                0               0         0.100499        -8.66717                0               0
75.585                 0.0875496        -4.28488                0               0         0.350613         152.767                0               0
                        0.100124        -11.0397                0               0         0.927388         61.2624                0               0
                        0.350613         152.768                0               0        0.0875713        -4.19624                0               0
                        0.927385         61.2622                0               0         0.100095        -10.9975                0               0
75.63                  0.0832742        -4.43082                0               0          0.35042         151.244                0               0
                       0.0996473        -13.4751                0               0         0.928118         59.8447                0               0
                         0.35042         151.245                0               0           0.0833        -4.33535                0               0
                        0.928115         59.8445                0               0        0.0996155        -13.4329                0               0
75.675                 0.0788293        -4.45646                0               0         0.350007         149.668                0               0
                       0.0990923        -16.0106                0               0         0.928929         58.3771                0               0
                        0.350007         149.668                0               0        0.0788597        -4.35323                0               0
                        0.928926         58.3769                0               0        0.0990578        -15.9684                0               0
75.72                  0.0742314        -4.31779                0               0         0.349377         148.041                0               0
                       0.0984558        -18.6409                0               0         0.929795         56.8622                0               0
                        0.349377         148.042                0               0        0.0742674        -4.20574                0               0
                        0.929792          56.862                0               0        0.0984185        -18.5987                0               0
75.765                  0.069503        -3.95858                0               0         0.348537          146.37                0               0
                       0.0977355        -21.3607                0               0         0.930688         55.3029                0               0
                        0.348537          146.37                0               0        0.0695455        -3.83651                0               0
                        0.930685         55.3027                0               0        0.0976954        -21.3185                0               0
75.81                  0.0646735        -3.30621                0               0         0.347492         144.658                0               0
                       0.0969304        -24.1649                0               0         0.931584         53.7023                0               0
                        0.347492         144.658                0               0        0.0647237        -3.17282                0               0
                         0.93158         53.7021                0               0        0.0968873        -24.1227                0               0
75.855                 0.0597817        -2.26596                0               0          0.34625         142.909                0               0
                       0.0960406        -27.0483                0               0         0.932462         52.0635                0               0
                        0.346249         142.909                0               0        0.0598411        -2.11995                0               0
                        0.932458         52.0633                0               0        0.0959945        -27.0062                0               0
75.9                   0.0548788       -0.713226                0               0         0.344818         141.127                0               0
                       0.0950681        -30.0064                0               0         0.933309         50.3898                0               0
                        0.344817         141.128                0               0        0.0549492       -0.553455                0               0
                        0.933306         50.3896                0               0        0.0950188        -29.9643                0               0
75.945                 0.0500331         1.51639                0               0         0.343208         139.316                0               0
                       0.0940162        -33.0349                0               0          0.93412         48.6847                0               0
                        0.343207         139.317                0               0        0.0501168         1.69044                0               0
                        0.934117         48.6845                0               0        0.0939638         -32.993                0               0
75.99                  0.0453379          4.6377                0               0         0.341431         137.479                0               0
                       0.0928903        -36.1304                0               0         0.934902         46.9517                0               0
                        0.341431         137.479                0               0        0.0454376         4.82509                0               0
                        0.934899         46.9516                0               0        0.0928347        -36.0887                0               0
76.035                 0.0409217         8.92119                0               0         0.339503         135.616                0               0
                       0.0916973        -39.2903                0               0         0.935671         45.1946                0               0
                        0.339502         135.617                0               0        0.0410404         9.11794                0               0
                        0.935669         45.1944                0               0        0.0916384        -39.2488                0               0
76.08                  0.0369623         14.6758                0               0         0.337438         133.731                0               0
                       0.0904456        -42.5125                0               0         0.936456         43.4169                0               0
                        0.337437         133.732                0               0        0.0371027         14.8724                0               0
                        0.936454         43.4167                0               0        0.0903835        -42.4713                0               0
76.125                 0.0336979         22.1719                0               0         0.335257         131.825                0               0
                       0.0891448         -45.796                0               0         0.937295         41.6222                0               0
                        0.335256         131.825                0               0        0.0338615         22.3502                0               0
                        0.937294          41.622                0               0        0.0890797        -45.7551                0               0
76.17                  0.0314191         31.4579                0               0         0.332982         129.899                0               0
                       0.0878058          -49.14                0               0          0.93823          39.814                0               0
                         0.33298         129.899                0               0        0.0316048         31.5911                0               0
                        0.938229         39.8138                0               0        0.0877377        -49.0995                0               0
76.215                 0.0304149         42.1037                0               0         0.330635         127.954                0               0
                       0.0864396        -52.5437                0               0           0.9393         37.9957                0               0
                        0.330633         127.954                0               0        0.0306171         42.1638                0               0
                          0.9393         37.9955                0               0        0.0863687        -52.5036                0               0
76.26                  0.0308659         53.1208                0               0         0.328241         125.992                0               0
                       0.0850573        -56.0058                0               0         0.940533         36.1705                0               0
                         0.32824         125.992                0               0         0.031075         53.0946                0               0
                        0.940532         36.1703                0               0        0.0849837        -55.9662                0               0
76.305                  0.032754         63.3351                0               0         0.325826         124.018                0               0
                       0.0836687        -59.5238                0               0         0.941933         34.3419                0               0
                        0.325824         124.018                0               0          0.03296         63.2325                0               0
                        0.941933         34.3417                0               0        0.0835926        -59.4848                0               0
76.35                  0.0358793         71.9451                0               0         0.323407         122.035                0               0
                       0.0822816        -63.0932                0               0         0.943478         32.5129                0               0
                        0.323405         122.035                0               0        0.0360753         71.7902                0               0
                        0.943477         32.5127                0               0        0.0822031        -63.0548                0               0
76.395                  0.039963         78.7176                0               0         0.320997         120.052                0               0
                       0.0809001        -66.7068                0               0         0.945107         30.6867                0               0
                        0.320995         120.052                0               0        0.0401458         78.5342                0               0
                        0.945106         30.6866                0               0        0.0808193        -66.6691                0               0
76.44                  0.0447388         83.7987                0               0         0.318596         118.076                0               0
                       0.0795241         -70.355                0               0         0.946726         28.8661                0               0
