! TOUCHSTONE file generated by CST MICROWAVE STUDIO
! Date and time: Mon Jun 21 17:07:01 2021
! Project name: HIPS_d_sweep.cst
! Parameters = {a=0.735; b=0.393; d=21.3266; fmax=120; fmin=75; phi=0; theta=0}
! Header version: 2018
! Port assignment regex: !\s*Touchstone port\s*([0-9]+)\s*=\s*(CST MWS port|CST DS port)\s*([0-9]+|Zmin|Zmax)\s*\(\"(.*)\"\)(\s*mode\s*([0-9]+))?.*
! Touchstone port assignment:
! Touchstone port 1 = CST MWS port Zmin ("") mode 1
! Touchstone port 2 = CST MWS port Zmin ("") mode 2
! Touchstone port 3 = CST MWS port Zmax ("") mode 1
! Touchstone port 4 = CST MWS port Zmax ("") mode 2
! S-Parameters are not renormalized. Unphysical impedance of 0 will be written to the file.
# GHz S MA R 0
75                      0.206057         73.2935                0               0         0.170026        -106.698                0               0
                       0.0363706         164.102                0               0          0.96298         163.347                0               0
                        0.170026        -106.698                0               0         0.205997         73.3411                0               0
                         0.96297         163.344                0               0        0.0363889         164.146                0               0
75.045                  0.208774          72.177                0               0         0.169638        -107.936                0               0
                       0.0370439         161.373                0               0         0.962371         161.958                0               0
                        0.169639        -107.935                0               0         0.208714         72.2237                0               0
                        0.962361         161.955                0               0        0.0370621         161.416                0               0
75.09                    0.21146         71.0366                0               0         0.169257        -109.186                0               0
                       0.0377483         158.607                0               0         0.961845         160.559                0               0
                        0.169258        -109.185                0               0         0.211399         71.0824                0               0
                        0.961835         160.556                0               0        0.0377665         158.649                0               0
75.135                  0.214109         69.8719                0               0         0.168881        -110.449                0               0
                       0.0384834         155.804                0               0         0.961399          159.15                0               0
                        0.168882        -110.448                0               0         0.214048         69.9167                0               0
                         0.96139         159.148                0               0        0.0385016         155.846                0               0
75.18                   0.216717         68.6824                0               0         0.168508        -111.726                0               0
                       0.0392484         152.966                0               0         0.961032         157.732                0               0
                        0.168509        -111.724                0               0         0.216655         68.7264                0               0
                        0.961023          157.73                0               0        0.0392666         153.007                0               0
75.225                  0.219276         67.4679                0               0         0.168137        -113.015                0               0
                       0.0400423         150.092                0               0          0.96074         156.304                0               0
                        0.168139        -113.013                0               0         0.219214         67.5109                0               0
                        0.960731         156.303                0               0        0.0400605         150.132                0               0
75.27                    0.22178          66.228                0               0         0.167767        -114.318                0               0
                       0.0408636         147.182                0               0         0.960521         154.867                0               0
                        0.167769        -114.315                0               0         0.221718           66.27                0               0
                        0.960513         154.865                0               0        0.0408819         147.222                0               0
75.315                  0.224221         64.9623                0               0         0.167396        -115.634                0               0
                       0.0417106         144.238                0               0         0.960372         153.419                0               0
                        0.167399        -115.631                0               0         0.224159         65.0033                0               0
                        0.960365         153.418                0               0         0.041729         144.277                0               0
75.36                   0.226593         63.6706                0               0         0.167023        -116.963                0               0
                        0.042581         141.259                0               0         0.960291         151.962                0               0
                        0.167026         -116.96                0               0         0.226531         63.7106                0               0
                        0.960285         151.961                0               0        0.0425995         141.297                0               0
75.405                  0.228886         62.3526                0               0         0.166647        -118.306                0               0
                       0.0434723         138.247                0               0         0.960274         150.494                0               0
                         0.16665        -118.303                0               0         0.228824         62.3917                0               0
                        0.960268         150.494                0               0         0.043491         138.284                0               0
75.45                   0.231093         61.0082                0               0         0.166265        -119.663                0               0
                       0.0443813         135.201                0               0         0.960317         149.017                0               0
                        0.166269        -119.659                0               0         0.231031         61.0463                0               0
                        0.960312         149.016                0               0        0.0444003         135.238                0               0
75.495                  0.233203         59.6372                0               0         0.165875        -121.034                0               0
                       0.0453046         132.123                0               0         0.960417         147.529                0               0
                         0.16588         -121.03                0               0         0.233142         59.6742                0               0
                        0.960412         147.529                0               0        0.0453238         132.159                0               0
75.54                   0.235209         58.2396                0               0         0.165477        -122.418                0               0
                       0.0462381         129.014                0               0         0.960569         146.032                0               0
                        0.165482        -122.414                0               0         0.235147         58.2756                0               0
                        0.960565         146.031                0               0        0.0462576          129.05                0               0
75.585                  0.237098         56.8155                0               0         0.165067        -123.816                0               0
                       0.0471774         125.875                0               0          0.96077         144.523                0               0
                        0.165072        -123.812                0               0         0.237037         56.8503                0               0
                        0.960766         144.523                0               0        0.0471972          125.91                0               0
75.63                   0.238861         55.3648                0               0         0.164644        -125.228                0               0
                       0.0481174         122.708                0               0         0.961013         143.005                0               0
                         0.16465        -125.224                0               0         0.238801         55.3985                0               0
                         0.96101         143.004                0               0        0.0481376         122.743                0               0
75.675                  0.240488         53.8879                0               0         0.164205        -126.654                0               0
                       0.0490529         119.514                0               0         0.961295         141.476                0               0
                        0.164212         -126.65                0               0         0.240428         53.9204                0               0
                        0.961293         141.475                0               0        0.0490735         119.549                0               0
75.72                   0.241966          52.385                0               0         0.163749        -128.093                0               0
                       0.0499781         116.297                0               0          0.96161         139.936                0               0
                        0.163756        -128.089                0               0         0.241907         52.4164                0               0
                        0.961608         139.935                0               0        0.0499991         116.331                0               0
75.765                  0.243285         50.8567                0               0         0.163273        -129.545                0               0
                        0.050887         113.057                0               0         0.961952         138.386                0               0
                         0.16328        -129.541                0               0         0.243227         50.8869                0               0
                         0.96195         138.385                0               0        0.0509084         113.091                0               0
75.81                   0.244433         49.3035                0               0         0.162774        -131.011                0               0
                       0.0517734         109.799                0               0         0.962313         136.825                0               0
                        0.162781        -131.007                0               0         0.244375         49.3324                0               0
                        0.962312         136.824                0               0        0.0517951         109.833                0               0
75.855                  0.245399         47.7262                0               0          0.16225        -132.489                0               0
                       0.0526308         106.526                0               0         0.962688         135.253                0               0
                        0.162257        -132.485                0               0         0.245341         47.7538                0               0
                        0.962687         135.252                0               0         0.052653          106.56                0               0
75.9                    0.246171         46.1257                0               0         0.161698        -133.979                0               0
                        0.053453         103.242                0               0          0.96307          133.67                0               0
                        0.161706        -133.976                0               0         0.246114         46.1519                0               0
                        0.963069         133.669                0               0        0.0534757         103.275                0               0
75.945                  0.246737         44.5029                0               0         0.161117        -135.482                0               0
                       0.0542336         99.9495                0               0         0.963449         132.076                0               0
                        0.161124        -135.478                0               0          0.24668         44.5278                0               0
                        0.963448         132.075                0               0        0.0542568          99.983                0               0
75.99                   0.247087         42.8593                0               0         0.160502        -136.996                0               0
                       0.0549668         96.6544                0               0         0.963817         130.471                0               0
                         0.16051        -136.992                0               0          0.24703         42.8827                0               0
                        0.963817          130.47                0               0        0.0549906          96.688                0               0
76.035                  0.247209         41.1961                0               0         0.159852         -138.52                0               0
                        0.055647         93.3612                0               0         0.964166         128.855                0               0
                        0.159859        -138.517                0               0         0.247154         41.2181                0               0
                        0.964165         128.854                0               0        0.0556713         93.3949                0               0
76.08                   0.247095         39.5151                0               0         0.159164        -140.054                0               0
                       0.0562692         90.0747                0               0         0.964485         127.227                0               0
                        0.159171        -140.051                0               0          0.24704         39.5356                0               0
                        0.964484         127.226                0               0        0.0562939         90.1085                0               0
76.125                  0.246735          37.818                0               0         0.158435        -141.597                0               0
                       0.0568289            86.8                0               0         0.964764         125.589                0               0
                        0.158442        -141.595                0               0          0.24668          37.837                0               0
                        0.964762         125.588                0               0        0.0568542          86.834                0               0
76.17                   0.246121         36.1069                0               0         0.157663        -143.148                0               0
                       0.0573226         83.5423                0               0          0.96499         123.939                0               0
                         0.15767        -143.146                0               0         0.246067         36.1244                0               0
                        0.964988         123.938                0               0        0.0573484         83.5766                0               0
76.215                  0.245247         34.3839                0               0         0.156845        -144.706                0               0
                       0.0577474         80.3069                0               0         0.965153         122.279                0               0
                        0.156852        -144.704                0               0         0.245192         34.3998                0               0
                         0.96515         122.277                0               0        0.0577738         80.3415                0               0
76.26                   0.244105         32.6516                0               0          0.15598        -146.268                0               0
                       0.0581015         77.0989                0               0         0.965239         120.607                0               0
                        0.155986        -146.267                0               0          0.24405         32.6658                0               0
                        0.965236         120.605                0               0        0.0581284         77.1338                0               0
76.305                  0.242693         30.9124                0               0         0.155065        -147.835                0               0
                       0.0583837         73.9233                0               0         0.965235         118.924                0               0
                        0.155071        -147.833                0               0         0.242638         30.9249                0               0
                         0.96523         118.922                0               0        0.0584112         73.9585                0               0
76.35                   0.241008         29.1691                0               0         0.154099        -149.403                0               0
                       0.0585941         70.7847                0               0         0.965125         117.231                0               0
                        0.154104        -149.402                0               0         0.240952           29.18                0               0
                         0.96512         117.229                0               0        0.0586221         70.8203                0               0
76.395                  0.239048         27.4247                0               0          0.15308        -150.971                0               0
                       0.0587333         67.6876                0               0         0.964895         115.527                0               0
                        0.153084         -150.97                0               0         0.238993         27.4338                0               0
                        0.964889         115.525                0               0        0.0587619         67.7236                0               0
76.44                   0.236816         25.6822                0               0         0.152008        -152.538                0               0
                        0.058803          64.636                0               0         0.964529         113.813                0               0
