! TOUCHSTONE file generated by CST MICROWAVE STUDIO
! Date and time: Mon Jun 21 17:06:22 2021
! Project name: HIPS_d_sweep.cst
! Parameters = {a=0.735; b=0.393; d=16.6533; fmax=120; fmin=75; phi=0; theta=0}
! Header version: 2018
! Port assignment regex: !\s*Touchstone port\s*([0-9]+)\s*=\s*(CST MWS port|CST DS port)\s*([0-9]+|Zmin|Zmax)\s*\(\"(.*)\"\)(\s*mode\s*([0-9]+))?.*
! Touchstone port assignment:
! Touchstone port 1 = CST MWS port Zmin ("") mode 1
! Touchstone port 2 = CST MWS port Zmin ("") mode 2
! Touchstone port 3 = CST MWS port Zmax ("") mode 1
! Touchstone port 4 = CST MWS port Zmax ("") mode 2
! S-Parameters are not renormalized. Unphysical impedance of 0 will be written to the file.
# GHz S MA R 0
75                      0.151447         69.8594                0               0         0.455446         77.6827                0               0
                       0.0896701        -161.938                0               0         0.872698        -11.1045                0               0
                        0.455449         77.6827                0               0         0.151382         69.9291                0               0
                        0.872692         -11.106                0               0        0.0897033        -161.879                0               0
75.045                  0.152116         69.5571                0               0         0.458992         76.9358                0               0
                       0.0903557        -163.003                0               0         0.875731        -11.7013                0               0
                        0.458999          76.936                0               0         0.152051         69.6262                0               0
                        0.875724        -11.7026                0               0        0.0903835        -162.942                0               0
75.09                   0.152795         69.2078                0               0           0.4621         76.2205                0               0
                       0.0908808        -164.181                0               0         0.877744        -12.3041                0               0
                         0.46211         76.2211                0               0         0.152731         69.2763                0               0
                        0.877735        -12.3053                0               0        0.0909047        -164.121                0               0
75.135                  0.153499         68.8084                0               0         0.464673         75.5272                0               0
                        0.091259        -165.489                0               0         0.878689        -12.9283                0               0
                        0.464684          75.528                0               0         0.153436         68.8763                0               0
                        0.878679        -12.9295                0               0        0.0912806        -165.429                0               0
75.18                   0.154244         68.3568                0               0         0.466634         74.8426                0               0
                       0.0915083        -166.937                0               0         0.878592        -13.5903                0               0
                        0.466644         74.8437                0               0         0.154181          68.424                0               0
                        0.878581        -13.5914                0               0        0.0915291        -166.878                0               0
75.225                  0.155048         67.8523                0               0         0.467938         74.1513                0               0
                       0.0916503        -168.533                0               0         0.877555        -14.3056                0               0
                        0.467948         74.1524                0               0         0.154983         67.9187                0               0
                        0.877543        -14.3068                0               0        0.0916717        -168.475                0               0
75.27                   0.155927         67.2958                0               0         0.468582         73.4366                0               0
                       0.0917087        -170.283                0               0          0.87575        -15.0874                0               0
                         0.46859         73.4377                0               0         0.155861         67.3614                0               0
                        0.875738        -15.0887                0               0        0.0917319        -170.227                0               0
75.315                  0.156898         66.6899                0               0         0.468602         72.6829                0               0
                       0.0917079         -172.19                0               0         0.873398        -15.9448                0               0
                        0.468608         72.6838                0               0         0.156831         66.7546                0               0
                        0.873387        -15.9461                0               0         0.091734        -172.135                0               0
75.36                   0.157975         66.0385                0               0         0.468073         71.8768                0               0
                       0.0916721        -174.252                0               0          0.87074         -16.882                0               0
                        0.468078         71.8775                0               0         0.157907         66.1021                0               0
                        0.870729        -16.8834                0               0        0.0917018        -174.198                0               0
75.405                  0.159169         65.3464                0               0         0.467093         71.0086                0               0
                       0.0916237        -176.465                0               0         0.868008        -17.8988                0               0
                        0.467097          71.009                0               0         0.159099         65.4088                0               0
                        0.867998        -17.9003                0               0        0.0916575        -176.412                0               0
75.45                   0.160485         64.6192                0               0         0.465775         70.0727                0               0
                       0.0915831        -178.823                0               0         0.865405        -18.9911                0               0
                        0.465778         70.0728                0               0         0.160414         64.6802                0               0
                        0.865396        -18.9925                0               0        0.0916211         -178.77                0               0
75.495                  0.161924         63.8623                0               0         0.464227         69.0675                0               0
                       0.0915676         178.683                0               0         0.863088        -20.1517                0               0
                         0.46423         69.0673                0               0         0.161852          63.922                0               0
                        0.863081        -20.1531                0               0        0.0916099         178.736                0               0
75.54                   0.163484         63.0808                0               0         0.462551          67.995                0               0
                       0.0915912         176.064                0               0         0.861168        -21.3721                0               0
                        0.462554         67.9945                0               0          0.16341         63.1392                0               0
                        0.861161        -21.3735                0               0        0.0916376         176.117                0               0
75.585                  0.165157         62.2792                0               0         0.460826         66.8595                0               0
                       0.0916646         173.332                0               0         0.859707        -22.6433                0               0
                         0.46083         66.8589                0               0         0.165082         62.3361                0               0
                        0.859701        -22.6446                0               0        0.0917149         173.384                0               0
75.63                   0.166931         61.4605                0               0         0.459116         65.6672                0               0
                       0.0917953         170.499                0               0         0.858731        -23.9566                0               0
                         0.45912         65.6665                0               0         0.166855         61.5161                0               0
                        0.858725        -23.9579                0               0        0.0918491         170.551                0               0
75.675                  0.168795         60.6271                0               0         0.457463         64.4249                0               0
                       0.0919877         167.578                0               0         0.858233        -25.3042                0               0
                        0.457467          64.424                0               0         0.168718         60.6813                0               0
                        0.858227        -25.3056                0               0        0.0920445          167.63                0               0
75.72                   0.170732         59.7801                0               0         0.455892         63.1394                0               0
                       0.0922433         164.582                0               0         0.858187        -26.6796                0               0
                        0.455897         63.1386                0               0         0.170654          59.833                0               0
                         0.85818         -26.681                0               0        0.0923026         164.633                0               0
75.765                  0.172727         58.9195                0               0         0.454416         61.8176                0               0
                       0.0925613         161.524                0               0         0.858551        -28.0774                0               0
                        0.454421         61.8167                0               0         0.172648         58.9712                0               0
                        0.858544        -28.0787                0               0        0.0926226         161.575                0               0
75.81                   0.174762         58.0449                0               0         0.453035         60.4654                0               0
                       0.0929387         158.415                0               0         0.859276        -29.4932                0               0
                         0.45304         60.4646                0               0         0.174682         58.0954                0               0
                        0.859269        -29.4945                0               0        0.0930016         158.465                0               0
75.855                  0.176822          57.155                0               0         0.451744         59.0882                0               0
                        0.093371         155.267                0               0         0.860309        -30.9239                0               0
                        0.451748         59.0875                0               0         0.176741         57.2044                0               0
                        0.860301        -30.9252                0               0        0.0934351         155.317                0               0
75.9                    0.178889         56.2485                0               0          0.45053         57.6909                0               0
                       0.0938525         152.091                0               0         0.861596        -32.3671                0               0
                        0.450534         57.6903                0               0         0.178808         56.2969                0               0
                        0.861587        -32.3684                0               0        0.0939172         152.139                0               0
75.945                  0.180947         55.3236                0               0         0.449378         56.2773                0               0
                       0.0943763         148.895                0               0         0.863083         -33.821                0               0
                        0.449382         56.2769                0               0         0.180865          55.371                0               0
                        0.863073        -33.8223                0               0        0.0944413         148.943                0               0
75.99                    0.18298         54.3788                0               0         0.448272          54.851                0               0
                       0.0949352          145.69                0               0         0.864718        -35.2845                0               0
                        0.448275         54.8507                0               0         0.182896         54.4252                0               0
                        0.864708        -35.2858                0               0        0.0950003         145.736                0               0
76.035                  0.184969         53.4124                0               0         0.447195         53.4149                0               0
                       0.0955218         142.481                0               0         0.866452        -36.7567                0               0
                        0.447197         53.4148                0               0         0.184885         53.4579                0               0
                        0.866441        -36.7581                0               0        0.0955864         142.527                0               0
76.08                     0.1869         52.4234                0               0         0.446128         51.9715                0               0
                       0.0961283         139.277                0               0         0.868239        -38.2371                0               0
                         0.44613         51.9715                0               0         0.186815         52.4679                0               0
                        0.868227        -38.2385                0               0        0.0961924         139.322                0               0
76.125                  0.188757         51.4107                0               0         0.445056          50.523                0               0
                       0.0967475         136.084                0               0         0.870033        -39.7253                0               0
                        0.445058         50.5232                0               0          0.18867         51.4544                0               0
                         0.87002        -39.7268                0               0        0.0968106         136.128                0               0
76.17                   0.190522         50.3739                0               0         0.443964         49.0715                0               0
                       0.0973721         132.906                0               0         0.871793         -41.221                0               0
                        0.443964         49.0718                0               0         0.190434         50.4167                0               0
                        0.871779        -41.2224                0               0        0.0974343         132.949                0               0
76.215                   0.19218          49.313                0               0         0.442835         47.6186                0               0
                       0.0979958         129.748                0               0         0.873479        -42.7238                0               0
                        0.442835         47.6191                0               0         0.192091         49.3549                0               0
                        0.873464        -42.7253                0               0        0.0980568         129.791                0               0
76.26                   0.193716         48.2283                0               0         0.441659         46.1661                0               0
                       0.0986124         126.614                0               0         0.875053        -44.2335                0               0
                        0.441658         46.1667                0               0         0.193625         48.2694                0               0
                        0.875038         -44.235                0               0        0.0986722         126.656                0               0
76.305                  0.195114          47.121                0               0         0.440422         44.7155                0               0
                       0.0992165         123.507                0               0         0.876481        -45.7495                0               0
                        0.440421         44.7163                0               0         0.195022         47.1611                0               0
                        0.876465         -45.751                0               0        0.0992751         123.549                0               0
76.35                    0.19636         45.9924                0               0         0.439116         43.2685                0               0
                       0.0998034         120.429                0               0         0.877727        -47.2714                0               0
                        0.439115         43.2693                0               0         0.196267         46.0316                0               0
                        0.877711        -47.2729                0               0        0.0998608         120.472                0               0
76.395                  0.197441         44.8445                0               0         0.437731         41.8264                0               0
                        0.100369         117.383                0               0         0.878762        -48.7984                0               0
                         0.43773         41.8274                0               0         0.197347         44.8829                0               0
                        0.878745        -48.7999                0               0         0.100425         117.427                0               0
76.44                   0.198345           43.68                0               0         0.436263         40.3909                0               0
                        0.100909          114.37                0               0         0.879557        -50.3296                0               0
