! TOUCHSTONE file generated by CST MICROWAVE STUDIO
! Date and time: Mon Jun 21 17:07:00 2021
! Project name: HIPS_d_sweep.cst
! Parameters = {a=0.735; b=0.393; d=21.2261; fmax=120; fmin=75; phi=0; theta=0}
! Header version: 2018
! Port assignment regex: !\s*Touchstone port\s*([0-9]+)\s*=\s*(CST MWS port|CST DS port)\s*([0-9]+|Zmin|Zmax)\s*\(\"(.*)\"\)(\s*mode\s*([0-9]+))?.*
! Touchstone port assignment:
! Touchstone port 1 = CST MWS port Zmin ("") mode 1
! Touchstone port 2 = CST MWS port Zmin ("") mode 2
! Touchstone port 3 = CST MWS port Zmax ("") mode 1
! Touchstone port 4 = CST MWS port Zmax ("") mode 2
! S-Parameters are not renormalized. Unphysical impedance of 0 will be written to the file.
# GHz S MA R 0
75                      0.175671         84.1324                0               0         0.179615        -95.8351                0               0
                       0.0355852        -161.236                0               0         0.967273         175.029                0               0
                        0.179616        -95.8351                0               0         0.175646         84.1344                0               0
                        0.967271          175.03                0               0        0.0356644        -161.288                0               0
75.045                  0.176607         83.4986                0               0         0.182938        -96.4507                0               0
                       0.0363209         -162.41                0               0         0.966452         174.407                0               0
                        0.182939        -96.4506                0               0         0.176582         83.5017                0               0
                         0.96645         174.408                0               0        0.0364001        -162.459                0               0
75.09                   0.177835         82.7972                0               0         0.185875        -97.1361                0               0
                       0.0369873        -163.864                0               0         0.965641         173.704                0               0
                        0.185876        -97.1359                0               0          0.17781         82.8005                0               0
                        0.965638         173.705                0               0        0.0370666         -163.91                0               0
75.135                   0.17932         82.0292                0               0         0.188426        -97.8941                0               0
                       0.0375875        -165.592                0               0         0.964848         172.919                0               0
                        0.188427        -97.8939                0               0         0.179293         82.0327                0               0
                        0.964846          172.92                0               0        0.0376668        -165.634                0               0
75.18                   0.181036         81.1949                0               0         0.190595        -98.7262                0               0
                        0.038126        -167.584                0               0          0.96408         172.055                0               0
                        0.190596        -98.7259                0               0         0.181009         81.1987                0               0
                        0.964078         172.056                0               0        0.0382056        -167.623                0               0
75.225                  0.182964         80.2945                0               0         0.192388        -99.6322                0               0
                       0.0386091        -169.834                0               0          0.96334         171.112                0               0
                        0.192389        -99.6319                0               0         0.182937         80.2989                0               0
                        0.963338         171.113                0               0        0.0386892        -169.869                0               0
75.27                   0.185091         79.3284                0               0         0.193816        -100.611                0               0
                       0.0390446        -172.331                0               0          0.96263         170.093                0               0
                        0.193817         -100.61                0               0         0.185064         79.3337                0               0
                        0.962628         170.093                0               0        0.0391251        -172.361                0               0
75.315                  0.187402         78.2974                0               0         0.194891        -101.659                0               0
                       0.0394409        -175.065                0               0         0.961951         168.997                0               0
                        0.194892        -101.658                0               0         0.187375         78.3038                0               0
                        0.961948         168.998                0               0        0.0395219        -175.091                0               0
75.36                   0.189883         77.2026                0               0         0.195626        -102.773                0               0
                       0.0398074        -178.026                0               0         0.961301         167.828                0               0
                        0.195627        -102.773                0               0         0.189857           77.21                0               0
                        0.961298         167.829                0               0        0.0398888        -178.047                0               0
75.405                  0.192521         76.0452                0               0         0.196035        -103.951                0               0
                       0.0401536           178.8                0               0          0.96068         166.588                0               0
                        0.196036         -103.95                0               0         0.192494         76.0537                0               0
                        0.960677         166.589                0               0        0.0402355         178.784                0               0
75.45                   0.195297         74.8269                0               0         0.196135        -105.186                0               0
                       0.0404891         175.426                0               0         0.960086          165.28                0               0
                        0.196135        -105.185                0               0          0.19527         74.8362                0               0
                        0.960083          165.28                0               0        0.0405713         175.415                0               0
75.495                  0.198192         73.5491                0               0         0.195939        -106.474                0               0
                       0.0408232         171.867                0               0         0.959518         163.905                0               0
                        0.195939        -106.473                0               0         0.198165         73.5591                0               0
                        0.959515         163.905                0               0        0.0409056         171.862                0               0
75.54                   0.201184         72.2137                0               0         0.195462        -107.811                0               0
                       0.0411644         168.141                0               0         0.958977         162.466                0               0
                        0.195463        -107.811                0               0         0.201157         72.2241                0               0
                        0.958973         162.467                0               0        0.0412467         168.141                0               0
75.585                  0.204248         70.8225                0               0         0.194721        -109.193                0               0
                       0.0415201         164.264                0               0         0.958462         160.968                0               0
                        0.194722        -109.193                0               0         0.204221         70.8332                0               0
                        0.958457         160.969                0               0        0.0416022         164.269                0               0
75.63                   0.207356         69.3775                0               0         0.193732        -110.616                0               0
                       0.0418968         160.256                0               0         0.957974         159.413                0               0
                        0.193731        -110.616                0               0         0.207329         69.3883                0               0
                        0.957969         159.414                0               0        0.0419783         160.267                0               0
75.675                  0.210477         67.8806                0               0          0.19251        -112.078                0               0
                       0.0422993         156.136                0               0         0.957515         157.806                0               0
                        0.192509        -112.077                0               0         0.210452         67.8916                0               0
                         0.95751         157.807                0               0          0.04238         156.153                0               0
75.72                   0.213581         66.3344                0               0         0.191075        -113.577                0               0
                       0.0427309         151.925                0               0         0.957089         156.149                0               0
                        0.191074        -113.576                0               0         0.213556         66.3455                0               0
                        0.957083          156.15                0               0        0.0428106         151.948                0               0
75.765                  0.216635         64.7413                0               0         0.189449        -115.113                0               0
                       0.0431932         147.643                0               0         0.956698         154.448                0               0
                        0.189447        -115.111                0               0         0.216611         64.7528                0               0
                        0.956691         154.449                0               0        0.0432716         147.671                0               0
75.81                   0.219604         63.1044                0               0         0.187658        -116.684                0               0
                       0.0436864         143.309                0               0         0.956344         152.706                0               0
                        0.187655        -116.682                0               0         0.219581         63.1163                0               0
                        0.956337         152.707                0               0        0.0437634         143.342                0               0
75.855                  0.222458         61.4268                0               0         0.185735        -118.291                0               0
                       0.0442092         138.942                0               0         0.956032         150.927                0               0
                         0.18573        -118.289                0               0         0.222435         61.4394                0               0
                        0.956025         150.928                0               0        0.0442845         138.981                0               0
75.9                    0.225165         59.7123                0               0         0.183713        -119.933                0               0
                       0.0447588         134.561                0               0         0.955763         149.117                0               0
                        0.183708        -119.932                0               0         0.225142         59.7259                0               0
                        0.955756         149.118                0               0        0.0448322         134.605                0               0
75.945                  0.227697         57.9648                0               0         0.181634        -121.607                0               0
                       0.0453315         130.184                0               0         0.955539         147.279                0               0
                        0.181629        -121.606                0               0         0.227674         57.9797                0               0
                        0.955532          147.28                0               0         0.045403         130.232                0               0
75.99                    0.23003         56.1884                0               0         0.179533        -123.307                0               0
                       0.0459231         125.825                0               0         0.955359         145.418                0               0
                         0.17953        -123.307                0               0         0.230007         56.2049                0               0
                        0.955352         145.419                0               0        0.0459926         125.876                0               0
76.035                  0.232143         54.3873                0               0          0.17744        -125.025                0               0
                       0.0465289         121.498                0               0         0.955221         143.538                0               0
                        0.177439        -125.024                0               0          0.23212         54.4056                0               0
                        0.955215         143.539                0               0        0.0465961         121.553                0               0
76.08                   0.234022         52.5656                0               0         0.175372        -126.748                0               0
                       0.0471442         117.217                0               0         0.955124         141.642                0               0
                        0.175372        -126.747                0               0         0.233998         52.5859                0               0
                        0.955119         141.643                0               0        0.0472092         117.275                0               0
76.125                  0.235659          50.727                0               0         0.173327        -128.467                0               0
                        0.047765         112.991                0               0         0.955062         139.734                0               0
                         0.17333        -128.466                0               0         0.235635         50.7495                0               0
                        0.955058         139.735                0               0        0.0478277         113.052                0               0
76.17                   0.237051         48.8749                0               0         0.171293        -130.172                0               0
                       0.0483881         108.831                0               0         0.955031         137.817                0               0
                        0.171298         -130.17                0               0         0.237026         48.8995                0               0
                        0.955027         137.818                0               0        0.0484485         108.894                0               0
76.215                    0.2382          47.012                0               0         0.169244        -131.861                0               0
                       0.0490116         104.744                0               0         0.955025         135.893                0               0
                         0.16925        -131.858                0               0         0.238176         47.0386                0               0
                        0.955023         135.894                0               0        0.0490695         104.807                0               0
76.26                   0.239116         45.1404                0               0         0.167156        -133.536                0               0
                       0.0496348         100.734                0               0         0.955042         133.965                0               0
                        0.167161        -133.532                0               0         0.239091         45.1687                0               0
                        0.955041         133.966                0               0          0.04969         100.799                0               0
76.305                  0.239809         43.2617                0               0         0.165005        -135.204                0               0
                       0.0502583         96.8068                0               0         0.955083         132.033                0               0
                        0.165008          -135.2                0               0         0.239785         43.2913                0               0
                        0.955083         132.035                0               0        0.0503107         96.8726                0               0
76.35                   0.240293         41.3772                0               0         0.162786         -136.88                0               0
                       0.0508839         92.9641                0               0         0.955156         130.099                0               0
                        0.162786        -136.876                0               0         0.240269         41.4077                0               0
                        0.955156           130.1                0               0        0.0509334         93.0307                0               0
76.395                  0.240581         39.4887                0               0         0.160512        -138.582                0               0
                       0.0515134         89.2073                0               0         0.955279         128.163                0               0
                        0.160511        -138.578                0               0         0.240557         39.5197                0               0
                        0.955279         128.164                0               0        0.0515598         89.2747                0               0
76.44                   0.240677         37.5987                0               0         0.158227        -140.323                0               0
                       0.0521479         85.5368                0               0         0.955484         126.225                0               0
