! TOUCHSTONE file generated by CST MICROWAVE STUDIO
! Date and time: Mon Jun 21 17:07:24 2021
! Project name: HIPS_d_sweep.cst
! Parameters = {a=0.735; b=0.393; d=23.8894; fmax=120; fmin=75; phi=0; theta=0}
! Header version: 2018
! Port assignment regex: !\s*Touchstone port\s*([0-9]+)\s*=\s*(CST MWS port|CST DS port)\s*([0-9]+|Zmin|Zmax)\s*\(\"(.*)\"\)(\s*mode\s*([0-9]+))?.*
! Touchstone port assignment:
! Touchstone port 1 = CST MWS port Zmin ("") mode 1
! Touchstone port 2 = CST MWS port Zmin ("") mode 2
! Touchstone port 3 = CST MWS port Zmax ("") mode 1
! Touchstone port 4 = CST MWS port Zmax ("") mode 2
! S-Parameters are not renormalized. Unphysical impedance of 0 will be written to the file.
# GHz S MA R 0
75                    0.00896473         -42.657                0               0        0.0160207        -44.1587                0               0
                       0.0161168        -44.1422                0               0         0.999702        -134.653                0               0
                       0.0160204        -44.1539                0               0       0.00902732        -43.3767                0               0
                        0.999701        -134.657                0               0        0.0161186        -44.1435                0               0
75.045                0.00633742         -41.584                0               0         0.020052        -45.1038                0               0
                       0.0167597        -44.9543                0               0         0.999654        -135.369                0               0
                       0.0200517        -45.1001                0               0       0.00639554        -42.6358                0               0
                        0.999653        -135.373                0               0        0.0167618        -44.9553                0               0
75.09                 0.00330783        -38.0969                0               0        0.0237297         -46.057                0               0
                       0.0172379        -45.9181                0               0         0.999565        -136.178                0               0
                       0.0237293        -46.0538                0               0       0.00335967        -40.1932                0               0
                        0.999564        -136.182                0               0        0.0172406        -45.9194                0               0
75.135               0.000511852         64.7852                0               0        0.0270083        -47.0665                0               0
                        0.017554        -47.0557                0               0         0.999449         -137.08                0               0
                       0.0270079        -47.0636                0               0      0.000378649         61.5327                0               0
                        0.999448        -137.084                0               0        0.0175572         -47.058                0               0
75.18                 0.00409757         125.375                0               0        0.0298559        -48.1564                0               0
                       0.0177106        -48.3816                0               0          0.99932        -138.075                0               0
                       0.0298554        -48.1538                0               0       0.00401228         126.935                0               0
                        0.999319        -138.078                0               0        0.0177142        -48.3853                0               0
75.225                0.00837033         127.713                0               0        0.0322538        -49.3388                0               0
                       0.0177105        -49.9052                0               0         0.999184        -139.161                0               0
                       0.0322532        -49.3364                0               0       0.00828725         128.523                0               0
                        0.999184        -139.165                0               0        0.0177145        -49.9109                0               0
75.27                  0.0130478          127.68                0               0        0.0341952         -50.619                0               0
                       0.0175565        -51.6331                0               0         0.999048        -140.337                0               0
                       0.0341945        -50.6168                0               0         0.012964         128.222                0               0
                        0.999048        -140.341                0               0        0.0175609        -51.6412                0               0
75.315                 0.0181083         126.953                0               0        0.0356842        -51.9974                0               0
                       0.0172516        -53.5705                0               0         0.998912        -141.602                0               0
                       0.0356835        -51.9953                0               0        0.0180242         127.358                0               0
                        0.998911        -141.606                0               0        0.0172564        -53.5817                0               0
75.36                  0.0235338         125.897                0               0        0.0367337        -53.4708                0               0
                       0.0167992        -55.7228                0               0         0.998772        -142.953                0               0
                        0.036733        -53.4688                0               0        0.0234503         126.221                0               0
                        0.998772        -142.957                0               0        0.0168043        -55.7378                0               0
75.405                 0.0293064         124.645                0               0         0.037363        -55.0335                0               0
                        0.016203         -58.097                0               0         0.998624        -144.388                0               0
                       0.0373623        -55.0316                0               0        0.0292244         124.913                0               0
                        0.998622        -144.391                0               0        0.0162084        -58.1167                0               0
75.45                  0.0354077         123.259                0               0        0.0375965        -56.6776                0               0
                       0.0154673        -60.7037                0               0         0.998457        -145.902                0               0
                       0.0375958        -56.6757                0               0         0.035328         123.487                0               0
                        0.998455        -145.906                0               0         0.015473        -60.7289                0               0
75.495                 0.0418197         121.771                0               0        0.0374613        -58.3932                0               0
                       0.0145975        -63.5594                0               0         0.998261        -147.494                0               0
                       0.0374605        -58.3914                0               0        0.0417425          121.97                0               0
                        0.998258        -147.498                0               0        0.0146036        -63.5916                0               0
75.54                   0.048524         120.203                0               0        0.0369856        -60.1692                0               0
                       0.0136002        -66.6914                0               0         0.998023         -149.16                0               0
                       0.0369848        -60.1674                0               0        0.0484492         120.378                0               0
                        0.998019        -149.164                0               0        0.0136067        -66.7322                0               0
75.585                 0.0555022         118.566                0               0        0.0361982        -61.9927                0               0
                       0.0124833        -70.1443                0               0         0.997729        -150.895                0               0
                       0.0361973        -61.9909                0               0         0.055429         118.722                0               0
                        0.997723        -150.899                0               0        0.0124904        -70.1959                0               0
75.63                  0.0627357         116.867                0               0        0.0351265        -63.8491                0               0
                       0.0112564         -73.993                0               0         0.997364        -152.695                0               0
                       0.0351255        -63.8474                0               0        0.0626629         117.009                0               0
                        0.997358        -152.699                0               0        0.0112642        -74.0585                0               0
75.675                 0.0702049         115.111                0               0        0.0337963        -65.7219                0               0
                      0.00993133        -78.3669                0               0         0.996916        -154.557                0               0
                       0.0337953        -65.7202                0               0        0.0701312         115.242                0               0
                         0.99691        -154.561                0               0       0.00994011        -78.4505                0               0
75.72                  0.0778893           113.3                0               0        0.0322313        -67.5916                0               0
                      0.00852327        -83.5007                0               0         0.996374        -156.475                0               0
                       0.0322302          -67.59                0               0         0.077813         113.423                0               0
                        0.996367        -156.479                0               0       0.00853339        -83.6087                0               0
75.765                 0.0857662         111.434                0               0        0.0304525        -69.4353                0               0
                      0.00705296        -89.8506                0               0         0.995729        -158.445                0               0
                       0.0304513        -69.4337                0               0        0.0856861         111.553                0               0
                        0.995723        -158.449                0               0       0.00706499        -89.9918                0               0
75.81                  0.0938108         109.513                0               0        0.0284782        -71.2247                0               0
                      0.00555383        -98.3923                0               0         0.994976        -160.462                0               0
                       0.0284769        -71.2232                0               0         0.093726          109.63                0               0
                        0.994971        -160.466                0               0       0.00556872        -98.5784                0               0
75.855                  0.101995         107.535                0               0        0.0263243        -72.9236                0               0
                      0.00409442        -111.476                0               0         0.994116        -162.522                0               0
                       0.0263229        -72.9223                0               0         0.101905         107.652                0               0
                        0.994112        -162.526                0               0       0.00411389        -111.712                0               0
75.9                    0.110284         105.499                0               0        0.0240041        -74.4843                0               0
                      0.00286235         -135.09                0               0         0.993154        -164.621                0               0
                       0.0240027        -74.4831                0               0         0.110193         105.618                0               0
                        0.993151        -164.624                0               0       0.00288871         -135.29                0               0
75.945                   0.11864           103.4                0               0        0.0215296        -75.8396                0               0
                      0.00238381        -176.413                0               0           0.9921        -166.753                0               0
                       0.0215283        -75.8387                0               0          0.11855         103.524                0               0
                        0.992098        -166.756                0               0       0.00241316          -176.2                0               0
75.99                   0.127012         101.236                0               0        0.0189121         -76.889                0               0
                      0.00310428         145.004                0               0         0.990971        -168.914                0               0
                       0.0189107        -76.8884                0               0         0.126931         101.366                0               0
                        0.990971        -168.918                0               0       0.00312469         145.486                0               0
76.035                  0.135334         99.0053                0               0        0.0161641        -77.4679                0               0
                      0.00450667         123.861                0               0          0.98979        -171.101                0               0
                       0.0161629        -77.4678                0               0         0.135275         99.1404                0               0
                        0.989791        -171.105                0               0       0.00451891         124.287                0               0
76.08                    0.14352         96.7079                0               0        0.0133033        -77.2749                0               0
                      0.00614917         111.758                0               0         0.988586         -173.31                0               0
                       0.0133023        -77.2753                0               0         0.143498         96.8444                0               0
                        0.988587        -173.313                0               0       0.00615655         112.107                0               0
76.125                  0.151454          94.353                0               0        0.0103591        -75.6698                0               0
                      0.00788109         103.562                0               0         0.987389        -175.535                0               0
                       0.0103582        -75.6707                0               0         0.151482          94.483                0               0
                        0.987389        -175.539                0               0       0.00788542         103.856                0               0
76.17                   0.158997         91.9675                0               0       0.00739315        -70.9938                0               0
                      0.00964581         97.2702                0               0         0.986234        -177.774                0               0
                      0.00739249        -70.9953                0               0         0.159074          92.079                0               0
                        0.986233        -177.778                0               0       0.00964804         97.5262                0               0
76.215                  0.166037         89.6056                0               0       0.00458704        -57.6164                0               0
                       0.0114151         92.0279                0               0         0.985153         179.977                0               0
                      0.00458657        -57.6181                0               0         0.166127         89.6888                0               0
                        0.985149         179.974                0               0        0.0114157         92.2565                0               0
76.26                   0.172587         87.3383                0               0       0.00280174        -15.1523                0               0
                       0.0131707         87.4229                0               0         0.984173         177.724                0               0
                      0.00280142        -15.1514                0               0         0.172631         87.3975                0               0
                        0.984167         177.721                0               0        0.0131701         87.6313                0               0
76.305                  0.178858         85.2026                0               0       0.00394528         37.1415                0               0
                       0.0148984         83.2351                0               0         0.983312          175.47                0               0
                      0.00394509         37.1434                0               0         0.178827         85.2583                0               0
                        0.983302         175.467                0               0        0.0148968         83.4282                0               0
76.35                   0.185108         83.1574                0               0        0.0066009         55.0947                0               0
                       0.0165854         79.3372                0               0         0.982569         173.221                0               0
                      0.00660075         55.0954                0               0         0.185036         83.2249                0               0
                        0.982555         173.217                0               0        0.0165829         79.5185                0               0
76.395                  0.191416         81.1183                0               0       0.00949644         60.9927                0               0
                       0.0182192         75.6502                0               0         0.981921         170.982                0               0
                       0.0094963         60.9931                0               0         0.191347         81.1957                0               0
                        0.981905         170.978                0               0        0.0182159         75.8224                0               0
76.44                   0.197663          79.027                0               0        0.0123655         62.8788                0               0
                       0.0197869         72.1223                0               0         0.981321         168.757                0               0
