! TOUCHSTONE file generated by CST MICROWAVE STUDIO
! Date and time: Mon Jun 21 17:07:19 2021
! Project name: HIPS_d_sweep.cst
! Parameters = {a=0.735; b=0.393; d=23.2864; fmax=120; fmin=75; phi=0; theta=0}
! Header version: 2018
! Port assignment regex: !\s*Touchstone port\s*([0-9]+)\s*=\s*(CST MWS port|CST DS port)\s*([0-9]+|Zmin|Zmax)\s*\(\"(.*)\"\)(\s*mode\s*([0-9]+))?.*
! Touchstone port assignment:
! Touchstone port 1 = CST MWS port Zmin ("") mode 1
! Touchstone port 2 = CST MWS port Zmin ("") mode 2
! Touchstone port 3 = CST MWS port Zmax ("") mode 1
! Touchstone port 4 = CST MWS port Zmax ("") mode 2
! S-Parameters are not renormalized. Unphysical impedance of 0 will be written to the file.
# GHz S MA R 0
75                      0.238494         26.5435                0               0        0.0521963         36.1079                0               0
                       0.0391059          45.003                0               0         0.968944        -63.9362                0               0
                       0.0521956         36.1076                0               0         0.238524         26.5933                0               0
                        0.968952        -63.9338                0               0        0.0390808         44.9505                0               0
75.045                  0.237416          25.846                0               0         0.055083          34.776                0               0
                       0.0398197         45.2979                0               0         0.970792        -64.6073                0               0
                       0.0550841         34.7772                0               0         0.237446         25.8968                0               0
                        0.970796        -64.6058                0               0        0.0397983         45.2405                0               0
75.09                   0.236191         25.0833                0               0        0.0579308         33.4689                0               0
                       0.0404711         45.3615                0               0         0.972005        -65.3581                0               0
                       0.0579332         33.4712                0               0         0.236221         25.1351                0               0
                        0.972008        -65.3573                0               0        0.0404513         45.3016                0               0
75.135                  0.234817         24.2525                0               0        0.0606971          32.177                0               0
                       0.0410679         45.1945                0               0         0.972701        -66.1924                0               0
                       0.0607002         32.1799                0               0         0.234847         24.3054                0               0
                        0.972705        -66.1919                0               0        0.0410479         45.1336                0               0
75.18                   0.233291          23.351                0               0        0.0633367           30.89                0               0
                       0.0416164         44.8006                0               0         0.973001        -67.1123                0               0
                       0.0633401         30.8932                0               0         0.233322         23.4051                0               0
                        0.973007         -67.112                0               0        0.0415949         44.7394                0               0
75.225                   0.23161         22.3767                0               0        0.0658041         29.5968                0               0
                       0.0421214         44.1854                0               0          0.97302        -68.1189                0               0
                       0.0658073         29.5999                0               0         0.231641          22.432                0               0
                        0.973028        -68.1185                0               0        0.0420975         44.1242                0               0
75.27                   0.229767         21.3276                0               0        0.0680547         28.2863                0               0
                       0.0425855         43.3561                0               0         0.972867        -69.2118                0               0
                       0.0680576         28.2891                0               0         0.229798         21.3842                0               0
                        0.972876        -69.2112                0               0        0.0425586          43.295                0               0
75.315                  0.227753         20.2021                0               0         0.070048         26.9476                0               0
                       0.0430099         42.3209                0               0         0.972639        -70.3896                0               0
                       0.0700502         26.9499                0               0         0.227785         20.2601                0               0
                        0.972649        -70.3887                0               0        0.0429797         42.2598                0               0
75.36                    0.22556          18.999                0               0        0.0717486         25.5704                0               0
                       0.0433935         41.0886                0               0         0.972418        -71.6502                0               0
                         0.07175         25.5722                0               0         0.225591         19.0585                0               0
                        0.972429         -71.649                0               0        0.0433602         41.0272                0               0
75.405                  0.223173         17.7174                0               0        0.0731284         24.1457                0               0
                       0.0437341         39.6687                0               0         0.972275        -72.9909                0               0
                       0.0731291         24.1469                0               0         0.223205         17.7785                0               0
                        0.972285        -72.9892                0               0        0.0436978         39.6066                0               0
75.45                   0.220579          16.357                0               0        0.0741679          22.666                0               0
                        0.044028         38.0706                0               0         0.972261        -74.4081                0               0
                       0.0741678         22.6666                0               0         0.220612         16.4199                0               0
                        0.972269        -74.4062                0               0        0.0439891         38.0075                0               0
75.495                  0.217763         14.9179                0               0        0.0748565         21.1253                0               0
                       0.0442702         36.3045                0               0         0.972414        -75.8984                0               0
                       0.0748557         21.1255                0               0         0.217796         14.9828                0               0
                        0.972421        -75.8962                0               0        0.0442292         36.2398                0               0
75.54                   0.214708         13.4008                0               0        0.0751923         19.5197                0               0
                       0.0444553         34.3805                0               0         0.972759         -77.458                0               0
                       0.0751911         19.5196                0               0          0.21474         13.4678                0               0
                        0.972765        -77.4556                0               0        0.0444126         34.3137                0               0
75.585                  0.211395          11.807                0               0        0.0751822          17.847                0               0
                       0.0445771          32.309                0               0         0.973305        -79.0829                0               0
                       0.0751805         17.8466                0               0         0.211428         11.8763                0               0
                         0.97331        -79.0803                0               0        0.0445332         32.2397                0               0
75.63                   0.207807         10.1385                0               0        0.0748399         16.1067                0               0
                       0.0446294         30.1007                0               0         0.974051        -80.7693                0               0
                        0.074838         16.1063                0               0          0.20784         10.2103                0               0
                        0.974055        -80.7668                0               0        0.0445848         30.0283                0               0
75.675                  0.203928         8.39811                0               0        0.0741851         14.2998                0               0
                       0.0446059         27.7666                0               0         0.974986        -82.5136                0               0
                       0.0741832         14.2994                0               0          0.20396         8.47269                0               0
                         0.97499        -82.5111                0               0         0.044561         27.6906                0               0
75.72                   0.199741         6.58944                0               0        0.0732418         12.4285                0               0
                       0.0445008         25.3177                0               0         0.976089        -84.3122                0               0
                         0.07324         12.4283                0               0         0.199773         6.66702                0               0
                        0.976094        -84.3098                0               0        0.0444561         25.2375                0               0
75.765                  0.195233         4.71685                0               0        0.0720366         10.4957                0               0
                       0.0443092         22.7651                0               0         0.977333        -86.1617                0               0
                        0.072035         10.4957                0               0         0.195265         4.79771                0               0
                         0.97734        -86.1594                0               0        0.0442648         22.6802                0               0
75.81                   0.190395         2.78552                0               0        0.0705972         8.50506                0               0
                       0.0440267           20.12                0               0         0.978686        -88.0589                0               0
                       0.0705958         8.50532                0               0         0.190427         2.86995                0               0
                        0.978695        -88.0569                0               0        0.0439829         20.0298                0               0
75.855                  0.185221        0.801267                0               0        0.0689511         6.46033                0               0
                       0.0436501         17.3932                0               0         0.980111        -90.0008                0               0
                         0.06895         6.46086                0               0         0.185253        0.889606                0               0
                        0.980124        -89.9991                0               0        0.0436071         17.2972                0               0
75.9                     0.17971        -1.22954                0               0        0.0671247         4.36533                0               0
                       0.0431776         14.5954                0               0          0.98157        -91.9848                0               0
                       0.0671238         4.36609                0               0         0.179741        -1.13694                0               0
                        0.981587        -91.9833                0               0        0.0431354         14.4932                0               0
75.945                  0.173866        -3.30025                0               0        0.0651422         2.22366                0               0
                       0.0426082         11.7368                0               0         0.983025        -94.0081                0               0
                       0.0651414          2.2246                0               0         0.173898        -3.20299                0               0
                        0.983047        -94.0068                0               0        0.0425669         11.6277                0               0
75.99                   0.167699        -5.40421                0               0        0.0630252       0.0386028                0               0
                       0.0419422         8.82679                0               0         0.984441        -96.0684                0               0
                       0.0630246       0.0396472                0               0          0.16773        -5.30185                0               0
                        0.984467        -96.0672                0               0        0.0419018         8.71044                0               0
76.035                  0.161222        -7.53512                0               0        0.0607924        -2.18697                0               0
                       0.0411811         5.87424                0               0         0.985786        -98.1633                0               0
                       0.0607918        -2.18593                0               0         0.161253        -7.42716                0               0
                        0.985816        -98.1622                0               0        0.0411416         5.75007                0               0
76.08                   0.154452        -9.68733                0               0        0.0584594        -4.45065                0               0
                        0.040327         2.88711                0               0         0.987035         -100.29                0               0
                       0.0584588        -4.44971                0               0         0.154482        -9.57321                0               0
                        0.987068        -100.289                0               0        0.0402884         2.75457                0               0
76.125                  0.147408        -11.8562                0               0        0.0560389        -6.75045                0               0
                       0.0393829       -0.127449                0               0         0.988174        -102.447                0               0
                       0.0560381        -6.74974                0               0         0.147438        -11.7353                0               0
                        0.988208        -102.446                0               0        0.0393453       -0.268971                0               0
76.17                    0.14011        -14.0384                0               0        0.0535405         -9.0848                0               0
                       0.0383524        -3.16304                0               0         0.989198        -104.632                0               0
                       0.0535396        -9.08444                0               0         0.140139        -13.9098                0               0
                        0.989232         -104.63                0               0        0.0383158        -3.31425                0               0
76.215                  0.132577        -16.2318                0               0        0.0509717        -11.4525                0               0
                       0.0372393        -6.21391                0               0          0.99012         -106.84                0               0
                       0.0509706        -11.4526                0               0         0.132606        -16.0947                0               0
                         0.99015        -106.839                0               0        0.0372038        -6.37563                0               0
76.26                   0.124826        -18.4358                0               0        0.0483381        -13.8524                0               0
                       0.0360478        -9.27469                0               0         0.990965        -109.069                0               0
                       0.0483367        -13.8531                0               0         0.124854         -18.289                0               0
                        0.990988        -109.067                0               0        0.0360134        -9.44792                0               0
76.305                  0.116872        -20.6505                0               0        0.0456439        -16.2838                0               0
                       0.0347819          -12.34                0               0          0.99177        -111.313                0               0
                       0.0456423        -16.2851                0               0         0.116899        -20.4927                0               0
                        0.991784        -111.311                0               0        0.0347489         -12.526                0               0
76.35                   0.108726        -22.8767                0               0         0.042893        -18.7456                0               0
                        0.033446        -15.4042                0               0         0.992579        -113.566                0               0
                       0.0428913        -18.7475                0               0         0.108752         -22.706                0               0
                        0.992583        -113.563                0               0        0.0334147        -15.6044                0               0
76.395                  0.100396        -25.1146                0               0        0.0400901        -21.2361                0               0
                       0.0320445        -18.4604                0               0         0.993433        -115.819                0               0
                       0.0400883        -21.2385                0               0         0.100422         -24.929                0               0
                        0.993425        -115.817                0               0         0.032015        -18.6767                0               0
76.44                  0.0918926        -27.3634                0               0        0.0372417        -23.7522                0               0
                       0.0305819        -21.4999                0               0         0.994351        -118.064                0               0
