! TOUCHSTONE file generated by CST MICROWAVE STUDIO
! Date and time: Mon Jun 21 17:07:02 2021
! Project name: HIPS_d_sweep.cst
! Parameters = {a=0.735; b=0.393; d=21.4774; fmax=120; fmin=75; phi=0; theta=0}
! Header version: 2018
! Port assignment regex: !\s*Touchstone port\s*([0-9]+)\s*=\s*(CST MWS port|CST DS port)\s*([0-9]+|Zmin|Zmax)\s*\(\"(.*)\"\)(\s*mode\s*([0-9]+))?.*
! Touchstone port assignment:
! Touchstone port 1 = CST MWS port Zmin ("") mode 1
! Touchstone port 2 = CST MWS port Zmin ("") mode 2
! Touchstone port 3 = CST MWS port Zmax ("") mode 1
! Touchstone port 4 = CST MWS port Zmax ("") mode 2
! S-Parameters are not renormalized. Unphysical impedance of 0 will be written to the file.
# GHz S MA R 0
75                      0.235096         56.8545                0               0         0.158424        -122.263                0               0
                       0.0430894         120.595                0               0         0.958005         146.052                0               0
                        0.158424        -122.263                0               0         0.235107         56.8296                0               0
                        0.958005         146.053                0               0        0.0430385         120.539                0               0
75.045                  0.235335         56.2516                0               0         0.161542        -123.164                0               0
                       0.0439244         119.883                0               0         0.958677         145.496                0               0
                        0.161544        -123.164                0               0         0.235345         56.2267                0               0
                        0.958669         145.497                0               0        0.0438732         119.828                0               0
75.09                   0.235514         55.5791                0               0         0.164518        -124.019                0               0
                       0.0447597         119.043                0               0         0.958601         144.831                0               0
                         0.16452        -124.019                0               0         0.235524         55.5544                0               0
                         0.95859         144.832                0               0        0.0447084         118.989                0               0
75.135                  0.235652         54.8351                0               0         0.167287        -124.837                0               0
                       0.0455949         118.061                0               0         0.958039         144.062                0               0
                         0.16729        -124.837                0               0         0.235662         54.8104                0               0
                        0.958028         144.063                0               0        0.0455435         118.008                0               0
75.18                   0.235768         54.0183                0               0         0.169785        -125.631                0               0
                       0.0464297         116.925                0               0         0.957206         143.192                0               0
                        0.169788        -125.631                0               0         0.235778         53.9936                0               0
                        0.957199         143.193                0               0        0.0463781         116.871                0               0
75.225                  0.235878         53.1285                0               0         0.171957        -126.418                0               0
                       0.0472633          115.62                0               0         0.956272         142.229                0               0
                         0.17196        -126.417                0               0         0.235888         53.1039                0               0
                        0.956268          142.23                0               0        0.0472116         115.567                0               0
75.27                   0.235996         52.1666                0               0         0.173759        -127.218                0               0
                       0.0480949         114.138                0               0         0.955359         141.179                0               0
                        0.173761        -127.218                0               0         0.236006          52.142                0               0
                        0.955357          141.18                0               0        0.0480432         114.084                0               0
75.315                  0.236131         51.1336                0               0         0.175167        -128.056                0               0
                       0.0489229         112.468                0               0          0.95455         140.051                0               0
                        0.175168        -128.056                0               0         0.236141         51.1091                0               0
                         0.95455         140.053                0               0        0.0488711         112.414                0               0
75.36                   0.236291         50.0315                0               0         0.176178        -128.953                0               0
                       0.0497448         110.606                0               0         0.953894         138.852                0               0
                        0.176178        -128.954                0               0         0.236301         50.0069                0               0
                        0.953894         138.854                0               0        0.0496931         110.551                0               0
75.405                  0.236478          48.862                0               0         0.176813        -129.932                0               0
                       0.0505572         108.549                0               0         0.953413         137.588                0               0
                        0.176812        -129.933                0               0         0.236488         48.8375                0               0
                        0.953414          137.59                0               0        0.0505056         108.493                0               0
75.45                    0.23669         47.6273                0               0          0.17711        -131.011                0               0
                       0.0513557           106.3                0               0          0.95311         136.264                0               0
                         0.17711        -131.012                0               0           0.2367         47.6028                0               0
                         0.95311         136.267                0               0        0.0513042         106.244                0               0
75.495                  0.236923          46.329                0               0         0.177128        -132.202                0               0
                        0.052135         103.866                0               0         0.952969         134.887                0               0
                        0.177129        -132.203                0               0         0.236932         46.3046                0               0
                        0.952967         134.889                0               0        0.0520836         103.809                0               0
75.54                   0.237168         44.9687                0               0         0.176935        -133.513                0               0
                       0.0528893          101.26                0               0         0.952963         133.459                0               0
                        0.176936        -133.515                0               0         0.237177         44.9443                0               0
                         0.95296         133.461                0               0        0.0528381         101.201                0               0
75.585                  0.237414         43.5473                0               0          0.17661        -134.945                0               0
                       0.0536132         98.4972                0               0         0.953059         131.984                0               0
                        0.176613        -134.947                0               0         0.237423         43.5229                0               0
                        0.953056         131.986                0               0        0.0535623         98.4379                0               0
75.63                   0.237647         42.0647                0               0         0.176245        -136.493                0               0
                       0.0543024         95.5998                0               0          0.95322         130.464                0               0
                        0.176249        -136.495                0               0         0.237655         42.0404                0               0
                        0.953217         130.466                0               0        0.0542519         95.5397                0               0
75.675                   0.23785         40.5198                0               0         0.175945        -138.139                0               0
                       0.0549541         92.5913                0               0         0.953411           128.9                0               0
                        0.175948         -138.14                0               0         0.237857         40.4955                0               0
                        0.953409         128.901                0               0        0.0549042         92.5304                0               0
75.72                      0.238         38.9092                0               0         0.175823        -139.844                0               0
                       0.0555683         89.4965                0               0         0.953602         127.292                0               0
                        0.175824        -139.844                0               0         0.238007         38.8851                0               0
                        0.953601         127.293                0               0         0.055519         89.4347                0               0
75.765                  0.238069         37.2264                0               0         0.175957        -141.527                0               0
                       0.0561471         86.3397                0               0         0.953772          125.64                0               0
                        0.175952        -141.526                0               0         0.238074         37.2025                0               0
                        0.953773         125.641                0               0        0.0560986          86.277                0               0
75.81                   0.238001         35.4601                0               0         0.176218        -143.062                0               0
                       0.0566952         83.1427                0               0         0.953917         123.943                0               0
                        0.176204        -143.063                0               0         0.238005         35.4366                0               0
                        0.953921         123.945                0               0        0.0566474          83.079                0               0
75.855                  0.237686         33.5943                0               0         0.176037        -144.366                0               0
                       0.0572184         79.9239                0               0         0.954049         122.201                0               0
                        0.176023        -144.371                0               0         0.237691         33.5714                0               0
                        0.954056         122.203                0               0        0.0571714         79.8591                0               0
75.9                    0.236883         31.6207                0               0         0.174724        -145.585                0               0
                       0.0577228         76.6969                0               0         0.954202         120.414                0               0
                         0.17472        -145.592                0               0         0.236891         31.5983                0               0
                        0.954212         120.415                0               0        0.0576765         76.6309                0               0
75.945                  0.235207         29.5941                0               0         0.172393        -147.009                0               0
                       0.0582137          73.471                0               0         0.954426         118.581                0               0
                        0.172401        -147.015                0               0         0.235221         29.5713                0               0
                        0.954437         118.583                0               0        0.0581681         73.4037                0               0
75.99                   0.232611         27.6967                0               0         0.169768        -148.735                0               0
                       0.0586942         70.2511                0               0         0.954782         116.706                0               0
                        0.169779        -148.738                0               0         0.232626         27.6717                0               0
                        0.954794         116.708                0               0        0.0586493         70.1824                0               0
76.035                  0.229994         26.0347                0               0         0.167302        -150.671                0               0
                       0.0591648         67.0385                0               0         0.955332         114.793                0               0
                         0.16731        -150.673                0               0         0.230001         26.0083                0               0
                        0.955341         114.794                0               0        0.0591204         66.9685                0               0
76.08                   0.227979         24.4343                0               0          0.16508        -152.714                0               0
                       0.0596224         63.8326                0               0         0.956121         112.847                0               0
                        0.165086        -152.714                0               0          0.22798         24.4083                0               0
                        0.956128         112.848                0               0        0.0595785         63.7612                0               0
76.125                  0.226248         22.7438                0               0         0.163051        -154.797                0               0
                       0.0600607         60.6314                0               0         0.957171         110.876                0               0
                        0.163054        -154.797                0               0         0.226247         22.7185                0               0
                        0.957174         110.878                0               0        0.0600173         60.5586                0               0
76.17                     0.2244         20.9493                0               0         0.161145        -156.888                0               0
                       0.0604705          57.433                0               0         0.958467         108.888                0               0
                        0.161146        -156.888                0               0         0.224399         20.9243                0               0
                        0.958468          108.89                0               0        0.0604275         57.3588                0               0
76.215                  0.222249         19.0797                0               0         0.159308        -158.971                0               0
                       0.0608402         54.2364                0               0         0.959963         106.891                0               0
                        0.159308        -158.971                0               0         0.222248         19.0548                0               0
                        0.959961         106.893                0               0        0.0607977         54.1608                0               0
76.26                    0.21973         17.1622                0               0         0.157504        -161.034                0               0
                       0.0611568         51.0422                0               0         0.961583         104.893                0               0
                        0.157503        -161.034                0               0         0.219729         17.1371                0               0
                        0.961577         104.894                0               0        0.0611148         50.9651                0               0
76.305                  0.216824         15.2161                0               0         0.155707        -163.073                0               0
                       0.0614066         47.8526                0               0         0.963232         102.897                0               0
                        0.155706        -163.074                0               0         0.216823         15.1908                0               0
                        0.963226         102.898                0               0        0.0613652         47.7741                0               0
76.35                   0.213532         13.2562                0               0         0.153905        -165.083                0               0
                       0.0615768         44.6723                0               0         0.964812         100.908                0               0
                        0.153904        -165.083                0               0          0.21353         13.2305                0               0
                        0.964806          100.91                0               0        0.0615361         44.5923                0               0
76.395                  0.209861         11.2939                0               0         0.152088         -167.06                0               0
                       0.0616558         41.5076                0               0          0.96623         98.9286                0               0
                        0.152088         -167.06                0               0         0.209858         11.2679                0               0
                        0.966224         98.9301                0               0        0.0616158         41.4259                0               0
76.44                   0.205823         9.33974                0               0         0.150253        -169.001                0               0
                       0.0616343         38.3664                0               0         0.967401         96.9596                0               0
