! TOUCHSTONE file generated by CST MICROWAVE STUDIO
! Date and time: Mon Jun 21 17:06:52 2021
! Project name: HIPS_d_sweep.cst
! Parameters = {a=0.735; b=0.393; d=20.3216; fmax=120; fmin=75; phi=0; theta=0}
! Header version: 2018
! Port assignment regex: !\s*Touchstone port\s*([0-9]+)\s*=\s*(CST MWS port|CST DS port)\s*([0-9]+|Zmin|Zmax)\s*\(\"(.*)\"\)(\s*mode\s*([0-9]+))?.*
! Touchstone port assignment:
! Touchstone port 1 = CST MWS port Zmin ("") mode 1
! Touchstone port 2 = CST MWS port Zmin ("") mode 2
! Touchstone port 3 = CST MWS port Zmax ("") mode 1
! Touchstone port 4 = CST MWS port Zmax ("") mode 2
! S-Parameters are not renormalized. Unphysical impedance of 0 will be written to the file.
# GHz S MA R 0
75                      0.203303         16.3353                0               0         0.238542         15.1531                0               0
                       0.0798379         51.6713                0               0         0.946248        -78.2096                0               0
                        0.238541         15.1529                0               0         0.203297         16.3775                0               0
                        0.946251        -78.2104                0               0        0.0798694         51.7405                0               0
75.045                  0.201958          15.862                0               0         0.241907         14.4363                0               0
                         0.08071         50.8319                0               0         0.946531        -78.8164                0               0
                        0.241907          14.436                0               0         0.201953         15.9045                0               0
                        0.946542         -78.817                0               0        0.0807415         50.9012                0               0
75.09                   0.200385         15.3261                0               0         0.245021         13.6802                0               0
                        0.081491         49.9018                0               0          0.94655        -79.4964                0               0
                         0.24502         13.6797                0               0          0.20038         15.3691                0               0
                        0.946566        -79.4969                0               0        0.0815223         49.9712                0               0
75.135                  0.198599         14.7247                0               0         0.247866          12.878                0               0
                       0.0821824         48.8697                0               0         0.946376        -80.2508                0               0
                        0.247866         12.8774                0               0         0.198594         14.7681                0               0
                        0.946394        -80.2513                0               0        0.0822132         48.9392                0               0
75.18                   0.196616          14.056                0               0         0.250433         12.0235                0               0
                       0.0827882         47.7257                0               0         0.946077        -81.0801                0               0
                        0.250433         12.0229                0               0         0.196611         14.0999                0               0
                        0.946095        -81.0804                0               0        0.0828184         47.7952                0               0
75.225                  0.194448         13.3193                0               0         0.252717         11.1111                0               0
                       0.0833146         46.4614                0               0         0.945716        -81.9839                0               0
                        0.252717         11.1106                0               0         0.194443         13.3638                0               0
                        0.945733        -81.9843                0               0        0.0833439          46.531                0               0
75.27                   0.192106          12.515                0               0         0.254715         10.1361                0               0
                       0.0837688         45.0709                0               0         0.945348        -82.9615                0               0
                        0.254716         10.1356                0               0         0.192101         12.5601                0               0
                        0.945363        -82.9619                0               0        0.0837973         45.1405                0               0
75.315                  0.189595         11.6439                0               0         0.256432         9.09461                0               0
                       0.0841589         43.5501                0               0         0.945024        -84.0117                0               0
                        0.256433         9.09417                0               0         0.189589         11.6896                0               0
                        0.945036        -84.0121                0               0        0.0841863         43.6198                0               0
75.36                   0.186918         10.7076                0               0         0.257873         7.98366                0               0
                       0.0844924         41.8973                0               0         0.944782        -85.1326                0               0
                        0.257874         7.98333                0               0         0.186912          10.754                0               0
                        0.944792        -85.1331                0               0        0.0845188         41.9672                0               0
75.405                  0.184075          9.7079                0               0         0.259047         6.80149                0               0
                       0.0847762         40.1129                0               0         0.944657        -86.3223                0               0
                        0.259047         6.80127                0               0          0.18407         9.75509                0               0
                        0.944663        -86.3228                0               0        0.0848015         40.1829                0               0
75.45                   0.181065         8.64714                0               0         0.259963         5.54732                0               0
                       0.0850154         38.1988                0               0          0.94467        -87.5782                0               0
                        0.259964         5.54721                0               0         0.181059         8.69518                0               0
                        0.944673        -87.5789                0               0        0.0850395          38.269                0               0
75.495                  0.177883         7.52786                0               0         0.260634         4.22139                0               0
                       0.0852133         36.1588                0               0         0.944838        -88.8978                0               0
                        0.260635         4.22136                0               0         0.177877         7.57685                0               0
                        0.944839        -88.8986                0               0        0.0852362         36.2293                0               0
75.54                   0.174522          6.3529                0               0         0.261071         2.82483                0               0
                       0.0853713         33.9979                0               0         0.945169        -90.2784                0               0
                        0.261071         2.82489                0               0         0.174516         6.40292                0               0
                        0.945168        -90.2792                0               0         0.085393         34.0688                0               0
75.585                  0.170975         5.12536                0               0         0.261286         1.35964                0               0
                       0.0854887          31.722                0               0         0.945663        -91.7171                0               0
                        0.261286         1.35974                0               0         0.170969         5.17654                0               0
                        0.945661        -91.7179                0               0        0.0855091         31.7934                0               0
75.63                   0.167234         3.84867                0               0         0.261289       -0.171526                0               0
                       0.0855628         29.3377                0               0         0.946314        -93.2108                0               0
                        0.261289       -0.171393                0               0         0.167228         3.90113                0               0
                        0.946311        -93.2116                0               0        0.0855819         29.4098                0               0
75.675                   0.16329          2.5266                0               0         0.261091         -1.7654                0               0
                       0.0855894         26.8523                0               0         0.947111        -94.7565                0               0
                        0.261091        -1.76526                0               0         0.163285         2.58048                0               0
                        0.947108        -94.7573                0               0        0.0856072         26.9251                0               0
75.72                   0.159135         1.16334                0               0         0.260701        -3.41829                0               0
                       0.0855629         24.2731                0               0         0.948038        -96.3512                0               0
                        0.260702        -3.41816                0               0          0.15913         1.21879                0               0
                        0.948037         -96.352                0               0        0.0855793         24.3468                0               0
75.765                   0.15476       -0.236473                0               0          0.26013        -5.12616                0               0
                        0.085477          21.608                0               0         0.949076        -97.9917                0               0
                         0.26013        -5.12607                0               0         0.154756       -0.179275                0               0
                        0.949077        -97.9924                0               0         0.085492         21.6825                0               0
75.81                    0.15016        -1.66762                0               0         0.259383        -6.88481                0               0
                       0.0853247         18.8644                0               0         0.950204         -99.675                0               0
                        0.259384        -6.88476                0               0         0.150157        -1.60849                0               0
                        0.950206        -99.6756                0               0        0.0853382           18.94                0               0
75.855                  0.145329        -3.12429                0               0          0.25847        -8.68994                0               0
                       0.0850993         16.0501                0               0         0.951398        -101.398                0               0
                        0.258471        -8.68995                0               0         0.145327          -3.063                0               0
                        0.951403        -101.398                0               0        0.0851113         16.1268                0               0
75.9                    0.140264        -4.59996                0               0         0.257398        -10.5373                0               0
                       0.0847943         13.1723                0               0         0.952636        -103.157                0               0
                        0.257399        -10.5374                0               0         0.140262        -4.53628                0               0
                        0.952643        -103.158                0               0        0.0848048         13.2502                0               0
75.945                  0.134962        -6.08734                0               0         0.256173        -12.4228                0               0
                       0.0844042         10.2381                0               0         0.953895         -104.95                0               0
                        0.256174        -12.4229                0               0         0.134961          -6.021                0               0
                        0.953905         -104.95                0               0        0.0844131         10.3173                0               0
75.99                   0.129426         -7.5783                0               0         0.254803        -14.3425                0               0
                       0.0839246         7.25415                0               0         0.955157        -106.773                0               0
                        0.254805        -14.3426                0               0         0.129426        -7.50898                0               0
                        0.955169        -106.773                0               0        0.0839318         7.33465                0               0
76.035                   0.12366        -9.06374                0               0         0.253296        -16.2928                0               0
                       0.0833526         4.22631                0               0         0.956406        -108.623                0               0
                        0.253298         -16.293                0               0         0.123661        -8.99108                0               0
                         0.95642        -108.623                0               0        0.0833581         4.30815                0               0
76.08                    0.11767        -10.5335                0               0         0.251661        -18.2705                0               0
                       0.0826871          1.1598                0               0         0.957632        -110.497                0               0
                        0.251663        -18.2707                0               0         0.117672        -10.4571                0               0
                        0.957647        -110.497                0               0        0.0826908           1.243                0               0
76.125                  0.111468        -11.9762                0               0         0.249906        -20.2727                0               0
                       0.0819289        -1.94107                0               0         0.958829        -112.391                0               0
                        0.249908         -20.273                0               0          0.11147        -11.8955                0               0
                        0.958844        -112.391                0               0        0.0819308        -1.85652                0               0
76.17                   0.105066        -13.3787                0               0         0.248043         -22.297                0               0
                       0.0810808        -5.07299                0               0             0.96        -114.303                0               0
                        0.248045        -22.2972                0               0         0.105069        -13.2932                0               0
                        0.960014        -114.303                0               0        0.0810808        -4.98708                0               0
76.215                 0.0984806        -14.7261                0               0         0.246085         -24.341                0               0
                       0.0801479        -8.23362                0               0         0.961151        -116.229                0               0
                        0.246086        -24.3412                0               0        0.0984857         -14.635                0               0
                        0.961164        -116.229                0               0         0.080146        -8.14636                0               0
76.26                  0.0917327        -16.0004                0               0         0.244044        -26.4028                0               0
                       0.0791373        -11.4215                0               0         0.962296        -118.165                0               0
                        0.244046        -26.4029                0               0        0.0917391        -15.9027                0               0
                        0.962306        -118.165                0               0        0.0791334        -11.3329                0               0
76.305                 0.0848449        -17.1788                0               0         0.241938          -28.48                0               0
                       0.0780582        -14.6358                0               0         0.963452        -120.108                0               0
                         0.24194          -28.48                0               0        0.0848528        -17.0735                0               0
                        0.963459        -120.108                0               0        0.0780523        -14.5458                0               0
76.35                  0.0778431        -18.2318                0               0         0.239785        -30.5701                0               0
                       0.0769215        -17.8755                0               0         0.964636        -122.054                0               0
                        0.239785          -30.57                0               0        0.0778529        -18.1174                0               0
                        0.964638        -122.054                0               0        0.0769135        -17.7841                0               0
76.395                 0.0707566        -19.1179                0               0         0.237601        -32.6696                0               0
                       0.0757387        -21.1389                0               0         0.965858        -123.999                0               0
                        0.237601        -32.6694                0               0        0.0707686        -18.9926                0               0
                        0.965856            -124                0               0        0.0757287         -21.046                0               0
76.44                  0.0636174        -19.7762                0               0         0.235403        -34.7736                0               0
                        0.074521        -24.4226                0               0          0.96712        -125.941                0               0
