! TOUCHSTONE file generated by CST MICROWAVE STUDIO
! Date and time: Mon Jun 21 17:07:39 2021
! Project name: HIPS_d_sweep.cst
! Parameters = {a=0.735; b=0.393; d=25.4975; fmax=120; fmin=75; phi=0; theta=0}
! Header version: 2018
! Port assignment regex: !\s*Touchstone port\s*([0-9]+)\s*=\s*(CST MWS port|CST DS port)\s*([0-9]+|Zmin|Zmax)\s*\(\"(.*)\"\)(\s*mode\s*([0-9]+))?.*
! Touchstone port assignment:
! Touchstone port 1 = CST MWS port Zmin ("") mode 1
! Touchstone port 2 = CST MWS port Zmin ("") mode 2
! Touchstone port 3 = CST MWS port Zmax ("") mode 1
! Touchstone port 4 = CST MWS port Zmax ("") mode 2
! S-Parameters are not renormalized. Unphysical impedance of 0 will be written to the file.
# GHz S MA R 0
75                     0.0283829         124.412                0               0        0.0937474        -52.7471                0               0
                       0.0158067          117.95                0               0         0.995063         37.5184                0               0
                       0.0937463        -52.7457                0               0        0.0284151          124.62                0               0
                        0.995068         37.5204                0               0         0.015831         117.637                0               0
75.045                 0.0311831         124.187                0               0        0.0894227        -53.5208                0               0
                       0.0150797          115.64                0               0         0.995548         36.7594                0               0
                       0.0894206        -53.5203                0               0        0.0312169         124.381                0               0
                        0.995552         36.7615                0               0         0.015106         115.304                0               0
75.09                  0.0343651         123.746                0               0         0.085534        -54.4088                0               0
                        0.014532         113.677                0               0         0.995819         35.9028                0               0
                       0.0855316        -54.4085                0               0        0.0344002         123.922                0               0
                        0.995824         35.9049                0               0        0.0145594         113.327                0               0
75.135                  0.037937         123.117                0               0        0.0820893        -55.4069                0               0
                       0.0141759         111.954                0               0          0.99592         34.9484                0               0
                       0.0820871        -55.4061                0               0        0.0379727         123.273                0               0
                        0.995925         34.9504                0               0         0.014204         111.598                0               0
75.18                  0.0419037         122.323                0               0        0.0790919        -56.5115                0               0
                       0.0140123         110.347                0               0         0.995884         33.8963                0               0
                       0.0790903        -56.5099                0               0        0.0419397         122.459                0               0
                        0.995889         33.8983                0               0        0.0140414         109.992                0               0
75.225                 0.0462673         121.381                0               0        0.0765412        -57.7197                0               0
                       0.0140345         108.742                0               0         0.995741         32.7474                0               0
                       0.0765405         -57.717                0               0         0.046303         121.497                0               0
                        0.995747         32.7495                0               0        0.0140648         108.392                0               0
75.27                  0.0510257         120.304                0               0        0.0744329        -59.0295                0               0
                       0.0142307         107.048                0               0         0.995514          31.503                0               0
                       0.0744333        -59.0257                0               0        0.0510607         120.403                0               0
                        0.995519         31.5051                0               0        0.0142625         106.705                0               0
75.315                 0.0561729         119.102                0               0        0.0727591        -60.4399                0               0
                       0.0145871         105.208                0               0         0.995218         30.1651                0               0
                       0.0727605        -60.4349                0               0        0.0562068         119.186                0               0
                        0.995223         30.1672                0               0        0.0146207         104.875                0               0
75.36                  0.0616981         117.782                0               0        0.0715087        -61.9501                0               0
                       0.0150895         103.196                0               0         0.994863         28.7359                0               0
                       0.0715112        -61.9442                0               0        0.0617307         117.853                0               0
                         0.99487         28.7381                0               0         0.015125         102.873                0               0
75.405                 0.0675859          116.35                0               0        0.0706678        -63.5597                0               0
                        0.015725          101.01                0               0         0.994456         27.2183                0               0
                       0.0706713        -63.5532                0               0        0.0676169         116.411                0               0
                        0.994462         27.2204                0               0        0.0157623         100.698                0               0
75.45                  0.0738156         114.813                0               0        0.0702198         -65.268                0               0
                       0.0164816         98.6632                0               0         0.993995         25.6153                0               0
                        0.070224        -65.2611                0               0        0.0738449         114.866                0               0
                        0.994002         25.6174                0               0        0.0165207         98.3627                0               0
75.495                 0.0803615         113.176                0               0        0.0701456        -67.0735                0               0
                       0.0173488         96.1786                0               0         0.993478         23.9306                0               0
                       0.0701503        -67.0667                0               0        0.0803893         113.222                0               0
                        0.993486         23.9327                0               0        0.0173896         95.8894                0               0
75.54                   0.087193         111.443                0               0         0.070424        -68.9737                0               0
                       0.0183173         93.5793                0               0         0.992899         22.1681                0               0
                       0.0704289        -68.9672                0               0        0.0872195         111.485                0               0
                        0.992906         22.1702                0               0        0.0183597         93.3014                0               0
75.585                 0.0942751         109.621                0               0        0.0710322        -70.9649                0               0
                       0.0193782         90.8874                0               0         0.992249          20.332                0               0
                        0.071037        -70.9589                0               0        0.0943008         109.659                0               0
                        0.992257         20.3341                0               0         0.019422         90.6206                0               0
75.63                   0.101569         107.717                0               0        0.0719461        -73.0416                0               0
                        0.020523         88.1212                0               0         0.991521         18.4269                0               0
                       0.0719505        -73.0364                0               0         0.101594         107.752                0               0
                        0.991529         18.4289                0               0        0.0205683         87.8653                0               0
75.675                  0.109032         105.736                0               0        0.0731405        -75.1974                0               0
                       0.0217436         85.2949                0               0         0.990706         16.4574                0               0
                       0.0731444         -75.193                0               0         0.109057         105.769                0               0
                        0.990714         16.4594                0               0        0.0217902         85.0495                0               0
75.72                    0.11662         103.687                0               0        0.0745897        -77.4245                0               0
                       0.0230313         82.4185                0               0         0.989798         14.4284                0               0
                       0.0745928         -77.421                0               0         0.116646         103.718                0               0
                        0.989806         14.4304                0               0        0.0230792         82.1834                0               0
75.765                  0.124287         101.577                0               0        0.0762679        -79.7144                0               0
                       0.0243773         79.4987                0               0         0.988793         12.3451                0               0
                       0.0762701        -79.7118                0               0         0.124314         101.606                0               0
                        0.988801         12.3471                0               0        0.0244265         79.2736                0               0
75.81                   0.131988         99.4135                0               0        0.0781492         -82.058                0               0
                       0.0257722         76.5395                0               0          0.98769         10.2126                0               0
                       0.0781504        -82.0562                0               0         0.132016         99.4405                0               0
                        0.987697         10.2146                0               0        0.0258227         76.3239                0               0
75.855                  0.139678         97.2034                0               0        0.0802082        -84.4462                0               0
                       0.0272058         73.5428                0               0          0.98649         8.03599                0               0
                       0.0802085        -84.4451                0               0         0.139707         97.2287                0               0
                        0.986497         8.03795                0               0        0.0272577         73.3363                0               0
75.9                    0.147313         94.9542                0               0        0.0824202          -86.87                0               0
                       0.0286675         70.5095                0               0         0.985199         5.82048                0               0
                       0.0824196        -86.8694                0               0         0.147343         94.9775                0               0
                        0.985206         5.82243                0               0        0.0287208         70.3117                0               0
75.945                  0.154853         92.6724                0               0        0.0847612        -89.3207                0               0
                       0.0301456         67.4396                0               0         0.983827         3.57117                0               0
                       0.0847599        -89.3206                0               0         0.154884         92.6938                0               0
                        0.983833         3.57311                0               0        0.0302005         67.2501                0               0
75.99                   0.162259         90.3642                0               0        0.0872082        -91.7905                0               0
                       0.0316279         64.3333                0               0         0.982385         1.29305                0               0
                       0.0872063        -91.7906                0               0          0.16229         90.3835                0               0
                        0.982391         1.29498                0               0        0.0316845         64.1516                0               0
76.035                  0.169496         88.0349                0               0        0.0897392        -94.2719                0               0
                       0.0331017         61.1911                0               0         0.980887          -1.009                0               0
                       0.0897368        -94.2722                0               0         0.169527         88.0522                0               0
                        0.980893        -1.00707                0               0          0.03316         61.0166                0               0
76.08                   0.176531         85.6894                0               0        0.0923332        -96.7586                0               0
                       0.0345537         58.0139                0               0         0.979349        -3.33023                0               0
                       0.0923307        -96.7589                0               0         0.176561         85.7046                0               0
                        0.979355        -3.32831                0               0        0.0346139         57.8464                0               0
76.125                  0.183335         83.3317                0               0        0.0949705        -99.2448                0               0
                       0.0359707         54.8039                0               0         0.977788        -5.66607                0               0
                       0.0949681        -99.2451                0               0         0.183364         83.3451                0               0
                        0.977794        -5.66416                0               0        0.0360329         54.6427                0               0
76.17                   0.189881         80.9657                0               0        0.0976324        -101.726                0               0
                       0.0373396         51.5638                0               0         0.976219        -8.01211                0               0
                       0.0976301        -101.726                0               0         0.189908         80.9773                0               0
                        0.976226        -8.01022                0               0        0.0374038         51.4085                0               0
76.215                  0.196143         78.5946                0               0         0.100301        -104.197                0               0
                       0.0386479         48.2976                0               0         0.974658        -10.3641                0               0
                        0.100299        -104.197                0               0         0.196169         78.6045                0               0
                        0.974665        -10.3623                0               0        0.0387141         48.1478                0               0
76.26                   0.202097         76.2215                0               0          0.10296        -106.654                0               0
                       0.0398841         45.0101                0               0         0.973114         -12.718                0               0
                        0.102959        -106.654                0               0         0.202122         76.2298                0               0
                        0.973121        -12.7162                0               0        0.0399523         44.8652                0               0
76.305                  0.207724         73.8495                0               0         0.105594        -109.096                0               0
                       0.0410385         41.7067                0               0         0.971597          -15.07                0               0
                        0.105593        -109.095                0               0         0.207747         73.8565                0               0
                        0.971605        -15.0682                0               0        0.0411087         41.5664                0               0
76.35                   0.213002         71.4819                0               0         0.108189        -111.517                0               0
                       0.0421031         38.3936                0               0         0.970112        -17.4163                0               0
                        0.108188        -111.517                0               0         0.213025         71.4876                0               0
                        0.970121        -17.4145                0               0        0.0421752         38.2575                0               0
76.395                  0.217915         69.1224                0               0         0.110731        -113.917                0               0
                       0.0430724         35.0771                0               0         0.968663        -19.7534                0               0
                        0.110731        -113.916                0               0         0.217939         69.1268                0               0
                        0.968673        -19.7517                0               0        0.0431464         34.9449                0               0
76.44                   0.222451          66.775                0               0          0.11321         -116.29                0               0
                       0.0439439         31.7636                0               0         0.967254        -22.0782                0               0
