! TOUCHSTONE file generated by CST MICROWAVE STUDIO
! Date and time: Mon Jun 21 17:07:21 2021
! Project name: HIPS_d_sweep.cst
! Parameters = {a=0.735; b=0.393; d=23.4874; fmax=120; fmin=75; phi=0; theta=0}
! Header version: 2018
! Port assignment regex: !\s*Touchstone port\s*([0-9]+)\s*=\s*(CST MWS port|CST DS port)\s*([0-9]+|Zmin|Zmax)\s*\(\"(.*)\"\)(\s*mode\s*([0-9]+))?.*
! Touchstone port assignment:
! Touchstone port 1 = CST MWS port Zmin ("") mode 1
! Touchstone port 2 = CST MWS port Zmin ("") mode 2
! Touchstone port 3 = CST MWS port Zmax ("") mode 1
! Touchstone port 4 = CST MWS port Zmax ("") mode 2
! S-Parameters are not renormalized. Unphysical impedance of 0 will be written to the file.
# GHz S MA R 0
75                      0.191295         3.58611                0               0        0.0435119         12.8304                0               0
                       0.0388535         15.4407                0               0         0.979794        -86.9462                0               0
                       0.0435125         12.8314                0               0         0.191314         3.56534                0               0
                        0.979796        -86.9453                0               0        0.0388786         15.5868                0               0
75.045                  0.189653         2.94523                0               0        0.0469894          11.391                0               0
                       0.0396706         15.5903                0               0         0.980352        -87.6459                0               0
                       0.0469901         11.3917                0               0         0.189673         2.92408                0               0
                        0.980353        -87.6451                0               0        0.0396984         15.7328                0               0
75.09                   0.187593         2.22235                0               0        0.0502859         9.98714                0               0
                       0.0403283         15.4791                0               0          0.98079        -88.4291                0               0
                       0.0502867         9.98772                0               0         0.187613         2.20083                0               0
                        0.980789        -88.4283                0               0        0.0403583         15.6197                0               0
75.135                  0.185154          1.4126                0               0        0.0533595         8.59584                0               0
                       0.0408533         15.1218                0               0         0.981146        -89.2968                0               0
                       0.0533603          8.5964                0               0         0.185175         1.39068                0               0
                        0.981145        -89.2961                0               0        0.0408847         15.2616                0               0
75.18                    0.18237        0.513808                0               0        0.0561712         7.19807                0               0
                       0.0412651         14.5339                0               0         0.981459        -90.2498                0               0
                        0.056172         7.19867                0               0          0.18239        0.491424                0               0
                        0.981459         -90.249                0               0        0.0412975         14.6739                0               0
75.225                  0.179265       -0.474417                0               0        0.0586868         5.77806                0               0
                       0.0415773         13.7307                0               0         0.981764        -91.2881                0               0
                       0.0586875         5.77875                0               0         0.179284        -0.49734                0               0
                        0.981763        -91.2873                0               0        0.0416104         13.8713                0               0
75.27                   0.175855        -1.55136                0               0        0.0608778         4.32283                0               0
                       0.0417989         12.7257                0               0         0.982089        -92.4114                0               0
                       0.0608785         4.32363                0               0         0.175873        -1.57489                0               0
                        0.982089        -92.4106                0               0        0.0418326         12.8677                0               0
75.315                  0.172149        -2.71563                0               0        0.0627222         2.82177                0               0
                       0.0419354         11.5312                0               0         0.982461        -93.6189                0               0
                       0.0627227         2.82268                0               0         0.172167        -2.73987                0               0
                        0.982462        -93.6181                0               0        0.0419694          11.675                0               0
75.36                   0.168154        -3.96553                0               0        0.0642048         1.26646                0               0
                       0.0419888         10.1581                0               0           0.9829        -94.9094                0               0
                       0.0642051         1.26746                0               0         0.168171        -3.99053                0               0
                        0.982901        -94.9085                0               0        0.0420231         10.3042                0               0
75.405                  0.163868        -5.29912                0               0        0.0653174       -0.349602                0               0
                       0.0419592         8.61588                0               0          0.98342        -96.2813                0               0
                       0.0653176       -0.348517                0               0         0.163885        -5.32497                0               0
                        0.983421        -96.2804                0               0        0.0419935          8.7648                0               0
75.45                   0.159289        -6.71439                0               0        0.0660585        -2.03109                0               0
                       0.0418444         6.91324                0               0          0.98403        -97.7324                0               0
                       0.0660585        -2.02995                0               0         0.159305        -6.74118                0               0
                        0.984032        -97.7315                0               0        0.0418787         7.06544                0               0
75.495                  0.154409        -8.20923                0               0        0.0664328        -3.78111                0               0
                       0.0416412         5.05816                0               0         0.984734        -99.2604                0               0
                       0.0664327        -3.77992                0               0         0.154426        -8.23706                0               0
                        0.984736        -99.2595                0               0        0.0416754         5.21416                0               0
75.54                   0.149223        -9.78141                0               0        0.0664504        -5.60134                0               0
                       0.0413454         3.05824                0               0          0.98553        -100.863                0               0
                       0.0664502        -5.60013                0               0          0.14924        -9.81037                0               0
                        0.985532        -100.862                0               0        0.0413793         3.21861                0               0
75.585                  0.143722        -11.4285                0               0         0.066126        -7.49223                0               0
                       0.0409521        0.921038                0               0          0.98641        -102.536                0               0
                       0.0661257        -7.49103                0               0         0.143739        -11.4587                0               0
                        0.986412        -102.535                0               0        0.0409856         1.08639                0               0
75.63                   0.137899        -13.1478                0               0        0.0654775        -9.45322                0               0
                       0.0404564        -1.34579                0               0         0.987364        -104.277                0               0
                       0.0654771        -9.45204                0               0         0.137916        -13.1794                0               0
                        0.987365        -104.276                0               0        0.0404894        -1.17475                0               0
75.675                  0.131745        -14.9362                0               0        0.0645256        -11.4829                0               0
                       0.0398535        -3.73421                0               0         0.988375        -106.082                0               0
                       0.0645252        -11.4817                0               0         0.131763        -14.9695                0               0
                        0.988376        -106.081                0               0        0.0398858        -3.55672                0               0
75.72                   0.125258        -16.7902                0               0        0.0632924        -13.5791                0               0
                       0.0391392        -6.23574                0               0         0.989425        -107.948                0               0
                        0.063292         -13.578                0               0         0.125276        -16.8253                0               0
                        0.989426        -107.947                0               0        0.0391707         -6.0509                0               0
75.765                  0.118433        -18.7055                0               0        0.0618008        -15.7392                0               0
                       0.0383105        -8.84132                0               0         0.990493         -109.87                0               0
                       0.0618004        -15.7382                0               0         0.118452        -18.7427                0               0
                        0.990493        -109.869                0               0        0.0383409        -8.64813                0               0
75.81                   0.111272        -20.6774                0               0        0.0600735        -17.9602                0               0
                       0.0373654        -11.5413                0               0         0.991557        -111.844                0               0
                       0.0600732        -17.9592                0               0         0.111292        -20.7171                0               0
                        0.991557        -111.844                0               0        0.0373946        -11.3386                0               0
75.855                  0.103778        -22.6999                0               0        0.0581327        -20.2385                0               0
                       0.0363035        -14.3256                0               0         0.992594        -113.867                0               0
                       0.0581324        -20.2376                0               0         0.103799        -22.7425                0               0
                        0.992594        -113.866                0               0        0.0363313        -14.1121                0               0
75.9                   0.0959618        -24.7662                0               0        0.0559992        -22.5704                0               0
                       0.0351261        -17.1838                0               0         0.993584        -115.934                0               0
                       0.0559989        -22.5696                0               0        0.0959829        -24.8124                0               0
                        0.993584        -115.933                0               0        0.0351523        -16.9579                0               0
75.945                 0.0878355        -26.8685                0               0        0.0536925         -24.952                0               0
                       0.0338364        -20.1051                0               0         0.994508         -118.04                0               0
                       0.0536923        -24.9512                0               0        0.0878572         -26.919                0               0
                        0.994508        -118.039                0               0        0.0338609         -19.865                0               0
75.99                  0.0794183        -28.9973                0               0        0.0512301        -27.3787                0               0
                       0.0324393        -23.0791                0               0          0.99535        -120.181                0               0
                         0.05123         -27.378                0               0        0.0794407        -29.0531                0               0
                         0.99535        -120.181                0               0         0.032462        -22.8228                0               0
76.035                  0.070734        -31.1414                0               0        0.0486279        -29.8461                0               0
                       0.0309415        -26.0957                0               0         0.996098        -122.353                0               0
                       0.0486277        -29.8454                0               0        0.0707569         -31.204                0               0
                        0.996098        -122.353                0               0        0.0309621        -25.8207                0               0
76.08                  0.0618111         -33.287                0               0        0.0458995        -32.3491                0               0
                       0.0293507        -29.1455                0               0         0.996748        -124.552                0               0
                       0.0458994        -32.3485                0               0        0.0618345        -33.3586                0               0
                        0.996748        -124.551                0               0        0.0293693         -28.849                0               0
76.125                 0.0526824        -35.4161                0               0        0.0430569        -34.8825                0               0
                       0.0276763        -32.2204                0               0         0.997298        -126.773                0               0
                       0.0430568         -34.882                0               0        0.0527063           -35.5                0               0
                        0.997299        -126.773                0               0        0.0276927        -31.8988                0               0
76.17                  0.0433841        -37.5026                0               0        0.0401102         -37.441                0               0
                       0.0259281        -35.3134                0               0         0.997756        -129.013                0               0
                       0.0401101        -37.4404                0               0        0.0434084        -37.6043                0               0
                        0.997758        -129.012                0               0        0.0259421        -34.9626                0               0
76.215                 0.0339545        -39.5006                0               0        0.0370683        -40.0193                0               0
                       0.0241164        -38.4194                0               0         0.998135        -131.266                0               0
                       0.0370681        -40.0189                0               0        0.0339793        -39.6301                0               0
                        0.998137        -131.266                0               0         0.024128        -38.0343                0               0
76.26                   0.024433        -41.3054                0               0        0.0339388        -42.6137                0               0
                       0.0222515        -41.5352                0               0         0.998455         -133.53                0               0
                       0.0339387        -42.6133                0               0        0.0244579         -41.485                0               0
                        0.998457        -133.529                0               0        0.0222607        -41.1093                0               0
76.305                 0.0148589        -42.5608                0               0        0.0307296        -45.2233                0               0
                       0.0203437        -44.6598                0               0         0.998738        -135.801                0               0
                       0.0307295         -45.223                0               0        0.0148836        -42.8559                0               0
                        0.998741          -135.8                0               0        0.0203504        -44.1848                0               0
76.35                 0.00528283        -40.3615                0               0        0.0274496         -47.854                0               0
                       0.0184028         -47.794                0               0          0.99901        -138.074                0               0
                       0.0274495        -47.8538                0               0       0.00530303        -41.2034                0               0
                        0.999011        -138.073                0               0        0.0184068        -47.2591                0               0
76.395                0.00438937         122.497                0               0        0.0241112        -50.5249                0               0
                       0.0164381         -50.941                0               0         0.999289        -140.345                0               0
                       0.0241112        -50.5249                0               0       0.00434974         123.413                0               0
                        0.999289        -140.344                0               0        0.0164393        -50.3315                0               0
76.44                  0.0139147         125.948                0               0         0.020734        -53.2798                0               0
                       0.0144586        -54.1059                0               0         0.999586        -142.611                0               0
