! TOUCHSTONE file generated by CST MICROWAVE STUDIO
! Date and time: Mon Jun 21 17:07:00 2021
! Project name: HIPS_d_sweep.cst
! Parameters = {a=0.735; b=0.393; d=21.2764; fmax=120; fmin=75; phi=0; theta=0}
! Header version: 2018
! Port assignment regex: !\s*Touchstone port\s*([0-9]+)\s*=\s*(CST MWS port|CST DS port)\s*([0-9]+|Zmin|Zmax)\s*\(\"(.*)\"\)(\s*mode\s*([0-9]+))?.*
! Touchstone port assignment:
! Touchstone port 1 = CST MWS port Zmin ("") mode 1
! Touchstone port 2 = CST MWS port Zmin ("") mode 2
! Touchstone port 3 = CST MWS port Zmax ("") mode 1
! Touchstone port 4 = CST MWS port Zmax ("") mode 2
! S-Parameters are not renormalized. Unphysical impedance of 0 will be written to the file.
# GHz S MA R 0
75                       0.19214         78.7766                0               0         0.174581        -101.319                0               0
                       0.0355155        -179.025                0               0         0.965082          169.17                0               0
                        0.174581        -101.319                0               0         0.192049         78.7572                0               0
                        0.965062         169.168                0               0        0.0354845        -179.036                0               0
75.045                   0.19294         78.1856                0               0         0.177843        -101.959                0               0
                       0.0363446         179.849                0               0         0.964535         168.548                0               0
                        0.177843        -101.959                0               0         0.192848         78.1664                0               0
                        0.964516         168.546                0               0        0.0363107         179.839                0               0
75.09                   0.193943         77.5045                0               0         0.180766        -102.654                0               0
                       0.0371066         178.505                0               0         0.963868         167.846                0               0
                        0.180766        -102.654                0               0         0.193851         77.4857                0               0
                        0.963848         167.844                0               0        0.0370711         178.496                0               0
75.135                  0.195151         76.7402                0               0         0.183338        -103.409                0               0
                       0.0378062         176.934                0               0         0.963121         167.063                0               0
                        0.183338         -103.41                0               0         0.195059         76.7215                0               0
                        0.963101         167.061                0               0        0.0377702         176.924                0               0
75.18                   0.196559         75.8983                0               0         0.185553        -104.228                0               0
                       0.0384503         175.127                0               0          0.96233         166.201                0               0
                        0.185553        -104.229                0               0         0.196466           75.88                0               0
                        0.962311         166.199                0               0        0.0384145         175.116                0               0
75.225                  0.198159         74.9838                0               0         0.187409        -105.113                0               0
                        0.039047          173.08                0               0         0.961527          165.26                0               0
                        0.187409        -105.114                0               0         0.198065         74.9659                0               0
                        0.961507         165.258                0               0        0.0390121         173.068                0               0
75.27                   0.199938          74.001                0               0         0.188909        -106.065                0               0
                       0.0396057         170.793                0               0         0.960736         164.243                0               0
                        0.188908        -106.066                0               0         0.199844         73.9834                0               0
                        0.960715         164.241                0               0        0.0395719          170.78                0               0
75.315                  0.201881         72.9529                0               0         0.190059        -107.085                0               0
                       0.0401362         168.271                0               0         0.959977          163.15                0               0
                        0.190059        -107.085                0               0         0.201787         72.9357                0               0
                        0.959955         163.148                0               0        0.0401035         168.257                0               0
75.36                   0.203973         71.8422                0               0         0.190871         -108.17                0               0
                       0.0406482         165.523                0               0         0.959264         161.984                0               0
                         0.19087         -108.17                0               0         0.203877         71.8254                0               0
                        0.959243         161.982                0               0        0.0406165         165.508                0               0
75.405                  0.206192          70.671                0               0         0.191357         -109.32                0               0
                       0.0411507          162.56                0               0         0.958609         160.747                0               0
                        0.191356         -109.32                0               0         0.206096         70.6547                0               0
                        0.958587         160.745                0               0        0.0411197         162.544                0               0
75.45                   0.208519         69.4409                0               0         0.191533        -110.532                0               0
                       0.0416518         159.399                0               0         0.958015         159.442                0               0
                        0.191532        -110.532                0               0         0.208423          69.425                0               0
                        0.957993          159.44                0               0        0.0416212         159.382                0               0
75.495                   0.21093         68.1532                0               0         0.191417        -111.803                0               0
                       0.0421584         156.056                0               0         0.957485         158.072                0               0
                        0.191417        -111.803                0               0         0.210833         68.1378                0               0
                        0.957462          158.07                0               0        0.0421279         156.038                0               0
75.54                   0.213401         66.8092                0               0         0.191029        -113.129                0               0
                       0.0426759         152.553                0               0         0.957015         156.639                0               0
                        0.191029         -113.13                0               0         0.213303         66.7943                0               0
                        0.956992         156.637                0               0        0.0426453         152.534                0               0
75.585                  0.215907         65.4102                0               0         0.190388        -114.507                0               0
                       0.0432082         148.911                0               0         0.956602         155.146                0               0
                        0.190387        -114.507                0               0         0.215808         65.3958                0               0
                        0.956578         155.144                0               0        0.0431773         148.891                0               0
75.63                   0.218421         63.9576                0               0         0.189514        -115.931                0               0
                       0.0437576          145.15                0               0         0.956238         153.598                0               0
                        0.189514        -115.932                0               0         0.218321         63.9438                0               0
                        0.956215         153.596                0               0        0.0437264         145.129                0               0
75.675                  0.220915         62.4532                0               0          0.18843        -117.399                0               0
                       0.0443252         141.294                0               0         0.955917         151.998                0               0
                        0.188429        -117.399                0               0         0.220814         62.4399                0               0
                        0.955893         151.996                0               0        0.0442937         141.272                0               0
75.72                   0.223362         60.8989                0               0         0.187154        -118.905                0               0
                       0.0449108         137.363                0               0         0.955631         150.348                0               0
                        0.187154        -118.905                0               0         0.223261         60.8862                0               0
                        0.955607         150.347                0               0        0.0448792         137.339                0               0
75.765                  0.225736         59.2973                0               0         0.185709        -120.446                0               0
                       0.0455133         133.376                0               0         0.955374         148.654                0               0
                        0.185709        -120.446                0               0         0.225634          59.285                0               0
                         0.95535         148.652                0               0         0.045482         133.351                0               0
75.81                   0.228009          57.651                0               0         0.184114        -122.018                0               0
                        0.046131         129.352                0               0          0.95514         146.919                0               0
                        0.184115        -122.018                0               0         0.227906         57.6393                0               0
                        0.955116         146.917                0               0        0.0461002         129.326                0               0
75.855                  0.230157         55.9633                0               0         0.182389        -123.618                0               0
                       0.0467618         125.306                0               0         0.954928         145.146                0               0
                         0.18239        -123.618                0               0         0.230053         55.9521                0               0
                        0.954903         145.144                0               0        0.0467318          125.28                0               0
75.9                    0.232156         54.2379                0               0         0.180553        -125.242                0               0
                       0.0474035         121.254                0               0         0.954738          143.34                0               0
                        0.180553        -125.243                0               0         0.232051         54.2271                0               0
                        0.954713         143.338                0               0        0.0473745         121.227                0               0
75.945                  0.233986         52.4785                0               0         0.178623        -126.889                0               0
                       0.0480538         117.207                0               0         0.954575         141.503                0               0
                        0.178624        -126.889                0               0          0.23388         52.4683                0               0
                         0.95455         141.502                0               0        0.0480261          117.18                0               0
75.99                   0.235629         50.6893                0               0         0.176618        -128.555                0               0
                       0.0487108         113.176                0               0         0.954447         139.641                0               0
                        0.176618        -128.556                0               0         0.235522         50.6795                0               0
                        0.954421          139.64                0               0        0.0486845         113.149                0               0
76.035                   0.23707         48.8744                0               0         0.174553         -130.24                0               0
                       0.0493729         109.169                0               0         0.954365         137.757                0               0
                        0.174553         -130.24                0               0         0.236962         48.8651                0               0
                        0.954339         137.755                0               0         0.049348         109.143                0               0
76.08                   0.238296         47.0378                0               0         0.172445        -131.942                0               0
                       0.0500386         105.195                0               0         0.954344         135.853                0               0
                        0.172445        -131.942                0               0         0.238188          47.029                0               0
                        0.954317         135.852                0               0         0.050015         105.169                0               0
76.125                    0.2393         45.1836                0               0         0.170309         -133.66                0               0
                       0.0507066          101.26                0               0           0.9544         133.935                0               0
                        0.170309         -133.66                0               0          0.23919         45.1752                0               0
                        0.954373         133.933                0               0        0.0506842         101.234                0               0
76.17                   0.240073         43.3154                0               0          0.16816        -135.393                0               0
                       0.0513754         97.3707                0               0         0.954551         132.004                0               0
                         0.16816        -135.393                0               0         0.239963         43.3074                0               0
                        0.954523         132.003                0               0        0.0513539          97.345                0               0
76.215                  0.240612         41.4364                0               0         0.166012        -137.141                0               0
                       0.0520429         93.5323                0               0          0.95481         130.065                0               0
                        0.166012        -137.141                0               0         0.240501          41.429                0               0
                        0.954782         130.064                0               0        0.0520223         93.5068                0               0
76.26                    0.24091         39.5498                0               0          0.16388        -138.903                0               0
                       0.0527063         89.7511                0               0         0.955189          128.12                0               0
                         0.16388        -138.903                0               0         0.240799         39.5428                0               0
                         0.95516         128.119                0               0        0.0526863         89.7254                0               0
76.305                  0.240965          37.658                0               0         0.161777        -140.677                0               0
                       0.0533612         86.0326                0               0          0.95569         126.173                0               0
                        0.161776        -140.677                0               0         0.240853         37.6515                0               0
                         0.95566         126.172                0               0        0.0533419         86.0067                0               0
76.35                    0.24077         35.7636                0               0         0.159715        -142.462                0               0
                       0.0540015         82.3824                0               0         0.956304         124.227                0               0
                        0.159714        -142.462                0               0         0.240657         35.7575                0               0
                        0.956273         124.226                0               0        0.0539829         82.3563                0               0
76.395                  0.240319         33.8687                0               0         0.157705        -144.254                0               0
                       0.0546193         78.8056                0               0          0.95701         122.284                0               0
                        0.157704        -144.254                0               0         0.240205          33.863                0               0
                        0.956979         122.283                0               0        0.0546016         78.7794                0               0
76.44                   0.239601         31.9756                0               0         0.155756         -146.05                0               0
                       0.0552049         75.3064                0               0         0.957769         120.348                0               0
