! TOUCHSTONE file generated by CST MICROWAVE STUDIO
! Date and time: Mon Jun 21 17:07:43 2021
! Project name: HIPS_d_sweep.cst
! Parameters = {a=0.735; b=0.393; d=25.799; fmax=120; fmin=75; phi=0; theta=0}
! Header version: 2018
! Port assignment regex: !\s*Touchstone port\s*([0-9]+)\s*=\s*(CST MWS port|CST DS port)\s*([0-9]+|Zmin|Zmax)\s*\(\"(.*)\"\)(\s*mode\s*([0-9]+))?.*
! Touchstone port assignment:
! Touchstone port 1 = CST MWS port Zmin ("") mode 1
! Touchstone port 2 = CST MWS port Zmin ("") mode 2
! Touchstone port 3 = CST MWS port Zmax ("") mode 1
! Touchstone port 4 = CST MWS port Zmax ("") mode 2
! S-Parameters are not renormalized. Unphysical impedance of 0 will be written to the file.
# GHz S MA R 0
75                      0.168002         90.3047                0               0         0.113816         -91.287                0               0
                       0.0391449         61.6099                0               0         0.978415         1.68266                0               0
                        0.113816        -91.2878                0               0         0.168008         90.2962                0               0
                         0.97841         1.67829                0               0        0.0390633         61.8047                0               0
75.045                  0.169982         89.5023                0               0         0.110028        -92.0487                0               0
                       0.0379797         60.4969                0               0         0.978478        0.950483                0               0
                        0.110028        -92.0486                0               0         0.169995         89.4911                0               0
                        0.978472        0.946127                0               0        0.0378975          60.695                0               0
75.09                    0.17218         88.6564                0               0         0.106397        -92.9611                0               0
                       0.0370682         59.5913                0               0          0.97848        0.113078                0               0
                        0.106397        -92.9606                0               0         0.172196         88.6433                0               0
                        0.978473         0.10872                0               0        0.0369851         59.7945                0               0
75.135                  0.174614         87.7585                0               0          0.10298        -94.0116                0               0
                       0.0364073         58.7712                0               0         0.978412       -0.826926                0               0
                         0.10298        -94.0109                0               0          0.17463         87.7445                0               0
                        0.978404       -0.831295                0               0        0.0363235         58.9802                0               0
75.18                   0.177297         86.7989                0               0        0.0998321         -95.185                0               0
                       0.0359725         57.9348                0               0         0.978267        -1.86673                0               0
                       0.0998325        -95.1845                0               0         0.177311         86.7848                0               0
                         0.97826        -1.87112                0               0        0.0358882         58.1498                0               0
75.225                  0.180234          85.767                0               0        0.0970008        -96.4659                0               0
                         0.03573         57.0087                0               0         0.978041         -3.0034                0               0
                       0.0970014        -96.4657                0               0         0.180244         85.7537                0               0
                        0.978034         -3.0078                0               0        0.0356454         57.2291                0               0
75.27                   0.183418         84.6523                0               0        0.0945261        -97.8402                0               0
                       0.0356452         55.9463                0               0         0.977729        -4.23383                0               0
                       0.0945269        -97.8404                0               0         0.183425         84.6405                0               0
                        0.977722        -4.23825                0               0        0.0355603         56.1712                0               0
75.315                  0.186834         83.4455                0               0        0.0924393         -99.297                0               0
                       0.0356871         54.7225                0               0         0.977328        -5.55479                0               0
                       0.0924401        -99.2976                0               0         0.186838         83.4357                0               0
                        0.977323        -5.55923                0               0        0.0356017         54.9509                0               0
75.36                   0.190453         82.1395                0               0        0.0907606        -100.829                0               0
                       0.0358296         53.3274                0               0         0.976839        -6.96294                0               0
                       0.0907613         -100.83                0               0         0.190457         82.1316                0               0
                        0.976834         -6.9674                0               0        0.0357436         53.5582                0               0
75.405                  0.194238         80.7301                0               0        0.0894988        -102.434                0               0
                       0.0360521         51.7605                0               0         0.976261        -8.45481                0               0
                       0.0894992        -102.436                0               0         0.194242          80.724                0               0
                        0.976257        -8.45929                0               0         0.035965          51.993                0               0
75.45                   0.198142         79.2167                0               0        0.0886505        -104.112                0               0
                       0.0363381         50.0271                0               0         0.975598        -10.0268                0               0
                       0.0886507        -104.113                0               0         0.198148         79.2119                0               0
                        0.975594        -10.0313                0               0        0.0362497         50.2605                0               0
75.495                  0.202118         77.6019                0               0        0.0882012        -105.863                0               0
                       0.0366751          48.135                0               0         0.974854        -11.6753                0               0
                       0.0882011        -105.865                0               0         0.202126          77.598                0               0
                         0.97485        -11.6798                0               0        0.0365851         48.3689                0               0
75.54                   0.206116         75.8916                0               0        0.0881272        -107.687                0               0
                       0.0370531         46.0933                0               0         0.974035        -13.3966                0               0
                        0.088127        -107.689                0               0         0.206126         75.8879                0               0
                        0.974032        -13.4011                0               0         0.036961         46.3272                0               0
75.585                  0.210091         74.0935                0               0        0.0883986        -109.584                0               0
                       0.0374638         43.9112                0               0         0.973151        -15.1867                0               0
                       0.0883984        -109.585                0               0         0.210101         74.0897                0               0
                        0.973148        -15.1912                0               0        0.0373695         44.1446                0               0
75.63                      0.214         72.2168                0               0         0.088982        -111.547                0               0
                       0.0379005         41.5971                0               0         0.972211        -17.0417                0               0
                       0.0889818        -111.548                0               0         0.214011         72.2126                0               0
                        0.972208        -17.0463                0               0        0.0378036           41.83                0               0
75.675                  0.217809         70.2707                0               0        0.0898432        -113.569                0               0
                        0.038357         39.1592                0               0         0.971228        -18.9578                0               0
                       0.0898432         -113.57                0               0         0.217818         70.2663                0               0
                        0.971224        -18.9623                0               0        0.0382572         39.3912                0               0
75.72                   0.221487         68.2644                0               0        0.0909496        -115.641                0               0
                       0.0388273         36.6043                0               0         0.970214        -20.9308                0               0
                       0.0909498        -115.642                0               0         0.221495         68.2597                0               0
                         0.97021        -20.9354                0               0        0.0387245         36.8354                0               0
75.765                  0.225009          66.206                0               0        0.0922713        -117.753                0               0
                       0.0393058         33.9387                0               0         0.969185        -22.9568                0               0
                       0.0922716        -117.754                0               0         0.225014         66.2012                0               0
                         0.96918        -22.9613                0               0        0.0391996         34.1688                0               0
75.81                   0.228352         64.1025                0               0        0.0937818        -119.895                0               0
                       0.0397862          31.168                0               0         0.968156        -25.0314                0               0
                       0.0937823        -119.896                0               0         0.228356         64.0979                0               0
                        0.968151         -25.036                0               0        0.0396766          31.397                0               0
75.855                  0.231496         61.9598                0               0        0.0954581        -122.057                0               0
                       0.0402623         28.2971                0               0         0.967143        -27.1507                0               0
                       0.0954587        -122.058                0               0         0.231499         61.9556                0               0
                        0.967138        -27.1553                0               0        0.0401489         28.5248                0               0
75.9                    0.234422         59.7828                0               0        0.0972808        -124.231                0               0
                        0.040727         25.3302                0               0         0.966164        -29.3105                0               0
                       0.0972814        -124.232                0               0         0.234423         59.7791                0               0
                        0.966159        -29.3151                0               0        0.0406097         25.5568                0               0
75.945                  0.237109         57.5755                0               0        0.0992332         -126.41                0               0
                        0.041173         22.2715                0               0         0.965235        -31.5064                0               0
                       0.0992338        -126.411                0               0          0.23711         57.5725                0               0
                         0.96523         -31.511                0               0        0.0410515         22.4969                0               0
75.99                   0.239536         55.3413                0               0         0.101301        -128.589                0               0
                       0.0415923         19.1246                0               0         0.964372        -33.7344                0               0
                        0.101302         -128.59                0               0         0.239538         55.3391                0               0
                        0.964366         -33.739                0               0        0.0414664         19.3487                0               0
76.035                  0.241681         53.0833                0               0         0.103473        -130.764                0               0
                       0.0419766         15.8931                0               0         0.963588        -35.9902                0               0
                        0.103473        -130.766                0               0         0.241685         53.0819                0               0
                        0.963582        -35.9948                0               0        0.0418461          16.116                0               0
76.08                   0.243523         50.8044                0               0         0.105738        -132.934                0               0
                       0.0423171         12.5807                0               0         0.962896        -38.2695                0               0
                        0.105738        -132.935                0               0         0.243529         50.8038                0               0
                        0.962891        -38.2742                0               0        0.0421817         12.8024                0               0
76.125                  0.245038         48.5073                0               0         0.108086        -135.095                0               0
                       0.0426049         9.19105                0               0         0.962306        -40.5684                0               0
                        0.108086        -135.096                0               0         0.245047         48.5075                0               0
                          0.9623        -40.5731                0               0        0.0424645         9.41148                0               0
76.17                   0.246204         46.1953                0               0         0.110508        -137.249                0               0
                       0.0428313         5.72796                0               0         0.961823        -42.8825                0               0
                        0.110508         -137.25                0               0         0.246216         46.1961                0               0
                        0.961817        -42.8872                0               0        0.0426856         5.94718                0               0
76.215                  0.246999         43.8715                0               0         0.112996        -139.395                0               0
                       0.0429877         2.19552                0               0         0.961448        -45.2079                0               0
                        0.112996        -139.396                0               0         0.247013          43.873                0               0
                        0.961443        -45.2127                0               0        0.0428364         2.41354                0               0
76.26                   0.247403         41.5397                0               0         0.115541        -141.534                0               0
                       0.0430661        -1.40206                0               0         0.961177        -47.5407                0               0
                        0.115541        -141.535                0               0         0.247419         41.5418                0               0
                        0.961172        -47.5454                0               0         0.042909        -1.18521                0               0
76.305                  0.247398         39.2039                0               0         0.118133        -143.667                0               0
                       0.0430593        -5.06044                0               0         0.961001        -49.8769                0               0
                        0.118133        -143.668                0               0         0.247416         39.2067                0               0
                        0.960997        -49.8817                0               0        0.0428962        -4.84475                0               0
76.35                    0.24697         36.8685                0               0         0.120761        -145.797                0               0
                       0.0429613        -8.77531                0               0         0.960904        -52.2131                0               0
                        0.120761        -145.798                0               0         0.246991          36.872                0               0
                        0.960899        -52.2178                0               0        0.0427921        -8.56075                0               0
76.395                   0.24611         34.5382                0               0         0.123415        -147.923                0               0
                       0.0427676        -12.5426                0               0          0.96086        -54.5456                0               0
                        0.123415        -147.924                0               0         0.246131         34.5426                0               0
                        0.960856        -54.5504                0               0         0.042592        -12.3291                0               0
76.44                   0.244812         32.2181                0               0         0.126081         -150.05                0               0
                       0.0424748        -16.3586                0               0         0.960841        -56.8715                0               0
