! TOUCHSTONE file generated by CST MICROWAVE STUDIO
! Date and time: Mon Jun 21 17:06:17 2021
! Project name: HIPS_d_sweep.cst
! Parameters = {a=0.735; b=0.393; d=16; fmax=120; fmin=75; phi=0; theta=0}
! Header version: 2018
! Port assignment regex: !\s*Touchstone port\s*([0-9]+)\s*=\s*(CST MWS port|CST DS port)\s*([0-9]+|Zmin|Zmax)\s*\(\"(.*)\"\)(\s*mode\s*([0-9]+))?.*
! Touchstone port assignment:
! Touchstone port 1 = CST MWS port Zmin ("") mode 1
! Touchstone port 2 = CST MWS port Zmin ("") mode 2
! Touchstone port 3 = CST MWS port Zmax ("") mode 1
! Touchstone port 4 = CST MWS port Zmax ("") mode 2
! S-Parameters are not renormalized. Unphysical impedance of 0 will be written to the file.
# GHz S MA R 0
75                      0.107883         17.2183                0               0         0.509174         157.012                0               0
                        0.128284         -1.9187                0               0         0.844184         65.2723                0               0
                        0.509174         157.012                0               0          0.10799         17.2641                0               0
                        0.844184          65.271                0               0         0.128188        -1.92773                0               0
75.045                  0.107655         17.3686                0               0          0.51119         156.501                0               0
                        0.128577        -2.91076                0               0         0.843003         64.7761                0               0
                        0.511189         156.501                0               0         0.107696          17.336                0               0
                        0.843002          64.775                0               0         0.128482        -2.91622                0               0
75.09                   0.107152         17.5568                0               0         0.513094         155.923                0               0
                        0.128776        -3.95093                0               0         0.841893         64.2194                0               0
                        0.513093         155.923                0               0         0.107169         17.4722                0               0
                         0.84189         64.2186                0               0          0.12868        -3.95369                0               0
75.135                  0.106406         17.7673                0               0         0.514879         155.279                0               0
                        0.128878        -5.04653                0               0         0.840868          63.603                0               0
                        0.514879         155.279                0               0         0.106424         17.6541                0               0
                        0.840864         63.6023                0               0          0.12878        -5.04743                0               0
75.18                   0.105451         17.9917                0               0         0.516539          154.57                0               0
                        0.128882        -6.20518                0               0         0.839942         62.9278                0               0
                        0.516539          154.57                0               0          0.10548         17.8684                0               0
                        0.839938         62.9271                0               0         0.128783        -6.20503                0               0
75.225                  0.104317         18.2268                0               0         0.518064         153.798                0               0
                         0.12879        -7.43456                0               0         0.839125         62.1948                0               0
                        0.518064         153.798                0               0         0.104362         18.1074                0               0
                        0.839121         62.1941                0               0         0.128689         -7.4341                0               0
75.27                   0.103031         18.4728                0               0         0.519446         152.963                0               0
                        0.128606        -8.74222                0               0         0.838427         61.4051                0               0
                        0.519446         152.963                0               0          0.10309         18.3671                0               0
                        0.838423         61.4044                0               0         0.128505        -8.74209                0               0
75.315                  0.101617          18.733                0               0         0.520677         152.068                0               0
                        0.128339        -10.1352                0               0         0.837855         60.5601                0               0
                        0.520677         152.068                0               0         0.101689          18.647                0               0
                        0.837851         60.5593                0               0         0.128237         -10.136                0               0
75.36                   0.100095         19.0119                0               0         0.521747         151.114                0               0
                        0.127995          -11.62                0               0         0.837412          59.661                0               0
                        0.521747         151.114                0               0         0.100178         18.9492                0               0
                        0.837409         59.6602                0               0         0.127893        -11.6219                0               0
75.405                 0.0984814         19.3155                0               0         0.522647         150.103                0               0
                        0.127587        -13.2019                0               0         0.837103         58.7095                0               0
                        0.522647         150.103                0               0        0.0985744         19.2772                0               0
                          0.8371         58.7085                0               0         0.127485        -13.2053                0               0
75.45                  0.0967921         19.6508                0               0         0.523369         149.037                0               0
                        0.127124        -14.8851                0               0         0.836928         57.7071                0               0
                        0.523369         149.037                0               0        0.0968943         19.6364                0               0
                        0.836926          57.706                0               0         0.127023          -14.89                0               0
75.495                 0.0950405         20.0252                0               0         0.523905         147.918                0               0
                        0.126621        -16.6723                0               0         0.836887         56.6556                0               0
                        0.523904         147.918                0               0        0.0951518         20.0326                0               0
                        0.836886         56.6544                0               0         0.126521        -16.6787                0               0
75.54                  0.0932395         20.4466                0               0         0.524247         146.749                0               0
                        0.126087        -18.5651                0               0         0.836979         55.5568                0               0
                        0.524247         146.749                0               0          0.09336         20.4728                0               0
                        0.836978         55.5555                0               0         0.125988        -18.5727                0               0
75.585                 0.0914011         20.9235                0               0         0.524391         145.531                0               0
                        0.125534        -20.5631                0               0         0.837199         54.4126                0               0
                         0.52439         145.531                0               0        0.0915307         20.9645                0               0
                        0.837199         54.4112                0               0         0.125436        -20.5718                0               0
75.63                   0.089537         21.4644                0               0         0.524331         144.268                0               0
                         0.12497        -22.6648                0               0         0.837544          53.225                0               0
                         0.52433         144.268                0               0        0.0896752         21.5154                0               0
                        0.837545         53.2235                0               0         0.124874        -22.6742                0               0
75.675                 0.0876592         22.0784                0               0         0.524064         142.962                0               0
                        0.124404        -24.8674                0               0         0.838009         51.9962                0               0
                        0.524063         142.962                0               0        0.0878045          22.134                0               0
                         0.83801         51.9947                0               0         0.124308        -24.8771                0               0
75.72                  0.0857799         22.7745                0               0          0.52359         141.615                0               0
                        0.123838        -27.1667                0               0         0.838587         50.7284                0               0
                        0.523589         141.614                0               0        0.0859295         22.8288                0               0
                        0.838588         50.7268                0               0         0.123742        -27.1764                0               0
75.765                 0.0839118         23.5617                0               0         0.522909         140.229                0               0
                        0.123275         -29.558                0               0         0.839273         49.4239                0               0
                        0.522908         140.229                0               0        0.0840612         23.6089                0               0
                        0.839273         49.4224                0               0         0.123179        -29.5673                0               0
75.81                   0.082068         24.4491                0               0         0.522025         138.809                0               0
                        0.122715        -32.0354                0               0         0.840058         48.0851                0               0
                        0.522024         138.808                0               0        0.0822109         24.4833                0               0
                        0.840058         48.0836                0               0         0.122617        -32.0441                0               0
75.855                 0.0802626         25.4452                0               0         0.520943         137.355                0               0
                        0.122153        -34.5927                0               0         0.840935         46.7146                0               0
                        0.520942         137.355                0               0        0.0803904         25.4615                0               0
                        0.840934         46.7132                0               0         0.122054        -34.6006                0               0
75.9                   0.0785102         26.5581                0               0         0.519673         135.871                0               0
                        0.121585        -37.2234                0               0         0.841895         45.3149                0               0
                        0.519672          135.87                0               0        0.0786122         26.5531                0               0
                        0.841894         45.3135                0               0         0.121484        -37.2303                0               0
75.945                  0.076826         27.7954                0               0         0.518225         134.358                0               0
                        0.121005        -39.9207                0               0         0.842932         43.8887                0               0
                        0.518225         134.358                0               0        0.0768896         27.7678                0               0
                        0.842929         43.8875                0               0         0.120901        -39.9264                0               0
75.99                  0.0752257         29.1633                0               0         0.516615         132.821                0               0
                        0.120403        -42.6777                0               0         0.844036         42.4389                0               0
                        0.516615         132.821                0               0        0.0752371         29.1156                0               0
                        0.844032         42.4377                0               0         0.120296        -42.6822                0               0
76.035                 0.0737256         30.6671                0               0         0.514861          131.26                0               0
                         0.11977        -45.4874                0               0         0.845199         40.9682                0               0
                        0.514861          131.26                0               0        0.0736707         30.6065                0               0
                        0.845193         40.9671                0               0         0.119662        -45.4908                0               0
76.08                   0.072342         32.3108                0               0         0.512984         129.679                0               0
                        0.119099        -48.3429                0               0         0.846412         39.4796                0               0
                        0.512984         129.679                0               0        0.0722088         32.2502                0               0
                        0.846404         39.4786                0               0         0.118988        -48.3453                0               0
76.125                 0.0710917         34.0971                0               0         0.511009          128.08                0               0
                        0.118379        -51.2376                0               0         0.847666         37.9761                0               0
                        0.511009          128.08                0               0         0.070873         34.0564                0               0
                        0.847656         37.9752                0               0         0.118266        -51.2389                0               0
76.17                  0.0699923          36.028                0               0         0.508965         126.465                0               0
                        0.117602        -54.1645                0               0         0.848952         36.4609                0               0
                        0.508965         126.465                0               0        0.0696892         36.0335                0               0
                         0.84894           36.46                0               0         0.117488        -54.1652                0               0
76.215                 0.0690628         38.1047                0               0         0.506886         124.838                0               0
                        0.116761        -57.1173                0               0          0.85026         34.9371                0               0
                        0.506886         124.838                0               0        0.0686899         38.1874                0               0
                        0.850246         34.9362                0               0         0.116646        -57.1175                0               0
76.26                  0.0683256         40.3285                0               0         0.504807         123.202                0               0
                         0.11585        -60.0896                0               0         0.851579         33.4078                0               0
                        0.504807         123.202                0               0        0.0679156         40.5188                0               0
                        0.851563         33.4069                0               0         0.115735        -60.0895                0               0
76.305                 0.0678101         42.7003                0               0         0.502767         121.561                0               0
                        0.114865        -63.0751                0               0         0.852897         31.8764                0               0
                        0.502766         121.561                0               0        0.0674163         43.0189                0               0
                        0.852881         31.8755                0               0         0.114751         -63.075                0               0
76.35                  0.0675579         45.2188                0               0         0.500805         119.919                0               0
                        0.113803        -66.0679                0               0         0.854202          30.346                0               0
                        0.500804          119.92                0               0        0.0672512         45.6633                0               0
                        0.854185          30.345                0               0          0.11369        -66.0683                0               0
76.395                 0.0676294         47.8739                0               0         0.498961         118.283                0               0
                        0.112663        -69.0625                0               0         0.855477         28.8199                0               0
                         0.49896         118.284                0               0        0.0674842         48.4056                0               0
                         0.85546         28.8189                0               0         0.112552        -69.0636                0               0
76.44                  0.0681081         50.6342                0               0         0.497266          116.66                0               0
                        0.111447        -72.0535                0               0         0.856706         27.3013                0               0
