! TOUCHSTONE file generated by CST MICROWAVE STUDIO
! Date and time: Mon Jun 21 17:06:48 2021
! Project name: HIPS_d_sweep.cst
! Parameters = {a=0.735; b=0.393; d=19.7186; fmax=120; fmin=75; phi=0; theta=0}
! Header version: 2018
! Port assignment regex: !\s*Touchstone port\s*([0-9]+)\s*=\s*(CST MWS port|CST DS port)\s*([0-9]+|Zmin|Zmax)\s*\(\"(.*)\"\)(\s*mode\s*([0-9]+))?.*
! Touchstone port assignment:
! Touchstone port 1 = CST MWS port Zmin ("") mode 1
! Touchstone port 2 = CST MWS port Zmin ("") mode 2
! Touchstone port 3 = CST MWS port Zmax ("") mode 1
! Touchstone port 4 = CST MWS port Zmax ("") mode 2
! S-Parameters are not renormalized. Unphysical impedance of 0 will be written to the file.
# GHz S MA R 0
75                      0.176148         78.6492                0               0         0.272651         79.9547                0               0
                       0.0561124        -163.884                0               0         0.944188        -9.02301                0               0
                         0.27265         79.9549                0               0         0.176104         78.6568                0               0
                        0.944184        -9.02232                0               0         0.056204        -163.919                0               0
75.045                  0.176801         78.1089                0               0         0.275584         79.3609                0               0
                       0.0567878        -165.081                0               0         0.942953         -9.6325                0               0
                        0.275583         79.3609                0               0         0.176757         78.1164                0               0
                        0.942918        -9.63094                0               0        0.0568795        -165.114                0               0
75.09                   0.177661          77.496                0               0          0.27818         78.7093                0               0
                       0.0573723        -166.467                0               0         0.941887        -10.3041                0               0
                         0.27818         78.7091                0               0         0.177616         77.5034                0               0
                        0.941836         -10.302                0               0        0.0574642        -166.498                0               0
75.135                  0.178726         76.8158                0               0         0.280434         77.9969                0               0
                       0.0578777        -168.047                0               0         0.940963        -11.0408                0               0
                        0.280434         77.9967                0               0         0.178681         76.8231                0               0
                        0.940909        -11.0386                0               0        0.0579697        -168.077                0               0
75.18                   0.179993         76.0731                0               0         0.282344         77.2217                0               0
                       0.0583162        -169.823                0               0         0.940158         -11.845                0               0
                        0.282344         77.2215                0               0         0.179947         76.0802                0               0
                        0.940109        -11.8428                0               0        0.0584083        -169.851                0               0
75.225                  0.181455         75.2717                0               0         0.283912         76.3823                0               0
                       0.0587001        -171.796                0               0          0.93945        -12.7183                0               0
                        0.283912         76.3822                0               0         0.181409         75.2787                0               0
                         0.93941        -12.7164                0               0        0.0587924        -171.822                0               0
75.27                   0.183101         74.4148                0               0         0.285145         75.4781                0               0
                       0.0590415        -173.962                0               0          0.93882        -13.6616                0               0
                        0.285145         75.4781                0               0         0.183054         74.4216                0               0
                        0.938793        -13.6601                0               0         0.059134        -173.986                0               0
75.315                  0.184919         73.5049                0               0          0.28605         74.5093                0               0
                       0.0593517        -176.319                0               0         0.938255        -14.6751                0               0
                         0.28605         74.5094                0               0         0.184872         73.5116                0               0
                        0.938239        -14.6739                0               0        0.0594444        -176.341                0               0
75.36                   0.186895         72.5438                0               0         0.286638         73.4768                0               0
                       0.0596414        -178.859                0               0         0.937741        -15.7581                0               0
                        0.286638          73.477                0               0         0.186848         72.5503                0               0
                        0.937737        -15.7574                0               0        0.0597342        -178.878                0               0
75.405                  0.189014          71.533                0               0         0.286924         72.3821                0               0
                       0.0599199         178.425                0               0         0.937271        -16.9095                0               0
                        0.286924         72.3824                0               0         0.188967         71.5393                0               0
                        0.937275        -16.9091                0               0        0.0600128         178.408                0               0
75.45                   0.191258         70.4732                0               0         0.286921         71.2275                0               0
                       0.0601959         175.542                0               0         0.936839        -18.1274                0               0
                        0.286921         71.2279                0               0          0.19121         70.4793                0               0
                        0.936849        -18.1271                0               0        0.0602888         175.528                0               0
75.495                  0.193607         69.3653                0               0         0.286646         70.0157                0               0
                       0.0604765         172.503                0               0         0.936443        -19.4092                0               0
                        0.286646         70.0161                0               0         0.193559         69.3711                0               0
                        0.936456        -19.4091                0               0        0.0605693         172.491                0               0
75.54                   0.196043         68.2097                0               0         0.286116         68.7498                0               0
                        0.060768         169.319                0               0         0.936082        -20.7522                0               0
                        0.286116         68.7502                0               0         0.195994         68.2153                0               0
                        0.936096        -20.7521                0               0        0.0608605          169.31                0               0
75.585                  0.198543         67.0069                0               0          0.28535         67.4333                0               0
                       0.0610752         166.003                0               0         0.935758        -22.1529                0               0
                        0.285349         67.4337                0               0         0.198494         67.0123                0               0
                        0.935771        -22.1527                0               0        0.0611673         165.997                0               0
75.63                   0.201086         65.7577                0               0         0.284365           66.07                0               0
                       0.0614021         162.568                0               0         0.935473        -23.6077                0               0
                        0.284365         66.0703                0               0         0.201037         65.7628                0               0
                        0.935483        -23.6074                0               0        0.0614936         162.565                0               0
75.675                  0.203649         64.4628                0               0         0.283181         64.6636                0               0
                       0.0617517         159.028                0               0          0.93523        -25.1127                0               0
                         0.28318         64.6638                0               0           0.2036         64.4676                0               0
                        0.935235        -25.1123                0               0        0.0618424         159.028                0               0
75.72                   0.206208         63.1234                0               0         0.281816         63.2181                0               0
                       0.0621258         155.398                0               0         0.935031         -26.664                0               0
                        0.281816         63.2183                0               0         0.206159         63.1278                0               0
                        0.935032        -26.6635                0               0        0.0622157           155.4                0               0
75.765                   0.20874         61.7408                0               0          0.28029         61.7374                0               0
                       0.0625258          151.69                0               0         0.934879        -28.2575                0               0
                         0.28029         61.7376                0               0         0.208691         61.7449                0               0
                        0.934876        -28.2568                0               0        0.0626146         151.695                0               0
75.81                   0.211222          60.317                0               0         0.278621         60.2253                0               0
                       0.0629521          147.92                0               0         0.934774        -29.8892                0               0
                        0.278621         60.2254                0               0         0.211172         60.3207                0               0
                        0.934768        -29.8884                0               0        0.0630397         147.928                0               0
75.855                  0.213631         58.8541                0               0          0.27683         58.6853                0               0
                       0.0634048         144.102                0               0         0.934718         -31.555                0               0
                        0.276829         58.6855                0               0         0.213581         58.8575                0               0
                        0.934709        -31.5541                0               0         0.063491         144.112                0               0
75.9                    0.215946         57.3546                0               0         0.274933          57.121                0               0
                       0.0638835         140.248                0               0          0.93471        -33.2512                0               0
                        0.274933         57.1211                0               0         0.215895         57.3577                0               0
                        0.934699        -33.2503                0               0        0.0639681         140.261                0               0
75.945                  0.218145         55.8217                0               0          0.27295         55.5353                0               0
                       0.0643874         136.372                0               0         0.934748        -34.9741                0               0
                        0.272949         55.5355                0               0         0.218095         55.8243                0               0
                        0.934737        -34.9732                0               0        0.0644703         136.387                0               0
75.99                   0.220211         54.2584                0               0         0.270898         53.9312                0               0
                       0.0649155         132.485                0               0          0.93483        -36.7201                0               0
                        0.270897         53.9314                0               0          0.22016         54.2606                0               0
                         0.93482        -36.7193                0               0        0.0649966         132.502                0               0
76.035                  0.222126         52.6682                0               0         0.268795         52.3113                0               0
                       0.0654667           128.6                0               0         0.934954        -38.4861                0               0
                        0.268794         52.3115                0               0         0.222075           52.67                0               0
                        0.934945        -38.4853                0               0        0.0655459         128.618                0               0
76.08                   0.223877         51.0548                0               0         0.266658         50.6777                0               0
                       0.0660395         124.726                0               0         0.935115        -40.2689                0               0
                        0.266657         50.6779                0               0         0.223825         51.0562                0               0
                        0.935108        -40.2682                0               0        0.0661168         124.746                0               0
76.125                   0.22545         49.4218                0               0         0.264504         49.0327                0               0
                       0.0666326         120.873                0               0         0.935311        -42.0657                0               0
                        0.264503         49.0329                0               0         0.225398         49.4228                0               0
                        0.935306         -42.065                0               0        0.0667078         120.895                0               0
76.17                   0.226836         47.7729                0               0         0.262349          47.378                0               0
                       0.0672441          117.05                0               0          0.93554        -43.8736                0               0
                        0.262348         47.3783                0               0         0.226783         47.7734                0               0
                        0.935537         -43.873                0               0        0.0673171         117.073                0               0
76.215                  0.228026         46.1115                0               0         0.260208         45.7154                0               0
                       0.0678716         113.265                0               0         0.935801          -45.69                0               0
                        0.260207         45.7157                0               0         0.227973         46.1115                0               0
                        0.935798        -45.6894                0               0        0.0679425         113.289                0               0
76.26                   0.229013          44.441                0               0         0.258097         44.0467                0               0
                       0.0685126         109.525                0               0         0.936093        -47.5121                0               0
                        0.258096         44.0471                0               0         0.228959         44.4405                0               0
                         0.93609        -47.5115                0               0        0.0685813          109.55                0               0
76.305                  0.229791         42.7645                0               0         0.256027         42.3738                0               0
                       0.0691635         105.837                0               0         0.936418        -49.3373                0               0
                        0.256026         42.3742                0               0         0.229737         42.7635                0               0
                        0.936413        -49.3366                0               0          0.06923         105.862                0               0
76.35                   0.230356         41.0848                0               0         0.254011         40.6986                0               0
                       0.0698202         102.204                0               0         0.936777        -51.1627                0               0
                         0.25401          40.699                0               0         0.230302         41.0833                0               0
                         0.93677        -51.1618                0               0        0.0698844          102.23                0               0
76.395                  0.230702         39.4046                0               0         0.252059         39.0235                0               0
                       0.0704775         98.6323                0               0         0.937173         -52.985                0               0
                        0.252058         39.0238                0               0         0.230647         39.4026                0               0
                        0.937162        -52.9841                0               0        0.0705394         98.6582                0               0
76.44                   0.230825         37.7264                0               0         0.250178         37.3507                0               0
                       0.0711295         95.1251                0               0         0.937607        -54.8009                0               0
