! TOUCHSTONE file generated by CST MICROWAVE STUDIO
! Date and time: Mon Jun 21 17:06:48 2021
! Project name: HIPS_d_sweep.cst
! Parameters = {a=0.735; b=0.393; d=19.7688; fmax=120; fmin=75; phi=0; theta=0}
! Header version: 2018
! Port assignment regex: !\s*Touchstone port\s*([0-9]+)\s*=\s*(CST MWS port|CST DS port)\s*([0-9]+|Zmin|Zmax)\s*\(\"(.*)\"\)(\s*mode\s*([0-9]+))?.*
! Touchstone port assignment:
! Touchstone port 1 = CST MWS port Zmin ("") mode 1
! Touchstone port 2 = CST MWS port Zmin ("") mode 2
! Touchstone port 3 = CST MWS port Zmax ("") mode 1
! Touchstone port 4 = CST MWS port Zmax ("") mode 2
! S-Parameters are not renormalized. Unphysical impedance of 0 will be written to the file.
# GHz S MA R 0
75                      0.190544         73.7576                0               0         0.267313         74.4141                0               0
                       0.0561157         -179.33                0               0         0.942922        -14.8824                0               0
                        0.267313         74.4139                0               0         0.190524         73.8023                0               0
                        0.942914        -14.8815                0               0        0.0560328         -179.26                0               0
75.045                  0.191047         73.2197                0               0         0.270254         73.8112                0               0
                       0.0568605         179.523                0               0         0.942296        -15.4814                0               0
                        0.270254          73.811                0               0         0.191026         73.2638                0               0
                        0.942289        -15.4806                0               0        0.0567776          179.59                0               0
75.09                   0.191707          72.608                0               0         0.272875         73.1587                0               0
                        0.057525         178.198                0               0         0.941545        -16.1466                0               0
                        0.272875         73.1585                0               0         0.191686         72.6513                0               0
                        0.941539        -16.1458                0               0        0.0574419         178.263                0               0
75.135                   0.19253         71.9266                0               0         0.275167         72.4522                0               0
                       0.0581195          176.69                0               0         0.940711        -16.8803                0               0
                        0.275167          72.452                0               0         0.192509         71.9689                0               0
                        0.940704        -16.8795                0               0        0.0580359         176.753                0               0
75.18                   0.193518         71.1794                0               0         0.277126         71.6882                0               0
                       0.0586553         174.995                0               0         0.939832        -17.6838                0               0
                        0.277126          71.688                0               0         0.193497         71.2208                0               0
                        0.939825        -17.6831                0               0         0.058571         175.055                0               0
75.225                  0.194668         70.3703                0               0         0.278751          70.864                0               0
                        0.059144          173.11                0               0         0.938945        -18.5582                0               0
                        0.278751         70.8638                0               0         0.194647         70.4106                0               0
                        0.938937        -18.5573                0               0        0.0590589         173.168                0               0
75.27                   0.195975         69.5025                0               0         0.280046         69.9775                0               0
                       0.0595976         171.038                0               0          0.93808        -19.5034                0               0
                        0.280046         69.9773                0               0         0.195954         69.5415                0               0
                        0.938071        -19.5025                0               0        0.0595114         171.094                0               0
75.315                  0.197431         68.5787                0               0         0.281019         69.0279                0               0
                       0.0600272         168.782                0               0         0.937264         -20.519                0               0
                        0.281019         69.0277                0               0         0.197409         68.6164                0               0
                        0.937254        -20.5181                0               0        0.0599398         168.835                0               0
75.36                   0.199022         67.6012                0               0         0.281681         68.0149                0               0
                       0.0604434         166.348                0               0         0.936517        -21.6039                0               0
                        0.281681         68.0147                0               0            0.199         67.6375                0               0
                        0.936506        -21.6029                0               0        0.0603547         166.397                0               0
75.405                  0.200736         66.5719                0               0         0.282045         66.9393                0               0
                       0.0608556         163.743                0               0         0.935855        -22.7565                0               0
                        0.282045         66.9391                0               0         0.200713         66.6067                0               0
                        0.935843        -22.7555                0               0        0.0607654         163.789                0               0
75.45                   0.202556         65.4922                0               0         0.282126         65.8027                0               0
                       0.0612718         160.977                0               0         0.935288        -23.9747                0               0
                        0.282127         65.8025                0               0         0.202533         65.5255                0               0
                        0.935276        -23.9737                0               0        0.0611802         161.019                0               0
75.495                  0.204464         64.3634                0               0         0.281943         64.6073                0               0
                       0.0616987         158.061                0               0         0.934821         -25.256                0               0
                        0.281943         64.6071                0               0         0.204441         64.3951                0               0
                        0.934808         -25.255                0               0        0.0616056         158.099                0               0
75.54                    0.20644         63.1863                0               0         0.281512         63.3559                0               0
                       0.0621415         155.007                0               0         0.934455        -26.5975                0               0
                        0.281512         63.3558                0               0         0.206417         63.2164                0               0
                        0.934442        -26.5964                0               0         0.062047          155.04                0               0
75.585                  0.208464          61.962                0               0         0.280852          62.052                0               0
                       0.0626039         151.828                0               0         0.934185        -27.9959                0               0
                        0.280853         62.0519                0               0          0.20844         61.9904                0               0
                        0.934172        -27.9948                0               0         0.062508         151.857                0               0
75.63                   0.210512         60.6914                0               0         0.279983         60.6991                0               0
                        0.063088         148.538                0               0         0.934006        -29.4479                0               0
                        0.279983          60.699                0               0         0.210487          60.718                0               0
                        0.933992        -29.4468                0               0        0.0629909         148.562                0               0
75.675                  0.212562         59.3755                0               0         0.278923         59.3013                0               0
                       0.0635948         145.151                0               0         0.933907        -30.9498                0               0
                        0.278923         59.3013                0               0         0.212537         59.4003                0               0
                        0.933894        -30.9487                0               0        0.0634967          145.17                0               0
75.72                    0.21459         58.0157                0               0         0.277691         57.8627                0               0
                       0.0641243         141.681                0               0         0.933879         -32.498                0               0
                        0.277691         57.8626                0               0         0.214564         58.0386                0               0
                        0.933865        -32.4968                0               0        0.0640252         141.696                0               0
75.765                  0.216571         56.6134                0               0         0.276306         56.3873                0               0
                       0.0646751         138.142                0               0          0.93391        -34.0885                0               0
                        0.276306         56.3873                0               0         0.216544         56.6345                0               0
                        0.933896        -34.0874                0               0        0.0645754         138.152                0               0
75.81                   0.218482         55.1706                0               0         0.274786         54.8792                0               0
                       0.0652454         134.549                0               0         0.933988        -35.7176                0               0
                        0.274786         54.8792                0               0         0.218454         55.1897                0               0
                        0.933974        -35.7165                0               0        0.0651453         134.553                0               0
75.855                    0.2203         53.6894                0               0         0.273149         53.3423                0               0
                       0.0658329         130.913                0               0         0.934104        -37.3815                0               0
                        0.273149         53.3423                0               0         0.220271         53.7067                0               0
                        0.934089        -37.3804                0               0        0.0657327         130.913                0               0
75.9                    0.222002         52.1726                0               0         0.271412         51.7801                0               0
                       0.0664349         127.248                0               0         0.934248        -39.0765                0               0
                        0.271413         51.7801                0               0         0.221972         52.1879                0               0
                        0.934233        -39.0753                0               0        0.0663349         127.243                0               0
75.945                  0.223569          50.623                0               0         0.269594         50.1959                0               0
                       0.0670487         123.565                0               0         0.934414        -40.7989                0               0
                        0.269594         50.1959                0               0         0.223538         50.6363                0               0
                        0.934399        -40.7977                0               0        0.0669492         123.555                0               0
75.99                   0.224981         49.0438                0               0          0.26771         48.5926                0               0
                       0.0676717         119.875                0               0           0.9346        -42.5452                0               0
                         0.26771         48.5927                0               0         0.224949         49.0551                0               0
                        0.934585         -42.544                0               0        0.0675729         119.861                0               0
76.035                  0.226224         47.4385                0               0         0.265776         46.9728                0               0
                       0.0683015         116.187                0               0         0.934804         -44.312                0               0
                        0.265776         46.9729                0               0         0.226191         47.4477                0               0
                        0.934789        -44.3107                0               0        0.0682038         116.168                0               0
76.08                   0.227285         45.8106                0               0         0.263808         45.3386                0               0
                       0.0689362         112.511                0               0          0.93503        -46.0961                0               0
                        0.263809         45.3387                0               0          0.22725         45.8178                0               0
                        0.935014        -46.0947                0               0        0.0688399         112.488                0               0
76.125                  0.228153         44.1637                0               0         0.261822         43.6917                0               0
                       0.0695743         108.854                0               0         0.935285        -47.8943                0               0
                        0.261822         43.6918                0               0         0.228117         44.1689                0               0
                        0.935269        -47.8929                0               0        0.0694797         108.826                0               0
76.17                   0.228821         42.5015                0               0         0.259832         42.0336                0               0
                       0.0702147         105.222                0               0         0.935579        -49.7035                0               0
                        0.259833         42.0337                0               0         0.228783         42.5046                0               0
                        0.935562        -49.7021                0               0        0.0701219          105.19                0               0
76.215                  0.229285         40.8274                0               0         0.257854         40.3654                0               0
                       0.0708563         101.622                0               0         0.935922        -51.5209                0               0
                        0.257854         40.3655                0               0         0.229246         40.8283                0               0
                        0.935905        -51.5194                0               0        0.0707658         101.586                0               0
76.26                   0.229541         39.1446                0               0         0.255901         38.6882                0               0
                       0.0714983         98.0594                0               0         0.936328        -53.3436                0               0
                        0.255902         38.6883                0               0         0.229501         39.1434                0               0
                         0.93631        -53.3421                0               0        0.0714102         98.0202                0               0
76.305                  0.229589         37.4562                0               0         0.253987         37.0032                0               0
                       0.0721396         94.5388                0               0         0.936807        -55.1688                0               0
                        0.253988         37.0033                0               0         0.229547         37.4528                0               0
                        0.936789        -55.1672                0               0        0.0720541         94.4963                0               0
76.35                   0.229427          35.765                0               0         0.252125         35.3116                0               0
                       0.0727781         91.0649                0               0         0.937367        -56.9935                0               0
                        0.252125         35.3117                0               0         0.229383         35.7594                0               0
                        0.937349        -56.9918                0               0        0.0726955         91.0193                0               0
76.395                  0.229053         34.0738                0               0         0.250325         33.6155                0               0
                       0.0734108         87.6417                0               0         0.938006        -58.8148                0               0
                        0.250325         33.6156                0               0         0.229008         34.0659                0               0
                        0.937989        -58.8132                0               0        0.0733312         87.5932                0               0
76.44                   0.228466          32.385                0               0         0.248595         31.9173                0               0
                       0.0740327         84.2732                0               0         0.938715        -60.6301                0               0
