! TOUCHSTONE file generated by CST MICROWAVE STUDIO
! Date and time: Mon Jun 21 17:06:47 2021
! Project name: HIPS_d_sweep.cst
! Parameters = {a=0.735; b=0.393; d=19.4171; fmax=120; fmin=75; phi=0; theta=0}
! Header version: 2018
! Port assignment regex: !\s*Touchstone port\s*([0-9]+)\s*=\s*(CST MWS port|CST DS port)\s*([0-9]+|Zmin|Zmax)\s*\(\"(.*)\"\)(\s*mode\s*([0-9]+))?.*
! Touchstone port assignment:
! Touchstone port 1 = CST MWS port Zmin ("") mode 1
! Touchstone port 2 = CST MWS port Zmin ("") mode 2
! Touchstone port 3 = CST MWS port Zmax ("") mode 1
! Touchstone port 4 = CST MWS port Zmax ("") mode 2
! S-Parameters are not renormalized. Unphysical impedance of 0 will be written to the file.
# GHz S MA R 0
75                     0.0604097         93.8829                0               0         0.307368         115.765                0               0
                       0.0738838         -77.564                0               0         0.946792         26.6361                0               0
                        0.307367         115.765                0               0        0.0603862          93.885                0               0
                        0.946794         26.6366                0               0        0.0739217        -77.6693                0               0
75.045                 0.0620349         93.6112                0               0         0.310376         115.149                0               0
                       0.0740955        -78.6809                0               0         0.945667         26.0585                0               0
                        0.310375         115.149                0               0        0.0620109         93.6123                0               0
                         0.94567         26.0588                0               0        0.0741343        -78.7859                0               0
75.09                  0.0638928         93.4223                0               0         0.313013          114.46                0               0
                       0.0742129        -79.9652                0               0         0.944651         25.4007                0               0
                        0.313012          114.46                0               0        0.0638684         93.4224                0               0
                        0.944654          25.401                0               0        0.0742528        -80.0702                0               0
75.135                 0.0659885         93.2954                0               0         0.315285         113.696                0               0
                       0.0742348        -81.4179                0               0         0.943742         24.6646                0               0
                        0.315283         113.696                0               0        0.0659638         93.2946                0               0
                        0.943746         24.6649                0               0        0.0742762        -81.5229                0               0
75.18                  0.0683264         93.2087                0               0         0.317197         112.857                0               0
                       0.0741611        -83.0394                0               0         0.942941          23.852                0               0
                        0.317195         112.857                0               0        0.0683015         93.2071                0               0
                        0.942944         23.8523                0               0        0.0742043        -83.1446                0               0
75.225                 0.0709092         93.1411                0               0         0.318755         111.944                0               0
                       0.0739928          -84.83                0               0         0.942242         22.9649                0               0
                        0.318754         111.943                0               0        0.0708841         93.1385                0               0
                        0.942245         22.9652                0               0        0.0740379        -84.9354                0               0
75.27                   0.073738         93.0721                0               0         0.319969         110.956                0               0
                       0.0737317        -86.7896                0               0         0.941642          22.005                0               0
                        0.319968         110.956                0               0        0.0737128         93.0687                0               0
                        0.941644         22.0054                0               0         0.073779        -86.8952                0               0
75.315                 0.0768121         92.9832                0               0         0.320846         109.896                0               0
                       0.0733807        -88.9176                0               0         0.941135         20.9744                0               0
                        0.320846         109.895                0               0        0.0767867          92.979                0               0
                        0.941137         20.9748                0               0        0.0734304        -89.0236                0               0
75.36                  0.0801282          92.858                0               0         0.321396         108.765                0               0
                       0.0729437        -91.2134                0               0         0.940714         19.8752                0               0
                        0.321396         108.765                0               0        0.0801027          92.853                0               0
                        0.940717         19.8756                0               0        0.0729961          -91.32                0               0
75.405                 0.0836812         92.6826                0               0         0.321627         107.566                0               0
                       0.0724256        -93.6763                0               0         0.940375         18.7094                0               0
                        0.321627         107.566                0               0        0.0836554         92.6768                0               0
                        0.940377         18.7098                0               0        0.0724807        -93.7833                0               0
75.45                  0.0874633         92.4456                0               0          0.32155         106.302                0               0
                        0.071832        -96.3049                0               0         0.940109         17.4794                0               0
                         0.32155         106.302                0               0        0.0874374          92.439                0               0
                        0.940111         17.4798                0               0        0.0718901        -96.4124                0               0
75.495                 0.0914648         92.1381                0               0         0.321175         104.977                0               0
                       0.0711696        -99.0979                0               0         0.939911         16.1876                0               0
                        0.321175         104.977                0               0        0.0914386         92.1307                0               0
                        0.939913         16.1881                0               0        0.0712309        -99.2059                0               0
75.54                  0.0956737         91.7535                0               0         0.320513         103.592                0               0
                       0.0704459        -102.054                0               0         0.939773         14.8366                0               0
                        0.320513         103.592                0               0        0.0956473         91.7454                0               0
                        0.939775         14.8371                0               0        0.0705106        -102.162                0               0
75.585                  0.100076         91.2875                0               0         0.319577         102.153                0               0
                       0.0696689         -105.17                0               0         0.939689         13.4292                0               0
                        0.319577         102.153                0               0         0.100049         91.2787                0               0
                        0.939692         13.4296                0               0        0.0697372        -105.279                0               0
75.63                   0.104656         90.7375                0               0         0.318379         100.664                0               0
                       0.0688476        -108.444                0               0         0.939653         11.9681                0               0
                        0.318379         100.664                0               0         0.104629          90.728                0               0
                        0.939656         11.9685                0               0        0.0689196        -108.553                0               0
75.675                  0.109397         90.1027                0               0         0.316934         99.1273                0               0
                       0.0679914        -111.873                0               0         0.939659         10.4566                0               0
                        0.316934         99.1272                0               0          0.10937         90.0924                0               0
                        0.939662         10.4569                0               0        0.0680673        -111.982                0               0
75.72                   0.114279         89.3834                0               0         0.315257         97.5485                0               0
                       0.0671102        -115.453                0               0         0.939699         8.89777                0               0
                        0.315257         97.5484                0               0         0.114252         89.3724                0               0
                        0.939702         8.89812                0               0        0.0671903        -115.562                0               0
75.765                  0.119283         88.5813                0               0         0.313364         95.9314                0               0
                       0.0662143         -119.18                0               0         0.939768          7.2951                0               0
                        0.313364         95.9313                0               0         0.119255         88.5696                0               0
                        0.939772         7.29542                0               0        0.0662987        -119.289                0               0
75.81                   0.124387         87.6988                0               0         0.311272         94.2804                0               0
                       0.0653142        -123.048                0               0         0.939861          5.6521                0               0
                        0.311272         94.2802                0               0         0.124358         87.6865                0               0
                        0.939865         5.65239                0               0        0.0654031        -123.156                0               0
75.855                  0.129569         86.7391                0               0            0.309         92.5998                0               0
                       0.0644207        -127.051                0               0          0.93997         3.97241                0               0
                           0.309         92.5996                0               0          0.12954         86.7261                0               0
                        0.939975         3.97267                0               0        0.0645142        -127.158                0               0
75.9                    0.134806         85.7061                0               0         0.306568         90.8938                0               0
                       0.0635442        -131.182                0               0         0.940091         2.25979                0               0
                        0.306568         90.8936                0               0         0.134777         85.6924                0               0
                        0.940095         2.26003                0               0        0.0636424        -131.287                0               0
75.945                  0.140075         84.6037                0               0         0.303994         89.1667                0               0
                       0.0626951        -135.431                0               0         0.940217        0.518049                0               0
                        0.303994         89.1665                0               0         0.140045         84.5894                0               0
                        0.940221         0.51828                0               0        0.0627981        -135.535                0               0
75.99                   0.145352         83.4367                0               0         0.301299         87.4227                0               0
                       0.0618833        -139.788                0               0         0.940343        -1.24895                0               0
                          0.3013         87.4225                0               0         0.145321         83.4218                0               0
                        0.940347        -1.24873                0               0        0.0619911         -139.89                0               0
76.035                  0.150613         82.2099                0               0         0.298505         85.6659                0               0
                       0.0611182        -144.243                0               0         0.940463        -3.03736                0               0
                        0.298505         85.6657                0               0         0.150582         82.1943                0               0
                        0.940467        -3.03715                0               0        0.0612308        -144.343                0               0
76.08                   0.155835         80.9282                0               0         0.295631         83.9002                0               0
                       0.0604084        -148.783                0               0         0.940572        -4.84337                0               0
                        0.295631            83.9                0               0         0.155804          80.912                0               0
                        0.940576        -4.84316                0               0        0.0605258        -148.879                0               0
76.125                  0.160996         79.5968                0               0         0.292698         82.1296                0               0
                       0.0597619        -153.393                0               0         0.940666        -6.66324                0               0
                        0.292698         82.1294                0               0         0.160964           79.58                0               0
                        0.940669        -6.66303                0               0        0.0598839        -153.486                0               0
76.17                   0.166072         78.2209                0               0         0.289725         80.3576                0               0
                       0.0591853         -158.06                0               0         0.940741        -8.49334                0               0
                        0.289726         80.3574                0               0         0.166039         78.2035                0               0
                        0.940744        -8.49314                0               0        0.0593117        -158.148                0               0
76.215                  0.171042         76.8059                0               0         0.286732         78.5878                0               0
                       0.0586844        -162.766                0               0         0.940795        -10.3302                0               0
                        0.286733         78.5876                0               0         0.171009          76.788                0               0
                        0.940798          -10.33                0               0        0.0588151         -162.85                0               0
76.26                   0.175888         75.3572                0               0         0.283738         76.8234                0               0
                       0.0582638        -167.497                0               0         0.940828        -12.1704                0               0
                        0.283739         76.8233                0               0         0.175854         75.3387                0               0
                         0.94083        -12.1703                0               0        0.0583985        -167.576                0               0
76.305                  0.180591         73.8802                0               0          0.28076         75.0674                0               0
                        0.057927        -172.234                0               0          0.94084         -14.011                0               0
                         0.28076         75.0673                0               0         0.180556          73.861                0               0
                        0.940842        -14.0108                0               0        0.0580655        -172.308                0               0
76.35                   0.185134           72.38                0               0         0.277814         73.3225                0               0
                       0.0576765        -176.962                0               0         0.940835        -15.8488                0               0
                        0.277815         73.3224                0               0         0.185099         72.3602                0               0
                        0.940838        -15.8487                0               0        0.0578184         -177.03                0               0
76.395                  0.189505         70.8618                0               0         0.274917          71.591                0               0
                       0.0575136         178.336                0               0         0.940819        -17.6813                0               0
                        0.274918         71.5908                0               0         0.189469         70.8415                0               0
                        0.940822        -17.6812                0               0        0.0576586         178.274                0               0
76.44                   0.193691         69.3307                0               0         0.272084         69.8747                0               0
                       0.0574385         173.676                0               0           0.9408        -19.5056                0               0
