! TOUCHSTONE file generated by CST MICROWAVE STUDIO
! Date and time: Mon Jun 21 17:06:48 2021
! Project name: HIPS_d_sweep.cst
! Parameters = {a=0.735; b=0.393; d=19.6683; fmax=120; fmin=75; phi=0; theta=0}
! Header version: 2018
! Port assignment regex: !\s*Touchstone port\s*([0-9]+)\s*=\s*(CST MWS port|CST DS port)\s*([0-9]+|Zmin|Zmax)\s*\(\"(.*)\"\)(\s*mode\s*([0-9]+))?.*
! Touchstone port assignment:
! Touchstone port 1 = CST MWS port Zmin ("") mode 1
! Touchstone port 2 = CST MWS port Zmin ("") mode 2
! Touchstone port 3 = CST MWS port Zmax ("") mode 1
! Touchstone port 4 = CST MWS port Zmax ("") mode 2
! S-Parameters are not renormalized. Unphysical impedance of 0 will be written to the file.
# GHz S MA R 0
75                      0.159754         83.3285                0               0         0.278516          85.637                0               0
                       0.0570495        -148.483                0               0         0.945331        -3.13127                0               0
                        0.278518         85.6365                0               0         0.159693         83.3413                0               0
                        0.945333         -3.1298                0               0         0.057201        -148.572                0               0
75.045                  0.161189         82.7869                0               0         0.281634         84.8035                0               0
                       0.0575292        -150.107                0               0         0.947899        -3.76296                0               0
                        0.281637         84.8043                0               0         0.161128         82.7991                0               0
                        0.947899        -3.76139                0               0        0.0576813        -150.194                0               0
75.09                   0.162663         82.1902                0               0         0.284457         83.9906                0               0
                       0.0579701        -151.806                0               0         0.949346        -4.43238                0               0
                         0.28446         83.9924                0               0         0.162602         82.2018                0               0
                        0.949344        -4.43076                0               0        0.0581229        -151.889                0               0
75.135                  0.164186         81.5358                0               0         0.286923         83.1901                0               0
                       0.0583687        -153.587                0               0         0.949727        -5.15273                0               0
                        0.286925         83.1925                0               0         0.164124         81.5468                0               0
                        0.949723        -5.15111                0               0        0.0585222        -153.668                0               0
75.18                   0.165769         80.8219                0               0         0.288981         82.3911                0               0
                       0.0587223        -155.463                0               0          0.94915        -5.93602                0               0
                        0.288982         82.3937                0               0         0.165707         80.8321                0               0
                        0.949146        -5.93444                0               0        0.0588766         -155.54                0               0
75.225                  0.167427          80.047                0               0         0.290593         81.5812                0               0
                       0.0590289        -157.442                0               0         0.947775        -6.79211                0               0
                        0.290593         81.5836                0               0         0.167364         80.0565                0               0
                        0.947771        -6.79058                0               0        0.0591841        -157.516                0               0
75.27                   0.169172         79.2109                0               0         0.291738         80.7466                0               0
                        0.059288        -159.535                0               0         0.945792        -7.72795                0               0
                        0.291737         80.7486                0               0         0.169108         79.2196                0               0
                        0.945789        -7.72646                0               0        0.0594442        -159.607                0               0
75.315                  0.171017         78.3142                0               0         0.292415         79.8738                0               0
                       0.0595005        -161.755                0               0         0.943407        -8.74724                0               0
                        0.292414         79.8751                0               0         0.170953         78.3219                0               0
                        0.943405        -8.74577                0               0        0.0596577        -161.824                0               0
75.36                   0.172974         77.3582                0               0         0.292643         78.9504                0               0
                       0.0596691        -164.113                0               0          0.94082        -9.85046                0               0
                        0.292643         78.9508                0               0         0.172909          77.365                0               0
                         0.94082          -9.849                0               0        0.0598274        -164.177                0               0
75.405                  0.175054         76.3454                0               0         0.292459         77.9658                0               0
                       0.0597982        -166.618                0               0         0.938215        -11.0352                0               0
                        0.292461         77.9653                0               0         0.174988         76.3511                0               0
                        0.938216        -11.0337                0               0        0.0599575        -166.679                0               0
75.45                   0.177263         75.2785                0               0         0.291911         76.9124                0               0
                       0.0598943        -169.281                0               0         0.935745        -12.2968                0               0
                        0.291915         76.9111                0               0         0.177197         75.2832                0               0
                        0.935748        -12.2953                0               0        0.0600546        -169.338                0               0
75.495                  0.179607         74.1611                0               0         0.291054         75.7856                0               0
                       0.0599657        -172.109                0               0          0.93353        -13.6291                0               0
                        0.291061         75.7835                0               0         0.179541         74.1647                0               0
                        0.933534        -13.6275                0               0         0.060127        -172.163                0               0
75.54                   0.182086         72.9968                0               0         0.289945         74.5838                0               0
                       0.0600226         -175.11                0               0         0.931652        -15.0247                0               0
                        0.289955         74.5812                0               0         0.182019         72.9992                0               0
                        0.931657        -15.0231                0               0        0.0601847        -175.159                0               0
75.585                  0.184696          71.789                0               0         0.288639         73.3083                0               0
                       0.0600764        -178.287                0               0         0.930163        -16.4764                0               0
                        0.288652         73.3053                0               0         0.184628         71.7903                0               0
                        0.930168        -16.4747                0               0        0.0602391         -178.33                0               0
75.63                    0.18743         70.5413                0               0         0.287184         71.9626                0               0
                       0.0601397         178.362                0               0         0.929083        -17.9767                0               0
                        0.287201         71.9594                0               0         0.187362         70.5415                0               0
                        0.929089        -17.9749                0               0        0.0603028         178.323                0               0
75.675                  0.190277         69.2565                0               0         0.285623         70.5521                0               0
                       0.0602254         174.838                0               0          0.92841        -19.5188                0               0
                        0.285641         70.5488                0               0         0.190209         69.2556                0               0
                        0.928416         -19.517                0               0        0.0603885         174.804                0               0
75.72                    0.19322         67.9371                0               0         0.283987         69.0832                0               0
                       0.0603458         171.149                0               0         0.928124        -21.0966                0               0
                        0.284006         69.0799                0               0         0.193152         67.9351                0               0
                        0.928129        -21.0948                0               0        0.0605087         171.121                0               0
75.765                  0.196242         66.5851                0               0           0.2823          67.563                0               0
                       0.0605123         167.308                0               0         0.928192        -22.7047                0               0
                         0.28232         67.5599                0               0         0.196173          66.582                0               0
                        0.928196        -22.7029                0               0        0.0606747         167.285                0               0
75.81                   0.199319         65.2019                0               0          0.28058          65.999                0               0
                       0.0607344         163.329                0               0          0.92857        -24.3385                0               0
                        0.280599         65.9961                0               0          0.19925         65.1977                0               0
                        0.928573        -24.3367                0               0        0.0608959         163.312                0               0
75.855                  0.202427         63.7882                0               0         0.278837         64.3985                0               0
                        0.061019         159.231                0               0          0.92921        -25.9939                0               0
                        0.278856         64.3959                0               0         0.202359          63.783                0               0
                        0.929213        -25.9921                0               0        0.0611793         159.219                0               0
75.9                     0.20554         62.3446                0               0         0.277079         62.7685                0               0
                       0.0613699         155.036                0               0         0.930063        -27.6678                0               0
                        0.277096         62.7663                0               0         0.205471         62.3385                0               0
                        0.930064        -27.6659                0               0        0.0615287         155.029                0               0
75.945                  0.208628         60.8716                0               0         0.275307         61.1158                0               0
                       0.0617876         150.767                0               0         0.931075        -29.3572                0               0
                        0.275321         61.1139                0               0         0.208559         60.8644                0               0
                        0.931076        -29.3554                0               0        0.0619445         150.765                0               0
75.99                   0.211661         59.3692                0               0         0.273521         59.4464                0               0
                       0.0622688         146.447                0               0         0.932197          -31.06                0               0
                        0.273533          59.445                0               0         0.211592         59.3611                0               0
                        0.932196        -31.0582                0               0        0.0624237         146.449                0               0
76.035                  0.214609         57.8379                0               0         0.271721         57.7661                0               0
                       0.0628075           142.1                0               0         0.933378        -32.7742                0               0
                         0.27173          57.765                0               0          0.21454         57.8289                0               0
                        0.933376        -32.7725                0               0          0.06296         142.107                0               0
76.08                   0.217439         56.2781                0               0         0.269904           56.08                0               0
                       0.0633943          137.75                0               0         0.934571         -34.498                0               0
                        0.269909         56.0793                0               0          0.21737         56.2682                0               0
                        0.934568        -34.4964                0               0        0.0635444         137.761                0               0
76.125                  0.220121         54.6908                0               0         0.268068         54.3927                0               0
                       0.0640178         133.418                0               0         0.935732        -36.2301                0               0
                         0.26807         54.3924                0               0         0.220052           54.68                0               0
                        0.935728        -36.2285                0               0        0.0641653         133.432                0               0
76.17                   0.222623         53.0772                0               0          0.26621         52.7084                0               0
                        0.064665         129.123                0               0         0.936819        -37.9691                0               0
                         0.26621         52.7085                0               0         0.222553         53.0655                0               0
                        0.936814        -37.9675                0               0        0.0648098          129.14                0               0
76.215                  0.224915         51.4391                0               0         0.264331         51.0309                0               0
                       0.0653222          124.88                0               0         0.937794        -39.7137                0               0
                        0.264327         51.0314                0               0         0.224845         51.4266                0               0
                        0.937787        -39.7122                0               0        0.0654642           124.9                0               0
76.26                   0.226969          49.779                0               0         0.262428         49.3635                0               0
                       0.0659754         120.706                0               0         0.938621        -41.4628                0               0
                        0.262421         49.3644                0               0         0.226899         49.7656                0               0
                        0.938613        -41.4613                0               0        0.0661147         120.728                0               0
76.305                  0.228759         48.0997                0               0         0.260503         47.7093                0               0
                       0.0666116          116.61                0               0         0.939268        -43.2152                0               0
                        0.260493         47.7105                0               0         0.228689         48.0855                0               0
                        0.939259        -43.2138                0               0        0.0667481         116.635                0               0
76.35                   0.230262         46.4049                0               0         0.258556         46.0707                0               0
                       0.0672186         112.604                0               0         0.939708        -44.9697                0               0
                        0.258543         46.0724                0               0         0.230192         46.3898                0               0
                        0.939698        -44.9683                0               0        0.0673523          112.63                0               0
76.395                  0.231458         44.6985                0               0         0.256589         44.4503                0               0
                        0.067786         108.693                0               0         0.939914        -46.7252                0               0
                        0.256575         44.4524                0               0         0.231387         44.6825                0               0
                        0.939904        -46.7239                0               0        0.0679169         108.721                0               0
76.44                   0.232331          42.985                0               0         0.254606           42.85                0               0
                       0.0683052         104.883                0               0         0.939867        -48.4804                0               0
