! TOUCHSTONE file generated by CST MICROWAVE STUDIO
! Date and time: Mon Jun 21 17:07:12 2021
! Project name: HIPS_d_sweep.cst
! Parameters = {a=0.735; b=0.393; d=22.6332; fmax=120; fmin=75; phi=0; theta=0}
! Header version: 2018
! Port assignment regex: !\s*Touchstone port\s*([0-9]+)\s*=\s*(CST MWS port|CST DS port)\s*([0-9]+|Zmin|Zmax)\s*\(\"(.*)\"\)(\s*mode\s*([0-9]+))?.*
! Touchstone port assignment:
! Touchstone port 1 = CST MWS port Zmin ("") mode 1
! Touchstone port 2 = CST MWS port Zmin ("") mode 2
! Touchstone port 3 = CST MWS port Zmax ("") mode 1
! Touchstone port 4 = CST MWS port Zmax ("") mode 2
! S-Parameters are not renormalized. Unphysical impedance of 0 will be written to the file.
# GHz S MA R 0
75                      0.129855         100.524                0               0        0.0934681         99.9794                0               0
                       0.0175188        -124.073                0               0          0.98697         10.9939                0               0
                       0.0934679         99.9788                0               0         0.129825         100.413                0               0
                        0.986965          10.992                0               0        0.0173521        -123.634                0               0
75.045                  0.131581         99.8303                0               0         0.097193          99.279                0               0
                       0.0182281        -125.506                0               0         0.986415         10.3285                0               0
                       0.0971928         99.2786                0               0         0.131551         99.7205                0               0
                         0.98641         10.3265                0               0        0.0180586        -125.092                0               0
75.09                   0.133645         99.0578                0               0         0.100482         98.5243                0               0
                       0.0188144        -127.312                0               0         0.985808         9.57456                0               0
                        0.100482         98.5238                0               0         0.133616         98.9503                0               0
                        0.985803          9.5726                0               0        0.0186415        -126.921                0               0
75.135                  0.136038         98.2084                0               0          0.10334          97.702                0               0
                       0.0192851        -129.486                0               0         0.985165         8.73286                0               0
                         0.10334         97.7015                0               0         0.136009         98.1034                0               0
                         0.98516          8.7309                0               0        0.0191085        -129.117                0               0
75.18                   0.138744         97.2831                0               0         0.105777         96.8044                0               0
                       0.0196497        -132.028                0               0           0.9845         7.80448                0               0
                        0.105777         96.8039                0               0         0.138716         97.1808                0               0
                        0.984494         7.80252                0               0        0.0194687        -131.681                0               0
75.225                   0.14175         96.2832                0               0         0.107801         95.8281                0               0
                       0.0199187        -134.939                0               0         0.983822         6.79085                0               0
                        0.107801         95.8275                0               0         0.141721         96.1838                0               0
                        0.983816          6.7889                0               0        0.0197332        -134.613                0               0
75.27                   0.145038         95.2097                0               0         0.109426         94.7726                0               0
                       0.0201044         -138.22                0               0         0.983138         5.69377                0               0
                        0.109426         94.7719                0               0         0.145008         95.1134                0               0
                        0.983133         5.69181                0               0         0.019914        -137.917                0               0
75.315                  0.148588         94.0639                0               0         0.110664         93.6395                0               0
                       0.0202202        -141.872                0               0         0.982453         4.51531                0               0
                        0.110664         93.6388                0               0         0.148558         93.9707                0               0
                        0.982447         4.51335                0               0        0.0200247        -141.594                0               0
75.36                    0.15238          92.847                0               0         0.111527         92.4321                0               0
                       0.0202807        -145.897                0               0         0.981767         3.25788                0               0
                        0.111527         92.4315                0               0         0.152349         92.7571                0               0
                        0.981761         3.25591                0               0        0.0200801        -145.646                0               0
75.405                   0.15639         91.5605                0               0         0.112032         91.1549                0               0
                       0.0203017        -150.293                0               0         0.981081         1.92415                0               0
                        0.112032         91.1542                0               0          0.15636         91.4739                0               0
                        0.981074         1.92217                0               0        0.0200961        -150.072                0               0
75.45                   0.160596         90.2059                0               0         0.112193          89.813                0               0
                       0.0202997        -155.052                0               0         0.980392        0.517072                0               0
                        0.112193         89.8124                0               0         0.160564         90.1226                0               0
                        0.980385         0.51508                0               0        0.0200894        -154.864                0               0
75.495                   0.16497          88.785                0               0         0.112027          88.412                0               0
                       0.0202922        -160.163                0               0         0.979699       -0.960195                0               0
                        0.112027         88.4115                0               0         0.164937          88.705                0               0
                        0.979691       -0.962199                0               0        0.0200777        -160.012                0               0
75.54                   0.169486         87.2998                0               0         0.111552          86.958                0               0
                       0.0202965        -165.605                0               0         0.978999        -2.50425                0               0
                        0.111552         86.9575                0               0         0.169452         87.2232                0               0
                        0.978991        -2.50627                0               0        0.0200784        -165.494                0               0
75.585                  0.174114         85.7528                0               0         0.110786         85.4569                0               0
                       0.0203298         -171.35                0               0          0.97829        -4.11153                0               0
                        0.110786         85.4564                0               0         0.174079         85.6794                0               0
                         0.97828        -4.11355                0               0        0.0201091        -171.283                0               0
75.63                   0.178826         84.1463                0               0          0.10975         83.9146                0               0
                       0.0204082        -177.359                0               0         0.977569        -5.77826                0               0
                        0.109749         83.9142                0               0         0.178789         84.0762                0               0
                        0.977559         -5.7803                0               0        0.0201859        -177.337                0               0
75.675                   0.18359         82.4833                0               0         0.108463          82.337                0               0
                       0.0205459         176.417                0               0         0.976836        -7.50057                0               0
                        0.108462         82.3367                0               0         0.183552         82.4163                0               0
                        0.976825        -7.50261                0               0        0.0203234         176.391                0               0
75.72                   0.188375          80.767                0               0         0.106948         80.7296                0               0
                       0.0207548         170.034                0               0          0.97609        -9.27445                0               0
                        0.106947         80.7293                0               0         0.188336         80.7031                0               0
                        0.976079        -9.27649                0               0        0.0205333          169.96                0               0
75.765                  0.193151         79.0005                0               0         0.105227         79.0976                0               0
                       0.0210434         163.553                0               0         0.975335        -11.0958                0               0
                        0.105226         79.0974                0               0          0.19311         78.9397                0               0
                        0.975323        -11.0978                0               0        0.0208244         163.434                0               0
75.81                   0.197885         77.1876                0               0         0.103322         77.4459                0               0
                       0.0214167         157.038                0               0         0.974573        -12.9605                0               0
                        0.103321         77.4457                0               0         0.197843         77.1297                0               0
                         0.97456        -12.9625                0               0        0.0212017         156.876                0               0
75.855                  0.202548         75.3321                0               0         0.101257         75.7789                0               0
                        0.021876          150.55                0               0         0.973808        -14.8643                0               0
                        0.101256         75.7787                0               0         0.202505          75.277                0               0
                        0.973794        -14.8663                0               0        0.0216661         150.348                0               0
75.9                     0.20711         73.4377                0               0        0.0990535         74.1007                0               0
                       0.0224189         144.144                0               0         0.973047         -16.803                0               0
                       0.0990531         74.1006                0               0         0.207065         73.3855                0               0
                        0.973032         -16.805                0               0        0.0222153         143.908                0               0
75.945                  0.211541         71.5088                0               0        0.0967352         72.4152                0               0
                         0.02304         137.866                0               0         0.972296        -18.7725                0               0
                        0.096735         72.4151                0               0         0.211495         71.4593                0               0
                        0.972281        -18.7745                0               0        0.0228434         137.601                0               0
75.99                   0.215816         69.5492                0               0        0.0943236         70.7258                0               0
                       0.0237309         131.754                0               0         0.971564        -20.7685                0               0
                       0.0943236         70.7257                0               0         0.215768         69.5024                0               0
                        0.971549        -20.7705                0               0        0.0235422         131.466                0               0
76.035                  0.219908         67.5633                0               0        0.0918401         69.0356                0               0
                       0.0244819         125.833                0               0         0.970859         -22.787                0               0
                       0.0918403         69.0355                0               0         0.219859          67.519                0               0
                        0.970843        -22.7889                0               0        0.0243013         125.527                0               0
76.08                   0.223794         65.5551                0               0         0.089305         67.3477                0               0
                       0.0252815         120.121                0               0         0.970188        -24.8239                0               0
                       0.0893053         67.3476                0               0         0.223744         65.5134                0               0
                        0.970172        -24.8258                0               0        0.0251094           119.8                0               0
76.125                  0.227454         63.5287                0               0        0.0867373          65.665                0               0
                       0.0261181         114.625                0               0          0.96956        -26.8753                0               0
                       0.0867378         65.6649                0               0         0.227403         63.4895                0               0
                        0.969543        -26.8771                0               0        0.0259544         114.295                0               0
76.17                   0.230869         61.4882                0               0        0.0841553         63.9903                0               0
                       0.0269796         109.349                0               0          0.96898        -28.9374                0               0
                       0.0841559         63.9902                0               0         0.230816         61.4513                0               0
                        0.968962        -28.9392                0               0        0.0268242         109.013                0               0
76.215                  0.234021         59.4372                0               0        0.0815754         62.3266                0               0
                       0.0278543          104.29                0               0         0.968453        -31.0064                0               0
                       0.0815762         62.3264                0               0         0.233968         59.4027                0               0
                        0.968434        -31.0081                0               0        0.0277071         103.951                0               0
76.26                   0.236899         57.3795                0               0        0.0790131         60.6769                0               0
                       0.0287312         99.4408                0               0         0.967979        -33.0788                0               0
                        0.079014         60.6768                0               0         0.236844         57.3474                0               0
                         0.96796        -33.0805                0               0        0.0285919         99.1008                0               0
76.305                  0.239488         55.3186                0               0        0.0764823         59.0448                0               0
                       0.0295999         94.7947                0               0         0.967558        -35.1512                0               0
                       0.0764832         59.0446                0               0         0.239432         55.2887                0               0
                        0.967539        -35.1529                0               0        0.0294681         94.4556                0               0
76.35                   0.241779         53.2576                0               0        0.0739954         57.4339                0               0
                       0.0304506         90.3421                0               0         0.967184        -37.2204                0               0
                       0.0739963         57.4337                0               0         0.241723           53.23                0               0
                        0.967164        -37.2221                0               0         0.030326         90.0051                0               0
76.395                  0.243764         51.1998                0               0        0.0715637         55.8485                0               0
                       0.0312745         86.0734                0               0         0.966847        -39.2835                0               0
                       0.0715645         55.8483                0               0         0.243707         51.1744                0               0
                        0.966827        -39.2852                0               0        0.0311568         85.7395                0               0
76.44                   0.245435          49.148                0               0         0.069197         54.2933                0               0
                       0.0320636          81.979                0               0         0.966532        -41.3376                0               0
