! TOUCHSTONE file generated by CST MICROWAVE STUDIO
! Date and time: Mon Jun 21 17:07:06 2021
! Project name: HIPS_d_sweep.cst
! Parameters = {a=0.735; b=0.393; d=21.8291; fmax=120; fmin=75; phi=0; theta=0}
! Header version: 2018
! Port assignment regex: !\s*Touchstone port\s*([0-9]+)\s*=\s*(CST MWS port|CST DS port)\s*([0-9]+|Zmin|Zmax)\s*\(\"(.*)\"\)(\s*mode\s*([0-9]+))?.*
! Touchstone port assignment:
! Touchstone port 1 = CST MWS port Zmin ("") mode 1
! Touchstone port 2 = CST MWS port Zmin ("") mode 2
! Touchstone port 3 = CST MWS port Zmax ("") mode 1
! Touchstone port 4 = CST MWS port Zmax ("") mode 2
! S-Parameters are not renormalized. Unphysical impedance of 0 will be written to the file.
# GHz S MA R 0
75                       0.21864         18.1652                0               0         0.144427        -159.401                0               0
                       0.0587864         49.9795                0               0         0.963262          106.11                0               0
                        0.144428        -159.401                0               0         0.218653         18.0908                0               0
                        0.963265         106.109                0               0        0.0588114         49.9397                0               0
75.045                  0.217144          17.576                0               0         0.147681        -160.222                0               0
                       0.0596442         49.3656                0               0         0.964456         105.485                0               0
                        0.147682        -160.222                0               0         0.217157         17.5006                0               0
                        0.964459         105.483                0               0        0.0596689         49.3243                0               0
75.09                   0.215489         16.9189                0               0         0.150773        -161.078                0               0
                       0.0604345          48.641                0               0         0.965108         104.777                0               0
                        0.150774        -161.078                0               0         0.215503         16.8424                0               0
                        0.965109         104.775                0               0        0.0604591         48.5981                0               0
75.135                  0.213675         16.1924                0               0         0.153673        -161.974                0               0
                       0.0611573         47.7942                0               0         0.965344         103.986                0               0
                        0.153673        -161.975                0               0         0.213689         16.1146                0               0
                        0.965345         103.984                0               0        0.0611819         47.7496                0               0
75.18                     0.2117          15.395                0               0         0.156352        -162.919                0               0
                       0.0618138         46.8153                0               0         0.965288         103.109                0               0
                        0.156352        -162.919                0               0         0.211714         15.3157                0               0
                        0.965289         103.107                0               0        0.0618384          46.769                0               0
75.225                   0.20956         14.5255                0               0         0.158785        -163.918                0               0
                       0.0624063         45.6967                0               0         0.965052         102.147                0               0
                        0.158785        -163.918                0               0         0.209574         14.4446                0               0
                        0.965054         102.145                0               0        0.0624309         45.6485                0               0
75.27                    0.20725         13.5832                0               0          0.16095        -164.977                0               0
                       0.0629373         44.4327                0               0         0.964738         101.103                0               0
                        0.160951        -164.977                0               0         0.207264         13.5005                0               0
                         0.96474         101.101                0               0        0.0629619         44.3825                0               0
75.315                  0.204762         12.5677                0               0         0.162831        -166.101                0               0
                       0.0634095           43.02                0               0         0.964429         99.9777                0               0
                        0.162831        -166.101                0               0         0.204776          12.483                0               0
                        0.964432         99.9758                0               0        0.0634339         42.9676                0               0
75.36                   0.202088         11.4788                0               0         0.164415        -167.296                0               0
                       0.0638246         41.4573                0               0         0.964196         98.7746                0               0
                        0.164416        -167.296                0               0         0.202102         11.3918                0               0
                        0.964199         98.7727                0               0        0.0638489         41.4026                0               0
75.405                  0.199218         10.3167                0               0         0.165696        -168.565                0               0
                       0.0641837         39.7455                0               0          0.96409         97.4969                0               0
                        0.165696        -168.565                0               0         0.199232         10.2272                0               0
                        0.964093         97.4951                0               0        0.0642077         39.6883                0               0
75.45                   0.196139         9.08221                0               0         0.166671         -169.91                0               0
                       0.0644867         37.8873                0               0         0.964149         96.1483                0               0
                        0.166672         -169.91                0               0         0.196153         8.98995                0               0
                        0.964153         96.1465                0               0        0.0645103         37.8273                0               0
75.495                  0.192841          7.7763                0               0         0.167344        -171.333                0               0
                       0.0647322         35.8871                0               0         0.964396         94.7324                0               0
                        0.167344        -171.333                0               0         0.192855         7.68101                0               0
                          0.9644         94.7306                0               0        0.0647554         35.8241                0               0
75.54                    0.18931         6.40064                0               0          0.16772        -172.833                0               0
                       0.0649176         33.7508                0               0         0.964841         93.2529                0               0
                        0.167721        -172.833                0               0         0.189324         6.30201                0               0
                        0.964845         93.2511                0               0        0.0649402         33.6843                0               0
75.585                  0.185534          4.9574                0               0         0.167812        -174.409                0               0
                       0.0650391         31.4853                0               0         0.965482         91.7133                0               0
                        0.167812        -174.409                0               0         0.185549          4.8551                0               0
                        0.965486         91.7115                0               0        0.0650611         31.4151                0               0
75.63                   0.181501         3.44939                0               0         0.167631         -176.06                0               0
                       0.0650924         29.0988                0               0         0.966307          90.117                0               0
                        0.167631         -176.06                0               0         0.181516         3.34304                0               0
                         0.96631         90.1151                0               0        0.0651137         29.0245                0               0
75.675                    0.1772         1.88006                0               0         0.167193         -177.78                0               0
                       0.0650724         26.6002                0               0         0.967295         88.4671                0               0
                        0.167194         -177.78                0               0         0.177215         1.76925                0               0
                        0.967299         88.4652                0               0         0.065093         26.5216                0               0
75.72                   0.172622        0.253541                0               0         0.166517        -179.568                0               0
                       0.0649739         23.9992                0               0          0.96842         86.7667                0               0
                        0.166517        -179.567                0               0         0.172638        0.137808                0               0
                        0.968424         86.7647                0               0        0.0649939         23.9159                0               0
75.765                  0.167762        -1.42534                0               0         0.165619         178.584                0               0
                       0.0647922         21.3058                0               0          0.96965         85.0183                0               0
                        0.165619         178.584                0               0         0.167779        -1.54651                0               0
                        0.969653         85.0163                0               0        0.0648115         21.2174                0               0
75.81                   0.162615        -3.15113                0               0         0.164518         176.679                0               0
                       0.0645228         18.5302                0               0         0.970949         83.2243                0               0
                        0.164519         176.679                0               0         0.162633        -3.27831                0               0
                        0.970952         83.2223                0               0        0.0645415         18.4364                0               0
75.855                  0.157182        -4.91776                0               0         0.163233         174.723                0               0
                       0.0641624         15.6827                0               0          0.97228          81.387                0               0
                        0.163234         174.723                0               0           0.1572        -5.05162                0               0
                        0.972283         81.3849                0               0        0.0641806         15.5832                0               0
75.9                    0.151466        -6.71873                0               0         0.161782         172.721                0               0
                       0.0637088          12.773                0               0         0.973607         79.5081                0               0
                        0.161782         172.721                0               0         0.151485        -6.85999                0               0
                         0.97361          79.506                0               0        0.0637267         12.6676                0               0
75.945                  0.145475        -8.54721                0               0          0.16018         170.679                0               0
                       0.0631611          9.8107                0               0         0.974896         77.5895                0               0
                        0.160181         170.679                0               0         0.145494         -8.6967                0               0
                        0.974899         77.5873                0               0        0.0631788           9.699                0               0
75.99                   0.139219        -10.3962                0               0         0.158445         168.602                0               0
                       0.0625197         6.80424                0               0         0.976118         75.6325                0               0
                        0.158445         168.602                0               0         0.139238        -10.5549                0               0
                        0.976122         75.6303                0               0        0.0625374         6.68598                0               0
76.035                  0.132712        -12.2589                0               0         0.156589         166.493                0               0
                       0.0617862         3.76114                0               0         0.977255         73.6386                0               0
                         0.15659         166.493                0               0         0.132731        -12.4279                0               0
                        0.977259         73.6364                0               0        0.0618041         3.63603                0               0
76.08                    0.12597        -14.1285                0               0         0.154626         164.357                0               0
                       0.0609634         0.68761                0               0         0.978299         71.6093                0               0
                        0.154627         164.357                0               0         0.125988        -14.3091                0               0
                        0.978302         71.6071                0               0        0.0609818        0.555324                0               0
76.125                  0.119008        -15.9988                0               0         0.152566         162.197                0               0
                        0.060055        -2.41162                0               0         0.979259         69.5464                0               0
                        0.152566         162.197                0               0         0.119026        -16.1925                0               0
                        0.979262         69.5443                0               0         0.060074         -2.5514                0               0
76.17                   0.111845        -17.8639                0               0         0.150417         160.015                0               0
                       0.0590651        -5.53338                0               0         0.980162         67.4524                0               0
                        0.150418         160.015                0               0         0.111862        -18.0725                0               0
                        0.980163         67.4504                0               0         0.059085        -5.68103                0               0
76.215                  0.104495        -19.7178                0               0         0.148187         157.815                0               0
                       0.0579982        -8.67616                0               0         0.981054         65.3311                0               0
                        0.148188         157.815                0               0         0.104511        -19.9437                0               0
                        0.981053         65.3291                0               0        0.0580193        -8.83208                0               0
76.26                  0.0969723        -21.5546                0               0         0.145882         155.597                0               0
                       0.0568588          -11.84                0               0         0.981997          63.188                0               0
                        0.145882         155.597                0               0        0.0969879        -21.8006                0               0
                        0.981992         63.1861                0               0        0.0568813        -12.0046                0               0
76.305                 0.0892892        -23.3666                0               0         0.143504         153.362                0               0
                       0.0556512        -15.0264                0               0         0.983053         61.0312                0               0
                        0.143504         153.362                0               0        0.0893033        -23.6364                0               0
                        0.983045         61.0294                0               0        0.0556753        -15.2002                0               0
76.35                   0.081455        -25.1437                0               0         0.141058         151.112                0               0
                       0.0543796        -18.2378                0               0         0.984272         58.8716                0               0
                        0.141058         151.112                0               0        0.0814674        -25.4422                0               0
                         0.98426         58.8699                0               0        0.0544054        -18.4215                0               0
76.395                 0.0734779        -26.8699                0               0         0.138548         148.846                0               0
                       0.0530476        -21.4775                0               0         0.985661         56.7224                0               0
                        0.138547         148.846                0               0        0.0734882        -27.2036                0               0
                        0.985644         56.7206                0               0        0.0530754        -21.6715                0               0
76.44                  0.0653665        -28.5191                0               0         0.135978         146.567                0               0
                       0.0516591        -24.7481                0               0         0.987166         54.5973                0               0
