! TOUCHSTONE file generated by CST MICROWAVE STUDIO
! Date and time: Mon Jun 21 17:07:14 2021
! Project name: HIPS_d_sweep.cst
! Parameters = {a=0.735; b=0.393; d=22.9347; fmax=120; fmin=75; phi=0; theta=0}
! Header version: 2018
! Port assignment regex: !\s*Touchstone port\s*([0-9]+)\s*=\s*(CST MWS port|CST DS port)\s*([0-9]+|Zmin|Zmax)\s*\(\"(.*)\"\)(\s*mode\s*([0-9]+))?.*
! Touchstone port assignment:
! Touchstone port 1 = CST MWS port Zmin ("") mode 1
! Touchstone port 2 = CST MWS port Zmin ("") mode 2
! Touchstone port 3 = CST MWS port Zmax ("") mode 1
! Touchstone port 4 = CST MWS port Zmax ("") mode 2
! S-Parameters are not renormalized. Unphysical impedance of 0 will be written to the file.
# GHz S MA R 0
75                      0.228585         66.2319                0               0        0.0689543         69.3884                0               0
                       0.0239232          107.95                0               0          0.97079        -24.0944                0               0
                       0.0689554         69.3892                0               0         0.228543         66.2536                0               0
                        0.970785        -24.0924                0               0        0.0241729         108.626                0               0
75.045                  0.228999         65.5893                0               0        0.0726321         68.5472                0               0
                       0.0245097         108.943                0               0           0.9701        -24.7601                0               0
                       0.0726331         68.5479                0               0         0.228955         65.6106                0               0
                        0.970089        -24.7588                0               0        0.0247674         109.587                0               0
75.09                   0.229587         64.8624                0               0        0.0759377         67.6816                0               0
                       0.0251451         109.464                0               0         0.969617        -25.5056                0               0
                       0.0759387         67.6823                0               0         0.229541         64.8831                0               0
                        0.969604        -25.5044                0               0        0.0254087         110.079                0               0
75.135                  0.230331         64.0513                0               0        0.0788691         66.7805                0               0
                       0.0258184         109.541                0               0         0.969239        -26.3333                0               0
                       0.0788702         66.7812                0               0         0.230283         64.0715                0               0
                        0.969228        -26.3319                0               0        0.0260863         110.131                0               0
75.18                    0.23121         63.1569                0               0        0.0814283         65.8365                0               0
                       0.0265211         109.203                0               0         0.968901        -27.2441                0               0
                       0.0814294         65.8372                0               0          0.23116         63.1764                0               0
                        0.968892        -27.2425                0               0        0.0267916         109.772                0               0
75.225                  0.232205         62.1802                0               0        0.0836204         64.8447                0               0
                       0.0272462         108.482                0               0         0.968561        -28.2377                0               0
                       0.0836216         64.8454                0               0         0.232154          62.199                0               0
                        0.968554        -28.2359                0               0        0.0275179         109.034                0               0
75.27                   0.233297         61.1228                0               0        0.0854537         63.8024                0               0
                       0.0279884         107.412                0               0         0.968199         -29.313                0               0
                       0.0854549         63.8031                0               0         0.233244         61.1408                0               0
                        0.968192        -29.3111                0               0        0.0282601         107.949                0               0
75.315                  0.234463         59.9866                0               0        0.0869387         62.7083                0               0
                       0.0287434         106.024                0               0          0.96781        -30.4686                0               0
                       0.0869399          62.709                0               0         0.234409         60.0037                0               0
                        0.967804        -30.4666                0               0        0.0290139         106.548                0               0
75.36                   0.235683         58.7735                0               0        0.0880878         61.5622                0               0
                       0.0295078         104.348                0               0         0.967399        -31.7022                0               0
                        0.088089         61.5629                0               0         0.235628         58.7897                0               0
                        0.967394        -31.7002                0               0        0.0297761         104.862                0               0
75.405                  0.236933         57.4858                0               0        0.0889151         60.3649                0               0
                       0.0302783         102.413                0               0         0.966982        -33.0114                0               0
                       0.0889163         60.3656                0               0         0.236877          57.501                0               0
                        0.966975        -33.0094                0               0        0.0305436         102.919                0               0
75.45                   0.238191         56.1259                0               0         0.089436         59.1177                0               0
                       0.0310522         100.248                0               0         0.966572        -34.3934                0               0
                       0.0894372         59.1184                0               0         0.238134         56.1401                0               0
                        0.966565        -34.3914                0               0        0.0313135         100.747                0               0
75.495                  0.239433         54.6964                0               0        0.0896667         57.8222                0               0
                       0.0318265         97.8787                0               0         0.966189        -35.8449                0               0
                       0.0896679         57.8229                0               0         0.239374         54.7095                0               0
                        0.966181         -35.843                0               0        0.0320831         98.3715                0               0
75.54                   0.240632         53.2001                0               0         0.089624         56.4804                0               0
                        0.032598         95.3302                0               0         0.965846        -37.3627                0               0
                       0.0896253         56.4812                0               0         0.240573          53.212                0               0
                        0.965838        -37.3608                0               0        0.0328494         95.8179                0               0
75.585                  0.241765         51.6397                0               0        0.0893253         55.0946                0               0
                       0.0333635         92.6254                0               0         0.965558        -38.9434                0               0
                       0.0893266         55.0954                0               0         0.241704         51.6505                0               0
                        0.965549        -38.9415                0               0         0.033609         93.1086                0               0
75.63                   0.242804         50.0184                0               0        0.0887881          53.667                0               0
                       0.0341192         89.7861                0               0         0.965332        -40.5833                0               0
                       0.0887893         53.6677                0               0         0.242743          50.028                0               0
                        0.965324        -40.5814                0               0        0.0343583         90.2652                0               0
75.675                  0.243725         48.3395                0               0        0.0880298         52.1997                0               0
                       0.0348612         86.8323                0               0         0.965175        -42.2789                0               0
                       0.0880311         52.2005                0               0         0.243662         48.3478                0               0
                        0.965166        -42.2769                0               0        0.0350935         87.3076                0               0
75.72                   0.244501         46.6063                0               0        0.0870678         50.6951                0               0
                       0.0355852         83.7824                0               0         0.965085        -44.0265                0               0
                       0.0870692         50.6958                0               0         0.244437         46.6132                0               0
                        0.965077        -44.0244                0               0        0.0358104         84.2541                0               0
75.765                  0.245107         44.8224                0               0        0.0859195          49.155                0               0
                       0.0362867         80.6536                0               0         0.965061        -45.8225                0               0
                       0.0859208         49.1558                0               0         0.245043          44.828                0               0
                        0.965053        -45.8203                0               0        0.0365045         81.1218                0               0
75.81                    0.24552         42.9916                0               0        0.0846015         47.5817                0               0
                       0.0369611         77.4611                0               0         0.965095        -47.6635                0               0
                       0.0846029         47.5825                0               0         0.245455         42.9957                0               0
                        0.965086        -47.6612                0               0        0.0371712         77.9259                0               0
75.855                  0.245718         41.1177                0               0        0.0831304         45.9768                0               0
                       0.0376036         74.2192                0               0         0.965178        -49.5462                0               0
                       0.0831318         45.9776                0               0         0.245652         41.1204                0               0
                        0.965169        -49.5438                0               0        0.0378059         74.6807                0               0
75.9                    0.245679         39.2047                0               0        0.0815222         44.3422                0               0
                       0.0382095         70.9405                0               0         0.965302        -51.4672                0               0
                       0.0815236         44.3431                0               0         0.245612         39.2059                0               0
                        0.965293        -51.4648                0               0        0.0384038         71.3986                0               0
75.945                  0.245386         37.2567                0               0        0.0797922         42.6795                0               0
                       0.0387742         67.6363                0               0         0.965458        -53.4235                0               0
                       0.0797937         42.6804                0               0         0.245319         37.2563                0               0
                        0.965448        -53.4211                0               0        0.0389605          68.091                0               0
75.99                   0.244823         35.2776                0               0        0.0779556         40.9903                0               0
                       0.0392932         64.3165                0               0         0.965641        -55.4121                0               0
                       0.0779571         40.9912                0               0         0.244755         35.2755                0               0
                         0.96563        -55.4099                0               0        0.0394715          64.768                0               0
76.035                  0.243977         33.2712                0               0        0.0760266         39.2762                0               0
                       0.0397623         60.9901                0               0         0.965853        -57.4301                0               0
                       0.0760281         39.2771                0               0         0.243909         33.2675                0               0
                        0.965842        -57.4281                0               0        0.0399327         61.4384                0               0
76.08                    0.24284         31.2412                0               0        0.0740193         37.5386                0               0
                       0.0401777         57.6647                0               0         0.966105        -59.4744                0               0
                       0.0740207         37.5395                0               0         0.242771         31.2358                0               0
                        0.966094        -59.4727                0               0        0.0403401         58.1098                0               0
76.125                  0.241402          29.191                0               0        0.0719467         35.7792                0               0
                       0.0405359         54.3469                0               0         0.966418        -61.5415                0               0
                       0.0719482         35.7802                0               0         0.241332         29.1839                0               0
                         0.96641        -61.5403                0               0        0.0406905         54.7891                0               0
76.17                   0.239661         27.1237                0               0        0.0698218         33.9998                0               0
                       0.0408337         51.0427                0               0         0.966827        -63.6274                0               0
                       0.0698232         34.0008                0               0          0.23959         27.1147                0               0
                        0.966824        -63.6266                0               0        0.0409805          51.482                0               0
76.215                  0.237613          25.042                0               0        0.0676566         32.2023                0               0
                       0.0410684         47.7569                0               0         0.967376        -65.7266                0               0
                        0.067658         32.2032                0               0         0.237542         25.0311                0               0
                        0.967381        -65.7261                0               0        0.0412077         48.1935                0               0
76.26                   0.235258         22.9481                0               0        0.0654627         30.3886                0               0
                       0.0412378         44.4938                0               0         0.968107        -67.8318                0               0
                       0.0654642         30.3896                0               0         0.235186         22.9352                0               0
                        0.968122        -67.8315                0               0        0.0413698         44.9279                0               0
76.305                  0.232596          20.844                0               0        0.0632513          28.561                0               0
                       0.0413403         41.2575                0               0         0.969041        -69.9342                0               0
                       0.0632528          28.562                0               0         0.232523         20.8291                0               0
                        0.969064        -69.9334                0               0        0.0414651         41.6893                0               0
76.35                   0.229629         18.7317                0               0        0.0610326         26.7217                0               0
                       0.0413746         38.0514                0               0         0.970146        -72.0236                0               0
                       0.0610342         26.7228                0               0         0.229556         18.7147                0               0
                        0.970168        -72.0221                0               0        0.0414925         38.4812                0               0
76.395                   0.22636         16.6134                0               0        0.0588165         24.8727                0               0
                       0.0413406         34.8795                0               0         0.971311        -74.0921                0               0
                       0.0588182          24.874                0               0         0.226286         16.5941                0               0
                        0.971321        -74.0898                0               0        0.0414517         35.3075                0               0
76.44                   0.222793          14.492                0               0        0.0566123         23.0154                0               0
                       0.0412386         31.7457                0               0          0.97236        -76.1385                0               0
