! TOUCHSTONE file generated by CST MICROWAVE STUDIO
! Date and time: Mon Jun 21 17:06:31 2021
! Project name: HIPS_d_sweep.cst
! Parameters = {a=0.735; b=0.393; d=17.407; fmax=120; fmin=75; phi=0; theta=0}
! Header version: 2018
! Port assignment regex: !\s*Touchstone port\s*([0-9]+)\s*=\s*(CST MWS port|CST DS port)\s*([0-9]+|Zmin|Zmax)\s*\(\"(.*)\"\)(\s*mode\s*([0-9]+))?.*
! Touchstone port assignment:
! Touchstone port 1 = CST MWS port Zmin ("") mode 1
! Touchstone port 2 = CST MWS port Zmin ("") mode 2
! Touchstone port 3 = CST MWS port Zmax ("") mode 1
! Touchstone port 4 = CST MWS port Zmax ("") mode 2
! S-Parameters are not renormalized. Unphysical impedance of 0 will be written to the file.
# GHz S MA R 0
75                      0.141933         11.1581                0               0         0.422333        -6.17572                0               0
                        0.117706         24.5006                0               0         0.887489         -98.658                0               0
                        0.422335        -6.17572                0               0         0.141904         11.2201                0               0
                        0.887488        -98.6554                0               0         0.117736         24.5839                0               0
75.045                  0.140715         11.0563                0               0         0.425402        -6.76084                0               0
                        0.118977         23.7836                0               0          0.88728        -99.1832                0               0
                        0.425404        -6.76083                0               0         0.140686         11.1189                0               0
                        0.887279        -99.1806                0               0         0.119128         23.8285                0               0
75.09                   0.139274         10.9367                0               0         0.428099        -7.39507                0               0
                        0.119486         22.9785                0               0         0.886594        -99.7763                0               0
                          0.4281        -7.39506                0               0         0.139246         11.0003                0               0
                        0.886593        -99.7737                0               0         0.119687         23.0363                0               0
75.135                  0.137632         10.7934                0               0         0.430437        -8.08339                0               0
                        0.119465         21.9788                0               0         0.885556         -100.44                0               0
                        0.430439        -8.08338                0               0         0.137604         10.8582                0               0
                        0.885556        -100.437                0               0         0.119636         22.0583                0               0
75.18                   0.135807         10.6229                0               0         0.432438        -8.82992                0               0
                        0.119151         20.7585                0               0         0.884291        -101.175                0               0
                         0.43244        -8.82991                0               0         0.135779         10.6891                0               0
                         0.88429        -101.172                0               0         0.119251          20.848                0               0
75.225                  0.133818         10.4239                0               0         0.434127        -9.63784                0               0
                        0.118716         19.3364                0               0         0.882913        -101.981                0               0
                        0.434128        -9.63785                0               0          0.13379         10.4917                0               0
                        0.882912        -101.979                0               0         0.118741         19.4221                0               0
75.27                   0.131682         10.1968                0               0         0.435529        -10.5094                0               0
                        0.118261         17.7459                0               0         0.881526        -102.857                0               0
                         0.43553        -10.5094                0               0         0.131654         10.2665                0               0
                        0.881524        -102.854                0               0         0.118223         17.8195                0               0
75.315                  0.129413         9.94355                0               0         0.436674        -11.4458                0               0
                        0.117837         16.0203                0               0         0.880218        -103.799                0               0
                        0.436675        -11.4459                0               0         0.129385         10.0153                0               0
                        0.880216        -103.797                0               0         0.117753         16.0787                0               0
75.36                    0.12702         9.66719                0               0          0.43759        -12.4475                0               0
                        0.117464         14.1865                0               0          0.87906        -104.805                0               0
                        0.437591        -12.4476                0               0         0.126992         9.74123                0               0
                        0.879058        -104.803                0               0         0.117351         14.2306                0               0
75.405                  0.124514         9.37168                0               0         0.438304        -13.5141                0               0
                        0.117146         12.2652                0               0          0.87811        -105.871                0               0
                        0.438305        -13.5142                0               0         0.124486         9.44819                0               0
                        0.878108        -105.868                0               0         0.117015         12.2975                0               0
75.45                     0.1219         9.06178                0               0          0.43884        -14.6442                0               0
                        0.116878         10.2708                0               0         0.877407        -106.992                0               0
                        0.438841        -14.6443                0               0         0.121873           9.141                0               0
                        0.877404        -106.989                0               0          0.11674         10.2948                0               0
75.495                  0.119183         8.74297                0               0          0.43922         -15.836                0               0
                        0.116652         8.21369                0               0         0.876976        -108.164                0               0
                        0.439221        -15.8362                0               0         0.119156         8.82516                0               0
                        0.876974        -108.162                0               0         0.116512         8.23306                0               0
75.54                   0.116366         8.42146                0               0         0.439461        -17.0873                0               0
                        0.116457         6.10078                0               0          0.87683        -109.384                0               0
                        0.439462        -17.0875                0               0         0.116341         8.50691                0               0
                        0.876828        -109.382                0               0         0.116322         6.11883                0               0
75.585                  0.113452         8.10424                0               0         0.439579        -18.3952                0               0
                        0.116285         3.93668                0               0         0.876972        -110.647                0               0
                        0.439579        -18.3954                0               0         0.113428         8.19326                0               0
                         0.87697        -110.645                0               0         0.116156         3.95639                0               0
75.63                   0.110441         7.79921                0               0         0.439583        -19.7567                0               0
                        0.116124         1.72429                0               0         0.877393         -111.95                0               0
                        0.439583        -19.7569                0               0          0.11042         7.89215                0               0
                        0.877391        -111.948                0               0         0.116004         1.74819                0               0
75.675                  0.107336         7.51533                0               0         0.439481        -21.1684                0               0
                        0.115964        -0.53465                0               0         0.878078         -113.29                0               0
                        0.439482        -21.1686                0               0         0.107317         7.61258                0               0
                        0.878076        -113.288                0               0         0.115855       -0.504466                0               0
75.72                   0.104138          7.2629                0               0         0.439278        -22.6269                0               0
                        0.115798        -2.83929                0               0         0.879006        -114.663                0               0
                        0.439279        -22.6271                0               0         0.104122         7.36486                0               0
                        0.879004        -114.661                0               0         0.115699        -2.80111                0               0
75.765                  0.100848         7.05378                0               0         0.438975        -24.1287                0               0
                        0.115613        -5.18936                0               0         0.880151        -116.067                0               0
                        0.438975        -24.1289                0               0         0.100835          7.1609                0               0
                         0.88015        -116.065                0               0         0.115527        -5.14184                0               0
75.81                  0.0974695         6.90181                0               0          0.43857        -25.6702                0               0
                        0.115403        -7.58508                0               0         0.881483          -117.5                0               0
                        0.438571        -25.6704                0               0        0.0974599          7.0146                0               0
                        0.881482        -117.498                0               0         0.115328        -7.52714                0               0
75.855                 0.0940058         6.82325                0               0         0.438062        -27.2479                0               0
                        0.115156        -10.0269                0               0          0.88297         -118.96                0               0
                        0.438063         -27.248                0               0        0.0940004         6.94225                0               0
                        0.882968        -118.957                0               0         0.115093        -9.95781                0               0
75.9                   0.0904627         6.83732                0               0         0.437445        -28.8582                0               0
                        0.114863        -12.5158                0               0         0.884576        -120.444                0               0
                        0.437446        -28.8583                0               0        0.0904623          6.9631                0               0
                        0.884574        -120.441                0               0         0.114812        -12.4349                0               0
75.945                 0.0868483         6.96682                0               0         0.436714        -30.4978                0               0
                        0.114515        -15.0526                0               0         0.886266        -121.951                0               0
                        0.436715        -30.4979                0               0        0.0868535         7.10003                0               0
                        0.886264        -121.948                0               0         0.114474        -14.9595                0               0
75.99                  0.0831737         7.23895                0               0         0.435864        -32.1633                0               0
                        0.114101        -17.6387                0               0         0.888003         -123.48                0               0
                        0.435865        -32.1634                0               0        0.0831854         7.38025                0               0
                        0.888001        -123.477                0               0         0.114069        -17.5332                0               0
76.035                 0.0794538         7.68615                0               0         0.434887        -33.8516                0               0
                         0.11361        -20.2757                0               0         0.889751        -125.029                0               0
                        0.434888        -33.8516                0               0        0.0794728         7.83624                0               0
                        0.889749        -125.026                0               0         0.113585        -20.1579                0               0
76.08                  0.0757081         8.34709                0               0         0.433779        -35.5595                0               0
                        0.113033        -22.9659                0               0         0.891472        -126.598                0               0
                         0.43378        -35.5595                0               0        0.0757357         8.50666                0               0
                        0.891471        -126.595                0               0         0.113013        -22.8358                0               0
76.125                 0.0719626          9.2676                0               0         0.432534        -37.2842                0               0
                        0.112359        -25.7122                0               0         0.893133        -128.184                0               0
                        0.432535        -37.2842                0               0        0.0719999         9.43727                0               0
                        0.893131        -128.181                0               0         0.112341        -25.5703                0               0
76.17                  0.0682503         10.5014                0               0         0.431148         -39.023                0               0
                        0.111579        -28.5188                0               0         0.894699        -129.789                0               0
                        0.431149        -39.0229                0               0        0.0682989         10.6817                0               0
                        0.894697        -129.786                0               0         0.111559        -28.3657                0               0
76.215                 0.0646134         12.1104                0               0         0.429617        -40.7733                0               0
                        0.110688        -31.3912                0               0         0.896141         -131.41                0               0
                        0.429618        -40.7732                0               0         0.064675         12.3014                0               0
                        0.896138        -131.407                0               0         0.110662        -31.2284                0               0
76.26                   0.061105         14.1634                0               0         0.427942        -42.5328                0               0
                        0.109684        -34.3372                0               0          0.89743        -133.048                0               0
                        0.427943        -42.5327                0               0        0.0611815         14.3649                0               0
                        0.897428        -133.045                0               0         0.109647        -34.1668                0               0
76.305                 0.0577903         16.7328                0               0         0.426123        -44.2994                0               0
                        0.108574        -37.3663                0               0         0.898549        -134.703                0               0
                        0.426124        -44.2994                0               0        0.0578838         16.9436                0               0
                        0.898546        -134.699                0               0         0.108522        -37.1916                0               0
76.35                  0.0547477         19.8873                0               0         0.424167        -46.0714                0               0
                         0.10738        -40.4888                0               0         0.899486        -136.373                0               0
                        0.424167        -46.0713                0               0        0.0548603          20.105                0               0
                        0.899484         -136.37                0               0         0.107311        -40.3143                0               0
76.395                 0.0520674          23.679                0               0         0.422081         -47.847                0               0
                        0.106142        -43.7112                0               0         0.900248         -138.06                0               0
                        0.422082         -47.847                0               0         0.052201         23.8994                0               0
                        0.900246        -138.057                0               0         0.106059        -43.5422                0               0
76.44                  0.0498465         28.1238                0               0         0.419883         -49.625                0               0
                        0.104919        -47.0287                0               0         0.900864        -139.764                0               0
