! TOUCHSTONE file generated by CST MICROWAVE STUDIO
! Date and time: Mon Jun 21 17:07:30 2021
! Project name: HIPS_d_sweep.cst
! Parameters = {a=0.735; b=0.393; d=24.5427; fmax=120; fmin=75; phi=0; theta=0}
! Header version: 2018
! Port assignment regex: !\s*Touchstone port\s*([0-9]+)\s*=\s*(CST MWS port|CST DS port)\s*([0-9]+|Zmin|Zmax)\s*\(\"(.*)\"\)(\s*mode\s*([0-9]+))?.*
! Touchstone port assignment:
! Touchstone port 1 = CST MWS port Zmin ("") mode 1
! Touchstone port 2 = CST MWS port Zmin ("") mode 2
! Touchstone port 3 = CST MWS port Zmax ("") mode 1
! Touchstone port 4 = CST MWS port Zmax ("") mode 2
! S-Parameters are not renormalized. Unphysical impedance of 0 will be written to the file.
# GHz S MA R 0
75                      0.241988         58.3976                0               0        0.0313543         45.0819                0               0
                       0.0303254         44.1023                0               0         0.969298         148.612                0               0
                       0.0313549         45.0833                0               0         0.241983          58.363                0               0
                        0.969298         148.611                0               0        0.0303311         44.0271                0               0
75.045                  0.242334          57.714                0               0         0.027448         42.1511                0               0
                       0.0299137         45.1318                0               0         0.969856         147.982                0               0
                       0.0274484         42.1538                0               0         0.242328         57.6792                0               0
                        0.969854          147.98                0               0        0.0299187         45.0549                0               0
75.09                   0.242752         56.9471                0               0        0.0239888          38.938                0               0
                       0.0295958         45.9608                0               0         0.969892         147.221                0               0
                       0.0239891         38.9417                0               0         0.242745         56.9122                0               0
                         0.96989         147.219                0               0        0.0296002         45.8823                0               0
75.135                  0.243238         56.0947                0               0        0.0209638         35.3817                0               0
                       0.0293713         46.5728                0               0         0.969683         146.339                0               0
                        0.020964         35.3859                0               0         0.243232         56.0599                0               0
                        0.969682         146.338                0               0        0.0293752         46.4929                0               0
75.18                   0.243785         55.1554                0               0        0.0183613         31.4342                0               0
                       0.0292367         46.9538                0               0         0.969406         145.349                0               0
                       0.0183615         31.4388                0               0         0.243779         55.1207                0               0
                        0.969405         145.348                0               0        0.0292403         46.8727                0               0
75.225                   0.24438         54.1282                0               0        0.0161695         27.0796                0               0
                       0.0291867         47.0931                0               0         0.969157         144.262                0               0
                       0.0161698         27.0842                0               0         0.244375         54.0937                0               0
                        0.969157         144.261                0               0        0.0291899         47.0108                0               0
75.27                   0.245006         53.0127                0               0        0.0143748         22.3592                0               0
                       0.0292136         46.9832                0               0         0.968974         143.087                0               0
                       0.0143751         22.3638                0               0         0.245002         52.9784                0               0
                        0.968975         143.086                0               0        0.0292166         46.8999                0               0
75.315                  0.245642         51.8094                0               0        0.0129591         17.3983                0               0
                       0.0293085         46.6209                0               0         0.968859         141.832                0               0
                       0.0129594         17.4027                0               0         0.245639         51.7751                0               0
                         0.96886          141.83                0               0        0.0293112         46.5366                0               0
75.36                   0.246266         50.5192                0               0        0.0118979          12.418                0               0
                        0.029461         46.0066                0               0         0.968795         140.502                0               0
                       0.0118982         12.4221                0               0         0.246263          50.485                0               0
                        0.968795           140.5                0               0        0.0294636         45.9214                0               0
75.405                  0.246849          49.144                0               0        0.0111596         7.71489                0               0
                       0.0296603         45.1443                0               0         0.968756         139.101                0               0
                       0.0111599         7.71868                0               0         0.246847         49.1099                0               0
                        0.968756         139.099                0               0        0.0296627         45.0582                0               0
75.45                   0.247363         47.6863                0               0        0.0107075         3.60428                0               0
                       0.0298948         44.0412                0               0          0.96872         137.631                0               0
                       0.0107077         3.60773                0               0         0.247362         47.6522                0               0
                        0.968719          137.63                0               0        0.0298971         43.9543                0               0
75.495                  0.247781         46.1492                0               0        0.0105051        0.345893                0               0
                        0.030153         42.7074                0               0         0.968673         136.095                0               0
                       0.0105053        0.348966                0               0         0.247779         46.1151                0               0
                        0.968672         136.093                0               0        0.0301552         42.6196                0               0
75.54                   0.248072         44.5363                0               0        0.0105216        -1.91318                0               0
                       0.0304235         41.1547                0               0          0.96861         134.493                0               0
                       0.0105217         -1.9105                0               0          0.24807         44.5023                0               0
                        0.968609         134.491                0               0        0.0304257          41.066                0               0
75.585                  0.248208         42.8517                0               0        0.0107356        -3.15809                0               0
                        0.030695         39.3964                0               0         0.968537         132.827                0               0
                       0.0107356        -3.15581                0               0         0.248207         42.8178                0               0
                        0.968536         132.825                0               0        0.0306972         39.3068                0               0
75.63                   0.248164         41.0998                0               0        0.0111364        -3.49086                0               0
                       0.0309569         37.4468                0               0         0.968468         131.097                0               0
                       0.0111363        -3.48894                0               0         0.248162         41.0659                0               0
                        0.968467         131.096                0               0        0.0309592         37.3562                0               0
75.675                  0.247913         39.2848                0               0        0.0117217        -3.09479                0               0
                       0.0311991         35.3201                0               0         0.968421         129.307                0               0
                       0.0117216        -3.09319                0               0          0.24791          39.251                0               0
                        0.968421         129.305                0               0        0.0312016         35.2285                0               0
75.72                   0.247432         37.4113                0               0        0.0124941         -2.1926                0               0
                       0.0314122         33.0307                0               0         0.968419         127.457                0               0
                       0.0124939        -2.19125                0               0          0.24743         37.3776                0               0
                        0.968419         127.456                0               0         0.031415         32.9379                0               0
75.765                  0.246701         35.4835                0               0        0.0134573        -1.00796                0               0
                       0.0315876         30.5922                0               0         0.968483         125.552                0               0
                       0.0134571        -1.00682                0               0         0.246699         35.4499                0               0
                        0.968483          125.55                0               0        0.0315907         30.4981                0               0
75.81                     0.2457         33.5055                0               0        0.0146133        0.263141                0               0
                       0.0317172         28.0174                0               0         0.968631         123.594                0               0
                        0.014613        0.264107                0               0         0.245697         33.4721                0               0
                        0.968631         123.592                0               0        0.0317207         27.9218                0               0
75.855                   0.24441         31.4814                0               0        0.0159607         1.46813                0               0
                        0.031794         25.3181                0               0         0.968876         121.587                0               0
                       0.0159604         1.46894                0               0         0.244407          31.448                0               0
                        0.968877         121.586                0               0         0.031798         25.2209                0               0
75.9                    0.242815         29.4148                0               0        0.0174947         2.50135                0               0
                       0.0318113         22.5049                0               0         0.969227         119.536                0               0
                       0.0174943         2.50201                0               0         0.242813         29.3816                0               0
                        0.969228         119.534                0               0        0.0318159         22.4058                0               0
75.945                  0.240902         27.3096                0               0         0.019207         3.29897                0               0
                       0.0317634         19.5874                0               0         0.969684         117.445                0               0
                       0.0192065         3.29948                0               0           0.2409         27.2764                0               0
                        0.969685         117.443                0               0        0.0317687         19.4862                0               0
75.99                   0.238655         25.1692                0               0        0.0210868         3.82987                0               0
                        0.031645         16.5737                0               0         0.970242         115.318                0               0
                       0.0210863         3.83023                0               0         0.238654         25.1361                0               0
                        0.970243         115.317                0               0        0.0316511         16.4703                0               0
76.035                  0.236065         22.9974                0               0        0.0231215         4.08606                0               0
                       0.0314516         13.4713                0               0         0.970891         113.161                0               0
                       0.0231211         4.08628                0               0         0.236063         22.9643                0               0
                        0.970892         113.159                0               0        0.0314585         13.3654                0               0
76.08                   0.233121         20.7978                0               0        0.0252973         4.07453                0               0
                       0.0311792         10.2863                0               0         0.971617         110.977                0               0
                       0.0252968         4.07462                0               0          0.23312         20.7648                0               0
                        0.971618         110.975                0               0         0.031187         10.1775                0               0
76.125                  0.229816         18.5743                0               0        0.0275994          3.8112                0               0
                       0.0308245         7.02407                0               0         0.972406          108.77                0               0
                       0.0275989          3.8112                0               0         0.229816         18.5413                0               0
                        0.972407         108.769                0               0        0.0308334         6.91223                0               0
76.17                   0.226148         16.3308                0               0        0.0300128          3.3169                0               0
                       0.0303851         3.68931                0               0          0.97324         106.545                0               0
                       0.0300123         3.31682                0               0         0.226148         16.2979                0               0
                        0.973242         106.544                0               0        0.0303951         3.57408                0               0
76.215                  0.222115         14.0716                0               0        0.0325222         2.61482                0               0
                       0.0298593        0.286029                0               0         0.974107         104.306                0               0
                       0.0325217         2.61468                0               0         0.222115         14.0388                0               0
                        0.974109         104.304                0               0        0.0298705        0.167078                0               0
76.26                   0.217722         11.8007                0               0        0.0351124         1.72909                0               0
                       0.0292465        -3.18233                0               0         0.974998         102.055                0               0
                       0.0351119         1.72892                0               0         0.217722         11.7681                0               0
                           0.975         102.054                0               0        0.0292589        -3.30536                0               0
76.305                  0.212976         9.52256                0               0        0.0377683        0.684092                0               0
                       0.0285473        -6.71295                0               0         0.975908         99.7969                0               0
                       0.0377677        0.683917                0               0         0.212977         9.49001                0               0
                         0.97591         99.7952                0               0        0.0285612        -6.84043                0               0
76.35                   0.207892           7.241                0               0        0.0404751        -0.49594                0               0
                        0.027764        -10.3038                0               0         0.976842         97.5334                0               0
                       0.0404745       -0.496102                0               0         0.207894          7.2086                0               0
                        0.976844         97.5317                0               0        0.0277794        -10.4362                0               0
76.395                  0.202487         4.95958                0               0        0.0432187        -1.78714                0               0
                       0.0269004        -13.9542                0               0         0.977812         95.2677                0               0
                       0.0432181        -1.78728                0               0         0.202489         4.92734                0               0
                        0.977814          95.266                0               0        0.0269175         -14.092                0               0
76.44                   0.196784         2.68108                0               0        0.0459853        -3.16638                0               0
                       0.0259624        -17.6654                0               0          0.97884         93.0025                0               0
