! TOUCHSTONE file generated by CST MICROWAVE STUDIO
! Date and time: Mon Jun 21 17:07:44 2021
! Project name: HIPS_d_sweep.cst
! Parameters = {a=0.735; b=0.393; d=25.8995; fmax=120; fmin=75; phi=0; theta=0}
! Header version: 2018
! Port assignment regex: !\s*Touchstone port\s*([0-9]+)\s*=\s*(CST MWS port|CST DS port)\s*([0-9]+|Zmin|Zmax)\s*\(\"(.*)\"\)(\s*mode\s*([0-9]+))?.*
! Touchstone port assignment:
! Touchstone port 1 = CST MWS port Zmin ("") mode 1
! Touchstone port 2 = CST MWS port Zmin ("") mode 2
! Touchstone port 3 = CST MWS port Zmax ("") mode 1
! Touchstone port 4 = CST MWS port Zmax ("") mode 2
! S-Parameters are not renormalized. Unphysical impedance of 0 will be written to the file.
# GHz S MA R 0
75                      0.201458         78.7042                0               0         0.118531        -103.643                0               0
                       0.0437336         45.8317                0               0         0.971314        -9.97509                0               0
                        0.118531        -103.642                0               0         0.201457         78.7279                0               0
                        0.971315        -9.97475                0               0        0.0437259          45.871                0               0
75.045                   0.20354          77.878                0               0         0.113713        -103.055                0               0
                       0.0433925         45.6623                0               0         0.972727         -10.737                0               0
                        0.113714        -103.054                0               0         0.203533         77.9019                0               0
                        0.972729        -10.7368                0               0         0.043385          45.702                0               0
75.09                   0.205655         76.9932                0               0         0.109151        -103.137                0               0
                       0.0429763         45.3208                0               0         0.973584        -11.5858                0               0
                        0.109152        -103.135                0               0         0.205644         77.0171                0               0
                        0.973587        -11.5856                0               0        0.0429689          45.361                0               0
75.135                  0.207808         76.0468                0               0         0.105099        -103.793                0               0
                       0.0425086          44.786                0               0         0.973967        -12.5236                0               0
                        0.105099        -103.791                0               0         0.207793         76.0703                0               0
                        0.973971        -12.5235                0               0        0.0425013         44.8265                0               0
75.18                   0.209998         75.0354                0               0         0.101675        -104.907                0               0
                        0.042015         44.0444                0               0         0.973957        -13.5519                0               0
                        0.101675        -104.904                0               0         0.209981         75.0586                0               0
                        0.973961        -13.5518                0               0        0.0420077         44.0852                0               0
75.225                  0.212228         73.9562                0               0        0.0989022        -106.363                0               0
                       0.0415205         43.0911                0               0         0.973633        -14.6711                0               0
                       0.0989016        -106.361                0               0          0.21221         73.9788                0               0
                        0.973638         -14.671                0               0        0.0415131          43.132                0               0
75.27                   0.214497         72.8063                0               0        0.0967489        -108.064                0               0
                       0.0410478          41.929                0               0         0.973071        -15.8809                0               0
                       0.0967482        -108.062                0               0         0.214479         72.8282                0               0
                        0.973075        -15.8808                0               0        0.0410402         41.9699                0               0
75.315                  0.216806         71.5832                0               0         0.095157        -109.927                0               0
                       0.0406158         40.5676                0               0         0.972337        -17.1803                0               0
                       0.0951562        -109.925                0               0         0.216789         71.6044                0               0
                        0.972341        -17.1801                0               0         0.040608         40.6083                0               0
75.36                   0.219151         70.2845                0               0        0.0940594        -111.891                0               0
                       0.0402386         39.0209                0               0         0.971494        -18.5674                0               0
                       0.0940586         -111.89                0               0         0.219135         70.3049                0               0
                        0.971497        -18.5672                0               0        0.0402307         39.0611                0               0
75.405                  0.221528         68.9085                0               0        0.0933899        -113.911                0               0
                       0.0399262         37.3054                0               0         0.970593        -20.0398                0               0
                       0.0933893         -113.91                0               0         0.221515          68.928                0               0
                        0.970595        -20.0396                0               0         0.039918         37.3451                0               0
75.45                    0.22393         67.4534                0               0        0.0930887        -115.956                0               0
                       0.0396839         35.4383                0               0         0.969678        -21.5947                0               0
                       0.0930882        -115.955                0               0          0.22392         67.4721                0               0
                        0.969679        -21.5944                0               0        0.0396755         35.4773                0               0
75.495                  0.226347         65.9181                0               0        0.0931035        -118.004                0               0
                       0.0395136         33.4358                0               0         0.968782        -23.2287                0               0
                       0.0931032        -118.003                0               0         0.226341          65.936                0               0
                        0.968782        -23.2284                0               0        0.0395051         33.4738                0               0
75.54                   0.228763         64.3019                0               0        0.0933902        -120.043                0               0
                       0.0394145         31.3117                0               0         0.967931         -24.938                0               0
                       0.0933901        -120.043                0               0         0.228761          64.319                0               0
                        0.967929        -24.9377                0               0        0.0394059         31.3488                0               0
75.585                  0.231162         62.6047                0               0        0.0939124        -122.067                0               0
                       0.0393837         29.0772                0               0          0.96714        -26.7188                0               0
                       0.0939124        -122.066                0               0         0.231164         62.6208                0               0
                        0.967138        -26.7184                0               0         0.039375         29.1131                0               0
75.63                    0.23352         60.8267                0               0        0.0946399        -124.072                0               0
                       0.0394165         26.7398                0               0          0.96642        -28.5667                0               0
                       0.0946401        -124.071                0               0         0.233525          60.842                0               0
                        0.966417        -28.5663                0               0        0.0394079         26.7744                0               0
75.675                   0.23581         58.9691                0               0        0.0955486        -126.058                0               0
                       0.0395074         24.3035                0               0         0.965772        -30.4775                0               0
                       0.0955488        -126.058                0               0         0.235817         58.9835                0               0
                        0.965768        -30.4771                0               0        0.0394989         24.3366                0               0
75.72                   0.237999         57.0335                0               0        0.0966187        -128.029                0               0
                       0.0396501         21.7685                0               0         0.965192        -32.4466                0               0
                       0.0966189        -128.029                0               0         0.238008         57.0471                0               0
                        0.965188        -32.4462                0               0        0.0396418         21.8001                0               0
75.765                  0.240049         55.0227                0               0        0.0978347        -129.987                0               0
                       0.0398375         19.1318                0               0         0.964671        -34.4697                0               0
                       0.0978349        -129.987                0               0         0.240059         55.0354                0               0
                        0.964667        -34.4692                0               0        0.0398294         19.1617                0               0
75.81                    0.24192         52.9402                0               0         0.099184        -131.936                0               0
                       0.0400616         16.3866                0               0           0.9642         -36.542                0               0
                       0.0991842        -131.936                0               0          0.24193          52.952                0               0
                        0.964195        -36.5416                0               0        0.0400538         16.4148                0               0
75.855                  0.243568         50.7907                0               0         0.100657        -133.882                0               0
                       0.0403132         13.5232                0               0         0.963763        -38.6592                0               0
                        0.100657        -133.882                0               0         0.243575         50.8016                0               0
                        0.963759        -38.6588                0               0        0.0403058         13.5495                0               0
75.9                    0.244947           48.58                0               0         0.102247         -135.83                0               0
                       0.0405814         10.5288                0               0         0.963349        -40.8169                0               0
                        0.102246        -135.829                0               0         0.244951           48.59                0               0
                        0.963344        -40.8165                0               0        0.0405744          10.553                0               0
75.945                  0.246011         46.3153                0               0         0.103947        -137.783                0               0
                       0.0408523         7.38809                0               0         0.962943        -43.0107                0               0
                        0.103947        -137.783                0               0          0.24601         46.3245                0               0
                        0.962939        -43.0103                0               0        0.0408457         7.41024                0               0
75.99                   0.246718          44.005                0               0         0.105754        -139.749                0               0
                       0.0411078         4.08479                0               0         0.962537        -45.2365                0               0
                        0.105754        -139.749                0               0         0.246711         44.0135                0               0
                        0.962533        -45.2361                0               0        0.0411018         4.10472                0               0
76.035                  0.247029         41.6587                0               0         0.107668        -141.731                0               0
                       0.0413244        0.603724                0               0         0.962124        -47.4902                0               0
                        0.107667        -141.731                0               0         0.247015         41.6667                0               0
                        0.962121        -47.4898                0               0        0.0413188        0.621334                0               0
76.08                   0.246915         39.2871                0               0         0.109687        -143.735                0               0
                       0.0414717        -3.06481                0               0         0.961704         -49.768                0               0
                        0.109686        -143.735                0               0         0.246894         39.2947                0               0
                        0.961702        -49.7676                0               0        0.0414666        -3.04957                0               0
76.125                  0.246357         36.9016                0               0         0.111813        -145.765                0               0
                       0.0415134        -6.91837                0               0         0.961285        -52.0663                0               0
                        0.111812        -145.765                0               0         0.246329         36.9089                0               0
                        0.961283        -52.0659                0               0        0.0415088        -6.90551                0               0
76.17                   0.245348         34.5135                0               0         0.114052        -147.825                0               0
                       0.0414117        -10.9342                0               0          0.96088        -54.3817                0               0
                         0.11405        -147.824                0               0         0.245314         34.5208                0               0
                        0.960879        -54.3813                0               0        0.0414076        -10.9236                0               0
76.215                  0.243896         32.1337                0               0          0.11641        -149.916                0               0
                       0.0411378        -15.0635                0               0         0.960516         -56.711                0               0
                        0.116408        -149.916                0               0         0.243858         32.1409                0               0
                        0.960515        -56.7106                0               0        0.0411343        -15.0551                0               0
76.26                   0.242022         29.7714                0               0         0.118896         -152.04                0               0
                       0.0406867        -19.2356                0               0         0.960226        -59.0513                0               0
                        0.118894         -152.04                0               0         0.241981         29.7784                0               0
                        0.960225        -59.0509                0               0        0.0406838        -19.2292                0               0
76.305                  0.239757         27.4332                0               0         0.121523        -154.195                0               0
                       0.0400871        -23.3788                0               0         0.960054        -61.3997                0               0
                         0.12152        -154.195                0               0         0.239716         27.4399                0               0
                        0.960053        -61.3993                0               0        0.0400851        -23.3743                0               0
76.35                   0.237142         25.1222                0               0         0.124303        -156.373                0               0
                       0.0393967        -27.4517                0               0         0.960051        -63.7536                0               0
                        0.124301        -156.373                0               0         0.237102         25.1282                0               0
                        0.960049        -63.7532                0               0        0.0393958        -27.4494                0               0
76.395                  0.234213         22.8375                0               0         0.127246        -158.565                0               0
                       0.0386795        -31.4651                0               0          0.96027        -66.1101                0               0
                        0.127244        -158.565                0               0         0.234177         22.8422                0               0
                        0.960268        -66.1097                0               0        0.0386798        -31.4649                0               0
76.44                   0.231003         20.5739                0               0         0.130351        -160.753                0               0
                       0.0379798        -35.4756                0               0         0.960758        -68.4662                0               0
