! TOUCHSTONE file generated by CST MICROWAVE STUDIO
! Date and time: Mon Jun 21 17:06:51 2021
! Project name: HIPS_d_sweep.cst
! Parameters = {a=0.735; b=0.393; d=20.1709; fmax=120; fmin=75; phi=0; theta=0}
! Header version: 2018
! Port assignment regex: !\s*Touchstone port\s*([0-9]+)\s*=\s*(CST MWS port|CST DS port)\s*([0-9]+|Zmin|Zmax)\s*\(\"(.*)\"\)(\s*mode\s*([0-9]+))?.*
! Touchstone port assignment:
! Touchstone port 1 = CST MWS port Zmin ("") mode 1
! Touchstone port 2 = CST MWS port Zmin ("") mode 2
! Touchstone port 3 = CST MWS port Zmax ("") mode 1
! Touchstone port 4 = CST MWS port Zmax ("") mode 2
! S-Parameters are not renormalized. Unphysical impedance of 0 will be written to the file.
# GHz S MA R 0
75                      0.227368         32.1467                0               0         0.241324         31.8112                0               0
                       0.0741164         80.9879                0               0         0.940522        -60.9867                0               0
                        0.241324         31.8114                0               0         0.227373         32.1502                0               0
                        0.940516        -60.9877                0               0        0.0740431         80.9459                0               0
75.045                  0.226227         31.6541                0               0         0.244643         31.1997                0               0
                       0.0749019         80.3052                0               0         0.939867        -61.5814                0               0
                        0.244643         31.1999                0               0         0.226232         31.6575                0               0
                        0.939862        -61.5824                0               0        0.0748291         80.2637                0               0
75.09                   0.225053         31.0886                0               0         0.247663         30.5259                0               0
                       0.0756587         79.4606                0               0         0.939299        -62.2511                0               0
                        0.247663         30.5261                0               0         0.225058         31.0917                0               0
                        0.939294        -62.2521                0               0        0.0755865         79.4193                0               0
75.135                  0.223843         30.4515                0               0         0.250386         29.7872                0               0
                       0.0763904         78.4561                0               0         0.938812        -62.9954                0               0
                        0.250386         29.7874                0               0          0.22385         30.4544                0               0
                        0.938807        -62.9964                0               0        0.0763188          78.415                0               0
75.18                   0.222594         29.7442                0               0         0.252816          28.982                0               0
                       0.0770998         77.2949                0               0         0.938403        -63.8137                0               0
                        0.252816         28.9822                0               0         0.222601         29.7468                0               0
                        0.938397        -63.8146                0               0        0.0770289         77.2539                0               0
75.225                  0.221299         28.9683                0               0          0.25496         28.1093                0               0
                       0.0777888          75.981                0               0         0.938072        -64.7049                0               0
                        0.254959         28.1093                0               0         0.221306         28.9706                0               0
                        0.938066        -64.7058                0               0        0.0777187           75.94                0               0
75.27                   0.219948         28.1251                0               0         0.256824         27.1685                0               0
                       0.0784585         74.5191                0               0         0.937823         -65.668                0               0
                        0.256823         27.1685                0               0         0.219956         28.1272                0               0
                        0.937816        -65.6688                0               0        0.0783892         74.4779                0               0
75.315                  0.218532         27.2162                0               0         0.258418         26.1599                0               0
                       0.0791089         72.9145                0               0         0.937658        -66.7014                0               0
                        0.258417         26.1599                0               0          0.21854         27.2179                0               0
                        0.937652        -66.7023                0               0        0.0790406         72.8731                0               0
75.36                   0.217038         26.2432                0               0         0.259751         25.0843                0               0
                       0.0797392         71.1732                0               0         0.937581        -67.8037                0               0
                         0.25975         25.0842                0               0         0.217047         26.2445                0               0
                        0.937576        -67.8047                0               0         0.079672         71.1314                0               0
75.405                  0.215452         25.2076                0               0         0.260834         23.9426                0               0
                       0.0803477         69.3012                0               0         0.937595        -68.9729                0               0
                        0.260833         23.9425                0               0         0.215462         25.2085                0               0
                        0.937591        -68.9739                0               0        0.0802816          69.259                0               0
75.45                   0.213762         24.1113                0               0         0.261678         22.7366                0               0
                       0.0809319         67.3054                0               0         0.937703        -70.2069                0               0
                        0.261677         22.7364                0               0         0.213771         24.1118                0               0
                          0.9377        -70.2079                0               0         0.080867         67.2627                0               0
75.495                  0.211951         22.9562                0               0         0.262293         21.4681                0               0
                       0.0814886         65.1925                0               0         0.937906        -71.5033                0               0
                        0.262292         21.4679                0               0         0.211961         22.9562                0               0
                        0.937905        -71.5044                0               0         0.081425         65.1492                0               0
75.54                   0.210005         21.7444                0               0         0.262691         20.1394                0               0
                       0.0820142         62.9697                0               0         0.938205        -72.8597                0               0
                         0.26269         20.1392                0               0         0.210015         21.7439                0               0
                        0.938205        -72.8608                0               0        0.0819521         62.9259                0               0
75.585                  0.207908         20.4783                0               0         0.262883         18.7527                0               0
                       0.0825048         60.6443                0               0         0.938597        -74.2732                0               0
                        0.262882         18.7525                0               0         0.207919         20.4773                0               0
                        0.938598        -74.2744                0               0        0.0824441         60.5998                0               0
75.63                   0.205647         19.1606                0               0          0.26288         17.3106                0               0
                       0.0829562         58.2235                0               0          0.93908        -75.7411                0               0
                        0.262879         17.3104                0               0         0.205658          19.159                0               0
                        0.939081        -75.7423                0               0        0.0828971         58.1782                0               0
75.675                  0.203207          17.794                0               0         0.262693         15.8157                0               0
                       0.0833642         55.7146                0               0         0.939649        -77.2603                0               0
                        0.262691         15.8154                0               0         0.203219         17.7918                0               0
                        0.939651        -77.2615                0               0        0.0833067         55.6686                0               0
75.72                   0.200575         16.3818                0               0         0.262331         14.2705                0               0
                       0.0837249         53.1248                0               0           0.9403        -78.8277                0               0
                        0.262329         14.2702                0               0         0.200588          16.379                0               0
                        0.940303         -78.829                0               0        0.0836691         53.0781                0               0
75.765                  0.197742         14.9273                0               0         0.261807         12.6776                0               0
                       0.0840346         50.4614                0               0         0.941027        -80.4402                0               0
                        0.261805         12.6773                0               0         0.197755         14.9238                0               0
                         0.94103        -80.4414                0               0        0.0839804         50.4139                0               0
75.81                   0.194698         13.4342                0               0          0.26113         11.0395                0               0
                         0.08429         47.7311                0               0         0.941825        -82.0944                0               0
                        0.261128         11.0393                0               0         0.194712           13.43                0               0
                        0.941827        -82.0956                0               0        0.0842377         47.6828                0               0
75.855                  0.191436         11.9062                0               0          0.26031         9.35862                0               0
                       0.0844886         44.9407                0               0         0.942688         -83.787                0               0
                        0.260309         9.35834                0               0          0.19145         11.9012                0               0
                         0.94269        -83.7882                0               0        0.0844381         44.8915                0               0
75.9                    0.187951         10.3473                0               0          0.25936         7.63716                0               0
                       0.0846283         42.0964                0               0         0.943611        -85.5148                0               0
                        0.259358         7.63687                0               0         0.187966         10.3415                0               0
                        0.943612         -85.516                0               0        0.0845796         42.0464                0               0
75.945                  0.184242         8.76134                0               0         0.258288         5.87727                0               0
                       0.0847078         39.2043                0               0         0.944591        -87.2745                0               0
                        0.258287         5.87698                0               0         0.184257         8.75464                0               0
                        0.944592        -87.2756                0               0         0.084661         39.1534                0               0
75.99                   0.180307         7.15232                0               0         0.257107         4.08098                0               0
                       0.0847264         36.2701                0               0         0.945627        -89.0627                0               0
                        0.257106          4.0807                0               0         0.180322         7.14467                0               0
                        0.945627        -89.0638                0               0        0.0846815         36.2183                0               0
76.035                  0.176149         5.52406                0               0         0.255828         2.25026                0               0
                        0.084684          33.299                0               0         0.946718        -90.8763                0               0
                        0.255827         2.24999                0               0         0.176165         5.51542                0               0
                        0.946717        -90.8773                0               0        0.0846411         33.2462                0               0
76.08                   0.171773         3.88032                0               0         0.254462        0.387031                0               0
                       0.0845812         30.2959                0               0         0.947865        -92.7118                0               0
                        0.254462        0.386785                0               0          0.17179          3.8706                0               0
                        0.947865        -92.7128                0               0        0.0845403         30.2422                0               0
76.125                  0.167184         2.22472                0               0         0.253021        -1.50667                0               0
                       0.0844188         27.2655                0               0         0.949074        -94.5663                0               0
                        0.253021        -1.50688                0               0           0.1672         2.21386                0               0
                        0.949073        -94.5673                0               0        0.0843799         27.2108                0               0
76.17                   0.162387        0.560833                0               0         0.251518        -3.42861                0               0
                       0.0841977         24.2123                0               0         0.950346        -96.4363                0               0
                        0.251518        -3.42878                0               0         0.162405        0.548738                0               0
                        0.950346        -96.4373                0               0        0.0841609         24.1566                0               0
76.215                  0.157392        -1.10774                0               0         0.249963        -5.37624                0               0
                       0.0839189         21.1404                0               0         0.951685        -98.3188                0               0
                        0.249964        -5.37635                0               0          0.15741        -1.12116                0               0
                        0.951686        -98.3198                0               0        0.0838842         21.0837                0               0
76.26                   0.152206        -2.77715                0               0         0.248369        -7.34647                0               0
                       0.0835831         18.0544                0               0         0.953092        -100.211                0               0
                         0.24837        -7.34652                0               0         0.152224        -2.79201                0               0
                        0.953094        -100.212                0               0        0.0835506         17.9966                0               0
76.305                  0.146837        -4.44306                0               0         0.246745        -9.33557                0               0
                       0.0831903         14.9585                0               0         0.954562        -102.108                0               0
                        0.246746        -9.33555                0               0         0.146855        -4.45946                0               0
                        0.954565        -102.109                0               0        0.0831601         14.8998                0               0
76.35                   0.141293         -6.1002                0               0           0.2451         -11.339                0               0
                       0.0827398         11.8576                0               0         0.956084        -104.009                0               0
                        0.245101        -11.3389                0               0         0.141311        -6.11829                0               0
                        0.956088         -104.01                0               0        0.0827118         11.7978                0               0
76.395                  0.135583        -7.74194                0               0         0.243438        -13.3514                0               0
                       0.0822297         8.75661                0               0         0.957633        -105.909                0               0
                        0.243439        -13.3512                0               0         0.135601        -7.76186                0               0
                        0.957638         -105.91                0               0         0.082204         8.69588                0               0
76.44                   0.129715        -9.35967                0               0         0.241762        -15.3664                0               0
                       0.0816568         5.66116                0               0         0.959174        -107.806                0               0
