! TOUCHSTONE file generated by CST MICROWAVE STUDIO
! Date and time: Mon Jun 21 17:06:29 2021
! Project name: HIPS_d_sweep.cst
! Parameters = {a=0.735; b=0.393; d=17.1558; fmax=120; fmin=75; phi=0; theta=0}
! Header version: 2018
! Port assignment regex: !\s*Touchstone port\s*([0-9]+)\s*=\s*(CST MWS port|CST DS port)\s*([0-9]+|Zmin|Zmax)\s*\(\"(.*)\"\)(\s*mode\s*([0-9]+))?.*
! Touchstone port assignment:
! Touchstone port 1 = CST MWS port Zmin ("") mode 1
! Touchstone port 2 = CST MWS port Zmin ("") mode 2
! Touchstone port 3 = CST MWS port Zmax ("") mode 1
! Touchstone port 4 = CST MWS port Zmax ("") mode 2
! S-Parameters are not renormalized. Unphysical impedance of 0 will be written to the file.
# GHz S MA R 0
75                      0.191244         30.0586                0               0         0.421558         22.6423                0               0
                        0.110992         75.2806                0               0         0.879435        -69.6658                0               0
                        0.421557         22.6422                0               0          0.19119         30.0585                0               0
                        0.879429        -69.6665                0               0         0.111049         75.2982                0               0
75.045                  0.190306         29.7461                0               0         0.424425         22.0144                0               0
                        0.111776         74.3641                0               0         0.879344        -70.2171                0               0
                        0.424425         22.0144                0               0         0.190251         29.7459                0               0
                         0.87934        -70.2176                0               0         0.111833         74.3816                0               0
75.09                   0.189272         29.3916                0               0         0.427062         21.3608                0               0
                        0.112464         73.3801                0               0         0.879019        -70.8224                0               0
                        0.427062         21.3608                0               0         0.189217         29.3914                0               0
                        0.879015        -70.8229                0               0         0.112521         73.3976                0               0
75.135                  0.188151         28.9938                0               0         0.429454         20.6776                0               0
                        0.113057         72.3196                0               0         0.878498        -71.4835                0               0
                        0.429454         20.6775                0               0         0.188096         28.9935                0               0
                        0.878495        -71.4839                0               0         0.113114         72.3371                0               0
75.18                   0.186952         28.5516                0               0          0.43159         19.9606                0               0
                        0.113561         71.1742                0               0         0.877826        -72.2014                0               0
                         0.43159         19.9606                0               0         0.186896         28.5513                0               0
                        0.877822        -72.2018                0               0         0.113619         71.1917                0               0
75.225                  0.185681         28.0649                0               0         0.433462         19.2058                0               0
                        0.113985         69.9362                0               0         0.877045        -72.9771                0               0
                        0.433462         19.2058                0               0         0.185625         28.0644                0               0
                        0.877041        -72.9775                0               0         0.114043         69.9538                0               0
75.27                   0.184346         27.5336                0               0          0.43507         18.4088                0               0
                         0.11434         68.5991                0               0         0.876199         -73.811                0               0
                         0.43507         18.4088                0               0         0.184289         27.5331                0               0
                        0.876194        -73.8115                0               0         0.114398         68.6169                0               0
75.315                   0.18295         26.9585                0               0         0.436417         17.5657                0               0
                        0.114639         67.1578                0               0          0.87533        -74.7033                0               0
                        0.436417         17.5656                0               0         0.182893         26.9578                0               0
                        0.875325        -74.7037                0               0         0.114697         67.1759                0               0
75.36                   0.181497         26.3404                0               0         0.437513         16.6725                0               0
                        0.114897         65.6091                0               0         0.874481        -75.6535                0               0
                        0.437513         16.6725                0               0          0.18144         26.3395                0               0
                        0.874476         -75.654                0               0         0.114955         65.6275                0               0
75.405                  0.179989         25.6805                0               0         0.438374         15.7261                0               0
                        0.115129         63.9515                0               0         0.873692        -76.6609                0               0
                        0.438373         15.7261                0               0         0.179932         25.6794                0               0
                        0.873687        -76.6615                0               0         0.115187         63.9701                0               0
75.45                   0.178427         24.9802                0               0         0.439018         14.7237                0               0
                        0.115349         62.1853                0               0            0.873        -77.7244                0               0
                        0.439018         14.7237                0               0         0.178369          24.979                0               0
                        0.872996        -77.7251                0               0         0.115407         62.2043                0               0
75.495                  0.176808         24.2413                0               0         0.439471         13.6634                0               0
                         0.11557         60.3126                0               0         0.872439        -78.8425                0               0
                         0.43947         13.6634                0               0          0.17675         24.2399                0               0
                        0.872435        -78.8433                0               0         0.115628          60.332                0               0
75.54                   0.175132         23.4654                0               0         0.439756         12.5442                0               0
                        0.115804         58.3373                0               0         0.872038        -80.0132                0               0
                        0.439756         12.5441                0               0         0.175073         23.4638                0               0
                        0.872034         -80.014                0               0         0.115862          58.357                0               0
75.585                  0.173393         22.6546                0               0         0.439902         11.3659                0               0
                        0.116059         56.2641                0               0         0.871822        -81.2343                0               0
                        0.439902         11.3658                0               0         0.173334         22.6528                0               0
                        0.871818        -81.2351                0               0         0.116117         56.2842                0               0
75.63                   0.171588         21.8109                0               0         0.439935         10.1293                0               0
                        0.116341         54.0992                0               0         0.871811        -82.5031                0               0
                        0.439934         10.1292                0               0         0.171529         21.8089                0               0
                        0.871808         -82.504                0               0         0.116399         54.1197                0               0
75.675                  0.169711         20.9365                0               0          0.43988         8.83605                0               0
                        0.116653         51.8492                0               0         0.872019        -83.8168                0               0
                        0.439879         8.83598                0               0         0.169652         20.9343                0               0
                        0.872016        -83.8177                0               0         0.116711           51.87                0               0
75.72                   0.167755         20.0337                0               0         0.439757         7.48871                0               0
                        0.116994         49.5212                0               0         0.872453        -85.1724                0               0
                        0.439757         7.48864                0               0         0.167696         20.0313                0               0
                         0.87245        -85.1732                0               0         0.117052         49.5423                0               0
75.765                  0.165714         19.1051                0               0         0.439586         6.09044                0               0
                        0.117362         47.1223                0               0         0.873114        -86.5664                0               0
                        0.439586         6.09036                0               0         0.165654         19.1025                0               0
                        0.873111        -86.5672                0               0         0.117419         47.1438                0               0
75.81                   0.163581         18.1534                0               0          0.43938         4.64499                0               0
                         0.11775         44.6595                0               0         0.873998        -87.9956                0               0
                        0.439379         4.64492                0               0         0.163521         18.1505                0               0
                        0.873995        -87.9964                0               0         0.117808         44.6815                0               0
75.855                  0.161348         17.1816                0               0         0.439146         3.15654                0               0
                        0.118152         42.1399                0               0         0.875092        -89.4565                0               0
                        0.439146         3.15647                0               0         0.161287         17.1784                0               0
                        0.875089        -89.4572                0               0         0.118209         42.1622                0               0
75.9                    0.159008         16.1929                0               0          0.43889         1.62955                0               0
                        0.118557           39.57                0               0          0.87638        -90.9457                0               0
                        0.438889         1.62948                0               0         0.158947         16.1895                0               0
                        0.876377        -90.9464                0               0         0.118614         39.5927                0               0
75.945                  0.156554         15.1909                0               0          0.43861       0.0686014                0               0
                        0.118954         36.9559                0               0         0.877839        -92.4597                0               0
                        0.438609        0.068545                0               0         0.156493         15.1873                0               0
                        0.877835        -92.4603                0               0         0.119012         36.9791                0               0
75.99                   0.153979         14.1798                0               0         0.438302        -1.52165                0               0
                        0.119333         34.3035                0               0          0.87944        -93.9952                0               0
                        0.438301         -1.5217                0               0         0.153918         14.1759                0               0
                        0.879435        -93.9959                0               0          0.11939         34.3271                0               0
76.035                  0.151279          13.164                0               0         0.437958        -3.13663                0               0
                         0.11968         31.6183                0               0          0.88115        -95.5492                0               0
                        0.437958        -3.13667                0               0         0.151218         13.1598                0               0
                        0.881145        -95.5498                0               0         0.119738         31.6423                0               0
76.08                   0.148448         12.1485                0               0          0.43757        -4.77189                0               0
                        0.119984         28.9054                0               0         0.882934        -97.1184                0               0
                         0.43757        -4.77192                0               0         0.148386         12.1441                0               0
                        0.882929         -97.119                0               0         0.120041           28.93                0               0
76.125                  0.145482         11.1391                0               0         0.437123        -6.42315                0               0
                        0.120232         26.1697                0               0         0.884752        -98.7002                0               0
                        0.437123        -6.42317                0               0          0.14542         11.1344                0               0
                        0.884746        -98.7008                0               0         0.120289         26.1948                0               0
76.17                    0.14238         10.1421                0               0         0.436607        -8.08632                0               0
                        0.120413          23.416                0               0         0.886564        -100.292                0               0
                        0.436607        -8.08634                0               0         0.142318         10.1372                0               0
                        0.886559        -100.292                0               0         0.120469         23.4417                0               0
76.215                  0.139141         9.16468                0               0         0.436007        -9.75758                0               0
                        0.120515         20.6488                0               0         0.888329        -101.891                0               0
                        0.436007        -9.75759                0               0         0.139079         9.15948                0               0
                        0.888323        -101.892                0               0         0.120571         20.6751                0               0
76.26                   0.135767         8.21478                0               0         0.435311        -11.4333                0               0
                        0.120531         17.8726                0               0         0.890005        -103.495                0               0
                        0.435311        -11.4333                0               0         0.135704         8.20934                0               0
                        0.889999        -103.496                0               0         0.120586         17.8995                0               0
76.305                  0.132261         7.30129                0               0         0.434506          -13.11                0               0
                         0.12045         15.0916                0               0         0.891552        -105.103                0               0
                        0.434506        -13.1101                0               0         0.132198         7.29561                0               0
                        0.891547        -105.103                0               0         0.120505         15.1192                0               0
76.35                   0.128629         6.43404                0               0         0.433582        -14.7847                0               0
                        0.120267           12.31                0               0         0.892932        -106.711                0               0
                        0.433582        -14.7847                0               0         0.128566         6.42815                0               0
                        0.892927        -106.712                0               0         0.120321         12.3384                0               0
76.395                  0.124881         5.62391                0               0          0.43253        -16.4542                0               0
                        0.119977          9.5321                0               0         0.894108        -108.319                0               0
                         0.43253        -16.4542                0               0         0.124817         5.61783                0               0
                        0.894103         -108.32                0               0          0.12003         9.56121                0               0
76.44                   0.121026         4.88285                0               0         0.431342        -18.1158                0               0
                        0.119575         6.76181                0               0         0.895049        -109.925                0               0
