! TOUCHSTONE file generated by CST MICROWAVE STUDIO
! Date and time: Mon Jun 21 17:06:43 2021
! Project name: HIPS_d_sweep.cst
! Parameters = {a=0.735; b=0.393; d=18.9648; fmax=120; fmin=75; phi=0; theta=0}
! Header version: 2018
! Port assignment regex: !\s*Touchstone port\s*([0-9]+)\s*=\s*(CST MWS port|CST DS port)\s*([0-9]+|Zmin|Zmax)\s*\(\"(.*)\"\)(\s*mode\s*([0-9]+))?.*
! Touchstone port assignment:
! Touchstone port 1 = CST MWS port Zmin ("") mode 1
! Touchstone port 2 = CST MWS port Zmin ("") mode 2
! Touchstone port 3 = CST MWS port Zmax ("") mode 1
! Touchstone port 4 = CST MWS port Zmax ("") mode 2
! S-Parameters are not renormalized. Unphysical impedance of 0 will be written to the file.
# GHz S MA R 0
75                      0.142644         2.97867                0               0         0.331128         172.548                0               0
                        0.100978         19.7427                0               0         0.927257         79.9763                0               0
                        0.331128         172.548                0               0         0.142671         2.97145                0               0
                        0.927258         79.9774                0               0         0.100953         19.7129                0               0
75.045                   0.14095         2.59171                0               0         0.334336         171.743                0               0
                        0.101579         18.6714                0               0         0.929548         79.3629                0               0
                        0.334335         171.743                0               0         0.140976          2.5846                0               0
                        0.929556         79.3636                0               0         0.101554         18.6416                0               0
75.09                   0.139075         2.19302                0               0          0.33733         170.913                0               0
                        0.102096         17.5323                0               0         0.931191         78.7004                0               0
                        0.337329         170.913                0               0         0.139101         2.18604                0               0
                        0.931206         78.7009                0               0         0.102071         17.5024                0               0
75.135                  0.137015         1.78094                0               0         0.340087         170.054                0               0
                        0.102526         16.3191                0               0         0.932237         77.9832                0               0
                        0.340085         170.054                0               0         0.137042         1.77411                0               0
                        0.932258         77.9835                0               0         0.102502         16.2892                0               0
75.18                   0.134769         1.35421                0               0         0.342587         169.162                0               0
                         0.10287         15.0255                0               0         0.932754         77.2062                0               0
                        0.342584         169.161                0               0         0.134796         1.34756                0               0
                        0.932779         77.2065                0               0         0.102845         14.9956                0               0
75.225                  0.132335        0.912091                0               0         0.344814          168.23                0               0
                        0.103126         13.6459                0               0         0.932822         76.3656                0               0
                        0.344812          168.23                0               0         0.132361        0.905628                0               0
                        0.932849          76.366                0               0         0.103102          13.616                0               0
75.27                   0.129711        0.454424                0               0         0.346757         167.256                0               0
                        0.103295         12.1748                0               0         0.932527         75.4584                0               0
                        0.346755         167.256                0               0         0.129737        0.448184                0               0
                        0.932556         75.4588                0               0         0.103272         12.1449                0               0
75.315                  0.126896      -0.0182092                0               0          0.34841         166.233                0               0
                         0.10338         10.6074                0               0         0.931963         74.4827                0               0
                        0.348408         166.233                0               0         0.126923      -0.0241957                0               0
                        0.931991         74.4833                0               0         0.103357         10.5776                0               0
75.36                   0.123891       -0.504396                0               0          0.34977         165.159                0               0
                        0.103383         8.93967                0               0         0.931218         73.4379                0               0
                        0.349768         165.159                0               0         0.123918       -0.510095                0               0
                        0.931246         73.4387                0               0          0.10336            8.91                0               0
75.405                  0.120696        -1.00174                0               0         0.350839         164.028                0               0
                        0.103306         7.16834                0               0         0.930381         72.3245                0               0
                        0.350838         164.028                0               0         0.120722        -1.00711                0               0
                        0.930406         72.3254                0               0         0.103283         7.13876                0               0
75.45                    0.11731        -1.50669                0               0         0.351625         162.838                0               0
                        0.103152         5.29095                0               0          0.92953         71.1437                0               0
                        0.351624         162.838                0               0         0.117336         -1.5117                0               0
                        0.929552         71.1448                0               0          0.10313         5.26147                0               0
75.495                  0.113735        -2.01435                0               0         0.352138         161.587                0               0
                        0.102926           3.306                0               0         0.928734          69.898                0               0
                        0.352137         161.587                0               0         0.113762        -2.01894                0               0
                        0.928753         69.8992                0               0         0.102903         3.27661                0               0
75.54                   0.109973        -2.51816                0               0         0.352391         160.273                0               0
                        0.102628         1.21288                0               0         0.928051         68.5902                0               0
                        0.352391         160.273                0               0         0.109999         -2.5223                0               0
                        0.928065         68.5914                0               0         0.102606         1.18359                0               0
75.585                  0.106024        -3.00964                0               0         0.352399         158.896                0               0
                        0.102262       -0.988079                0               0         0.927524         67.2237                0               0
                          0.3524         158.896                0               0          0.10605        -3.01325                0               0
                        0.927535         67.2249                0               0         0.102241        -1.01726                0               0
75.63                   0.101893        -3.47785                0               0          0.35218         157.455                0               0
                         0.10183        -3.29563                0               0         0.927185         65.8023                0               0
                         0.35218         157.455                0               0         0.101919        -3.48087                0               0
                        0.927193         65.8036                0               0         0.101809        -3.32471                0               0
75.675                 0.0975822        -3.90885                0               0         0.351748         155.953                0               0
                        0.101333        -5.70769                0               0         0.927054           64.33                0               0
                        0.351748         155.953                0               0        0.0976079        -3.91123                0               0
                        0.927059         64.3313                0               0         0.101312        -5.73664                0               0
75.72                  0.0930981        -4.28491                0               0          0.35112          154.39                0               0
                        0.100772        -8.22132                0               0          0.92714         62.8109                0               0
                        0.351121          154.39                0               0        0.0931238        -4.28655                0               0
                        0.927142         62.8122                0               0         0.100751        -8.25016                0               0
75.765                 0.0884479         -4.5834                0               0         0.350311         152.771                0               0
                        0.100147        -10.8329                0               0          0.92744          61.249                0               0
                        0.350311         152.771                0               0        0.0884736        -4.58423                0               0
                         0.92744         61.2503                0               0         0.100127        -10.8616                0               0
75.81                  0.0836418        -4.77534                0               0         0.349332         151.099                0               0
                       0.0994581        -13.5381                0               0         0.927943         59.6483                0               0
                        0.349333         151.099                0               0        0.0836675        -4.77525                0               0
                        0.927942         59.6496                0               0        0.0994387        -13.5667                0               0
75.855                 0.0786934        -4.82333                0               0         0.348197         149.377                0               0
                       0.0987051         -16.332                0               0         0.928632         58.0125                0               0
                        0.348197         149.377                0               0         0.078719        -4.82224                0               0
                        0.928631         58.0138                0               0        0.0986863        -16.3604                0               0
75.9                   0.0736207        -4.67874                0               0         0.346914         147.611                0               0
                       0.0978875        -19.2092                0               0         0.929484         56.3452                0               0
                        0.346914         147.611                0               0        0.0736465        -4.67652                0               0
                        0.929482         56.3464                0               0        0.0978693        -19.2375                0               0
75.945                 0.0684482         -4.2776                0               0         0.345491         145.804                0               0
                       0.0970048         -22.164                0               0         0.930471         54.6497                0               0
                        0.345492         145.805                0               0        0.0684743        -4.27417                0               0
                        0.930468         54.6509                0               0        0.0969872        -22.1921                0               0
75.99                  0.0632086        -3.53503                0               0         0.343936         143.964                0               0
                        0.096057        -25.1902                0               0         0.931562         52.9292                0               0
                        0.343936         143.964                0               0         0.063235        -3.53029                0               0
                         0.93156         52.9304                0               0        0.0960399        -25.2181                0               0
76.035                 0.0579461         -2.3372                0               0         0.342253         142.093                0               0
                       0.0950443        -28.2817                0               0         0.932727         51.1866                0               0
                        0.342254         142.093                0               0         0.057973        -2.33114                0               0
                        0.932726         51.1879                0               0        0.0950279        -28.3094                0               0
76.08                  0.0527213       -0.530775                0               0         0.340449         140.198                0               0
                        0.093968        -31.4322                0               0         0.933934         49.4247                0               0
                         0.34045         140.198                0               0         0.052749       -0.523465                0               0
                        0.933933          49.426                0               0        0.0939522        -31.4597                0               0
76.125                 0.0476187         2.09011                0               0         0.338529         138.284                0               0
                       0.0928299        -34.6355                0               0         0.935154         47.6462                0               0
                         0.33853         138.284                0               0        0.0476475         2.09836                0               0
                        0.935153         47.6475                0               0        0.0928147        -34.6627                0               0
76.17                  0.0427572         5.79547                0               0         0.336499         136.356                0               0
                       0.0916329        -37.8856                0               0         0.936358         45.8535                0               0
                        0.336499         136.356                0               0        0.0427872         5.80392                0               0
                        0.936358         45.8549                0               0        0.0916183        -37.9125                0               0
76.215                 0.0383043         10.9165                0               0         0.334366         134.417                0               0
                       0.0903808        -41.1768                0               0         0.937523         44.0491                0               0
                        0.334366         134.417                0               0         0.038336         10.9237                0               0
                        0.937524         44.0505                0               0        0.0903668        -41.2035                0               0
76.26                   0.034492          17.794                0               0         0.332137         132.473                0               0
                       0.0890788        -44.5041                0               0         0.938631         42.2354                0               0
                        0.332137         132.473                0               0        0.0345253         17.7972                0               0
                        0.938633         42.2368                0               0        0.0890654        -44.5305                0               0
76.305                 0.0316178         26.6179                0               0         0.329823         130.527                0               0
                       0.0877328         -47.863                0               0          0.93967         40.4149                0               0
                        0.329823         130.527                0               0        0.0316526         26.6132                0               0
                        0.939671         40.4163                0               0          0.08772         -47.889                0               0
76.35                  0.0300036         37.1359                0               0         0.327437         128.582                0               0
                         0.08635        -51.2496                0               0         0.940633         38.5902                0               0
                        0.327437         128.582                0               0        0.0300389         37.1194                0               0
                        0.940635         38.5916                0               0        0.0863377        -51.2752                0               0
76.395                 0.0298858         48.4352                0               0         0.324994         126.643                0               0
                       0.0849384        -54.6609                0               0         0.941525         36.7641                0               0
                        0.324994         126.643                0               0        0.0299204         48.4053                0               0
                        0.941526         36.7655                0               0        0.0849265        -54.6861                0               0
76.44                  0.0312928         59.2087                0               0         0.322511          124.71                0               0
                       0.0835064        -58.0949                0               0         0.942355         34.9399                0               0
