! TOUCHSTONE file generated by CST MICROWAVE STUDIO
! Date and time: Mon Jun 21 17:07:36 2021
! Project name: HIPS_d_sweep.cst
! Parameters = {a=0.735; b=0.393; d=25.0955; fmax=120; fmin=75; phi=0; theta=0}
! Header version: 2018
! Port assignment regex: !\s*Touchstone port\s*([0-9]+)\s*=\s*(CST MWS port|CST DS port)\s*([0-9]+|Zmin|Zmax)\s*\(\"(.*)\"\)(\s*mode\s*([0-9]+))?.*
! Touchstone port assignment:
! Touchstone port 1 = CST MWS port Zmin ("") mode 1
! Touchstone port 2 = CST MWS port Zmin ("") mode 2
! Touchstone port 3 = CST MWS port Zmax ("") mode 1
! Touchstone port 4 = CST MWS port Zmax ("") mode 2
! S-Parameters are not renormalized. Unphysical impedance of 0 will be written to the file.
# GHz S MA R 0
75                      0.166528        -4.75983                0               0        0.0603006        -7.27057                0               0
                       0.0204933        -34.0258                0               0         0.983973         85.5671                0               0
                       0.0603013        -7.27041                0               0         0.166546        -4.87262                0               0
                        0.983977         85.5673                0               0        0.0205517        -34.4214                0               0
75.045                  0.164363        -5.47731                0               0         0.056156        -8.21988                0               0
                       0.0205139        -32.0825                0               0         0.984645         84.8355                0               0
                       0.0561567        -8.21982                0               0         0.164381        -5.59151                0               0
                        0.984649         84.8356                0               0        0.0205676        -32.4873                0               0
75.09                   0.161835        -6.29235                0               0        0.0524526        -9.26769                0               0
                       0.0204879        -30.5872                0               0         0.985275         84.0063                0               0
                       0.0524533        -9.26762                0               0         0.161854        -6.40828                0               0
                         0.98528         84.0065                0               0        0.0205377        -31.0017                0               0
75.135                  0.158948        -7.20464                0               0        0.0491843        -10.3987                0               0
                       0.0204101        -29.5062                0               0         0.985889         83.0804                0               0
                        0.049185        -10.3986                0               0         0.158968        -7.32262                0               0
                        0.985893         83.0806                0               0        0.0204565        -29.9313                0               0
75.18                   0.155703         -8.2135                0               0         0.046344        -11.5965                0               0
                       0.0202748        -28.8105                0               0         0.986503         82.0585                0               0
                       0.0463446        -11.5963                0               0         0.155723         -8.3339                0               0
                        0.986508         82.0587                0               0        0.0203184        -29.2475                0               0
75.225                  0.152098        -9.31796                0               0        0.0439241        -12.8444                0               0
                       0.0200759        -28.4754                0               0         0.987134         80.9418                0               0
                       0.0439248        -12.8441                0               0         0.152119         -9.4412                0               0
                        0.987138         80.9421                0               0        0.0201173        -28.9261                0               0
75.27                   0.148129        -10.5168                0               0        0.0419168        -14.1267                0               0
                        0.019807          -28.48                0               0         0.987789         79.7319                0               0
                       0.0419175        -14.1262                0               0         0.148151        -10.6433                0               0
                        0.987793         79.7322                0               0        0.0198467        -28.9465                0               0
75.315                  0.143792        -11.8086                0               0         0.040314          -15.43                0               0
                       0.0194615        -28.8066                0               0         0.988474         78.4304                0               0
                       0.0403147        -15.4295                0               0         0.143814        -11.9389                0               0
                        0.988478         78.4307                0               0        0.0194999        -29.2916                0               0
75.36                   0.139082        -13.1915                0               0        0.0391073        -16.7452                0               0
                       0.0190325        -29.4406                0               0          0.98919         77.0393                0               0
                        0.039108        -16.7448                0               0         0.139104        -13.3263                0               0
                        0.989193         77.0396                0               0        0.0190701        -29.9472                0               0
75.405                  0.133992        -14.6635                0               0        0.0382881        -18.0683                0               0
                       0.0185133        -30.3699                0               0         0.989934         75.5607                0               0
                       0.0382887        -18.0679                0               0         0.134014        -14.8035                0               0
                        0.989938          75.561                0               0        0.0185504        -30.9021                0               0
75.45                   0.128517        -16.2223                0               0        0.0378473        -19.4013                0               0
                        0.017897        -31.5852                0               0         0.990702         73.9972                0               0
                       0.0378479         -19.401                0               0          0.12854        -16.3683                0               0
                        0.990705         73.9975                0               0        0.0179343        -32.1478                0               0
75.495                  0.122655         -17.865                0               0        0.0377752         -20.752                0               0
                       0.0171776        -33.0799                0               0         0.991485         72.3515                0               0
                       0.0377758        -20.7518                0               0         0.122679        -18.0181                0               0
                        0.991488         72.3518                0               0        0.0172155        -33.6789                0               0
75.54                   0.116403        -19.5886                0               0         0.038061        -22.1328                0               0
                       0.0163495        -34.8508                0               0         0.992272         70.6266                0               0
                       0.0380616        -22.1327                0               0         0.116427        -19.7499                0               0
                        0.992275         70.6268                0               0        0.0163886        -35.4937                0               0
75.585                   0.10976        -21.3892                0               0         0.038693        -23.5589                0               0
                       0.0154081        -36.8991                0               0         0.993052         68.8256                0               0
                       0.0386935        -23.5589                0               0         0.109784        -21.5603                0               0
                        0.993055         68.8258                0               0         0.015449        -37.5957                0               0
75.63                   0.102731        -23.2627                0               0        0.0396576        -25.0461                0               0
                       0.0143503         -39.233                0               0         0.993812         66.9522                0               0
                       0.0396581        -25.0462                0               0         0.102755        -23.4454                0               0
                        0.993815         66.9523                0               0        0.0143937        -39.9962                0               0
75.675                 0.0953205         -25.204                0               0        0.0409398         -26.609                0               0
                       0.0131744        -41.8713                0               0         0.994539           65.01                0               0
                       0.0409403        -26.6091                0               0        0.0953447        -25.4009                0               0
                        0.994542         65.0102                0               0        0.0132212        -42.7189                0               0
75.72                  0.0875388        -27.2077                0               0        0.0425229        -28.2591                0               0
                       0.0118807        -44.8522                0               0         0.995221         63.0031                0               0
                       0.0425233        -28.2592                0               0        0.0875632        -27.4219                0               0
                        0.995223         63.0032                0               0        0.0119319        -45.8088                0               0
75.765                 0.0793998        -29.2668                0               0        0.0443885        -30.0039                0               0
                       0.0104718        -48.2486                0               0         0.995845         60.9356                0               0
                       0.0443889        -30.0041                0               0        0.0794241        -29.5027                0               0
                        0.995847         60.9357                0               0        0.0105288        -49.3506                0               0
75.81                  0.0709208        -31.3735                0               0        0.0465165        -31.8471                0               0
                      0.00895302        -52.2044                0               0         0.996399          58.812                0               0
                       0.0465169        -31.8472                0               0        0.0709451        -31.6372                0               0
                        0.996401         58.8121                0               0       0.00901795        -53.5078                0               0
75.855                 0.0621236        -33.5176                0               0        0.0488855        -33.7882                0               0
                      0.00733374        -57.0217                0               0         0.996875         56.6369                0               0
                       0.0488859        -33.7884                0               0        0.0621476         -33.818                0               0
                        0.996877          56.637                0               0       0.00740978        -58.6188                0               0
75.9                   0.0530335        -35.6852                0               0        0.0514727        -35.8238                0               0
                      0.00563055        -63.4204                0               0         0.997265         54.4149                0               0
                       0.0514731        -35.8239                0               0        0.0530571        -36.0363                0               0
                        0.997266         54.4151                0               0       0.00572367        -65.4734                0               0
75.945                 0.0436792        -37.8548                0               0        0.0542547        -37.9475                0               0
                      0.00388079        -73.5076                0               0         0.997563         52.1511                0               0
                       0.0542551        -37.9476                0               0        0.0437022        -38.2798                0               0
                        0.997564         52.1512                0               0       0.00400403        -76.3008                0               0
75.99                  0.0340926        -39.9864                0               0        0.0572068        -40.1518                0               0
                      0.00222276        -95.8832                0               0         0.997764         49.8502                0               0
                       0.0572072        -40.1519                0               0        0.0341146        -40.5289                0               0
                        0.997765         49.8503                0               0       0.00240862        -99.3543                0               0
76.035                 0.0243082        -41.9831                0               0        0.0603042        -42.4276                0               0
                      0.00152558        -160.352                0               0         0.997868         47.5174                0               0
                       0.0603046        -42.4277                0               0        0.0243285        -42.7408                0               0
                        0.997868         47.5175                0               0        0.0017461        -157.283                0               0
76.08                  0.0143636        -43.4919                0               0        0.0635218        -44.7658                0               0
                      0.00284084         151.396                0               0         0.997873         45.1577                0               0
                       0.0635221        -44.7659                0               0          0.01438        -44.7683                0               0
                        0.997873         45.1578                0               0       0.00293621         155.799                0               0
76.125                0.00431276        -40.8917                0               0        0.0668341        -47.1571                0               0
                      0.00478114         134.842                0               0         0.997779         42.7761                0               0
                       0.0668344        -47.1573                0               0       0.00430921        -45.1289                0               0
                        0.997779         42.7762                0               0        0.0048173         137.743                0               0
76.17                 0.00590711         124.334                0               0        0.0702161        -49.5928                0               0
                      0.00687067          126.05                0               0         0.997588         40.3776                0               0
                       0.0702163        -49.5929                0               0       0.00586304         127.387                0               0
                        0.997588         40.3777                0               0       0.00687851         128.131                0               0
76.215                 0.0161034         125.204                0               0        0.0736425        -52.0645                0               0
                      0.00902404         119.826                0               0         0.997299         37.9672                0               0
                       0.0736428        -52.0647                0               0        0.0160728         126.318                0               0
                        0.997298         37.9672                0               0        0.0090147         121.436                0               0
76.26                  0.0263238         123.507                0               0        0.0770889        -54.5649                0               0
                       0.0112101         114.723                0               0         0.996912         35.5497                0               0
                        0.077089        -54.5652                0               0        0.0262968         124.184                0               0
                         0.99691         35.5496                0               0        0.0111886         116.034                0               0
76.305                 0.0365209         121.391                0               0        0.0805307        -57.0876                0               0
                       0.0134102         110.199                0               0         0.996421         33.1297                0               0
                       0.0805308        -57.0879                0               0        0.0364959         121.875                0               0
                         0.99642         33.1296                0               0         0.013379         111.306                0               0
76.35                   0.046657          119.13                0               0         0.083944        -59.6271                0               0
                       0.0156096         106.009                0               0         0.995821         30.7118                0               0
                       0.0839441        -59.6274                0               0        0.0466334         119.505                0               0
                        0.995819         30.7117                0               0          0.01557         106.968                0               0
76.395                 0.0566955         116.804                0               0        0.0873054        -62.1789                0               0
                       0.0177948         102.027                0               0         0.995099         28.3004                0               0
                       0.0873054        -62.1791                0               0        0.0566731         117.109                0               0
                        0.995097         28.3002                0               0        0.0177478         102.874                0               0
76.44                  0.0666007         114.445                0               0        0.0905917        -64.7395                0               0
                       0.0199532         98.1803                0               0         0.994239         25.8995                0               0
