! TOUCHSTONE file generated by CST MICROWAVE STUDIO
! Date and time: Mon Jun 21 17:06:38 2021
! Project name: HIPS_d_sweep.cst
! Parameters = {a=0.735; b=0.393; d=18.3116; fmax=120; fmin=75; phi=0; theta=0}
! Header version: 2018
! Port assignment regex: !\s*Touchstone port\s*([0-9]+)\s*=\s*(CST MWS port|CST DS port)\s*([0-9]+|Zmin|Zmax)\s*\(\"(.*)\"\)(\s*mode\s*([0-9]+))?.*
! Touchstone port assignment:
! Touchstone port 1 = CST MWS port Zmin ("") mode 1
! Touchstone port 2 = CST MWS port Zmin ("") mode 2
! Touchstone port 3 = CST MWS port Zmax ("") mode 1
! Touchstone port 4 = CST MWS port Zmax ("") mode 2
! S-Parameters are not renormalized. Unphysical impedance of 0 will be written to the file.
# GHz S MA R 0
75                      0.195102         64.1103                0               0         0.351995        -115.153                0               0
                       0.0759279         162.394                0               0         0.912291         155.233                0               0
                        0.351994        -115.153                0               0         0.195137         64.1066                0               0
                        0.912288         155.234                0               0         0.075813         162.402                0               0
75.045                  0.195484         63.6602                0               0         0.355088        -115.761                0               0
                       0.0765446         161.222                0               0         0.913975         154.725                0               0
                        0.355087        -115.761                0               0         0.195518         63.6559                0               0
                        0.913973         154.726                0               0        0.0764283         161.229                0               0
75.09                   0.195868         63.1507                0               0         0.357779        -116.398                0               0
                        0.077125         159.939                0               0         0.914728          154.15                0               0
                        0.357777        -116.399                0               0         0.195902         63.1457                0               0
                        0.914727         154.151                0               0        0.0770076         159.944                0               0
75.135                  0.196272         62.5806                0               0          0.36006         -117.07                0               0
                        0.077674         158.538                0               0          0.91469         153.501                0               0
                        0.360059        -117.071                0               0         0.196306         62.5751                0               0
                         0.91469         153.502                0               0        0.0775558         158.542                0               0
75.18                    0.19671           61.95                0               0         0.361935        -117.784                0               0
                       0.0781974         157.015                0               0          0.91402         152.772                0               0
                        0.361934        -117.785                0               0         0.196745          61.944                0               0
                        0.914021         152.773                0               0        0.0780788         157.017                0               0
75.225                  0.197198         61.2599                0               0         0.363415        -118.545                0               0
                       0.0787015         155.367                0               0         0.912882         151.961                0               0
                        0.363414        -118.546                0               0         0.197233         61.2533                0               0
                        0.912883         151.962                0               0        0.0785827         155.368                0               0
75.27                   0.197746          60.512                0               0         0.364519        -119.359                0               0
                       0.0791931         153.592                0               0         0.911436         151.068                0               0
                        0.364518        -119.359                0               0         0.197782          60.505                0               0
                        0.911437         151.069                0               0        0.0790744         153.591                0               0
75.315                  0.198363         59.7089                0               0         0.365272        -120.228                0               0
                       0.0796792         151.688                0               0         0.909828         150.094                0               0
                        0.365271        -120.229                0               0         0.198399         59.7014                0               0
                        0.909829         150.095                0               0        0.0795608         151.685                0               0
75.36                   0.199055         58.8533                0               0         0.365704        -121.156                0               0
                       0.0801664         149.655                0               0         0.908187         149.042                0               0
                        0.365704        -121.156                0               0         0.199091         58.8453                0               0
                        0.908186         149.044                0               0        0.0800485          149.65                0               0
75.405                  0.199822         57.9483                0               0         0.365848        -122.144                0               0
                       0.0806614         147.495                0               0         0.906617         147.918                0               0
                        0.365847        -122.144                0               0         0.199859         57.9398                0               0
                        0.906615         147.919                0               0         0.080544         147.487                0               0
75.45                   0.200663          56.997                0               0         0.365737        -123.191                0               0
                         0.08117         145.209                0               0           0.9052         146.725                0               0
                        0.365736        -123.191                0               0           0.2007          56.988                0               0
                        0.905197         146.727                0               0        0.0810533         145.199                0               0
75.495                  0.201572         56.0022                0               0         0.365404        -124.298                0               0
                       0.0816975         142.801                0               0         0.903995         145.471                0               0
                        0.365403        -124.298                0               0          0.20161         55.9926                0               0
                         0.90399         145.472                0               0        0.0815815         142.789                0               0
75.54                   0.202542         54.9667                0               0          0.36488        -125.462                0               0
                       0.0822479         140.275                0               0          0.90304          144.16                0               0
                        0.364879        -125.462                0               0         0.202579         54.9565                0               0
                        0.903033         144.162                0               0        0.0821326         140.261                0               0
75.585                  0.203561         53.8927                0               0         0.364193         -126.68                0               0
                       0.0828241         137.639                0               0         0.902353         142.799                0               0
                        0.364192         -126.68                0               0         0.203599         53.8818                0               0
                        0.902344         142.801                0               0        0.0827096         137.622                0               0
75.63                   0.204617         52.7822                0               0         0.363369         -127.95                0               0
                       0.0834279         134.897                0               0         0.901938         141.394                0               0
                        0.363367        -127.949                0               0         0.204654         52.7706                0               0
                        0.901929         141.396                0               0        0.0833142         134.878                0               0
75.675                  0.205694          51.637                0               0         0.362429        -129.267                0               0
                       0.0840593         132.058                0               0         0.901788         139.949                0               0
                        0.362427        -129.266                0               0         0.205732         51.6245                0               0
                        0.901777         139.951                0               0        0.0839463         132.037                0               0
75.72                   0.206776         50.4585                0               0         0.361392        -130.627                0               0
                       0.0847171         129.131                0               0         0.901883          138.47                0               0
                         0.36139        -130.626                0               0         0.206814         50.4451                0               0
                        0.901871         138.471                0               0        0.0846049         129.107                0               0
75.765                  0.207846         49.2478                0               0         0.360273        -132.026                0               0
                       0.0853986         126.123                0               0         0.902199          136.96                0               0
                        0.360271        -132.025                0               0         0.207884         49.2334                0               0
                        0.902186         136.961                0               0         0.085287         126.096                0               0
75.81                   0.208884         48.0061                0               0         0.359084         -133.46                0               0
                       0.0860996         123.044                0               0         0.902704         135.423                0               0
                        0.359081        -133.459                0               0         0.208922         47.9907                0               0
                        0.902692         135.425                0               0        0.0859887         123.015                0               0
75.855                  0.209872         46.7344                0               0         0.357834        -134.923                0               0
                       0.0868146         119.905                0               0         0.903366         133.864                0               0
                        0.357831        -134.922                0               0          0.20991         46.7178                0               0
                        0.903353         133.866                0               0        0.0867044         119.872                0               0
75.9                    0.210789         45.4337                0               0          0.35653        -136.413                0               0
                       0.0875371         116.714                0               0         0.904147         132.284                0               0
                        0.356527        -136.412                0               0         0.210826         45.4159                0               0
                        0.904135         132.286                0               0        0.0874276         116.678                0               0
75.945                  0.211614         44.1053                0               0         0.355178        -137.924                0               0
                       0.0882596         113.481                0               0         0.905012         130.688                0               0
                        0.355175        -137.923                0               0         0.211652         44.0863                0               0
                           0.905          130.69                0               0        0.0881509         113.443                0               0
75.99                   0.212329         42.7506                0               0         0.353781        -139.453                0               0
                        0.088974         110.217                0               0         0.905924         129.077                0               0
                        0.353779        -139.452                0               0         0.212367         42.7302                0               0
                        0.905912         129.079                0               0        0.0888662         110.175                0               0
76.035                  0.212913         41.3711                0               0         0.352343        -140.995                0               0
                       0.0896718          106.93                0               0         0.906846         127.454                0               0
                        0.352341        -140.994                0               0          0.21295         41.3493                0               0
                        0.906836         127.455                0               0        0.0895649         106.885                0               0
76.08                   0.213347         39.9688                0               0         0.350866        -142.547                0               0
                       0.0903444         103.631                0               0         0.907746          125.82                0               0
                        0.350864        -142.546                0               0         0.213384         39.9455                0               0
                        0.907736         125.822                0               0        0.0902385         103.582                0               0
76.125                  0.213612          38.546                0               0         0.349352        -144.106                0               0
                       0.0909834         100.327                0               0          0.90859         124.178                0               0
                         0.34935        -144.105                0               0         0.213649         38.5212                0               0
                        0.908581         124.179                0               0        0.0908786         100.275                0               0
76.17                   0.213693         37.1053                0               0         0.347801        -145.669                0               0
                       0.0915808         97.0277                0               0         0.909347         122.529                0               0
                        0.347799        -145.668                0               0          0.21373          37.079                0               0
                         0.90934         122.531                0               0        0.0914771         96.9724                0               0
76.215                  0.213573         35.6499                0               0         0.346217        -147.232                0               0
                       0.0921292         93.7412                0               0          0.90999         120.875                0               0
                        0.346215        -147.231                0               0          0.21361         35.6219                0               0
                        0.909984         120.877                0               0        0.0920269         93.6825                0               0
76.26                    0.21324          34.183                0               0         0.344599        -148.793                0               0
                       0.0926224         90.4748                0               0         0.910493         119.217                0               0
                        0.344598        -148.793                0               0         0.213276         34.1533                0               0
                        0.910489         119.219                0               0        0.0925215         90.4128                0               0
76.305                  0.212682         32.7085                0               0         0.342952         -150.35                0               0
                       0.0930549         87.2355                0               0         0.910834         117.558                0               0
                        0.342951         -150.35                0               0         0.212718         32.6771                0               0
                        0.910831          117.56                0               0        0.0929555         87.1702                0               0
76.35                   0.211893         31.2305                0               0         0.341275        -151.901                0               0
                       0.0934226         84.0297                0               0         0.910992         115.898                0               0
                        0.341275          -151.9                0               0         0.211928         31.1973                0               0
                        0.910991           115.9                0               0        0.0933249         83.9611                0               0
76.395                  0.210865         29.7533                0               0         0.339573        -153.443                0               0
                       0.0937225         80.8629                0               0         0.910951         114.239                0               0
                        0.339573        -153.442                0               0         0.210899         29.7183                0               0
                        0.910951         114.241                0               0        0.0936266         80.7912                0               0
76.44                   0.209598         28.2815                0               0         0.337848        -154.974                0               0
                       0.0939528         77.7404                0               0         0.910696         112.583                0               0
