! TOUCHSTONE file generated by CST MICROWAVE STUDIO
! Date and time: Mon Jun 21 17:07:41 2021
! Project name: HIPS_d_sweep.cst
! Parameters = {a=0.735; b=0.393; d=25.598; fmax=120; fmin=75; phi=0; theta=0}
! Header version: 2018
! Port assignment regex: !\s*Touchstone port\s*([0-9]+)\s*=\s*(CST MWS port|CST DS port)\s*([0-9]+|Zmin|Zmax)\s*\(\"(.*)\"\)(\s*mode\s*([0-9]+))?.*
! Touchstone port assignment:
! Touchstone port 1 = CST MWS port Zmin ("") mode 1
! Touchstone port 2 = CST MWS port Zmin ("") mode 2
! Touchstone port 3 = CST MWS port Zmax ("") mode 1
! Touchstone port 4 = CST MWS port Zmax ("") mode 2
! S-Parameters are not renormalized. Unphysical impedance of 0 will be written to the file.
# GHz S MA R 0
75                     0.0797234         113.726                0               0         0.101535        -65.5981                0               0
                       0.0247235         96.2901                0               0         0.991323         25.4553                0               0
                        0.101535        -65.5973                0               0        0.0797172         113.696                0               0
                        0.991325         25.4567                0               0         0.024751         96.0774                0               0
75.045                 0.0822279         113.236                0               0        0.0971223        -66.3521                0               0
                       0.0239308         95.2794                0               0          0.99165         24.6988                0               0
                       0.0971236        -66.3522                0               0        0.0822186         113.211                0               0
                         0.99165         24.7001                0               0        0.0239591         95.0577                0               0
75.09                  0.0851778         112.555                0               0        0.0931903        -67.2445                0               0
                        0.023333         94.0763                0               0         0.991818         23.8434                0               0
                       0.0931921         -67.245                0               0        0.0851681         112.532                0               0
                        0.991818         23.8447                0               0        0.0233625         93.8466                0               0
75.135                 0.0885502         111.718                0               0        0.0897272        -68.2661                0               0
                        0.022917          92.718                0               0         0.991848         22.8897                0               0
                       0.0897289        -68.2666                0               0        0.0885414         111.695                0               0
                        0.991848          22.891                0               0        0.0229479         92.4817                0               0
75.18                  0.0923218         110.747                0               0        0.0867211        -69.4086                0               0
                       0.0226713         91.2347                0               0         0.991758         21.8383                0               0
                       0.0867224        -69.4089                0               0        0.0923147         110.725                0               0
                        0.991757         21.8396                0               0        0.0227037          90.993                0               0
75.225                   0.09647         109.659                0               0        0.0841598        -70.6644                0               0
                       0.0225858          89.649                0               0         0.991559         20.6905                0               0
                       0.0841605        -70.6644                0               0        0.0964645         109.638                0               0
                        0.991559         20.6919                0               0        0.0226198         89.4033                0               0
75.27                   0.100972         108.465                0               0        0.0820305        -72.0271                0               0
                       0.0226515         87.9761                0               0         0.991262         19.4481                0               0
                       0.0820306        -72.0266                0               0         0.100968         108.444                0               0
                        0.991263         19.4495                0               0        0.0226871         87.7277                0               0
75.315                  0.105805         107.172                0               0          0.08032        -73.4911                0               0
                       0.0228603         86.2245                0               0         0.990873         18.1132                0               0
                       0.0803196        -73.4903                0               0         0.105803         107.153                0               0
                        0.990875         18.1147                0               0        0.0228975         85.9748                0               0
75.36                   0.110946         105.785                0               0        0.0790141        -75.0519                0               0
                       0.0232048         84.3967                0               0         0.990396         16.6886                0               0
                       0.0790134        -75.0509                0               0         0.110944         105.767                0               0
                        0.990398         16.6901                0               0        0.0232437         84.1468                0               0
75.405                  0.116369         104.308                0               0        0.0780977        -76.7058                0               0
                       0.0236775         82.4905                0               0         0.989831          15.177                0               0
                       0.0780968        -76.7046                0               0         0.116367         104.291                0               0
                        0.989834         15.1786                0               0         0.023718         82.2416                0               0
75.45                   0.122047         102.742                0               0        0.0775544        -78.4496                0               0
                       0.0242707         80.5006                0               0          0.98918          13.582                0               0
                       0.0775535        -78.4483                0               0         0.122045         102.727                0               0
                        0.989183         13.5836                0               0        0.0243129         80.2537                0               0
75.495                  0.127949         101.092                0               0        0.0773662          -80.28                0               0
                        0.024976         78.4204                0               0          0.98844         11.9071                0               0
                       0.0773654        -80.2787                0               0         0.127948         101.077                0               0
                        0.988444         11.9087                0               0          0.02502         78.1763                0               0
75.54                   0.134045         99.3582                0               0        0.0775136        -82.1935                0               0
                       0.0257841         76.2431                0               0         0.987612         10.1564                0               0
                       0.0775131        -82.1925                0               0         0.134044         99.3447                0               0
                        0.987615          10.158                0               0        0.0258299         76.0025                0               0
75.585                  0.140298         97.5458                0               0        0.0779759        -84.1862                0               0
                       0.0266846         73.9635                0               0         0.986693         8.33413                0               0
                       0.0779757        -84.1853                0               0         0.140298         97.5333                0               0
                        0.986697         8.33566                0               0        0.0267324         73.7269                0               0
75.63                   0.146671         95.6585                0               0        0.0787307        -86.2527                0               0
                       0.0276658         71.5786                0               0         0.985686         6.44462                0               0
                        0.078731         -86.252                0               0         0.146671         95.6468                0               0
                        0.985689         6.44612                0               0        0.0277158         71.3463                0               0
75.675                  0.153125         93.7013                0               0         0.079755        -88.3868                0               0
                       0.0287154         69.0885                0               0         0.984593         4.49253                0               0
                       0.0797557        -88.3864                0               0         0.153125         93.6903                0               0
                        0.984596         4.49398                0               0        0.0287677         68.8606                0               0
75.72                   0.159619           91.68                0               0         0.081025        -90.5812                0               0
                         0.02982         66.4958                0               0         0.983419         2.48257                0               0
                       0.0810261        -90.5809                0               0         0.159619         91.6696                0               0
                        0.983422         2.48398                0               0        0.0298749         66.2723                0               0
75.765                  0.166111         89.6009                0               0        0.0825168        -92.8275                0               0
                       0.0309662         63.8061                0               0         0.982173        0.419546                0               0
                       0.0825183        -92.8273                0               0         0.166112          89.591                0               0
                        0.982175        0.420921                0               0        0.0310238          63.587                0               0
75.81                   0.172562         87.4708                0               0        0.0842066        -95.1166                0               0
                       0.0321405         61.0269                0               0         0.980864        -1.69171                0               0
                       0.0842084        -95.1164                0               0         0.172564         87.4613                0               0
                        0.980867        -1.69036                0               0        0.0322009          60.812                0               0
75.855                  0.178933         85.2967                0               0        0.0860715        -97.4392                0               0
                       0.0333298         58.1671                0               0         0.979507        -3.84636                0               0
                       0.0860736        -97.4389                0               0         0.178935         85.2876                0               0
                         0.97951        -3.84503                0               0        0.0333931         57.9561                0               0
75.9                    0.185187         83.0853                0               0        0.0880894        -99.7859                0               0
                       0.0345218         55.2359                0               0          0.97812        -6.03961                0               0
                       0.0880915        -99.7854                0               0         0.185189         83.0766                0               0
                        0.978123        -6.03827                0               0        0.0345882         55.0287                0               0
75.945                  0.191291         80.8432                0               0        0.0902391        -102.148                0               0
                       0.0357051         52.2426                0               0          0.97672        -8.26671                0               0
                       0.0902413        -102.147                0               0         0.191293         80.8349                0               0
                        0.976724        -8.26536                0               0        0.0357748         52.0389                0               0
75.99                   0.197213         78.5763                0               0        0.0925009        -104.517                0               0
                       0.0368695         49.1956                0               0         0.975329         -10.523                0               0
                       0.0925031        -104.516                0               0         0.197215         78.5684                0               0
                        0.975335        -10.5216                0               0        0.0369425         48.9951                0               0
76.035                  0.202925         76.2897                0               0        0.0948562        -106.885                0               0
                       0.0380053         46.1019                0               0         0.973969        -12.8039                0               0
                       0.0948583        -106.884                0               0         0.202928         76.2823                0               0
                        0.973976        -12.8025                0               0        0.0380819         45.9044                0               0
76.08                   0.208402         73.9881                0               0        0.0972875        -109.248                0               0
                        0.039104         42.9674                0               0          0.97266         -15.105                0               0
                       0.0972894        -109.246                0               0         0.208405         73.9811                0               0
                        0.972669        -15.1035                0               0        0.0391842         42.7727                0               0
76.125                   0.21362         71.6748                0               0        0.0997779        -111.599                0               0
                       0.0401575         39.7964                0               0         0.971421        -17.4218                0               0
                       0.0997796        -111.597                0               0         0.213623         71.6682                0               0
                        0.971432        -17.4202                0               0        0.0402415         39.6043                0               0
76.17                   0.218555         69.3528                0               0         0.102312        -113.935                0               0
                       0.0411579         36.5919                0               0         0.970268        -19.7501                0               0
                        0.102313        -113.933                0               0         0.218559         69.3466                0               0
                        0.970281        -19.7484                0               0        0.0412459         36.4021                0               0
76.215                  0.223184         67.0244                0               0         0.104873        -116.255                0               0
                       0.0420975         33.3558                0               0         0.969211        -22.0857                0               0
                        0.104874        -116.253                0               0         0.223189         67.0185                0               0
                        0.969226        -22.0839                0               0        0.0421898         33.1681                0               0
76.26                   0.227484         64.6916                0               0         0.107446        -118.557                0               0
                       0.0429685         30.0891                0               0         0.968252        -24.4244                0               0
                        0.107447        -118.555                0               0          0.22749         64.6857                0               0
                        0.968269        -24.4225                0               0        0.0430653         29.9032                0               0
76.305                  0.231431          62.356                0               0         0.110016        -120.841                0               0
                       0.0437629         26.7923                0               0         0.967385        -26.7624                0               0
                        0.110017        -120.839                0               0         0.231438         62.3502                0               0
                        0.967402        -26.7604                0               0        0.0438643          26.608                0               0
76.35                   0.235001         60.0196                0               0         0.112567         -123.11                0               0
                       0.0444721         23.4658                0               0          0.96659        -29.0957                0               0
                        0.112567        -123.108                0               0         0.235009         60.0136                0               0
                        0.966608        -29.0937                0               0        0.0445784         23.2827                0               0
76.395                  0.238169         57.6844                0               0         0.115083        -125.365                0               0
                       0.0450875         20.1098                0               0         0.965839        -31.4209                0               0
                        0.115083        -125.363                0               0         0.238177         57.6783                0               0
                        0.965857        -31.4189                0               0         0.045199         19.9277                0               0
76.44                   0.240912         55.3532                0               0         0.117549         -127.61                0               0
                       0.0456003         16.7253                0               0         0.965089        -33.7346                0               0
