! TOUCHSTONE file generated by CST MICROWAVE STUDIO
! Date and time: Mon Jun 21 17:06:55 2021
! Project name: HIPS_d_sweep.cst
! Parameters = {a=0.735; b=0.393; d=20.5729; fmax=120; fmin=75; phi=0; theta=0}
! Header version: 2018
! Port assignment regex: !\s*Touchstone port\s*([0-9]+)\s*=\s*(CST MWS port|CST DS port)\s*([0-9]+|Zmin|Zmax)\s*\(\"(.*)\"\)(\s*mode\s*([0-9]+))?.*
! Touchstone port assignment:
! Touchstone port 1 = CST MWS port Zmin ("") mode 1
! Touchstone port 2 = CST MWS port Zmin ("") mode 2
! Touchstone port 3 = CST MWS port Zmax ("") mode 1
! Touchstone port 4 = CST MWS port Zmax ("") mode 2
! S-Parameters are not renormalized. Unphysical impedance of 0 will be written to the file.
# GHz S MA R 0
75                      0.122463        -8.75255                0               0          0.23415        -14.9353                0               0
                       0.0794378         4.53586                0               0         0.961181        -107.348                0               0
                         0.23415        -14.9356                0               0         0.122406        -8.78182                0               0
                        0.961181        -107.347                0               0        0.0794863         4.59173                0               0
75.045                  0.120392        -9.05861                0               0         0.237583        -15.6612                0               0
                       0.0800246         3.64219                0               0         0.960302        -107.954                0               0
                        0.237584        -15.6615                0               0         0.120335        -9.08861                0               0
                          0.9603        -107.953                0               0        0.0800734          3.6979                0               0
75.09                    0.11806        -9.40374                0               0         0.240741        -16.4359                0               0
                        0.080488         2.64645                0               0         0.959691        -108.651                0               0
                        0.240742        -16.4362                0               0         0.118001        -9.43454                0               0
                        0.959688         -108.65                0               0         0.080537         2.70224                0               0
75.135                  0.115467        -9.78957                0               0         0.243605         -17.267                0               0
                       0.0808325         1.53687                0               0           0.9593        -109.433                0               0
                        0.243606        -17.2673                0               0         0.115407        -9.82125                0               0
                        0.959298        -109.432                0               0        0.0808818         1.59296                0               0
75.18                   0.112615        -10.2167                0               0          0.24616        -18.1616                0               0
                       0.0810645         0.30355                0               0         0.959089        -110.297                0               0
                        0.246161        -18.1619                0               0         0.112553        -10.2493                0               0
                        0.959088        -110.295                0               0         0.081114        0.360134                0               0
75.225                  0.109504        -10.6845                0               0         0.248397        -19.1262                0               0
                       0.0811915        -1.06139                0               0          0.95902        -111.237                0               0
                        0.248398        -19.1265                0               0         0.109441        -10.7183                0               0
                        0.959019        -111.236                0               0         0.081241        -1.00415                0               0
75.27                   0.106135        -11.1913                0               0         0.250311        -20.1663                0               0
                       0.0812212        -2.56382                0               0         0.959059        -112.252                0               0
                        0.250312        -20.1666                0               0         0.106071        -11.2264                0               0
                         0.95906         -112.25                0               0        0.0812706        -2.50578                0               0
75.315                  0.102509        -11.7337                0               0         0.251904        -21.2865                0               0
                       0.0811607        -4.20768                0               0         0.959182        -113.338                0               0
                        0.251905        -21.2867                0               0         0.102444        -11.7703                0               0
                        0.959182        -113.337                0               0        0.0812099        -4.14872                0               0
75.36                  0.0986259        -12.3068                0               0         0.253178        -22.4899                0               0
                       0.0810165        -5.99514                0               0         0.959367        -114.495                0               0
                        0.253178        -22.4901                0               0        0.0985592         -12.345                0               0
                        0.959367        -114.493                0               0        0.0810654        -5.93518                0               0
75.405                 0.0944855        -12.9031                0               0          0.25414        -23.7785                0               0
                       0.0807936        -7.92684                0               0           0.9596        -115.719                0               0
                         0.25414        -23.7787                0               0        0.0944173        -12.9433                0               0
                        0.959601        -115.718                0               0         0.080842        -7.86579                0               0
75.45                  0.0900883        -13.5128                0               0           0.2548        -25.1528                0               0
                       0.0804952         -10.002                0               0         0.959874        -117.011                0               0
                          0.2548        -25.1531                0               0        0.0900185        -13.5553                0               0
                        0.959875         -117.01                0               0        0.0805431        -9.93983                0               0
75.495                 0.0854351        -14.1221                0               0         0.255167        -26.6123                0               0
                       0.0801231        -12.2189                0               0         0.960187        -118.368                0               0
                        0.255167        -26.6126                0               0        0.0853637        -14.1672                0               0
                        0.960187        -118.367                0               0        0.0801704        -12.1554                0               0
75.54                  0.0805277        -14.7121                0               0         0.255254        -28.1547                0               0
                       0.0796776        -14.5745                0               0         0.960542        -119.789                0               0
                        0.255254        -28.1551                0               0        0.0804546        -14.7603                0               0
                        0.960542        -119.788                0               0        0.0797241        -14.5098                0               0
75.585                 0.0753695        -15.2571                0               0         0.255072        -29.7771                0               0
                       0.0791572        -17.0652                0               0         0.960945        -121.272                0               0
                        0.255072        -29.7774                0               0        0.0752946        -15.3089                0               0
                        0.960944         -121.27                0               0        0.0792029        -16.9991                0               0
75.63                  0.0699661         -15.721                0               0         0.254631        -31.4749                0               0
                       0.0785597        -19.6865                0               0         0.961404        -122.814                0               0
                        0.254631        -31.4753                0               0        0.0698893         -15.777                0               0
                        0.961404        -122.813                0               0        0.0786044         -19.619                0               0
75.675                 0.0643264        -16.0524                0               0         0.253943        -33.2432                0               0
                       0.0778816        -22.4334                0               0          0.96193        -124.413                0               0
                        0.253943        -33.2436                0               0        0.0642475        -16.1134                0               0
                         0.96193        -124.412                0               0        0.0779252        -22.3643                0               0
75.72                  0.0584646        -16.1763                0               0         0.253018        -35.0758                0               0
                       0.0771193        -25.3002                0               0         0.962532        -126.067                0               0
                        0.253017        -35.0762                0               0        0.0583832        -16.2431                0               0
                        0.962532        -126.065                0               0        0.0771617        -25.2295                0               0
75.765                  0.052402        -15.9791                0               0         0.251866        -36.9662                0               0
                       0.0762688        -28.2806                0               0         0.963215         -127.77                0               0
                        0.251865        -36.9666                0               0        0.0523177        -16.0527                0               0
                        0.963216        -127.769                0               0        0.0763098        -28.2081                0               0
75.81                  0.0461721        -15.2815                0               0         0.250496        -38.9072                0               0
                       0.0753266        -31.3679                0               0         0.963981         -129.52                0               0
                        0.250496        -38.9076                0               0        0.0460843        -15.3628                0               0
                        0.963983        -129.519                0               0         0.075366        -31.2935                0               0
75.855                 0.0398285        -13.7865                0               0         0.248919        -40.8913                0               0
                       0.0742897         -34.555                0               0         0.964828        -131.313                0               0
                        0.248919        -40.8917                0               0        0.0397362        -13.8762                0               0
                        0.964831        -131.312                0               0        0.0743275        -34.4785                0               0
75.9                   0.0334631         -10.973                0               0         0.247145        -42.9108                0               0
                       0.0731564        -37.8341                0               0         0.965746        -133.143                0               0
                        0.247145        -42.9113                0               0        0.0333651        -11.0697                0               0
                         0.96575        -133.142                0               0        0.0731922        -37.7554                0               0
75.945                 0.0272474         -5.8722                0               0         0.245183        -44.9581                0               0
                        0.071926        -41.1975                0               0          0.96672        -135.007                0               0
                        0.245183        -44.9585                0               0        0.0271421        -5.96868                0               0
                        0.966725        -135.006                0               0        0.0719596        -41.1164                0               0
75.99                  0.0215351         3.36311                0               0         0.243044        -47.0253                0               0
                       0.0705995         -44.637                0               0         0.967727          -136.9                0               0
                        0.243045        -47.0258                0               0        0.0214215         3.29388                0               0
                        0.967733        -136.899                0               0        0.0706306        -44.5532                0               0
76.035                 0.0171004         19.7696                0               0         0.240741        -49.1049                0               0
                       0.0691796        -48.1445                0               0          0.96874        -138.817                0               0
                        0.240741        -49.1053                0               0        0.0169827         19.8045                0               0
                        0.968747        -138.816                0               0        0.0692081        -48.0578                0               0
76.08                  0.0153553         44.5164                0               0         0.238284        -51.1895                0               0
                       0.0676708         -51.712                0               0         0.969727        -140.753                0               0
                        0.238285        -51.1899                0               0        0.0152531         44.7502                0               0
                        0.969734        -140.752                0               0        0.0676964        -51.6222                0               0
76.125                 0.0173117         69.2675                0               0         0.235688        -53.2721                0               0
                       0.0660792        -55.3316                0               0          0.97065        -142.705                0               0
                        0.235689        -53.2725                0               0        0.0172472         69.6076                0               0
                        0.970657        -142.704                0               0        0.0661017        -55.2383                0               0
76.17                  0.0220955         85.6162                0               0         0.232966         -55.346                0               0
                       0.0644127         -58.996                0               0          0.97147        -144.668                0               0
                        0.232967        -55.3463                0               0        0.0220656         85.9243                0               0
                        0.971477        -144.667                0               0        0.0644319         -58.899                0               0
76.215                 0.0283444         94.6856                0               0         0.230133         -57.405                0               0
                       0.0626804        -62.6983                0               0         0.972149        -146.639                0               0
                        0.230134        -57.4053                0               0        0.0283371          94.935                0               0
                        0.972156        -146.638                0               0        0.0626961        -62.5973                0               0
76.26                  0.0352876         99.5204                0               0         0.227203        -59.4433                0               0
                       0.0608928        -66.4326                0               0         0.972647        -148.614                0               0
                        0.227204        -59.4436                0               0        0.0352947         99.7221                0               0
                        0.972652        -148.612                0               0        0.0609048        -66.3273                0               0
76.305                 0.0425611         101.979                0               0         0.224192        -61.4557                0               0
                        0.059061        -70.1936                0               0         0.972924        -150.589                0               0
                        0.224193         -61.456                0               0        0.0425775         102.146                0               0
                        0.972929        -150.588                0               0        0.0590691        -70.0837                0               0
76.35                  0.0499782         103.039                0               0         0.221115        -63.4375                0               0
                       0.0571967        -73.9773                0               0         0.972948        -152.562                0               0
                        0.221116        -63.4378                0               0        0.0500009          103.18                0               0
                        0.972952         -152.56                0               0        0.0572008        -73.8625                0               0
76.395                 0.0574291         103.226                0               0         0.217988        -65.3845                0               0
                       0.0553119        -77.7806                0               0         0.972686         -154.53                0               0
                        0.217989        -65.3848                0               0        0.0574563         103.348                0               0
                        0.972689        -154.528                0               0         0.055312        -77.6605                0               0
76.44                  0.0648413         102.844                0               0         0.214826        -67.2931                0               0
                       0.0534185        -81.6014                0               0         0.972112         -156.49                0               0
