! TOUCHSTONE file generated by CST MICROWAVE STUDIO
! Date and time: Mon Jun 21 17:06:37 2021
! Project name: HIPS_d_sweep.cst
! Parameters = {a=0.735; b=0.393; d=18.1106; fmax=120; fmin=75; phi=0; theta=0}
! Header version: 2018
! Port assignment regex: !\s*Touchstone port\s*([0-9]+)\s*=\s*(CST MWS port|CST DS port)\s*([0-9]+|Zmin|Zmax)\s*\(\"(.*)\"\)(\s*mode\s*([0-9]+))?.*
! Touchstone port assignment:
! Touchstone port 1 = CST MWS port Zmin ("") mode 1
! Touchstone port 2 = CST MWS port Zmin ("") mode 2
! Touchstone port 3 = CST MWS port Zmax ("") mode 1
! Touchstone port 4 = CST MWS port Zmax ("") mode 2
! S-Parameters are not renormalized. Unphysical impedance of 0 will be written to the file.
# GHz S MA R 0
75                       0.14169         80.2665                0               0         0.375124        -92.5735                0               0
                        0.076531        -140.311                0               0          0.91288         178.812                0               0
                        0.375123        -92.5737                0               0         0.141773         80.1998                0               0
                         0.91288         178.811                0               0        0.0763565         -140.27                0               0
75.045                  0.142333         79.7527                0               0         0.377709        -93.1086                0               0
                       0.0768555        -141.423                0               0         0.911674         178.269                0               0
                        0.377709        -93.1087                0               0         0.142416         79.6869                0               0
                        0.911674         178.268                0               0        0.0766809        -141.383                0               0
75.09                   0.143204         79.2169                0               0         0.379965        -93.7126                0               0
                       0.0771208        -142.715                0               0          0.91058         177.655                0               0
                        0.379964        -93.7128                0               0         0.143287         79.1522                0               0
                         0.91058         177.654                0               0        0.0769462        -142.677                0               0
75.135                  0.144293         78.6585                0               0         0.381892        -94.3851                0               0
                       0.0773315        -144.186                0               0         0.909593         176.972                0               0
                        0.381891        -94.3852                0               0         0.144375          78.595                0               0
                        0.909593         176.971                0               0        0.0771569         -144.15                0               0
75.18                   0.145593         78.0763                0               0         0.383494         -95.125                0               0
                       0.0774924        -145.833                0               0         0.908708         176.219                0               0
                        0.383494        -95.1252                0               0         0.145674         78.0142                0               0
                        0.908708         176.218                0               0         0.077318        -145.799                0               0
75.225                  0.147093         77.4687                0               0         0.384778        -95.9311                0               0
                       0.0776087        -147.652                0               0         0.907923         175.398                0               0
                        0.384777        -95.9313                0               0         0.147173          77.408                0               0
                        0.907923         175.397                0               0        0.0774347        -147.621                0               0
75.27                   0.148785         76.8336                0               0         0.385749        -96.8019                0               0
                        0.077686        -149.641                0               0         0.907235          174.51                0               0
                        0.385748        -96.8021                0               0         0.148863         76.7745                0               0
                        0.907234         174.509                0               0        0.0775127        -149.612                0               0
75.315                  0.150657          76.169                0               0         0.386417        -97.7357                0               0
                       0.0777301        -151.795                0               0         0.906639         173.555                0               0
                        0.386416        -97.7359                0               0         0.150734         76.1117                0               0
                        0.906639         173.554                0               0        0.0775578        -151.769                0               0
75.36                   0.152701         75.4727                0               0         0.386791        -98.7302                0               0
                       0.0777472        -154.112                0               0         0.906134         172.537                0               0
                         0.38679        -98.7304                0               0         0.152776         75.4172                0               0
                        0.906134         172.535                0               0        0.0775763        -154.088                0               0
75.405                  0.154904         74.7425                0               0         0.386882        -99.7832                0               0
                       0.0777436        -156.585                0               0         0.905717         171.456                0               0
                        0.386881        -99.7834                0               0         0.154976         74.6889                0               0
                        0.905716         171.454                0               0        0.0775743        -156.564                0               0
75.45                   0.157253         73.9762                0               0         0.386702        -100.892                0               0
                       0.0777257         -159.21                0               0         0.905383         170.315                0               0
                        0.386702        -100.892                0               0         0.157323         73.9248                0               0
                        0.905382         170.313                0               0        0.0775584        -159.192                0               0
75.495                  0.159736         73.1721                0               0         0.386266        -102.054                0               0
                          0.0777         -161.98                0               0          0.90513         169.116                0               0
                        0.386265        -102.054                0               0         0.159804         73.1228                0               0
                        0.905129         169.115                0               0        0.0775351        -161.965                0               0
75.54                   0.162338         72.3286                0               0         0.385586        -103.267                0               0
                       0.0776731        -164.888                0               0         0.904952         167.862                0               0
                        0.385585        -103.267                0               0         0.162403         72.2815                0               0
                        0.904952         167.861                0               0        0.0775108        -164.876                0               0
75.585                  0.165043         71.4443                0               0         0.384677        -104.526                0               0
                       0.0776512        -167.927                0               0         0.904847         166.556                0               0
                        0.384677        -104.526                0               0         0.165105         71.3996                0               0
                        0.904846         166.555                0               0        0.0774919        -167.918                0               0
75.63                   0.167836         70.5185                0               0         0.383556        -105.829                0               0
                       0.0776405        -171.088                0               0         0.904807         165.201                0               0
                        0.383556         -105.83                0               0         0.167895         70.4761                0               0
                        0.904807           165.2                0               0        0.0774845        -171.082                0               0
75.675                  0.170699         69.5506                0               0         0.382239        -107.174                0               0
                       0.0776469        -174.362                0               0         0.904829         163.799                0               0
                        0.382239        -107.174                0               0         0.170755         69.5106                0               0
                        0.904828         163.798                0               0        0.0774946        -174.359                0               0
75.72                   0.173613         68.5406                0               0         0.380742        -108.555                0               0
                       0.0776757        -177.738                0               0         0.904906         162.355                0               0
                        0.380742        -108.555                0               0         0.173667         68.5032                0               0
                        0.904905         162.354                0               0        0.0775274        -177.738                0               0
75.765                  0.176561         67.4891                0               0         0.379082         -109.97                0               0
                       0.0777319         178.794                0               0         0.905032          160.87                0               0
                        0.379082         -109.97                0               0         0.176611         67.4542                0               0
                        0.905031         160.869                0               0        0.0775879         178.792                0               0
75.81                   0.179523         66.3969                0               0         0.377278        -111.416                0               0
                       0.0778198         175.245                0               0         0.905201         159.349                0               0
                        0.377278        -111.416                0               0          0.17957         66.3646                0               0
                          0.9052         159.348                0               0        0.0776803          175.24                0               0
75.855                   0.18248         65.2652                0               0         0.375346        -112.889                0               0
                       0.0779429         171.628                0               0         0.905408         157.795                0               0
                        0.375346        -112.889                0               0         0.182524         65.2357                0               0
                        0.905407         157.794                0               0        0.0778083         171.621                0               0
75.9                    0.185413         64.0959                0               0         0.373304        -114.386                0               0
                       0.0781041         167.953                0               0         0.905646         156.211                0               0
                        0.373304        -114.386                0               0         0.185453          64.069                0               0
                        0.905645         156.209                0               0        0.0779748         167.945                0               0
75.945                  0.188302         62.8909                0               0         0.371171        -115.903                0               0
                       0.0783056         164.234                0               0         0.905912           154.6                0               0
                        0.371171        -115.904                0               0         0.188339         62.8668                0               0
                        0.905911         154.598                0               0        0.0781818         164.223                0               0
75.99                   0.191131         61.6526                0               0         0.368963        -117.438                0               0
                       0.0785487         160.481                0               0         0.906199         152.965                0               0
                        0.368964        -117.439                0               0         0.191165         61.6312                0               0
                        0.906198         152.964                0               0        0.0784306         160.469                0               0
76.035                  0.193881         60.3834                0               0           0.3667        -118.988                0               0
                       0.0788341         156.706                0               0         0.906506         151.311                0               0
                          0.3667        -118.988                0               0         0.193912         60.3648                0               0
                        0.906505          151.31                0               0        0.0787219         156.694                0               0
76.08                   0.196536         59.0861                0               0         0.364397        -120.548                0               0
                       0.0791615         152.921                0               0         0.906828         149.641                0               0
                        0.364397        -120.549                0               0         0.196564         59.0703                0               0
                        0.906827         149.639                0               0        0.0790554         152.908                0               0
76.125                  0.199083         57.7634                0               0         0.362073        -122.118                0               0
                       0.0795304         149.136                0               0         0.907164         147.957                0               0
                        0.362073        -122.118                0               0         0.199107         57.7505                0               0
                        0.907163         147.956                0               0        0.0794304         149.123                0               0
76.17                   0.201505         56.4182                0               0         0.359743        -123.693                0               0
                       0.0799392          145.36                0               0         0.907514         146.263                0               0
                        0.359743        -123.693                0               0         0.201527         56.4081                0               0
                        0.907512         146.262                0               0        0.0798456         145.347                0               0
76.215                  0.203793         55.0534                0               0         0.357424        -125.271                0               0
                       0.0803863         141.602                0               0         0.907876         144.563                0               0
                        0.357425        -125.271                0               0         0.203812         55.0462                0               0
                        0.907874         144.562                0               0         0.080299          141.59                0               0
76.26                   0.205934         53.6719                0               0         0.355132         -126.85                0               0
                       0.0808695         137.871                0               0          0.90825         142.859                0               0
                        0.355132         -126.85                0               0         0.205951         53.6675                0               0
                        0.908249         142.858                0               0        0.0807884         137.861                0               0
76.305                   0.20792         52.2764                0               0          0.35288        -128.428                0               0
                        0.081386         134.174                0               0         0.908638         141.155                0               0
                        0.352881        -128.428                0               0         0.207934         52.2749                0               0
                        0.908637         141.154                0               0         0.081311         134.165                0               0
76.35                   0.209742           50.87                0               0         0.350683        -130.002                0               0
                       0.0819331         130.519                0               0         0.909039         139.453                0               0
                        0.350684        -130.002                0               0         0.209753         50.8714                0               0
                        0.909037         139.452                0               0        0.0818641         130.512                0               0
76.395                  0.211393         49.4557                0               0         0.348552         -131.57                0               0
                       0.0825075         126.911                0               0          0.90945         137.757                0               0
                        0.348553         -131.57                0               0         0.211402           49.46                0               0
                        0.909449         137.756                0               0        0.0824443         126.906                0               0
76.44                   0.212867         48.0367                0               0         0.346497         -133.13                0               0
                       0.0831057         123.357                0               0          0.90987         136.069                0               0
