! TOUCHSTONE file generated by CST MICROWAVE STUDIO
! Date and time: Mon Jun 21 17:07:40 2021
! Project name: HIPS_d_sweep.cst
! Parameters = {a=0.735; b=0.393; d=25.5477; fmax=120; fmin=75; phi=0; theta=0}
! Header version: 2018
! Port assignment regex: !\s*Touchstone port\s*([0-9]+)\s*=\s*(CST MWS port|CST DS port)\s*([0-9]+|Zmin|Zmax)\s*\(\"(.*)\"\)(\s*mode\s*([0-9]+))?.*
! Touchstone port assignment:
! Touchstone port 1 = CST MWS port Zmin ("") mode 1
! Touchstone port 2 = CST MWS port Zmin ("") mode 2
! Touchstone port 3 = CST MWS port Zmax ("") mode 1
! Touchstone port 4 = CST MWS port Zmax ("") mode 2
! S-Parameters are not renormalized. Unphysical impedance of 0 will be written to the file.
# GHz S MA R 0
75                     0.0543282         119.345                0               0        0.0976968        -59.1292                0               0
                       0.0202444         106.054                0               0         0.993523          31.482                0               0
                       0.0976965        -59.1294                0               0        0.0543732          119.55                0               0
                        0.993524         31.4834                0               0        0.0202404         106.304                0               0
75.045                 0.0581772         118.714                0               0        0.0956253        -56.6603                0               0
                       0.0204338         104.721                0               0         0.998963         30.5866                0               0
                       0.0956254        -56.6586                0               0        0.0582279           118.9                0               0
                        0.998966         30.5879                0               0        0.0204385         104.957                0               0
75.09                  0.0621663         117.976                0               0         0.092023        -54.8721                0               0
                       0.0206134         103.345                0               0                1         29.6535                0               0
                        0.092022        -54.8689                0               0        0.0622216         118.145                0               0
                               1         29.6548                0               0        0.0206261          103.57                0               0
75.135                 0.0663025         117.135                0               0        0.0875957        -54.1209                0               0
                        0.020782         101.915                0               0                1         28.6705                0               0
                        0.087593        -54.1171                0               0        0.0663615          117.29                0               0
                               1         28.6718                0               0        0.0208018         102.133                0               0
75.18                  0.0705936         116.194                0               0        0.0831505        -54.5269                0               0
                       0.0209384         100.417                0               0                1         27.6254                0               0
                       0.0831463        -54.5234                0               0         0.070655         116.337                0               0
                               1         27.6267                0               0        0.0209641         100.632                0               0
75.225                 0.0750473         115.155                0               0        0.0792916        -55.9734                0               0
                       0.0210821         98.8363                0               0                1         26.5071                0               0
                       0.0792867        -55.9707                0               0        0.0751101         115.288                0               0
                               1         26.5084                0               0        0.0211121         99.0526                0               0
75.27                  0.0796721         114.021                0               0        0.0763178        -58.2019                0               0
                       0.0212134         97.1555                0               0                1         25.3062                0               0
                        0.076313        -58.2001                0               0        0.0797351         114.146                0               0
                               1         25.3075                0               0        0.0212456         97.3757                0               0
75.315                 0.0844764         112.793                0               0        0.0742815        -60.9228                0               0
                       0.0213335         95.3538                0               0                1         24.0154                0               0
                       0.0742773        -60.9219                0               0        0.0845384         112.911                0               0
                               1         24.0167                0               0        0.0213656         95.5805                0               0
75.36                  0.0894684         111.473                0               0        0.0730952        -63.8894                0               0
                       0.0214458         93.4086                0               0                1           22.63                0               0
                       0.0730918         -63.889                0               0        0.0895285         111.585                0               0
                               1         22.6313                0               0        0.0214747         93.6431                0               0
75.405                 0.0946562         110.062                0               0        0.0726181        -66.9254                0               0
                       0.0215557         91.2955                0               0                1         21.1481                0               0
                       0.0726155        -66.9254                0               0        0.0947132          110.17                0               0
                               1         21.1495                0               0         0.021578         91.5373                0               0
75.45                   0.100047         108.562                0               0        0.0727056        -69.9225                0               0
                       0.0216717         88.9904                0               0         0.997035         19.5705                0               0
                       0.0727037        -69.9226                0               0           0.1001         108.666                0               0
                         0.99704         19.5718                0               0        0.0216835         89.2363                0               0
75.495                  0.105646         106.975                0               0        0.0732323         -72.824                0               0
                       0.0218062         86.4714                0               0         0.993871         17.9002                0               0
                        0.073231         -72.824                0               0         0.105694         107.075                0               0
                        0.993876         17.9015                0               0        0.0218036          86.715                0               0
75.54                   0.111457         105.304                0               0        0.0740974        -75.6077                0               0
                       0.0219754         83.7234                0               0         0.990754          16.142                0               0
                       0.0740966        -75.6076                0               0           0.1115           105.4                0               0
                        0.990759         16.1433                0               0        0.0219547         83.9544                0               0
75.585                  0.117482          103.55                0               0        0.0752239        -78.2719                0               0
                          0.0222         80.7427                0               0         0.987804         14.3024                0               0
                       0.0752234        -78.2718                0               0         0.117519         103.642                0               0
                        0.987808         14.3037                0               0        0.0221584         80.9466                0               0
75.63                   0.123716         101.718                0               0        0.0765539        -80.8259                0               0
                       0.0225036         77.5424                0               0         0.985107         12.3886                0               0
                       0.0765537        -80.8257                0               0         0.123747         101.806                0               0
                         0.98511         12.3898                0               0        0.0224398         77.7015                0               0
75.675                  0.130152         99.8089                0               0        0.0780451        -83.2842                0               0
                       0.0229115         74.1565                0               0         0.982718         10.4081                0               0
                        0.078045        -83.2839                0               0         0.130177         99.8935                0               0
                        0.982721         10.4093                0               0        0.0228264         74.2515                0               0
75.72                   0.136776         97.8281                0               0         0.079666        -85.6628                0               0
                       0.0234472         70.6411                0               0         0.980666         8.36881                0               0
                       0.0796659        -85.6624                0               0         0.136797         97.9089                0               0
                        0.980669         8.36998                0               0        0.0233442          70.654                0               0
75.765                  0.143569         95.7791                0               0        0.0813936        -87.9776                0               0
                       0.0241291         67.0703                0               0         0.978953         6.27811                0               0
                       0.0813937        -87.9772                0               0         0.143585         95.8561                0               0
                        0.978956         6.27925                0               0        0.0240141         66.9872                0               0
75.81                   0.150502         93.6661                0               0        0.0832112        -90.2434                0               0
                       0.0249668         63.5269                0               0         0.977565         4.14305                0               0
                       0.0832112        -90.2429                0               0         0.150515         93.7392                0               0
                        0.977568         4.14416                0               0        0.0248474         63.3406                0               0
75.855                   0.15754         91.4937                0               0        0.0851059        -92.4736                0               0
                       0.0259591         60.0909                0               0         0.976469         1.97008                0               0
                       0.0851059        -92.4732                0               0         0.157551         91.5629                0               0
                        0.976473         1.97117                0               0        0.0258432         59.8005                0               0
75.9                    0.164637         89.2668                0               0        0.0870684        -94.6805                0               0
                       0.0270925         56.8294                0               0         0.975625       -0.234984                0               0
                       0.0870684        -94.6801                0               0         0.164649         89.3321                0               0
                        0.975628       -0.233911                0               0        0.0269868         56.4378                0               0
75.945                  0.171744         86.9907                0               0        0.0890914        -96.8745                0               0
                       0.0283433         53.7928                0               0         0.974981        -2.46698                0               0
                       0.0890913        -96.8741                0               0         0.171756         87.0521                0               0
                        0.974985        -2.46592                0               0        0.0282509         53.3014                0               0
75.99                   0.178799          84.671                0               0        0.0911695         -99.065                0               0
                       0.0296795         51.0238                0               0         0.974483        -4.72138                0               0
                       0.0911694        -99.0647                0               0         0.178814         84.7286                0               0
                        0.974487        -4.72033                0               0        0.0295967         50.4245                0               0
76.035                  0.185737          82.314                0               0        0.0932985         -101.26                0               0
                        0.031066         48.5903                0               0         0.974074        -6.99423                0               0
                       0.0932983         -101.26                0               0         0.185756         82.3678                0               0
                        0.974078        -6.99319                0               0        0.0309724         47.8523                0               0
76.08                   0.192491         79.9267                0               0        0.0954754        -103.468                0               0
                       0.0324938         46.6962                0               0         0.973695        -9.28212                0               0
                       0.0954751        -103.468                0               0         0.192514         79.9769                0               0
                        0.973699        -9.28109                0               0        0.0323093         45.7512                0               0
76.125                  0.198988          77.517                0               0        0.0976982        -105.694                0               0
                       0.0343128         46.0559                0               0         0.973291        -11.5821                0               0
                       0.0976979        -105.693                0               0         0.199015         77.5638                0               0
                        0.973295        -11.5811                0               0        0.0336693         45.0543                0               0
76.17                    0.20516         75.0937                0               0        0.0999664        -107.943                0               0
                       0.0394219         43.7391                0               0         0.972806        -13.8917                0               0
                        0.099966        -107.943                0               0         0.205191         75.1372                0               0
                         0.97281        -13.8907                0               0        0.0393807         43.8799                0               0
76.215                  0.210942         72.6667                0               0         0.102281        -110.221                0               0
                        0.040211         36.3382                0               0         0.972191        -16.2089                0               0
                        0.102281        -110.221                0               0         0.210977         72.7072                0               0
                        0.972195        -16.2078                0               0        0.0396615         36.3694                0               0
76.26                   0.216281         70.2471                0               0         0.104646         -112.53                0               0
                       0.0405315         33.5108                0               0         0.971398        -18.5318                0               0
                        0.104646         -112.53                0               0         0.216317         70.2848                0               0
                        0.971402        -18.5308                0               0        0.0402336          33.743                0               0
76.305                  0.221135         67.8468                0               0         0.107068        -114.872                0               0
                       0.0414514         31.1086                0               0         0.970386        -20.8594                0               0
                        0.107067        -114.872                0               0         0.221171         67.8822                0               0
                         0.97039        -20.8584                0               0        0.0412772         31.3174                0               0
76.35                    0.22548         65.4782                0               0         0.109557        -117.245                0               0
                       0.0425166         28.6409                0               0         0.969122        -23.1907                0               0
                        0.109556        -117.245                0               0         0.225514         65.5117                0               0
                        0.969125        -23.1897                0               0        0.0424015         28.8171                0               0
76.395                  0.229319         63.1535                0               0         0.112129        -119.644                0               0
                       0.0435783          26.059                0               0         0.967578        -25.5256                0               0
                        0.112128        -119.644                0               0          0.22935         63.1859                0               0
                        0.967581        -25.5246                0               0        0.0434937         26.2123                0               0
76.44                   0.232679         60.8831                0               0         0.114803        -122.056                0               0
                       0.0445732          23.356                0               0         0.965744        -27.8648                0               0
