! TOUCHSTONE file generated by CST MICROWAVE STUDIO
! Date and time: Mon Jun 21 17:07:44 2021
! Project name: HIPS_d_sweep.cst
! Parameters = {a=0.735; b=0.393; d=25.9497; fmax=120; fmin=75; phi=0; theta=0}
! Header version: 2018
! Port assignment regex: !\s*Touchstone port\s*([0-9]+)\s*=\s*(CST MWS port|CST DS port)\s*([0-9]+|Zmin|Zmax)\s*\(\"(.*)\"\)(\s*mode\s*([0-9]+))?.*
! Touchstone port assignment:
! Touchstone port 1 = CST MWS port Zmin ("") mode 1
! Touchstone port 2 = CST MWS port Zmin ("") mode 2
! Touchstone port 3 = CST MWS port Zmax ("") mode 1
! Touchstone port 4 = CST MWS port Zmax ("") mode 2
! S-Parameters are not renormalized. Unphysical impedance of 0 will be written to the file.
# GHz S MA R 0
75                       0.21508         72.9512                0               0          0.12053        -109.673                0               0
                       0.0453588         38.1589                0               0         0.968072        -15.7516                0               0
                        0.120531        -109.672                0               0         0.215051         72.9871                0               0
                        0.968069        -15.7518                0               0        0.0454081         38.1096                0               0
75.045                  0.217323         72.1553                0               0         0.114325          -109.9                0               0
                       0.0450847         38.0327                0               0         0.971259        -16.6626                0               0
                        0.114324        -109.901                0               0         0.217294         72.1916                0               0
                        0.971261        -16.6629                0               0        0.0451325         37.9833                0               0
75.09                   0.219487         71.2972                0               0         0.109386        -110.553                0               0
                       0.0447192         37.7585                0               0         0.973692        -17.6139                0               0
                        0.109384        -110.555                0               0         0.219458         71.3338                0               0
                        0.973697        -17.6142                0               0        0.0447655         37.7088                0               0
75.135                   0.22157          70.372                0               0          0.10547         -111.51                0               0
                         0.04428           37.31                0               0         0.975369        -18.6122                0               0
                        0.105468        -111.512                0               0         0.221541         70.4088                0               0
                        0.975377        -18.6125                0               0         0.044325         37.2598                0               0
75.18                   0.223572          69.375                0               0         0.102384        -112.687                0               0
                       0.0437886         36.6665                0               0         0.976312        -19.6645                0               0
                        0.102383         -112.69                0               0         0.223542          69.412                0               0
                        0.976321        -19.6648                0               0        0.0438326         36.6157                0               0
75.225                  0.225495          68.302                0               0        0.0999789        -114.025                0               0
                       0.0432687         35.8141                0               0         0.976562        -20.7775                0               0
                       0.0999781        -114.027                0               0         0.225466         68.3391                0               0
                        0.976571        -20.7777                0               0        0.0433119         35.7627                0               0
75.27                   0.227344         67.1493                0               0        0.0981362        -115.483                0               0
                       0.0427438         34.7466                0               0         0.976181        -21.9575                0               0
                       0.0981359        -115.485                0               0         0.227314         67.1864                0               0
                        0.976189        -21.9576                0               0        0.0427864         34.6948                0               0
75.315                  0.229124         65.9142                0               0        0.0967652        -117.032                0               0
                        0.042235          33.465                0               0         0.975248          -23.21                0               0
                       0.0967653        -117.033                0               0         0.229094         65.9513                0               0
                        0.975254        -23.2101                0               0        0.0422773          33.413                0               0
75.36                   0.230841         64.5945                0               0        0.0957954        -118.651                0               0
                       0.0417604         31.9764                0               0          0.97386        -24.5396                0               0
                       0.0957956        -118.652                0               0         0.230811         64.6316                0               0
                        0.973865        -24.5397                0               0        0.0418025         31.9245                0               0
75.405                  0.232501         63.1896                0               0        0.0951715        -120.327                0               0
                       0.0413332         30.2926                0               0         0.972125        -25.9498                0               0
                       0.0951719        -120.327                0               0         0.232471         63.2267                0               0
                        0.972128        -25.9498                0               0        0.0413754         30.2411                0               0
75.45                   0.234108         61.6996                0               0        0.0948505        -122.049                0               0
                       0.0409627         28.4283                0               0         0.970157        -27.4425                0               0
                        0.094851        -122.049                0               0         0.234078         61.7366                0               0
                        0.970157        -27.4426                0               0        0.0410049         28.3775                0               0
75.495                  0.235663         60.1257                0               0        0.0947989        -123.811                0               0
                       0.0406534         26.3991                0               0          0.96807        -29.0186                0               0
                       0.0947994        -123.811                0               0         0.235633         60.1627                0               0
                        0.968067        -29.0188                0               0        0.0406958         26.3493                0               0
75.54                   0.237166         58.4701                0               0        0.0949908        -125.609                0               0
                       0.0404064         24.2205                0               0         0.965974        -30.6774                0               0
                       0.0949912        -125.608                0               0         0.237135         58.5071                0               0
                         0.96597        -30.6776                0               0        0.0404491         24.1719                0               0
75.585                  0.238609         56.7358                0               0        0.0954061        -127.439                0               0
                       0.0402196         21.9062                0               0         0.963972        -32.4167                0               0
                       0.0954063        -127.438                0               0         0.238578         56.7728                0               0
                        0.963966        -32.4169                0               0        0.0402624         21.8591                0               0
75.63                   0.239982         54.9263                0               0        0.0960297        -129.299                0               0
                       0.0400881         19.4679                0               0         0.962151        -34.2334                0               0
                       0.0960297        -129.298                0               0         0.239951         54.9634                0               0
                        0.962144        -34.2337                0               0        0.0401312         19.4224                0               0
75.675                  0.241269         53.0456                0               0        0.0968504        -131.188                0               0
                       0.0400056         16.9144                0               0         0.960584        -36.1232                0               0
                       0.0968503        -131.187                0               0         0.241238          53.083                0               0
                        0.960576        -36.1236                0               0        0.0400489         16.8706                0               0
75.72                   0.242449         51.0982                0               0        0.0978604        -133.105                0               0
                        0.039964         14.2518                0               0         0.959325        -38.0812                0               0
                       0.0978601        -133.104                0               0         0.242418         51.1357                0               0
                        0.959316        -38.0816                0               0        0.0400075         14.2098                0               0
75.765                  0.243498         49.0884                0               0        0.0990542        -135.049                0               0
                       0.0399544         11.4838                0               0         0.958408         -40.102                0               0
                       0.0990538        -135.048                0               0         0.243466         49.1262                0               0
                        0.958399        -40.1024                0               0        0.0399982         11.4437                0               0
75.81                   0.244385         47.0209                0               0         0.100428        -137.018                0               0
                       0.0399671         8.61146                0               0         0.957852        -42.1796                0               0
                        0.100428        -137.017                0               0         0.244353          47.059                0               0
                        0.957843          -42.18                0               0        0.0400112          8.5732                0               0
75.855                   0.24508         44.9002                0               0         0.101981         -139.01                0               0
                       0.0399917         5.63382                0               0         0.957656        -44.3081                0               0
                        0.101981         -139.01                0               0         0.245047         44.9386                0               0
                        0.957647        -44.3085                0               0        0.0400363         5.59747                0               0
75.9                    0.245547          42.731                0               0         0.103711        -141.024                0               0
                       0.0400175         2.54833                0               0         0.957803        -46.4818                0               0
                         0.10371        -141.024                0               0         0.245513         42.7698                0               0
                        0.957794        -46.4821                0               0        0.0400626         2.51392                0               0
75.945                  0.245752         40.5178                0               0         0.105616        -143.057                0               0
                       0.0400334       -0.648808                0               0         0.958265        -48.6949                0               0
                        0.105615        -143.056                0               0         0.245717         40.5571                0               0
                        0.958257        -48.6952                0               0         0.040079       -0.681286                0               0
75.99                    0.24566         38.2656                0               0         0.107694        -145.105                0               0
                       0.0400276        -3.96227                0               0            0.959         -50.942                0               0
                        0.107694        -145.105                0               0         0.245624         38.3053                0               0
                        0.958992        -50.9423                0               0        0.0400739         -3.9928                0               0
76.035                  0.245235         35.9791                0               0          0.10994        -147.165                0               0
                       0.0399884        -7.39719                0               0         0.959959        -53.2182                0               0
                         0.10994        -147.165                0               0         0.245198         36.0194                0               0
                        0.959951        -53.2184                0               0        0.0400356        -7.42575                0               0
76.08                   0.244447         33.6636                0               0         0.112349        -149.233                0               0
                       0.0399039        -10.9588                0               0         0.961084        -55.5188                0               0
                        0.112349        -149.233                0               0         0.244409         33.7044                0               0
                        0.961077        -55.5189                0               0        0.0399521        -10.9853                0               0
76.125                  0.243267         31.3244                0               0         0.114909        -151.307                0               0
                       0.0397621         -14.652                0               0         0.962315        -57.8395                0               0
                         0.11491        -151.307                0               0         0.243228         31.3658                0               0
                        0.962308        -57.8395                0               0        0.0398114        -14.6765                0               0
76.17                   0.241669         28.9671                0               0         0.117607        -153.383                0               0
                       0.0395512        -18.4813                0               0         0.963588        -60.1763                0               0
                        0.117607        -153.383                0               0         0.241628         29.0091                0               0
                        0.963581        -60.1763                0               0        0.0396019        -18.5037                0               0
76.215                  0.239634         26.5978                0               0         0.120424        -155.461                0               0
                       0.0392603        -22.4502                0               0         0.964839        -62.5257                0               0
                        0.120425        -155.461                0               0         0.239592         26.6405                0               0
                        0.964832        -62.5256                0               0        0.0393124        -22.4705                0               0
76.26                   0.237146         24.2228                0               0         0.123339        -157.541                0               0
                       0.0388792        -26.5615                0               0         0.966003        -64.8842                0               0
                         0.12334        -157.541                0               0         0.237103         24.2662                0               0
                        0.965996         -64.884                0               0         0.038933        -26.5796                0               0
76.305                  0.234197         21.8487                0               0         0.126326        -159.625                0               0
                       0.0383994        -30.8167                0               0         0.967018        -67.2488                0               0
                        0.126328        -159.625                0               0         0.234153         21.8929                0               0
                        0.967011        -67.2485                0               0        0.0384551        -30.8325                0               0
76.35                   0.230784         19.4825                0               0          0.12936        -161.716                0               0
                       0.0378145        -35.2165                0               0         0.967827        -69.6164                0               0
                        0.129361        -161.716                0               0         0.230739         19.5274                0               0
                         0.96782        -69.6161                0               0        0.0378721        -35.2299                0               0
76.395                  0.226911         17.1314                0               0         0.132411         -163.82                0               0
                       0.0371204         -39.761                0               0         0.968375        -71.9844                0               0
                        0.132413        -163.819                0               0         0.226864         17.1771                0               0
                        0.968367        -71.9841                0               0        0.0371801        -39.7717                0               0
76.44                   0.222587         14.8027                0               0         0.135453        -165.941                0               0
                       0.0363162        -44.4497                0               0         0.968612        -74.3499                0               0
