! TOUCHSTONE file generated by CST MICROWAVE STUDIO
! Date and time: Mon Jun 21 17:07:10 2021
! Project name: HIPS_d_sweep.cst
! Parameters = {a=0.735; b=0.393; d=22.3317; fmax=120; fmin=75; phi=0; theta=0}
! Header version: 2018
! Port assignment regex: !\s*Touchstone port\s*([0-9]+)\s*=\s*(CST MWS port|CST DS port)\s*([0-9]+|Zmin|Zmax)\s*\(\"(.*)\"\)(\s*mode\s*([0-9]+))?.*
! Touchstone port assignment:
! Touchstone port 1 = CST MWS port Zmin ("") mode 1
! Touchstone port 2 = CST MWS port Zmin ("") mode 2
! Touchstone port 3 = CST MWS port Zmax ("") mode 1
! Touchstone port 4 = CST MWS port Zmax ("") mode 2
! S-Parameters are not renormalized. Unphysical impedance of 0 will be written to the file.
# GHz S MA R 0
75                     0.0204396        -28.1512                0               0          0.12126         137.506                0               0
                       0.0430624        -39.8314                0               0         0.991477         47.1023                0               0
                         0.12126         137.507                0               0        0.0204306         -27.619                0               0
                        0.991473         47.1041                0               0        0.0430534        -39.5217                0               0
75.045                 0.0176737        -28.0157                0               0         0.124095         136.358                0               0
                       0.0432941        -41.3973                0               0         0.992482         46.3455                0               0
                        0.124096         136.359                0               0        0.0176653        -27.3869                0               0
                        0.992478         46.3474                0               0        0.0432811         -41.085                0               0
75.09                   0.014762        -26.5882                0               0         0.126911         135.249                0               0
                       0.0435042         -42.971                0               0         0.993064         45.5369                0               0
                        0.126912          135.25                0               0        0.0147594        -25.8256                0               0
                         0.99306         45.5387                0               0        0.0434871         -42.657                0               0
75.135                 0.0117156        -22.8121                0               0         0.129656         134.178                0               0
                       0.0436798        -44.5509                0               0         0.993232          44.671                0               0
                        0.129657         134.179                0               0        0.0117278        -21.8488                0               0
                        0.993227         44.6728                0               0        0.0436586        -44.2361                0               0
75.18                 0.00863958        -14.0324                0               0         0.132274         133.142                0               0
                       0.0438048        -46.1376                0               0         0.993007         43.7427                0               0
                        0.132275         133.143                0               0       0.00868444        -12.7615                0               0
                        0.993003         43.7445                0               0        0.0437797        -45.8229                0               0
75.225                0.00598181         7.12482                0               0         0.134701         132.133                0               0
                       0.0438604        -47.7353                0               0         0.992427         42.7471                0               0
                        0.134702         132.134                0               0       0.00609536          8.6452                0               0
                        0.992423         42.7489                0               0         0.043832        -47.4216                0               0
75.27                 0.00526142          48.987                0               0          0.13687          131.14                0               0
                       0.0438254        -49.3531                0               0         0.991541         41.6799                0               0
                         0.13687         131.141                0               0       0.00545201         49.4286                0               0
                        0.991537         41.6817                0               0        0.0437944         -49.041                0               0
75.315                0.00764462         83.0049                0               0         0.138715         130.145                0               0
                       0.0436775        -51.0065                0               0         0.990411         40.5373                0               0
                        0.138716         130.146                0               0       0.00782315         82.4533                0               0
                        0.990407         40.5391                0               0        0.0436449         -50.696                0               0
75.36                  0.0117037         97.9792                0               0         0.140181         129.127                0               0
                       0.0433952        -52.7181                0               0         0.989106         39.3166                0               0
                        0.140181         129.128                0               0        0.0118525         97.3905                0               0
                        0.989103         39.3184                0               0        0.0433621        -52.4087                0               0
75.405                 0.0165153          104.74                0               0         0.141223         128.064                0               0
                         0.04296         -54.518                0               0         0.987704          38.016                0               0
                        0.141223         128.065                0               0        0.0166438         104.254                0               0
                        0.987701         38.0179                0               0        0.0429273        -54.2088                0               0
75.45                  0.0218064          108.12                0               0         0.141814         126.931                0               0
                       0.0423588        -56.4437                0               0         0.986282         36.6351                0               0
                        0.141814         126.932                0               0         0.021921         107.726                0               0
                        0.986278          36.637                0               0        0.0423271        -56.1328                0               0
75.495                 0.0274782         109.867                0               0         0.141946         125.705                0               0
                       0.0415861        -58.5376                0               0         0.984915         35.1744                0               0
                        0.141946         125.705                0               0        0.0275826         109.542                0               0
                        0.984912         35.1763                0               0        0.0415557        -58.2228                0               0
75.54                  0.0334806         110.708                0               0         0.141631         124.366                0               0
                       0.0406451        -60.8454                0               0         0.983673         33.6359                0               0
                         0.14163         124.366                0               0        0.0335772         110.433                0               0
                         0.98367         33.6378                0               0        0.0406154        -60.5239                0               0
75.585                 0.0397803         110.983                0               0         0.140892           122.9                0               0
                       0.0395472        -63.4122                0               0         0.982615         32.0224                0               0
                        0.140891           122.9                0               0        0.0398707         110.749                0               0
                        0.982612         32.0244                0               0        0.0395171        -63.0812                0               0
75.63                  0.0463503         110.874                0               0         0.139766         121.298                0               0
                       0.0383112        -66.2802                0               0         0.981787          30.338                0               0
                        0.139765         121.298                0               0        0.0464356          110.67                0               0
                        0.981784         30.3399                0               0         0.038279         -65.937                0               0
75.675                 0.0531661         110.481                0               0         0.138295         119.558                0               0
                       0.0369604        -69.4861                0               0         0.981218         28.5873                0               0
                        0.138294         119.558                0               0        0.0532472         110.301                0               0
                        0.981216         28.5892                0               0        0.0369238        -69.1287                0               0
75.72                  0.0602041         109.863                0               0         0.136522         117.683                0               0
                       0.0355204        -73.0602                0               0         0.980924         26.7756                0               0
                        0.136521         117.684                0               0        0.0602816         109.704                0               0
                        0.980922         26.7776                0               0        0.0354771        -72.6869                0               0
75.765                 0.0674404         109.061                0               0         0.134488         115.684                0               0
                       0.0340169        -77.0259                0               0         0.980904         24.9087                0               0
                        0.134487         115.684                0               0        0.0675149         108.918                0               0
                        0.980902         24.9107                0               0        0.0339644        -76.6361                0               0
75.81                  0.0748505         108.099                0               0          0.13223         113.573                0               0
                       0.0324741        -81.4012                0               0          0.98114         22.9925                0               0
                        0.132229         113.573                0               0        0.0749224          107.97                0               0
                        0.981138         22.9944                0               0        0.0324101         -80.995                0               0
75.855                 0.0824084         106.996                0               0         0.129779         111.368                0               0
                       0.0309138        -86.1992                0               0         0.981602         21.0328                0               0
                        0.129778         111.368                0               0         0.082478         106.879                0               0
                        0.981601         21.0347                0               0        0.0308364        -85.7776                0               0
75.9                   0.0900864         105.765                0               0         0.127163         109.087                0               0
                       0.0293562        -91.4301                0               0         0.982249         19.0355                0               0
                        0.127163         109.087                0               0        0.0901541         105.658                0               0
                        0.982249         19.0374                0               0        0.0292637        -90.9953                0               0
75.945                  0.097855         104.418                0               0         0.124407          106.75                0               0
                       0.0278197        -97.1022                0               0          0.98303         17.0062                0               0
                        0.124406         106.751                0               0        0.0979209         104.319                0               0
                         0.98303         17.0081                0               0        0.0277108        -96.6573                0               0
75.99                   0.105682         102.962                0               0         0.121529         104.379                0               0
                        0.026322        -103.222                0               0         0.983887         14.9504                0               0
                        0.121529          104.38                0               0         0.105746         102.871                0               0
                        0.983887         14.9523                0               0        0.0261958        -102.772                0               0
76.035                  0.113534         101.408                0               0         0.118551         101.995                0               0
                       0.0248807        -109.795                0               0         0.984759          12.873                0               0
                        0.118551         101.996                0               0         0.113597         101.323                0               0
                         0.98476         12.8749                0               0        0.0247367        -109.344                0               0
76.08                   0.121374         99.7612                0               0          0.11549         99.6176                0               0
                       0.0235139         -116.82                0               0         0.985582         10.7788                0               0
                         0.11549         99.6185                0               0         0.121436         99.6831                0               0
                        0.985584         10.7807                0               0         0.023352        -116.379                0               0
76.125                  0.129165         98.0308                0               0         0.112365         97.2663                0               0
                         0.02224        -124.294                0               0         0.986296         8.67215                0               0
                        0.112365         97.2673                0               0         0.129225         97.9582                0               0
                        0.986298         8.67405                0               0        0.0220608         -123.87                0               0
76.17                   0.136866         96.2242                0               0         0.109193         94.9594                0               0
                       0.0210779        -132.199                0               0         0.986839         6.55728                0               0
                        0.109193         94.9605                0               0         0.136925         96.1564                0               0
                        0.986841         6.55917                0               0        0.0208824        -131.805                0               0
76.215                  0.144438          94.349                0               0         0.105993         92.7137                0               0
                       0.0200454          -140.5                0               0         0.987156           4.438                0               0
                        0.105994          92.715                0               0         0.144495         94.2856                0               0
                        0.987159         4.43989                0               0        0.0198352         -140.15                0               0
76.26                    0.15184         92.4132                0               0         0.102785         90.5448                0               0
                       0.0191585        -149.142                0               0         0.987198          2.3179                0               0
                        0.102785         90.5461                0               0         0.151895         92.3539                0               0
                        0.987201         2.31979                0               0        0.0189359         -148.85                0               0
76.305                  0.159031          90.425                0               0        0.0995872         88.4663                0               0
                       0.0184297        -158.044                0               0         0.986921        0.200355                0               0
                       0.0995877         88.4677                0               0         0.159085         90.3695                0               0
                        0.986924        0.202246                0               0        0.0181975        -157.823                0               0
76.35                   0.165974         88.3927                0               0        0.0964185         86.4904                0               0
                       0.0178658        -167.099                0               0         0.986288        -1.91148                0               0
                       0.0964189         86.4919                0               0         0.166027         88.3406                0               0
                        0.986291        -1.90959                0               0        0.0176275        -166.961                0               0
76.395                  0.172632         86.3248                0               0        0.0932971         84.6277                0               0
                       0.0174678        -176.181                0               0         0.985272        -4.01466                0               0
                       0.0932975         84.6292                0               0         0.172683         86.2759                0               0
                        0.985275        -4.01277                0               0        0.0172268        -176.132                0               0
76.44                   0.178972         84.2296                0               0        0.0902405         82.8869                0               0
                       0.0172293         174.842                0               0         0.983851        -6.10642                0               0
