! TOUCHSTONE file generated by CST MICROWAVE STUDIO
! Date and time: Mon Jun 21 17:06:28 2021
! Project name: HIPS_d_sweep.cst
! Parameters = {a=0.735; b=0.393; d=17.0553; fmax=120; fmin=75; phi=0; theta=0}
! Header version: 2018
! Port assignment regex: !\s*Touchstone port\s*([0-9]+)\s*=\s*(CST MWS port|CST DS port)\s*([0-9]+|Zmin|Zmax)\s*\(\"(.*)\"\)(\s*mode\s*([0-9]+))?.*
! Touchstone port assignment:
! Touchstone port 1 = CST MWS port Zmin ("") mode 1
! Touchstone port 2 = CST MWS port Zmin ("") mode 2
! Touchstone port 3 = CST MWS port Zmax ("") mode 1
! Touchstone port 4 = CST MWS port Zmax ("") mode 2
! S-Parameters are not renormalized. Unphysical impedance of 0 will be written to the file.
# GHz S MA R 0
75                      0.198852         38.6187                0               0         0.423305         33.6556                0               0
                        0.105605         96.7568                0               0          0.87756        -58.0501                0               0
                        0.423305         33.6555                0               0         0.198862         38.6025                0               0
                        0.877565        -58.0494                0               0         0.105623         96.7463                0               0
75.045                  0.198245         38.2693                0               0         0.425948         33.0109                0               0
                        0.106496         95.7625                0               0         0.877385        -58.6206                0               0
                        0.425948         33.0107                0               0         0.198255         38.2531                0               0
                        0.877391          -58.62                0               0         0.106514         95.7521                0               0
75.09                   0.197555          37.877                0               0         0.428411          32.346                0               0
                        0.107295         94.7111                0               0         0.877058        -59.2398                0               0
                        0.428412         32.3459                0               0         0.197565         37.8609                0               0
                        0.877064        -59.2392                0               0         0.107312         94.7007                0               0
75.135                  0.196792         37.4398                0               0         0.430674         31.6582                0               0
                        0.107999         93.5929                0               0         0.876595        -59.9089                0               0
                        0.430674         31.6581                0               0         0.196803         37.4237                0               0
                        0.876601        -59.9084                0               0         0.108016         93.5827                0               0
75.18                   0.195968         36.9562                0               0         0.432715         30.9442                0               0
                        0.108613         92.3985                0               0         0.876014        -60.6293                0               0
                        0.432716         30.9441                0               0         0.195979         36.9403                0               0
                         0.87602        -60.6288                0               0          0.10863         92.3884                0               0
75.225                  0.195093         36.4257                0               0          0.43452         30.2002                0               0
                        0.109142         91.1187                0               0         0.875335        -61.4022                0               0
                         0.43452         30.2001                0               0         0.195104         36.4098                0               0
                        0.875341        -61.4017                0               0         0.109158         91.1087                0               0
75.27                   0.194176         35.8481                0               0         0.436074         29.4223                0               0
                        0.109594         89.7452                0               0         0.874584        -62.2287                0               0
                        0.436075         29.4222                0               0         0.194187         35.8324                0               0
                         0.87459        -62.2281                0               0          0.10961         89.7353                0               0
75.315                  0.193224         35.2241                0               0         0.437372         28.6061                0               0
                        0.109983          88.271                0               0         0.873785        -63.1095                0               0
                        0.437372          28.606                0               0         0.193235         35.2086                0               0
                        0.873791         -63.109                0               0         0.109999         88.2613                0               0
75.36                   0.192243         34.5548                0               0         0.438412         27.7473                0               0
                        0.110324         86.6908                0               0         0.872969        -64.0454                0               0
                        0.438412         27.7472                0               0         0.192254         34.5394                0               0
                        0.872975        -64.0448                0               0         0.110339         86.6814                0               0
75.405                  0.191237         33.8416                0               0         0.439201         26.8418                0               0
                        0.110632         85.0016                0               0         0.872166        -65.0365                0               0
                        0.439201         26.8417                0               0         0.191249         33.8265                0               0
                        0.872172        -65.0359                0               0         0.110647         84.9925                0               0
75.45                   0.190207         33.0863                0               0         0.439751         25.8859                0               0
                        0.110924         83.2023                0               0         0.871409        -66.0826                0               0
                        0.439752         25.8858                0               0          0.19022         33.0714                0               0
                        0.871414         -66.082                0               0         0.110939         83.1934                0               0
75.495                  0.189154          32.291                0               0         0.440083         24.8764                0               0
                        0.111217         81.2942                0               0         0.870731        -67.1833                0               0
                        0.440083         24.8763                0               0         0.189166         32.2762                0               0
                        0.870736        -67.1827                0               0         0.111232         81.2856                0               0
75.54                   0.188074         31.4575                0               0          0.44022         23.8108                0               0
                        0.111526         79.2805                0               0         0.870164        -68.3374                0               0
                        0.440221         23.8108                0               0         0.188087         31.4431                0               0
                        0.870169        -68.3367                0               0          0.11154         79.2722                0               0
75.585                  0.186964         30.5882                0               0         0.440192          22.688                0               0
                        0.111861         77.1665                0               0         0.869738        -69.5433                0               0
                        0.440192         22.6879                0               0         0.186977          30.574                0               0
                        0.869743        -69.5426                0               0         0.111876         77.1585                0               0
75.63                   0.185817         29.6851                0               0         0.440029         21.5076                0               0
                        0.112233         74.9587                0               0         0.869481        -70.7989                0               0
                        0.440029         21.5076                0               0         0.185831         29.6711                0               0
                        0.869486        -70.7982                0               0         0.112247         74.9511                0               0
75.675                  0.184628         28.7504                0               0         0.439761         20.2706                0               0
                        0.112648         72.6647                0               0         0.869416        -72.1016                0               0
                        0.439762         20.2705                0               0         0.184642         28.7366                0               0
                         0.86942         -72.101                0               0         0.112661         72.6574                0               0
75.72                   0.183387         27.7862                0               0         0.439418         18.9788                0               0
                        0.113106         70.2928                0               0         0.869558        -73.4485                0               0
                        0.439418         18.9787                0               0         0.183402         27.7727                0               0
                        0.869562        -73.4479                0               0         0.113119         70.2858                0               0
75.765                  0.182086         26.7947                0               0         0.439023         17.6353                0               0
                        0.113607         67.8513                0               0         0.869918         -74.836                0               0
                        0.439023         17.6352                0               0         0.182101         26.7815                0               0
                        0.869922        -74.8354                0               0          0.11362         67.8448                0               0
75.81                   0.180716          25.778                0               0         0.438597         16.2437                0               0
                        0.114146         65.3487                0               0         0.870498        -76.2606                0               0
                        0.438597         16.2436                0               0         0.180731         25.7651                0               0
                        0.870502          -76.26                0               0         0.114159         65.3425                0               0
75.855                  0.179266         24.7385                0               0         0.438153         14.8084                0               0
                        0.114716         62.7929                0               0         0.871292        -77.7183                0               0
                        0.438154         14.8083                0               0         0.179282         24.7259                0               0
                        0.871296        -77.7178                0               0         0.114728         62.7871                0               0
75.9                    0.177726         23.6785                0               0         0.437702         13.3341                0               0
                        0.115308         60.1916                0               0         0.872286        -79.2053                0               0
                        0.437702         13.3341                0               0         0.177743         23.6662                0               0
                        0.872291        -79.2047                0               0         0.115319         60.1861                0               0
75.945                  0.176086         22.6005                0               0         0.437245         11.8259                0               0
                        0.115909         57.5515                0               0          0.87346        -80.7175                0               0
                        0.437245         11.8258                0               0         0.176103         22.5886                0               0
                        0.873464         -80.717                0               0          0.11592         57.5465                0               0
75.99                   0.174336         21.5073                0               0         0.436781         10.2886                0               0
                        0.116508         54.8793                0               0         0.874784        -82.2513                0               0
                        0.436781         10.2886                0               0         0.174354         21.4957                0               0
                        0.874789        -82.2507                0               0         0.116518         54.8745                0               0
76.035                  0.172468         20.4018                0               0         0.436303         8.72723                0               0
                         0.11709         52.1805                0               0         0.876227        -83.8029                0               0
                        0.436303         8.72718                0               0         0.172486         20.3907                0               0
                        0.876232        -83.8023                0               0           0.1171         52.1761                0               0
76.08                   0.170471         19.2875                0               0         0.435802         7.14644                0               0
                        0.117644         49.4607                0               0         0.877749        -85.3689                0               0
                        0.435803          7.1464                0               0         0.170491         19.2767                0               0
                        0.877754        -85.3684                0               0         0.117653         49.4567                0               0
76.125                   0.16834          18.168                0               0         0.435267         5.55068                0               0
                        0.118155         46.7247                0               0         0.879309        -86.9464                0               0
                        0.435267         5.55065                0               0          0.16836         18.1576                0               0
                        0.879314        -86.9459                0               0         0.118163          46.721                0               0
76.17                   0.166066         17.0473                0               0         0.434684          3.9441                0               0
                         0.11861         43.9772                0               0         0.880864        -88.5323                0               0
                        0.434684         3.94407                0               0         0.166088         17.0374                0               0
                        0.880869        -88.5318                0               0         0.118618         43.9738                0               0
76.215                  0.163647         15.9301                0               0         0.434041         2.33052                0               0
                        0.118998         41.2225                0               0         0.882371        -90.1243                0               0
                        0.434041         2.33049                0               0         0.163669         15.9206                0               0
                        0.882376        -90.1238                0               0         0.119005         41.2194                0               0
76.26                   0.161077         14.8213                0               0         0.433323        0.713475                0               0
                        0.119307         38.4647                0               0         0.883787        -91.7199                0               0
                        0.433323        0.713454                0               0           0.1611         14.8122                0               0
                        0.883793        -91.7194                0               0         0.119313          38.462                0               0
76.305                  0.158356         13.7263                0               0          0.43252       -0.903802                0               0
                        0.119528         35.7079                0               0         0.885072        -93.3172                0               0
                         0.43252       -0.903817                0               0         0.158379         13.7177                0               0
                        0.885078        -93.3167                0               0         0.119533         35.7055                0               0
76.35                   0.155484         12.6513                0               0          0.43162        -2.51835                0               0
                        0.119652         32.9561                0               0         0.886188        -94.9143                0               0
                         0.43162        -2.51836                0               0         0.155508         12.6432                0               0
                        0.886193        -94.9138                0               0         0.119656         32.9539                0               0
76.395                  0.152464         11.6026                0               0         0.430615        -4.12745                0               0
                        0.119673         30.2129                0               0         0.887101        -96.5095                0               0
                        0.430615        -4.12745                0               0         0.152489         11.5951                0               0
                        0.887106        -96.5091                0               0         0.119677         30.2111                0               0
76.44                   0.149301         10.5874                0               0         0.429497        -5.72861                0               0
                        0.119587         27.4823                0               0          0.88778        -98.1014                0               0
