! TOUCHSTONE file generated by CST MICROWAVE STUDIO
! Date and time: Mon Jun 21 17:07:27 2021
! Project name: HIPS_d_sweep.cst
! Parameters = {a=0.735; b=0.393; d=24.191; fmax=120; fmin=75; phi=0; theta=0}
! Header version: 2018
! Port assignment regex: !\s*Touchstone port\s*([0-9]+)\s*=\s*(CST MWS port|CST DS port)\s*([0-9]+|Zmin|Zmax)\s*\(\"(.*)\"\)(\s*mode\s*([0-9]+))?.*
! Touchstone port assignment:
! Touchstone port 1 = CST MWS port Zmin ("") mode 1
! Touchstone port 2 = CST MWS port Zmin ("") mode 2
! Touchstone port 3 = CST MWS port Zmax ("") mode 1
! Touchstone port 4 = CST MWS port Zmax ("") mode 2
! S-Parameters are not renormalized. Unphysical impedance of 0 will be written to the file.
# GHz S MA R 0
75                      0.140892         99.1977                0               0        0.0094658         90.4218                0               0
                       0.0105292         91.6556                0               0         0.989921        -170.761                0               0
                      0.00946635         90.4193                0               0         0.140917         99.1878                0               0
                        0.989923        -170.761                0               0        0.0105148         92.2811                0               0
75.045                  0.142867         98.4685                0               0       0.00552817         82.8653                0               0
                      0.00996291         93.7863                0               0         0.989212        -171.447                0               0
                      0.00552879          82.861                0               0         0.142891         98.4576                0               0
                        0.989214        -171.447                0               0       0.00995409         94.4588                0               0
75.09                   0.145137         97.6695                0               0       0.00226466         56.6264                0               0
                      0.00955939         95.8877                0               0         0.988778        -172.243                0               0
                      0.00226546         56.6235                0               0          0.14516         97.6573                0               0
                        0.988779        -172.243                0               0        0.0095565          96.599                0               0
75.135                  0.147711         96.7934                0               0        0.0020889        -38.5879                0               0
                      0.00932192         97.8372                0               0         0.988472        -173.141                0               0
                      0.00208894        -38.5635                0               0         0.147734           96.78                0               0
                        0.988473        -173.141                0               0       0.00932505         98.5753                0               0
75.18                    0.15059         95.8341                0               0       0.00449744        -65.3936                0               0
                      0.00924891          99.492                0               0         0.988194        -174.134                0               0
                      0.00449704        -65.3825                0               0         0.150613         95.8193                0               0
                        0.988196        -174.134                0               0       0.00925778         100.243                0               0
75.225                  0.153768         94.7867                0               0       0.00676445          -72.89                0               0
                      0.00933424         100.717                0               0         0.987876        -175.218                0               0
                      0.00676387        -72.8827                0               0          0.15379         94.7705                0               0
                        0.987878        -175.217                0               0       0.00934824         101.466                0               0
75.27                   0.157229         93.6479                0               0       0.00867015        -76.5977                0               0
                      0.00956831          101.41                0               0         0.987475        -176.388                0               0
                      0.00866945        -76.5921                0               0          0.15725         93.6303                0               0
                        0.987476        -176.388                0               0       0.00958657         102.146                0               0
75.315                  0.160952          92.417                0               0        0.0101929        -78.9429                0               0
                      0.00993938         101.521                0               0         0.986966        -177.642                0               0
                       0.0101921        -78.9382                0               0         0.160973         92.3979                0               0
                        0.986968        -177.641                0               0       0.00996088         102.233                0               0
75.36                   0.164911         91.0951                0               0        0.0113376        -80.6139                0               0
                       0.0104348         101.047                0               0         0.986344        -178.977                0               0
                       0.0113367        -80.6098                0               0         0.164931         91.0745                0               0
                        0.986345        -178.976                0               0        0.0104585         101.729                0               0
75.405                  0.169077         89.6853                0               0        0.0121177        -81.8662                0               0
                       0.0110419         100.027                0               0         0.985612          179.61                0               0
                       0.0121167        -81.8624                0               0         0.169097         89.6632                0               0
                        0.985613          179.61                0               0        0.0110667         100.676                0               0
75.45                   0.173418          88.192                0               0        0.0125512        -82.8006                0               0
                       0.0117483         98.5235                0               0         0.984785         178.121                0               0
                       0.0125502         -82.797                0               0         0.173437         88.1684                0               0
                        0.984786         178.121                0               0        0.0117734         99.1393                0               0
75.495                  0.177901         86.6207                0               0        0.0126589        -83.4441                0               0
                       0.0125423         96.6114                0               0         0.983884         176.558                0               0
                       0.0126578        -83.4405                0               0          0.17792         86.5956                0               0
                        0.983886         176.558                0               0        0.0125668         97.1935                0               0
75.54                   0.182495         84.9774                0               0        0.0124639        -83.7748                0               0
                       0.0134125         94.3647                0               0         0.982934         174.925                0               0
                       0.0124628        -83.7712                0               0         0.182513         84.9509                0               0
                        0.982936         174.925                0               0        0.0134358         94.9143                0               0
75.585                  0.187167         83.2681                0               0         0.011992        -83.7248                0               0
                       0.0143479         91.8518                0               0         0.981962         173.224                0               0
                       0.0119908        -83.7209                0               0         0.187185         83.2401                0               0
                        0.981964         173.224                0               0        0.0143695         92.3707                0               0
75.63                   0.191887         81.4984                0               0        0.0112714        -83.1665                0               0
                       0.0153378         89.1318                0               0         0.980994         171.459                0               0
                       0.0112702        -83.1623                0               0         0.191905         81.4689                0               0
                        0.980997         171.459                0               0        0.0153573         89.6222                0               0
75.675                  0.196624         79.6735                0               0         0.010335        -81.8809                0               0
                       0.0163719          86.254                0               0         0.980055         169.634                0               0
                       0.0103338         -81.876                0               0         0.196641         79.6427                0               0
                        0.980057         169.634                0               0         0.016389         86.7181                0               0
75.72                   0.201347         77.7983                0               0       0.00922309        -79.4914                0               0
                         0.01744         83.2577                0               0         0.979163         167.754                0               0
                      0.00922201        -79.4854                0               0         0.201364         77.7661                0               0
                        0.979166         167.754                0               0        0.0174544         83.6978                0               0
75.765                  0.206026         75.8766                0               0       0.00799158        -75.3348                0               0
                       0.0185322         80.1738                0               0         0.978335         165.821                0               0
                      0.00799061        -75.3272                0               0         0.206043         75.8431                0               0
                        0.978338         165.821                0               0        0.0185437          80.592                0               0
75.81                   0.210632         73.9122                0               0       0.00672922        -68.2279                0               0
                       0.0196391         77.0258                0               0         0.977579         163.842                0               0
                      0.00672844        -68.2177                0               0         0.210648         73.8774                0               0
                        0.977583         163.842                0               0        0.0196476         77.4242                0               0
75.855                  0.215132          71.908                0               0       0.00559684          -56.22                0               0
                       0.0207513          73.831                0               0         0.976898         161.821                0               0
                       0.0055964        -56.2062                0               0         0.215148          71.872                0               0
                        0.976902         161.821                0               0        0.0207568         74.2115                0               0
75.9                    0.219496          69.867                0               0       0.00488643        -37.4235                0               0
                       0.0218601         70.6017                0               0         0.976289         159.763                0               0
                      0.00488652        -37.4071                0               0         0.219512         69.8297                0               0
                        0.976293         159.763                0               0        0.0218624         70.9662                0               0
75.945                  0.223693         67.7917                0               0       0.00496523        -14.3638                0               0
                       0.0229566         67.3465                0               0         0.975741         157.672                0               0
                      0.00496592          -14.35                0               0         0.223708         67.7533                0               0
                        0.975746         157.672                0               0        0.0229557         67.6966                0               0
75.99                   0.227688         65.6848                0               0       0.00592949         5.13986                0               0
                       0.0240321          64.071                0               0          0.97524         155.554                0               0
                      0.00593058         5.14774                0               0         0.227704         65.6452                0               0
                        0.975244         155.554                0               0        0.0240279         64.4083                0               0
76.035                  0.231451         63.5489                0               0       0.00752751          17.708                0               0
                       0.0250782         60.7785                0               0         0.974764         153.414                0               0
                      0.00752876         17.7115                0               0         0.231466         63.5082                0               0
                        0.974769         153.414                0               0        0.0250706         61.1044                0               0
76.08                    0.23495         61.3869                0               0       0.00949649          25.004                0               0
                       0.0260862          57.471                0               0         0.974291         151.255                0               0
                      0.00949778         25.0053                0               0         0.234965         61.3452                0               0
                        0.974296         151.255                0               0        0.0260751         57.7868                0               0
76.125                  0.238152          59.202                0               0         0.011682         29.0668                0               0
                       0.0270473         54.1495                0               0         0.973794         149.082                0               0
                       0.0116833         29.0669                0               0         0.238167         59.1592                0               0
                        0.973798         149.082                0               0        0.0270326         54.4564                0               0
76.17                   0.241028         56.9976                0               0        0.0140001          31.169                0               0
                       0.0279526         50.8146                0               0         0.973243         146.899                0               0
                       0.0140014         31.1684                0               0         0.241043         56.9538                0               0
                        0.973247         146.899                0               0        0.0279344         51.1138                0               0
76.215                  0.243551         54.7776                0               0         0.016401         32.0297                0               0
                       0.0287933         47.4671                0               0         0.972611         144.711                0               0
                       0.0164022         32.0289                0               0         0.243565         54.7327                0               0
                        0.972615         144.711                0               0        0.0287714         47.7596                0               0
76.26                   0.245694         52.5461                0               0        0.0188517         32.0625                0               0
                       0.0295601         44.1082                0               0         0.971868         142.519                0               0
                       0.0188529         32.0614                0               0         0.245708         52.5003                0               0
                        0.971871         142.519                0               0        0.0295344         44.3949                0               0
76.305                  0.247437         50.3077                0               0        0.0213276         31.5155                0               0
                        0.030244           40.74                0               0         0.970987         140.328                0               0
                       0.0213288         31.5144                0               0          0.24745         50.2609                0               0
                         0.97099         140.328                0               0        0.0302145         41.0219                0               0
76.35                    0.24876         48.0672                0               0        0.0238095         30.5455                0               0
                       0.0308361         37.3657                0               0         0.969942          138.14                0               0
                       0.0238106         30.5443                0               0         0.248773         48.0195                0               0
                        0.969944          138.14                0               0        0.0308028         37.6438                0               0
76.395                  0.249652         45.8298                0               0        0.0262807         29.2555                0               0
                       0.0313282         33.9901                0               0         0.968711         135.959                0               0
                       0.0262818         29.2542                0               0         0.249665         45.7812                0               0
                        0.968712         135.959                0               0        0.0312909         34.2652                0               0
76.44                   0.250103         43.6007                0               0         0.028727         27.7165                0               0
                       0.0317126         30.6194                0               0         0.967273         133.786                0               0
