! TOUCHSTONE file generated by CST MICROWAVE STUDIO
! Date and time: Mon Jun 21 17:06:29 2021
! Project name: HIPS_d_sweep.cst
! Parameters = {a=0.735; b=0.393; d=17.2563; fmax=120; fmin=75; phi=0; theta=0}
! Header version: 2018
! Port assignment regex: !\s*Touchstone port\s*([0-9]+)\s*=\s*(CST MWS port|CST DS port)\s*([0-9]+|Zmin|Zmax)\s*\(\"(.*)\"\)(\s*mode\s*([0-9]+))?.*
! Touchstone port assignment:
! Touchstone port 1 = CST MWS port Zmin ("") mode 1
! Touchstone port 2 = CST MWS port Zmin ("") mode 2
! Touchstone port 3 = CST MWS port Zmax ("") mode 1
! Touchstone port 4 = CST MWS port Zmax ("") mode 2
! S-Parameters are not renormalized. Unphysical impedance of 0 will be written to the file.
# GHz S MA R 0
75                      0.176375         21.8213                0               0         0.421364         11.3738                0               0
                        0.115142         54.7302                0               0         0.882093        -81.2519                0               0
                        0.421364         11.3739                0               0         0.176359         21.8742                0               0
                        0.882091        -81.2515                0               0         0.115152         54.7869                0               0
75.045                  0.175041         21.6006                0               0         0.424192         10.8342                0               0
                        0.115542         53.9618                0               0         0.880978        -81.7779                0               0
                        0.424192         10.8343                0               0         0.175025         21.6539                0               0
                        0.880976        -81.7775                0               0         0.115551         54.0186                0               0
75.09                   0.173654          21.326                0               0         0.426774         10.2321                0               0
                        0.115918         53.0712                0               0         0.879963        -82.3713                0               0
                        0.426774         10.2322                0               0         0.173639         21.3798                0               0
                         0.87996        -82.3709                0               0         0.115926          53.128                0               0
75.135                  0.172212         20.9998                0               0         0.429117         9.56726                0               0
                        0.116275         52.0591                0               0         0.879054        -83.0306                0               0
                        0.429117         9.56737                0               0         0.172197         21.0542                0               0
                        0.879052        -83.0302                0               0         0.116283         52.1161                0               0
75.18                   0.170711         20.6242                0               0         0.431229         8.84001                0               0
                        0.116617          50.927                0               0         0.878257        -83.7544                0               0
                        0.431229         8.84012                0               0         0.170697         20.6791                0               0
                        0.878255         -83.754                0               0         0.116624         50.9842                0               0
75.225                  0.169149         20.2013                0               0         0.433118         8.05077                0               0
                        0.116946         49.6769                0               0         0.877575        -84.5411                0               0
                        0.433118         8.05088                0               0         0.169136         20.2569                0               0
                        0.877572        -84.5407                0               0         0.116952         49.7344                0               0
75.27                   0.167521         19.7332                0               0         0.434792         7.20023                0               0
                        0.117263         48.3114                0               0         0.877008        -85.3893                0               0
                        0.434792         7.20034                0               0         0.167507         19.7894                0               0
                        0.877006         -85.389                0               0         0.117268         48.3692                0               0
75.315                   0.16582         19.2219                0               0         0.436256         6.28932                0               0
                        0.117567         46.8334                0               0         0.876558        -86.2975                0               0
                        0.436257         6.28942                0               0         0.165807         19.2789                0               0
                        0.876555        -86.2971                0               0         0.117571         46.8914                0               0
75.36                   0.164041         18.6697                0               0         0.437519         5.31913                0               0
                        0.117857         45.2461                0               0         0.876222        -87.2639                0               0
                         0.43752         5.31923                0               0         0.164028         18.7275                0               0
                        0.876219        -87.2635                0               0          0.11786         45.3044                0               0
75.405                  0.162177         18.0789                0               0         0.438587         4.29098                0               0
                        0.118131         43.5531                0               0         0.875999         -88.287                0               0
                        0.438588         4.29108                0               0         0.162166         18.1376                0               0
                        0.875996        -88.2866                0               0         0.118132         43.6117                0               0
75.45                   0.160223         17.4518                0               0         0.439467         3.20634                0               0
                        0.118385         41.7584                0               0         0.875886        -89.3649                0               0
                        0.439467         3.20643                0               0         0.160213         17.5114                0               0
                        0.875884        -89.3646                0               0         0.118385         41.8173                0               0
75.495                  0.158172         16.7912                0               0         0.440164         2.06681                0               0
                        0.118617         39.8661                0               0         0.875881        -90.4959                0               0
                        0.440164          2.0669                0               0         0.158162         16.8518                0               0
                        0.875879        -90.4955                0               0         0.118616         39.9252                0               0
75.54                   0.156018         16.0999                0               0         0.440686         0.87418                0               0
                        0.118824         37.8806                0               0          0.87598        -91.6778                0               0
                        0.440686        0.874268                0               0         0.156009         16.1616                0               0
                        0.875978        -91.6774                0               0         0.118821           37.94                0               0
75.585                  0.153754         15.3812                0               0          0.44104       -0.369667                0               0
                           0.119         35.8062                0               0          0.87618        -92.9086                0               0
                         0.44104       -0.369582                0               0         0.153746         15.4441                0               0
                        0.876178        -92.9082                0               0         0.118996          35.866                0               0
75.63                   0.151375         14.6386                0               0         0.441232        -1.66271                0               0
                        0.119145         33.6478                0               0         0.876477        -94.1858                0               0
                        0.441232        -1.66262                0               0         0.151368         14.7028                0               0
                        0.876474        -94.1854                0               0         0.119139         33.7079                0               0
75.675                  0.148876         13.8762                0               0         0.441271         -3.0028                0               0
                        0.119254           31.41                0               0         0.876867         -95.507                0               0
                        0.441271        -3.00272                0               0          0.14887         13.9417                0               0
                        0.876864        -95.5066                0               0         0.119247         31.4705                0               0
75.72                   0.146254         13.0984                0               0         0.441164        -4.38768                0               0
                        0.119326         29.0976                0               0         0.877347        -96.8693                0               0
                        0.441164         -4.3876                0               0         0.146249         13.1654                0               0
                        0.877344        -96.8689                0               0         0.119317         29.1584                0               0
75.765                  0.143505         12.3101                0               0         0.440921        -5.81498                0               0
                        0.119358         26.7154                0               0         0.877913        -98.2698                0               0
                        0.440921        -5.81491                0               0         0.143501         12.3787                0               0
                         0.87791        -98.2694                0               0         0.119348         26.7766                0               0
75.81                   0.140628         11.5168                0               0         0.440551        -7.28223                0               0
                        0.119351         24.2682                0               0         0.878561        -99.7053                0               0
                        0.440551        -7.28216                0               0         0.140626         11.5871                0               0
                        0.878558        -99.7049                0               0         0.119339         24.3297                0               0
75.855                  0.137624         10.7242                0               0         0.440065        -8.78684                0               0
                        0.119304         21.7606                0               0         0.879289        -101.172                0               0
                        0.440064        -8.78677                0               0         0.137623         10.7964                0               0
                        0.879286        -101.172                0               0          0.11929         21.8225                0               0
75.9                    0.134495         9.93874                0               0         0.439472        -10.3261                0               0
                        0.119218         19.1974                0               0         0.880094        -102.668                0               0
                        0.439471         -10.326                0               0         0.134496         10.0129                0               0
                        0.880091        -102.667                0               0         0.119202         19.2597                0               0
75.945                  0.131243         9.16705                0               0         0.438783        -11.8972                0               0
                        0.119092         16.5833                0               0         0.880974        -104.187                0               0
                        0.438783        -11.8972                0               0         0.131246         9.24329                0               0
                        0.880971        -104.187                0               0         0.119074         16.6458                0               0
75.99                   0.127875         8.41613                0               0          0.43801        -13.4973                0               0
                        0.118928         13.9228                0               0         0.881929        -105.727                0               0
                         0.43801        -13.4973                0               0          0.12788         8.49464                0               0
                        0.881926        -105.727                0               0         0.118909         13.9855                0               0
76.035                  0.124397          7.6932                0               0         0.437164        -15.1234                0               0
                        0.118726         11.2205                0               0          0.88296        -107.284                0               0
                        0.437163        -15.1234                0               0         0.124403         7.77416                0               0
                        0.882958        -107.283                0               0         0.118706         11.2833                0               0
76.08                   0.120815         7.00571                0               0         0.436254        -16.7725                0               0
                        0.118487         8.48116                0               0         0.884072        -108.854                0               0
                        0.436253        -16.7725                0               0         0.120824         7.08928                0               0
                        0.884069        -108.853                0               0         0.118466         8.54403                0               0
76.125                  0.117138         6.36132                0               0         0.435289        -18.4415                0               0
                        0.118211         5.70934                0               0         0.885268        -110.434                0               0
                        0.435289        -18.4415                0               0          0.11715          6.4477                0               0
                        0.885266        -110.434                0               0         0.118188         5.77221                0               0
76.17                   0.113374         5.76809                0               0         0.434278        -20.1273                0               0
                        0.117895         2.90982                0               0         0.886555        -112.022                0               0
                        0.434277        -20.1272                0               0         0.113388         5.85747                0               0
                        0.886553        -112.022                0               0         0.117871         2.97264                0               0
76.215                  0.109528         5.23483                0               0         0.433225        -21.8268                0               0
                        0.117537       0.0873673                0               0         0.887938        -113.616                0               0
                        0.433225        -21.8267                0               0         0.109546         5.32742                0               0
                        0.887936        -113.615                0               0         0.117511        0.150144                0               0
76.26                   0.105608         4.77174                0               0         0.432134        -23.5369                0               0
                        0.117133        -2.75316                0               0         0.889415        -115.215                0               0
                        0.432133        -23.5369                0               0         0.105629         4.86774                0               0
                        0.889413        -115.214                0               0         0.117106        -2.69041                0               0
76.305                  0.101618         4.39123                0               0         0.431003        -25.2549                0               0
                        0.116677        -5.60689                0               0         0.890971        -116.819                0               0
                        0.431003        -25.2548                0               0         0.101642         4.49088                0               0
                        0.890969        -116.819                0               0         0.116648        -5.54411                0               0
76.35                  0.0975638          4.1092                0               0          0.42983        -26.9777                0               0
                        0.116162          -8.469                0               0         0.892574         -118.43                0               0
                         0.42983        -26.9777                0               0        0.0975916         4.21272                0               0
                        0.892571        -118.429                0               0         0.116132         -8.4061                0               0
76.395                 0.0934508         3.94626                0               0         0.428606        -28.7027                0               0
                        0.115582        -11.3347                0               0         0.894166        -120.049                0               0
                        0.428605        -28.7027                0               0        0.0934827          4.0539                0               0
                        0.894163        -120.048                0               0          0.11555        -11.2716                0               0
76.44                  0.0892894         3.92909                0               0         0.427319        -30.4272                0               0
                        0.114928        -14.1993                0               0         0.895667        -121.676                0               0
