! TOUCHSTONE file generated by CST MICROWAVE STUDIO
! Date and time: Mon Jun 21 17:06:33 2021
! Project name: HIPS_d_sweep.cst
! Parameters = {a=0.735; b=0.393; d=17.608; fmax=120; fmin=75; phi=0; theta=0}
! Header version: 2018
! Port assignment regex: !\s*Touchstone port\s*([0-9]+)\s*=\s*(CST MWS port|CST DS port)\s*([0-9]+|Zmin|Zmax)\s*\(\"(.*)\"\)(\s*mode\s*([0-9]+))?.*
! Touchstone port assignment:
! Touchstone port 1 = CST MWS port Zmin ("") mode 1
! Touchstone port 2 = CST MWS port Zmin ("") mode 2
! Touchstone port 3 = CST MWS port Zmax ("") mode 1
! Touchstone port 4 = CST MWS port Zmax ("") mode 2
! S-Parameters are not renormalized. Unphysical impedance of 0 will be written to the file.
# GHz S MA R 0
75                      0.081131         6.97228                0               0         0.420163        -30.7302                0               0
                        0.112223        -16.4806                0               0         0.896823        -121.996                0               0
                        0.420164        -30.7302                0               0        0.0810215         6.94612                0               0
                        0.896822        -121.996                0               0         0.112286        -16.4482                0               0
75.045                 0.0801184         7.40449                0               0         0.423067        -31.3734                0               0
                        0.112561        -17.4334                0               0         0.896631        -122.573                0               0
                        0.423068        -31.3735                0               0        0.0800082         7.37966                0               0
                        0.896629        -122.573                0               0         0.112624        -17.4012                0               0
75.09                  0.0789476         7.89459                0               0         0.425673        -32.0608                0               0
                        0.112756        -18.4754                0               0         0.896214        -123.201                0               0
                        0.425674        -32.0608                0               0        0.0788368         7.87127                0               0
                        0.896212          -123.2                0               0          0.11282        -18.4433                0               0
75.135                 0.0776258         8.44885                0               0         0.427975        -32.7961                0               0
                        0.112818        -19.6146                0               0         0.895613        -123.882                0               0
                        0.427975        -32.7961                0               0        0.0775145         8.42726                0               0
                        0.895611        -123.881                0               0         0.112881        -19.5823                0               0
75.18                  0.0761616         9.07573                0               0         0.429971        -33.5831                0               0
                        0.112757        -20.8576                0               0         0.894872        -124.619                0               0
                        0.429972        -33.5831                0               0        0.0760498         9.05613                0               0
                         0.89487        -124.618                0               0         0.112819        -20.8251                0               0
75.225                 0.0745645         9.78607                0               0         0.431664        -34.4252                0               0
                        0.112582        -22.2101                0               0         0.894038        -125.414                0               0
                        0.431665        -34.4252                0               0        0.0744524         9.76876                0               0
                        0.894037        -125.413                0               0         0.112644        -22.1772                0               0
75.27                  0.0728454         10.5933                0               0          0.43306        -35.3253                0               0
                        0.112306        -23.6764                0               0         0.893162        -126.269                0               0
                        0.433061        -35.3253                0               0        0.0727331         10.5786                0               0
                        0.893161        -126.268                0               0         0.112367         -23.643                0               0
75.315                 0.0710172         11.5137                0               0         0.434168        -36.2859                0               0
                        0.111941        -25.2595                0               0         0.892293        -127.185                0               0
                        0.434169        -36.2859                0               0        0.0709048         11.5021                0               0
                        0.892292        -127.185                0               0         0.112001        -25.2256                0               0
75.36                  0.0690947         12.5666                0               0         0.434999        -37.3086                0               0
                        0.111497        -26.9616                0               0          0.89148        -128.163                0               0
                           0.435        -37.3086                0               0        0.0689824         12.5585                0               0
                        0.891479        -128.162                0               0         0.111556        -26.9269                0               0
75.405                 0.0670954         13.7748                0               0         0.435568        -38.3947                0               0
                        0.110984        -28.7835                0               0         0.890766        -129.201                0               0
                        0.435569        -38.3947                0               0        0.0669834         13.7708                0               0
                        0.890766          -129.2                0               0         0.111042        -28.7481                0               0
75.45                    0.06504         15.1644                0               0         0.435889        -39.5446                0               0
                        0.110413        -30.7251                0               0         0.890192        -130.299                0               0
                         0.43589        -39.5446                0               0        0.0649286         15.1652                0               0
                        0.890192        -130.298                0               0         0.110469        -30.6889                0               0
75.495                 0.0629534         16.7652                0               0         0.435979        -40.7581                0               0
                         0.10979        -32.7856                0               0         0.889791        -131.455                0               0
                        0.435979         -40.758                0               0         0.062843         16.7715                0               0
                         0.88979        -131.454                0               0         0.109844        -32.7485                0               0
75.54                  0.0608654         18.6098                0               0         0.435852        -42.0342                0               0
                        0.109121        -34.9634                0               0         0.889588        -132.668                0               0
                        0.435853        -42.0341                0               0        0.0607563         18.6225                0               0
                        0.889588        -132.667                0               0         0.109174        -34.9253                0               0
75.585                 0.0588115          20.733                0               0         0.435524        -43.3712                0               0
                        0.108413         -37.256                0               0         0.889604        -133.935                0               0
                        0.435525        -43.3712                0               0        0.0587045         20.7531                0               0
                        0.889604        -133.934                0               0         0.108464        -37.2169                0               0
75.63                  0.0568342         23.1698                0               0         0.435009         -44.767                0               0
                        0.107668        -39.6606                0               0         0.889846        -135.252                0               0
                         0.43501         -44.767                0               0        0.0567298         23.1983                0               0
                        0.889847        -135.251                0               0         0.107717        -39.6204                0               0
75.675                 0.0549832         25.9519                0               0          0.43432        -46.2187                0               0
                        0.106889        -42.1738                0               0         0.890318        -136.618                0               0
                         0.43432        -46.2187                0               0        0.0548825         25.9898                0               0
                        0.890319        -136.617                0               0         0.106936        -42.1325                0               0
75.72                  0.0533161         29.1029                0               0         0.433467        -47.7228                0               0
                        0.106078        -44.7917                0               0         0.891014        -138.028                0               0
                        0.433467        -47.7228                0               0          0.05322          29.151                0               0
                        0.891014        -138.028                0               0         0.106122        -44.7492                0               0
75.765                 0.0518973         32.6314                0               0         0.432458        -49.2756                0               0
                        0.105234        -47.5102                0               0         0.891918         -139.48                0               0
                        0.432458        -49.2756                0               0         0.051807         32.6904                0               0
                        0.891919        -139.479                0               0         0.105276        -47.4664                0               0
75.81                  0.0507961         36.5232                0               0         0.431302        -50.8728                0               0
                        0.104358        -50.3247                0               0         0.893012         -140.97                0               0
                        0.431302        -50.8728                0               0        0.0507129         36.5932                0               0
                        0.893012        -140.969                0               0         0.104397        -50.2796                0               0
75.855                 0.0500829         40.7334                0               0         0.430004        -52.5099                0               0
                        0.103448        -53.2302                0               0         0.894268        -142.494                0               0
                        0.430004        -52.5099                0               0        0.0500081         40.8138                0               0
                        0.894269        -142.493                0               0         0.103484        -53.1838                0               0
75.9                   0.0498235         45.1823                0               0         0.428568        -54.1821                0               0
                        0.102503        -56.2217                0               0         0.895656        -144.049                0               0
                        0.428568        -54.1821                0               0        0.0497586         45.2715                0               0
                        0.895657        -144.049                0               0         0.102536        -56.1739                0               0
75.945                 0.0500728         49.7572                0               0         0.426996        -55.8844                0               0
                        0.101521        -59.2938                0               0         0.897141        -145.632                0               0
                        0.426996        -55.8845                0               0        0.0500186         49.8532                0               0
                        0.897141        -145.631                0               0         0.101551        -59.2445                0               0
75.99                  0.0508678         54.3233                0               0         0.425291        -57.6119                0               0
                        0.100502        -62.4408                0               0         0.898683        -147.239                0               0
                        0.425291        -57.6119                0               0        0.0508253         54.4231                0               0
                        0.898684        -147.239                0               0         0.100528          -62.39                0               0
76.035                 0.0522242         58.7399                0               0         0.423454        -59.3594                0               0
                       0.0994438        -65.6568                0               0         0.900245        -148.868                0               0
                        0.423454        -59.3594                0               0        0.0521935         58.8407                0               0
                        0.900246        -148.867                0               0         0.099466        -65.6046                0               0
76.08                  0.0541344         62.8803                0               0         0.421487        -61.1219                0               0
                       0.0983455         -68.936                0               0         0.901785        -150.514                0               0
                        0.421487        -61.1219                0               0        0.0541156          62.979                0               0
                        0.901786        -150.514                0               0        0.0983636        -68.8821                0               0
76.125                 0.0565707         66.6454                0               0          0.41939        -62.8943                0               0
                       0.0972067         -72.272                0               0         0.903264        -152.176                0               0
                        0.419391        -62.8944                0               0        0.0565632         66.7398                0               0
                        0.903265        -152.175                0               0        0.0972205        -72.2167                0               0
76.17                  0.0594897         69.9717                0               0         0.417167        -64.6719                0               0
                       0.0960276        -75.6588                0               0         0.904641        -153.849                0               0
                        0.417167        -64.6719                0               0        0.0594927           70.06                0               0
                        0.904643        -153.848                0               0        0.0960368        -75.6019                0               0
76.215                 0.0628378         72.8299                0               0         0.414819          -66.45                0               0
                        0.094809          -79.09                0               0         0.905882        -155.531                0               0
                        0.414819          -66.45                0               0        0.0628504         72.9111                0               0
                        0.905883        -155.531                0               0        0.0948133        -79.0315                0               0
76.26                  0.0665565         75.2192                0               0         0.412349        -68.2239                0               0
                       0.0935523        -82.5593                0               0          0.90695         -157.22                0               0
                         0.41235        -68.2239                0               0        0.0665776         75.2928                0               0
                        0.906952         -157.22                0               0        0.0935516        -82.4992                0               0
76.305                  0.070586         77.1588                0               0         0.409763        -69.9895                0               0
                       0.0922599        -86.0605                0               0         0.907817        -158.913                0               0
                        0.409764        -69.9895                0               0        0.0706146         77.2248                0               0
                        0.907818        -158.912                0               0        0.0922539        -85.9988                0               0
76.35                  0.0748682         78.6806                0               0         0.407066        -71.7428                0               0
                       0.0909346        -89.5873                0               0         0.908454        -160.607                0               0
                        0.407067        -71.7428                0               0        0.0749034         78.7393                0               0
                        0.908455        -160.606                0               0        0.0909232        -89.5242                0               0
76.395                  0.079348          79.823                0               0         0.404265          -73.48                0               0
                       0.0895801        -93.1339                0               0         0.908838        -162.299                0               0
                        0.404265          -73.48                0               0        0.0793888         79.8748                0               0
                         0.90884        -162.298                0               0        0.0895631        -93.0694                0               0
76.44                  0.0839738         80.6264                0               0         0.401367        -75.1977                0               0
                       0.0882005        -96.6944                0               0         0.908953        -163.987                0               0
