! TOUCHSTONE file generated by CST MICROWAVE STUDIO
! Date and time: Mon Jun 21 17:06:45 2021
! Project name: HIPS_d_sweep.cst
! Parameters = {a=0.735; b=0.393; d=19.1658; fmax=120; fmin=75; phi=0; theta=0}
! Header version: 2018
! Port assignment regex: !\s*Touchstone port\s*([0-9]+)\s*=\s*(CST MWS port|CST DS port)\s*([0-9]+|Zmin|Zmax)\s*\(\"(.*)\"\)(\s*mode\s*([0-9]+))?.*
! Touchstone port assignment:
! Touchstone port 1 = CST MWS port Zmin ("") mode 1
! Touchstone port 2 = CST MWS port Zmin ("") mode 2
! Touchstone port 3 = CST MWS port Zmax ("") mode 1
! Touchstone port 4 = CST MWS port Zmax ("") mode 2
! S-Parameters are not renormalized. Unphysical impedance of 0 will be written to the file.
# GHz S MA R 0
75                      0.067797         -5.3669                0               0          0.32626         147.598                0               0
                       0.0939022        -20.6696                0               0         0.938157         56.4497                0               0
                         0.32626         147.598                0               0        0.0677292        -5.37508                0               0
                        0.938157         56.4513                0               0        0.0939415        -20.6003                0               0
75.045                 0.0661584        -4.49754                0               0         0.329671         146.932                0               0
                       0.0940391        -21.5081                0               0         0.937552         55.9248                0               0
                        0.329655         146.927                0               0        0.0660915        -4.50548                0               0
                        0.937551         55.9264                0               0        0.0940858        -21.4419                0               0
75.09                  0.0644237         -3.7196                0               0         0.332625         146.216                0               0
                       0.0941703        -22.5349                0               0         0.936753         55.2908                0               0
                        0.332605         146.209                0               0        0.0643563        -3.72658                0               0
                        0.936753         55.2924                0               0        0.0942188        -22.4697                0               0
75.135                 0.0625305        -2.99704                0               0         0.335137          145.44                0               0
                       0.0942715        -23.7368                0               0         0.935908         54.5576                0               0
                        0.335121         145.433                0               0         0.062462        -3.00202                0               0
                        0.935907         54.5592                0               0        0.0943183        -23.6709                0               0
75.18                  0.0604361        -2.27249                0               0         0.337236         144.597                0               0
                       0.0943222        -25.1016                0               0         0.935116         53.7347                0               0
                        0.337226         144.591                0               0        0.0603664        -2.27442                0               0
                        0.935116         53.7363                0               0        0.0943653        -25.0337                0               0
75.225                 0.0581221        -1.47209                0               0         0.338955         143.681                0               0
                       0.0943052        -26.6179                0               0         0.934441         52.8307                0               0
                        0.338952         143.677                0               0        0.0580517        -1.47004                0               0
                        0.934441         52.8323                0               0        0.0943438        -26.5474                0               0
75.27                  0.0555946       -0.509927                0               0         0.340335         142.687                0               0
                       0.0942065        -28.2759                0               0         0.933919         51.8533                0               0
                        0.340335         142.687                0               0        0.0555241       -0.503097                0               0
                        0.933918         51.8549                0               0        0.0942406        -28.2024                0               0
75.315                 0.0528813         0.70924                0               0         0.341415         141.616                0               0
                       0.0940149        -30.0668                0               0         0.933562         50.8092                0               0
                        0.341415         141.619                0               0        0.0528111        0.721638                0               0
                        0.933562         50.8108                0               0        0.0940449        -29.9902                0               0
75.36                  0.0500272         2.28981                0               0         0.342232         140.467                0               0
                       0.0937221        -31.9829                0               0         0.933369         49.7041                0               0
                        0.342229         140.473                0               0        0.0499578          2.3087                0               0
                        0.933368         49.7058                0               0        0.0937486        -31.9036                0               0
75.405                  0.047092         4.34703                0               0          0.34282         139.242                0               0
                       0.0933222         -34.018                0               0         0.933325         48.5429                0               0
                        0.342812          139.25                0               0        0.0470241         4.37363                0               0
                        0.933324         48.5446                0               0         0.093346        -33.9363                0               0
75.45                  0.0441499         7.00901                0               0         0.343207         137.945                0               0
                       0.0928117         -36.167                0               0         0.933408         47.3295                0               0
                        0.343194         137.953                0               0        0.0440838           7.045                0               0
                        0.933407         47.3312                0               0        0.0928335        -36.0833                0               0
75.495                 0.0412901         10.4163                0               0         0.343414         136.579                0               0
                       0.0921895         -38.426                0               0          0.93359          46.067                0               0
                        0.343399         136.586                0               0        0.0412268         10.4638                0               0
                        0.933589         46.0687                0               0        0.0922099         -38.341                0               0
75.54                  0.0386216         14.7138                0               0         0.343456         135.151                0               0
                       0.0914567        -40.7925                0               0         0.933839         44.7577                0               0
                        0.343444         135.155                0               0        0.0385621         14.7754                0               0
                        0.933839         44.7594                0               0         0.091476        -40.7065                0               0
75.585                 0.0362753         20.0273                0               0         0.343341         133.666                0               0
                       0.0906163        -43.2651                0               0         0.934124         43.4033                0               0
                        0.343341         133.666                0               0        0.0362216         20.1053                0               0
                        0.934123         43.4051                0               0        0.0906349        -43.1784                0               0
75.63                  0.0344053         26.4162                0               0         0.343071          132.13                0               0
                       0.0896735        -45.8434                0               0         0.934414         42.0049                0               0
                        0.343093         132.125                0               0        0.0343594         26.5119                0               0
                        0.934412         42.0066                0               0        0.0896915        -45.7561                0               0
75.675                 0.0331781         33.8038                0               0          0.34264          130.55                0               0
                       0.0886353        -48.5279                0               0          0.93468         40.5627                0               0
                        0.342697         130.539                0               0        0.0331426         33.9161                0               0
                        0.934678         40.5645                0               0        0.0886524        -48.4401                0               0
75.72                  0.0327502         41.9148                0               0         0.342038         128.932                0               0
                       0.0875102        -51.3199                0               0           0.9349         39.0768                0               0
                        0.342145         128.914                0               0        0.0327275         42.0391                0               0
                        0.934898         39.0785                0               0        0.0875262        -51.2314                0               0
75.765                 0.0332325          50.281                0               0         0.341244         127.282                0               0
                       0.0863084         -54.221                0               0         0.935064         37.5465                0               0
                        0.341417          127.26                0               0        0.0332242         50.4095                0               0
                        0.935061         37.5482                0               0        0.0863227        -54.1314                0               0
75.81                  0.0346621         58.3541                0               0         0.340233         125.607                0               0
                       0.0850413        -57.2332                0               0         0.935169         35.9711                0               0
                        0.340486         125.582                0               0        0.0346685          58.478                0               0
                        0.935166         35.9728                0               0        0.0850531         -57.142                0               0
75.855                 0.0369972         65.6732                0               0          0.33897         123.911                0               0
                        0.083721        -60.3581                0               0         0.935229         34.3499                0               0
                        0.339314         123.888                0               0        0.0370176         65.7858                0               0
                        0.935227         34.3516                0               0        0.0837297        -60.2648                0               0
75.9                   0.0401403         71.9727                0               0         0.337413         122.199                0               0
                       0.0823604        -63.5969                0               0         0.935275         32.6827                0               0
                        0.337851         122.182                0               0         0.040173         72.0701                0               0
                        0.935272         32.6844                0               0        0.0823649        -63.5007                0               0
75.945                 0.0439702         77.1821                0               0         0.335518         120.469                0               0
                       0.0809723        -66.9497                0               0         0.935351         30.9699                0               0
                        0.336036         120.465                0               0        0.0440133         77.2633                0               0
                        0.935348         30.9716                0               0        0.0809716        -66.8502                0               0
75.99                  0.0483667         81.3614                0               0          0.33324         118.719                0               0
                       0.0795692        -70.4157                0               0         0.935512         29.2134                0               0
                        0.333803         118.734                0               0        0.0484185         81.4272                0               0
                         0.93551         29.2151                0               0        0.0795622        -70.3122                0               0
76.035                 0.0532236         84.6315                0               0         0.330558         116.939                0               0
                       0.0781624        -73.9924                0               0         0.935819         27.4166                0               0
                        0.331108         116.977                0               0        0.0532824         84.6835                0               0
                        0.935817         27.4183                0               0        0.0781482        -73.8844                0               0
76.08                  0.0584509         87.1271                0               0         0.327488         115.115                0               0
                       0.0767622        -77.6757                0               0         0.936328         25.5849                0               0
                        0.327954         115.175                0               0        0.0585155         87.1673                0               0
                        0.936326         25.5865                0               0        0.0767397        -77.5628                0               0
76.125                  0.063974         88.9739                0               0         0.324111         113.233                0               0
                       0.0753765        -81.4597                0               0         0.937074         23.7251                0               0
                        0.324434         113.305                0               0        0.0640432         89.0042                0               0
                        0.937073         23.7268                0               0        0.0753449         -81.342                0               0
76.17                    0.06973         90.2797                0               0         0.320564         111.285                0               0
                       0.0740115        -85.3372                0               0         0.938067         21.8456                0               0
                        0.320728         111.356                0               0        0.0698029         90.3015                0               0
                        0.938067         21.8474                0               0        0.0739701        -85.2147                0               0
76.215                 0.0756647          91.133                0               0         0.317015         109.278                0               0
                       0.0726709        -89.2992                0               0         0.939283         19.9552                0               0
                        0.317051         109.335                0               0        0.0757406         91.1478                0               0
                        0.939283         19.9569                0               0        0.0726191        -89.1722                0               0
76.26                  0.0817301         91.6059                0               0         0.313597         107.231                0               0
                       0.0713561        -93.3359                0               0         0.940662         18.0621                0               0
                        0.313566         107.269                0               0        0.0818086         91.6149                0               0
                        0.940662         18.0638                0               0        0.0712938        -93.2049                0               0
76.305                  0.087883         91.7567                0               0         0.310371         105.175                0               0
                       0.0700667        -97.4367                0               0         0.942117         16.1735                0               0
                        0.310329         105.194                0               0        0.0879635         91.7608                0               0
                        0.942117         16.1753                0               0        0.0699937        -97.3021                0               0
76.35                  0.0940826         91.6326                0               0         0.307325         103.138                0               0
                       0.0688005         -101.59                0               0         0.943545         14.2953                0               0
                        0.307301         103.144                0               0        0.0941648         91.6325                0               0
                        0.943545         14.2971                0               0        0.0687169        -101.453                0               0
76.395                  0.100291         91.2725                0               0         0.304403         101.139                0               0
                       0.0675543        -105.786                0               0         0.944836         12.4311                0               0
                        0.304402         101.139                0               0         0.100374         91.2689                0               0
                        0.944836         12.4329                0               0        0.0674602        -105.646                0               0
76.44                   0.106472          90.709                0               0         0.301537         99.1923                0               0
                       0.0663241        -110.012                0               0         0.945888         10.5834                0               0
