! TOUCHSTONE file generated by CST MICROWAVE STUDIO
! Date and time: Mon Jun 21 17:06:46 2021
! Project name: HIPS_d_sweep.cst
! Parameters = {a=0.735; b=0.393; d=19.3668; fmax=120; fmin=75; phi=0; theta=0}
! Header version: 2018
! Port assignment regex: !\s*Touchstone port\s*([0-9]+)\s*=\s*(CST MWS port|CST DS port)\s*([0-9]+|Zmin|Zmax)\s*\(\"(.*)\"\)(\s*mode\s*([0-9]+))?.*
! Touchstone port assignment:
! Touchstone port 1 = CST MWS port Zmin ("") mode 1
! Touchstone port 2 = CST MWS port Zmin ("") mode 2
! Touchstone port 3 = CST MWS port Zmax ("") mode 1
! Touchstone port 4 = CST MWS port Zmax ("") mode 2
! S-Parameters are not renormalized. Unphysical impedance of 0 will be written to the file.
# GHz S MA R 0
75                     0.0414695         84.2947                0               0         0.312252         122.071                0               0
                       0.0783349        -65.3095                0               0         0.945855         32.6195                0               0
                        0.312251         122.071                0               0        0.0414225         84.4134                0               0
                        0.945856         32.6206                0               0        0.0783724        -65.3301                0               0
75.045                 0.0429469         84.9973                0               0         0.315165         121.385                0               0
                       0.0786619        -66.5021                0               0         0.945234         32.0301                0               0
                        0.315164         121.385                0               0        0.0429028         85.1118                0               0
                        0.945233         32.0311                0               0        0.0786997        -66.5228                0               0
75.09                  0.0446784         85.7426                0               0          0.31779         120.655                0               0
                        0.078838        -67.7942                0               0         0.944496         31.3671                0               0
                        0.317789         120.655                0               0        0.0446375         85.8525                0               0
                        0.944495         31.3681                0               0         0.078876        -67.8149                0               0
75.135                 0.0466645         86.5135                0               0         0.320105         119.874                0               0
                       0.0788678        -69.2001                0               0         0.943683         30.6305                0               0
                        0.320105         119.874                0               0        0.0466269         86.6183                0               0
                        0.943682         30.6315                0               0        0.0789059        -69.2207                0               0
75.18                  0.0489047         87.2909                0               0         0.322095         119.037                0               0
                       0.0787588        -70.7328                0               0         0.942836         29.8206                0               0
                        0.322094         119.037                0               0        0.0488706         87.3902                0               0
                        0.942835         29.8215                0               0        0.0787968        -70.7533                0               0
75.225                 0.0513984          88.055                0               0         0.323747         118.141                0               0
                       0.0785206        -72.4038                0               0         0.941989         28.9378                0               0
                        0.323746         118.141                0               0        0.0513679         88.1485                0               0
                        0.941989         28.9388                0               0        0.0785584        -72.4239                0               0
75.27                   0.054144         88.7863                0               0         0.325055         117.179                0               0
                       0.0781644        -74.2226                0               0         0.941177         27.9831                0               0
                        0.325054         117.179                0               0        0.0541173         88.8739                0               0
                        0.941178         27.9842                0               0        0.0782021        -74.2423                0               0
75.315                 0.0571395          89.467                0               0          0.32602         116.149                0               0
                       0.0777025        -76.1973                0               0         0.940429         26.9578                0               0
                        0.326019         116.149                0               0        0.0571166         89.5486                0               0
                         0.94043          26.959                0               0        0.0777398        -76.2166                0               0
75.36                  0.0603818         90.0809                0               0         0.326645         115.048                0               0
                       0.0771474        -78.3341                0               0          0.93977         25.8634                0               0
                        0.326644         115.048                0               0        0.0603629         90.1565                0               0
                        0.939772         25.8647                0               0        0.0771842        -78.3529                0               0
75.405                 0.0638672         90.6144                0               0         0.326939         113.874                0               0
                       0.0765115        -80.6376                0               0         0.939223         24.7018                0               0
                        0.326938         113.874                0               0        0.0638521         90.6839                0               0
                        0.939225         24.7031                0               0        0.0765478        -80.6559                0               0
75.45                  0.0675905         91.0559                0               0         0.326914         112.626                0               0
                       0.0758067        -83.1107                0               0         0.938803          23.475                0               0
                        0.326912         112.626                0               0        0.0675793         91.1195                0               0
                        0.938806         23.4763                0               0        0.0758423        -83.1284                0               0
75.495                 0.0715457         91.3965                0               0         0.326585         111.305                0               0
                       0.0750442        -85.7547                0               0         0.938523         22.1855                0               0
                        0.326583         111.305                0               0        0.0715384         91.4543                0               0
                        0.938526         22.1869                0               0        0.0750791         -85.772                0               0
75.54                  0.0757254         91.6291                0               0         0.325968         109.913                0               0
                       0.0742343        -88.5699                0               0         0.938391         20.8359                0               0
                        0.325967         109.913                0               0        0.0757219         91.6813                0               0
                        0.938394         20.8373                0               0        0.0742684        -88.5866                0               0
75.585                 0.0801207         91.7487                0               0         0.325082         108.453                0               0
                       0.0733863        -91.5549                0               0         0.938408         19.4292                0               0
                         0.32508         108.452                0               0        0.0801208         91.7955                0               0
                        0.938411         19.4306                0               0        0.0734194        -91.5711                0               0
75.63                  0.0847211         91.7521                0               0         0.323944         106.927                0               0
                       0.0725085        -94.7072                0               0         0.938571         17.9684                0               0
                        0.323942         106.927                0               0        0.0847248         91.7938                0               0
                        0.938574         17.9698                0               0        0.0725406        -94.7229                0               0
75.675                 0.0895146         91.6376                0               0         0.322571         105.342                0               0
                       0.0716084        -98.0231                0               0         0.938875         16.4568                0               0
                         0.32257         105.342                0               0        0.0895217         91.6743                0               0
                        0.938878         16.4581                0               0        0.0716394        -98.0384                0               0
75.72                   0.094487         91.4047                0               0         0.320982         103.702                0               0
                       0.0706925        -101.498                0               0         0.939307         14.8977                0               0
                         0.32098         103.702                0               0        0.0944975         91.4368                0               0
                         0.93931          14.899                0               0        0.0707224        -101.513                0               0
75.765                 0.0996226         91.0542                0               0         0.319191         102.015                0               0
                       0.0697669        -105.126                0               0         0.939851         13.2948                0               0
                         0.31919         102.015                0               0        0.0996363         91.0818                0               0
                        0.939854          13.296                0               0        0.0697956         -105.14                0               0
75.81                   0.104903         90.5878                0               0         0.317215         100.286                0               0
                        0.068837          -108.9                0               0         0.940487         11.6516                0               0
                        0.317214         100.286                0               0          0.10492         90.6111                0               0
                         0.94049         11.6528                0               0        0.0688643        -108.914                0               0
75.855                   0.11031          90.008                0               0         0.315069         98.5222                0               0
                       0.0679075        -112.812                0               0         0.941191         9.97191                0               0
                        0.315067         98.5222                0               0         0.110329         90.0273                0               0
                        0.941195         9.97299                0               0        0.0679335        -112.826                0               0
75.9                    0.115819         89.3182                0               0         0.312765         96.7313                0               0
                       0.0669832        -116.854                0               0         0.941938         8.25939                0               0
                        0.312764         96.7314                0               0         0.115841         89.3337                0               0
                        0.941942          8.2604                0               0        0.0670077        -116.867                0               0
75.945                  0.121408         88.5225                0               0         0.310318         94.9202                0               0
                       0.0660683        -121.014                0               0         0.942698         6.51782                0               0
                        0.310317         94.9202                0               0         0.121432         88.5343                0               0
                        0.942703         6.51876                0               0        0.0660912        -121.027                0               0
75.99                    0.12705         87.6254                0               0          0.30774         93.0958                0               0
                       0.0651668        -125.283                0               0         0.943441         4.75094                0               0
                        0.307739         93.0959                0               0         0.127077         87.6338                0               0
                        0.943446         4.75183                0               0        0.0651881        -125.296                0               0
76.035                  0.132718         86.6321                0               0         0.305045         91.2649                0               0
                       0.0642827        -129.648                0               0         0.944135         2.96247                0               0
                        0.305045         91.2651                0               0         0.132747         86.6374                0               0
                        0.944141         2.96331                0               0        0.0643022        -129.661                0               0
76.08                   0.138383         85.5484                0               0         0.302246          89.434                0               0
                       0.0634196        -134.097                0               0         0.944748         1.15605                0               0
                        0.302245         89.4342                0               0         0.138414         85.5506                0               0
                        0.944755         1.15686                0               0        0.0634374        -134.109                0               0
76.125                  0.144016         84.3804                0               0         0.299356         87.6091                0               0
                       0.0625812        -138.616                0               0         0.945249       -0.664716                0               0
                        0.299355         87.6093                0               0         0.144049         84.3798                0               0
                        0.945256       -0.663918                0               0        0.0625972        -138.629                0               0
76.17                   0.149586         83.1346                0               0         0.296388         85.7958                0               0
                       0.0617707        -143.191                0               0         0.945606        -2.49634                0               0
                        0.296387         85.7959                0               0          0.14962         83.1313                0               0
                        0.945614        -2.49554                0               0        0.0617848        -143.204                0               0
76.215                  0.155063          81.818                0               0         0.293356          83.999                0               0
                       0.0609912        -147.809                0               0         0.945791        -4.33545                0               0
                        0.293355         83.9992                0               0         0.155098          81.812                0               0
                        0.945799        -4.33463                0               0        0.0610036        -147.823                0               0
76.26                   0.160416         80.4375                0               0         0.290272         82.2234                0               0
                       0.0602456        -152.456                0               0         0.945777        -6.17876                0               0
                        0.290271         82.2235                0               0         0.160453         80.4291                0               0
                        0.945785        -6.17791                0               0        0.0602561        -152.469                0               0
76.305                  0.165618         79.0005                0               0         0.287152          80.473                0               0
                       0.0595362        -157.115                0               0         0.945539        -8.02316                0               0
                        0.287151          80.473                0               0         0.165656         78.9898                0               0
                        0.945547        -8.02226                0               0        0.0595449         -157.13                0               0
76.35                   0.170641         77.5145                0               0         0.284007          78.751                0               0
                       0.0588651        -161.775                0               0         0.945056        -9.86566                0               0
                        0.284006          78.751                0               0         0.170679         77.5016                0               0
                        0.945065         -9.8647                0               0        0.0588721         -161.79                0               0
76.395                   0.17546         75.9868                0               0         0.280852         77.0605                0               0
                       0.0582339         -166.42                0               0         0.944312        -11.7035                0               0
                        0.280851         77.0604                0               0         0.175499         75.9718                0               0
                         0.94432        -11.7024                0               0        0.0582394        -166.436                0               0
76.44                   0.180053         74.4249                0               0           0.2777         75.4037                0               0
                       0.0576439        -171.038                0               0         0.943292        -13.5339                0               0
