! TOUCHSTONE file generated by CST MICROWAVE STUDIO
! Date and time: Mon Jun 21 17:06:49 2021
! Project name: HIPS_d_sweep.cst
! Parameters = {a=0.735; b=0.393; d=19.8191; fmax=120; fmin=75; phi=0; theta=0}
! Header version: 2018
! Port assignment regex: !\s*Touchstone port\s*([0-9]+)\s*=\s*(CST MWS port|CST DS port)\s*([0-9]+|Zmin|Zmax)\s*\(\"(.*)\"\)(\s*mode\s*([0-9]+))?.*
! Touchstone port assignment:
! Touchstone port 1 = CST MWS port Zmin ("") mode 1
! Touchstone port 2 = CST MWS port Zmin ("") mode 2
! Touchstone port 3 = CST MWS port Zmax ("") mode 1
! Touchstone port 4 = CST MWS port Zmax ("") mode 2
! S-Parameters are not renormalized. Unphysical impedance of 0 will be written to the file.
# GHz S MA R 0
75                      0.202966         68.7478                0               0         0.262204          68.948                0               0
                       0.0568966          165.95                0               0         0.941711        -20.7104                0               0
                        0.262205         68.9482                0               0         0.202959         68.7378                0               0
                        0.941709        -20.7106                0               0        0.0568927          165.94                0               0
75.045                  0.203177         68.1904                0               0         0.265197         68.3725                0               0
                       0.0576311         164.922                0               0         0.940761        -21.2926                0               0
                        0.265198         68.3727                0               0          0.20317         68.1807                0               0
                        0.940758        -21.2929                0               0        0.0576259         164.912                0               0
75.09                   0.203573         67.5707                0               0         0.267857         67.7339                0               0
                       0.0583272         163.694                0               0         0.939873        -21.9508                0               0
                        0.267857          67.734                0               0         0.203566         67.5614                0               0
                         0.93987        -21.9511                0               0        0.0583212         163.683                0               0
75.135                  0.204146         66.8895                0               0         0.270183         67.0311                0               0
                       0.0589889         162.267                0               0         0.939046        -22.6843                0               0
                        0.270183         67.0313                0               0         0.204139         66.8806                0               0
                        0.939043        -22.6845                0               0        0.0589824         162.257                0               0
75.18                   0.204884         66.1474                0               0         0.272177         66.2639                0               0
                       0.0596203         160.645                0               0         0.938277         -23.492                0               0
                        0.272177         66.2641                0               0         0.204877         66.1389                0               0
                        0.938274        -23.4922                0               0        0.0596136         160.636                0               0
75.225                  0.205775         65.3453                0               0         0.273845         65.4324                0               0
                       0.0602263         158.834                0               0         0.937567        -24.3727                0               0
                        0.273845         65.4325                0               0         0.205768         65.3372                0               0
                        0.937564         -24.373                0               0        0.0602196         158.825                0               0
75.27                   0.206806          64.484                0               0         0.275193         64.5372                0               0
                       0.0608119          156.84                0               0         0.936914        -25.3251                0               0
                        0.275194         64.5373                0               0           0.2068         64.4764                0               0
                        0.936912        -25.3254                0               0        0.0608051         156.831                0               0
75.315                  0.207961         63.5646                0               0         0.276232         63.5792                0               0
                        0.061382         154.669                0               0          0.93632        -26.3474                0               0
                        0.276232         63.5794                0               0         0.207955         63.5575                0               0
                        0.936318        -26.3477                0               0        0.0613754         154.661                0               0
75.36                   0.209225          62.588                0               0         0.276973         62.5601                0               0
                       0.0619417          152.33                0               0         0.935785        -27.4378                0               0
                        0.276973         62.5602                0               0         0.209219         62.5814                0               0
                        0.935782        -27.4381                0               0        0.0619351         152.322                0               0
75.405                   0.21058         61.5553                0               0         0.277428         61.4815                0               0
                       0.0624957         149.833                0               0         0.935309        -28.5942                0               0
                        0.277428         61.4816                0               0         0.210574         61.5493                0               0
                        0.935306        -28.5945                0               0        0.0624891         149.825                0               0
75.45                   0.212008         60.4679                0               0         0.277613         60.3456                0               0
                       0.0630483         147.187                0               0         0.934893        -29.8142                0               0
                        0.277613         60.3457                0               0         0.212002         60.4624                0               0
                         0.93489        -29.8145                0               0        0.0630417          147.18                0               0
75.495                  0.213489         59.3269                0               0         0.277542         59.1549                0               0
                       0.0636034         144.404                0               0         0.934536        -31.0954                0               0
                        0.277541          59.155                0               0         0.213484         59.3221                0               0
                        0.934534        -31.0957                0               0        0.0635966         144.397                0               0
75.54                   0.215003         58.1339                0               0         0.277231         57.9118                0               0
                       0.0641642         141.495                0               0          0.93424        -32.4349                0               0
                        0.277231         57.9119                0               0         0.214999         58.1297                0               0
                        0.934238        -32.4352                0               0        0.0641572         141.489                0               0
75.585                  0.216531         56.8905                0               0         0.276699         56.6194                0               0
                       0.0647334         138.472                0               0         0.934005          -33.83                0               0
                        0.276699         56.6194                0               0         0.216526          56.887                0               0
                        0.934002        -33.8303                0               0         0.064726         138.466                0               0
75.63                   0.218051         55.5984                0               0         0.275963         55.2803                0               0
                       0.0653129         135.347                0               0         0.933829        -35.2775                0               0
                        0.275963         55.2804                0               0         0.218046         55.5956                0               0
                        0.933827        -35.2778                0               0        0.0653051         135.342                0               0
75.675                  0.219542         54.2598                0               0          0.27504         53.8978                0               0
                       0.0659039         132.132                0               0         0.933712        -36.7743                0               0
                         0.27504         53.8979                0               0         0.219538         54.2576                0               0
                        0.933709        -36.7746                0               0        0.0658957         132.128                0               0
75.72                   0.220983         52.8766                0               0         0.273948         52.4747                0               0
                       0.0665069         128.841                0               0         0.933652        -38.3171                0               0
                        0.273948         52.4748                0               0         0.220979         52.8751                0               0
                         0.93365        -38.3174                0               0        0.0664982         128.837                0               0
75.765                  0.222353         51.4513                0               0         0.272706         51.0142                0               0
                       0.0671218         125.484                0               0          0.93365        -39.9024                0               0
                        0.272706         51.0143                0               0          0.22235         51.4505                0               0
                        0.933648        -39.9028                0               0        0.0671125         125.481                0               0
75.81                   0.223633         49.9864                0               0         0.271332         49.5192                0               0
                       0.0677479         122.075                0               0         0.933703        -41.5269                0               0
                        0.271332         49.5193                0               0          0.22363         49.9863                0               0
                        0.933701        -41.5272                0               0         0.067738         122.071                0               0
75.855                  0.224802         48.4845                0               0         0.269843         47.9927                0               0
                       0.0683837         118.623                0               0         0.933809         -43.187                0               0
                        0.269843         47.9927                0               0           0.2248         48.4852                0               0
                        0.933808        -43.1873                0               0        0.0683731          118.62                0               0
75.9                    0.225844         46.9487                0               0         0.268256         46.4373                0               0
                       0.0690275          115.14                0               0         0.933969        -44.8792                0               0
                        0.268256         46.4374                0               0         0.225841         46.9501                0               0
                        0.933967        -44.8795                0               0        0.0690162         115.137                0               0
75.945                  0.226739         45.3818                0               0         0.266589          44.856                0               0
                       0.0696771         111.635                0               0          0.93418        -46.5999                0               0
                        0.266589          44.856                0               0         0.226738         45.3839                0               0
                        0.934178        -46.6002                0               0         0.069665         111.633                0               0
75.99                   0.227474         43.7871                0               0         0.264857         43.2512                0               0
                       0.0703301          108.12                0               0         0.934443        -48.3456                0               0
                        0.264857         43.2512                0               0         0.227473         43.7899                0               0
                        0.934441         -48.346                0               0        0.0703172         108.117                0               0
76.035                  0.228035         42.1677                0               0         0.263077         41.6254                0               0
                       0.0709837         104.601                0               0         0.934755         -50.113                0               0
                        0.263077         41.6254                0               0         0.228034         42.1712                0               0
                        0.934754        -50.1133                0               0        0.0709698         104.599                0               0
76.08                   0.228409         40.5269                0               0         0.261264         39.9809                0               0
                        0.071635         101.089                0               0         0.935119        -51.8986                0               0
                        0.261264          39.981                0               0         0.228409         40.5312                0               0
                        0.935117        -51.8989                0               0        0.0716203         101.086                0               0
76.125                  0.228586          38.868                0               0         0.259432         38.3201                0               0
                       0.0722813         97.5886                0               0         0.935533         -53.699                0               0
                        0.259432         38.3201                0               0         0.228586          38.873                0               0
                        0.935531        -53.6993                0               0        0.0722656         97.5859                0               0
76.17                   0.228558         37.1943                0               0         0.257595         36.6449                0               0
                       0.0729195         94.1082                0               0         0.935998        -55.5109                0               0
                        0.257595          36.645                0               0         0.228559            37.2                0               0
                        0.935996        -55.5113                0               0        0.0729027         94.1054                0               0
76.215                  0.228318          35.509                0               0         0.255766         34.9576                0               0
                       0.0735466         90.6535                0               0         0.936513        -57.3314                0               0
                        0.255765         34.9577                0               0          0.22832         35.5154                0               0
                        0.936511        -57.3317                0               0        0.0735288         90.6504                0               0
76.26                   0.227862         33.8152                0               0         0.253955         33.2603                0               0
                       0.0741596         87.2299                0               0         0.937078        -59.1572                0               0
                        0.253955         33.2604                0               0         0.227865         33.8223                0               0
                        0.937077        -59.1575                0               0        0.0741407         87.2265                0               0
76.305                  0.227187          32.116                0               0         0.252175         31.5551                0               0
                       0.0747552         83.8423                0               0          0.93769        -60.9854                0               0
                        0.252174         31.5551                0               0          0.22719         32.1238                0               0
                        0.937689        -60.9857                0               0        0.0747352         83.8385                0               0
76.35                   0.226289         30.4144                0               0         0.250433         29.8442                0               0
                       0.0753301         80.4952                0               0         0.938344        -62.8131                0               0
                        0.250433         29.8443                0               0         0.226294          30.423                0               0
                        0.938342        -62.8134                0               0        0.0753089         80.4909                0               0
76.395                  0.225169         28.7134                0               0         0.248738         28.1302                0               0
                       0.0758804         77.1923                0               0          0.93903        -64.6378                0               0
                        0.248737         28.1302                0               0         0.225174         28.7226                0               0
                        0.939029        -64.6381                0               0         0.075858         77.1876                0               0
76.44                   0.223824         27.0158                0               0         0.247094         26.4156                0               0
                       0.0764017         73.9371                0               0         0.939734        -66.4568                0               0
