! TOUCHSTONE file generated by CST MICROWAVE STUDIO
! Date and time: Mon Jun 21 17:07:36 2021
! Project name: HIPS_d_sweep.cst
! Parameters = {a=0.735; b=0.393; d=25.1457; fmax=120; fmin=75; phi=0; theta=0}
! Header version: 2018
! Port assignment regex: !\s*Touchstone port\s*([0-9]+)\s*=\s*(CST MWS port|CST DS port)\s*([0-9]+|Zmin|Zmax)\s*\(\"(.*)\"\)(\s*mode\s*([0-9]+))?.*
! Touchstone port assignment:
! Touchstone port 1 = CST MWS port Zmin ("") mode 1
! Touchstone port 2 = CST MWS port Zmin ("") mode 2
! Touchstone port 3 = CST MWS port Zmax ("") mode 1
! Touchstone port 4 = CST MWS port Zmax ("") mode 2
! S-Parameters are not renormalized. Unphysical impedance of 0 will be written to the file.
# GHz S MA R 0
75                      0.146632        -10.7341                0               0        0.0641116        -12.2103                0               0
                       0.0171536        -44.1173                0               0          0.98697         79.6703                0               0
                        0.064112        -12.2109                0               0         0.146575        -10.6577                0               0
                         0.98696           79.67                0               0        0.0171428        -43.9859                0               0
75.045                  0.144574        -11.6925                0               0         0.060672        -13.8557                0               0
                       0.0173167        -41.5803                0               0         0.987848         78.9443                0               0
                       0.0606677        -13.8575                0               0         0.144513        -11.6141                0               0
                        0.987836         78.9439                0               0         0.017307        -41.4503                0               0
75.09                   0.142054        -12.6289                0               0        0.0572767         -15.311                0               0
                       0.0173591         -39.693                0               0          0.98858         78.1152                0               0
                       0.0572698         -15.313                0               0         0.141993        -12.5484                0               0
                        0.988568         78.1147                0               0        0.0173507        -39.5635                0               0
75.135                  0.139043         -13.571                0               0        0.0540221        -16.5619                0               0
                       0.0172937        -38.3577                0               0         0.989213         77.1844                0               0
                       0.0540146        -16.5636                0               0         0.138981         -13.488                0               0
                        0.989201         77.1839                0               0        0.0172865        -38.2279                0               0
75.18                   0.135536         -14.546                0               0        0.0510004        -17.6117                0               0
                       0.0171294        -37.5008                0               0         0.989784         76.1537                0               0
                       0.0509938        -17.6129                0               0         0.135474        -14.4598                0               0
                        0.989772         76.1532                0               0        0.0171233        -37.3697                0               0
75.225                  0.131546        -15.5777                0               0        0.0482931        -18.4857                0               0
                       0.0168717        -37.0666                0               0         0.990324         75.0252                0               0
                       0.0482885        -18.4864                0               0         0.131486        -15.4877                0               0
                        0.990313         75.0247                0               0        0.0168666        -36.9332                0               0
75.27                   0.127099         -16.685                0               0        0.0459656        -19.2318                0               0
                       0.0165234        -37.0132                0               0         0.990857         73.8011                0               0
                       0.0459635        -19.2321                0               0         0.127041        -16.5903                0               0
                        0.990847         73.8006                0               0        0.0165192        -36.8767                0               0
75.315                  0.122225        -17.8811                0               0        0.0440643        -19.9172                0               0
                       0.0160853        -37.3099                0               0         0.991399         72.4838                0               0
                        0.044065        -19.9175                0               0         0.122168        -17.7809                0               0
                        0.991391         72.4834                0               0        0.0160818        -37.1691                0               0
75.36                   0.116952        -19.1746                0               0        0.0426161        -20.6208                0               0
                       0.0155565        -37.9351                0               0         0.991962         71.0762                0               0
                       0.0426192        -20.6215                0               0         0.116898        -19.0678                0               0
                        0.991955         71.0758                0               0        0.0155536        -37.7887                0               0
75.405                  0.111305          -20.57                0               0        0.0416301         -21.422                0               0
                       0.0149348        -38.8747                0               0         0.992548          69.581                0               0
                       0.0416353        -21.4231                0               0         0.111252        -20.4555                0               0
                        0.992543         69.5806                0               0        0.0149323        -38.7213                0               0
75.45                   0.105301        -22.0687                0               0        0.0411014        -22.3884                0               0
                       0.0142172        -40.1223                0               0         0.993159         68.0013                0               0
                        0.041108        -22.3898                0               0         0.105249        -21.9453                0               0
                        0.993155          68.001                0               0         0.014215        -39.9601                0               0
75.495                 0.0989536        -23.6702                0               0        0.0410149        -23.5662                0               0
                       0.0134002        -41.6793                0               0         0.993788         66.3402                0               0
                       0.0410223        -23.5679                0               0        0.0989026        -23.5364                0               0
                        0.993785         66.3399                0               0        0.0133982        -41.5059                0               0
75.54                  0.0922695        -25.3726                0               0        0.0413491        -24.9763                0               0
                         0.01248        -43.5568                0               0         0.994427         64.6011                0               0
                       0.0413566        -24.9781                0               0        0.0922193        -25.2265                0               0
                        0.994424         64.6008                0               0         0.012478        -43.3692                0               0
75.585                 0.0852539        -27.1732                0               0        0.0420788        -26.6147                0               0
                       0.0114533        -45.7797                0               0         0.995062         62.7875                0               0
                       0.0420859        -26.6163                0               0        0.0852042        -27.0122                0               0
                         0.99506         62.7872                0               0        0.0114512        -45.5737                0               0
75.63                  0.0779096        -29.0684                0               0        0.0431767        -28.4585                0               0
                       0.0103175        -48.3957                0               0         0.995679          60.903                0               0
                       0.0431831        -28.4598                0               0        0.0778604        -28.8892                0               0
                        0.995677         60.9027                0               0         0.010315        -48.1654                0               0
75.675                 0.0702394        -31.0545                0               0        0.0446146        -30.4729                0               0
                       0.0090713        -51.4939                0               0         0.996262         58.9513                0               0
                       0.0446199        -30.4739                0               0        0.0701906        -30.8525                0               0
                        0.996261          58.951                0               0       0.00906835        -51.2304                0               0
75.72                  0.0622468        -33.1273                0               0        0.0463631        -32.6194                0               0
                      0.00771584        -55.2487                0               0         0.996794         56.9365                0               0
                       0.0463672        -32.6201                0               0        0.0621984         -32.896                0               0
                        0.996792         56.9361                0               0       0.00771205        -54.9375                0               0
75.765                  0.053938        -35.2827                0               0        0.0483926        -34.8614                0               0
                      0.00625621        -60.0343                0               0         0.997258         54.8624                0               0
                       0.0483955        -34.8618                0               0        0.0538898         -35.012                0               0
                        0.997256          54.862                0               0       0.00625101        -59.6504                0               0
75.81                  0.0453219        -37.5171                0               0        0.0506732        -37.1676                0               0
                      0.00470632        -66.7868                0               0         0.997637         52.7334                0               0
                       0.0506749        -37.1678                0               0        0.0452741        -37.1906                0               0
                        0.997635         52.7329                0               0       0.00469847        -66.2803                0               0
75.855                 0.0364119        -39.8284                0               0        0.0531752        -39.5143                0               0
                      0.00310839          -78.51                0               0         0.997917         50.5536                0               0
                       0.0531758        -39.5144                0               0        0.0363644        -39.4168                0               0
                        0.997915         50.5532                0               0       0.00309465        -77.7717                0               0
75.9                   0.0272258        -42.2204                0               0        0.0558697        -41.8848                0               0
                      0.00167108        -109.198                0               0         0.998088         48.3276                0               0
                       0.0558694         -41.885                0               0        0.0271788        -41.6633                0               0
                        0.998085         48.3271                0               0       0.00164085        -108.185                0               0
75.945                 0.0177867        -44.7208                0               0        0.0587286        -44.2693                0               0
                      0.00161844         177.302                0               0         0.998138           46.06                0               0
                       0.0587276        -44.2695                0               0        0.0177403        -43.8581                0               0
                        0.998136         46.0595                0               0       0.00158105         176.637                0               0
75.99                 0.00812304         -47.529                0               0        0.0617251        -46.6627                0               0
                      0.00318315         143.176                0               0         0.998064         43.7554                0               0
                       0.0617236         -46.663                0               0       0.00807788        -45.6164                0               0
                        0.998061         43.7548                0               0       0.00316031         142.556                0               0
76.035                0.00173566         133.922                0               0        0.0648341        -49.0641                0               0
                      0.00511695         130.325                0               0         0.997863         41.4187                0               0
                       0.0648323        -49.0644                0               0        0.0017873         125.072                0               0
                         0.99786         41.4181                0               0        0.0050996         129.914                0               0
76.08                  0.0117417          128.68                0               0        0.0680315        -51.4747                0               0
                      0.00717236         122.723                0               0         0.997537         39.0548                0               0
                       0.0680297         -51.475                0               0        0.0117877          127.34                0               0
                        0.997534         39.0541                0               0       0.00715714          122.43                0               0
76.125                 0.0218602         125.955                0               0        0.0712952        -53.8974                0               0
                      0.00929367         117.014                0               0         0.997089         36.6687                0               0
                       0.0712934        -53.8978                0               0         0.021905         125.228                0               0
                        0.997087         36.6681                0               0       0.00927921         116.792                0               0
76.17                  0.0320431         123.364                0               0        0.0746037        -56.3358                0               0
                       0.0114545         112.178                0               0         0.996529         34.2657                0               0
                       0.0746022        -56.3362                0               0        0.0320867         122.865                0               0
                        0.996526          34.265                0               0        0.0114401         112.004                0               0
76.215                 0.0422416         120.816                0               0        0.0779371        -58.7934                0               0
                       0.0136363         107.813                0               0         0.995862         31.8509                0               0
                       0.0779358        -58.7938                0               0        0.0422841         120.435                0               0
                         0.99586         31.8502                0               0        0.0136215         107.673                0               0
76.26                  0.0524058         118.297                0               0         0.081276        -61.2734                0               0
                       0.0158232         103.733                0               0         0.995097         29.4296                0               0
                       0.0812751        -61.2737                0               0        0.0524471         117.988                0               0
                        0.995096         29.4289                0               0        0.0158077         103.618                0               0
76.305                 0.0624861         115.804                0               0        0.0846018        -63.7781                0               0
                       0.0180012         99.8383                0               0         0.994239         27.0071                0               0
                       0.0846011        -63.7784                0               0         0.062526         115.544                0               0
                        0.994239         27.0064                0               0        0.0179848         99.7435                0               0
76.35                  0.0724341         113.338                0               0        0.0878961        -66.3092                0               0
                       0.0201572         96.0733                0               0         0.993287         24.5886                0               0
                       0.0878957        -66.3094                0               0        0.0724728         113.113                0               0
                        0.993288         24.5879                0               0        0.0201397         95.9944                0               0
76.395                  0.082205         110.899                0               0        0.0911409        -68.8669                0               0
                       0.0222786         92.4025                0               0         0.992235         22.1792                0               0
                       0.0911406        -68.8671                0               0        0.0822424           110.7                0               0
                        0.992236         22.1784                0               0        0.0222598         92.3367                0               0
76.44                   0.091758         108.485                0               0        0.0943179        -71.4507                0               0
                        0.024353          88.802                0               0         0.991064         19.7836                0               0
