! TOUCHSTONE file generated by CST MICROWAVE STUDIO
! Date and time: Mon Jun 21 17:07:11 2021
! Project name: HIPS_d_sweep.cst
! Parameters = {a=0.735; b=0.393; d=22.4322; fmax=120; fmin=75; phi=0; theta=0}
! Header version: 2018
! Port assignment regex: !\s*Touchstone port\s*([0-9]+)\s*=\s*(CST MWS port|CST DS port)\s*([0-9]+|Zmin|Zmax)\s*\(\"(.*)\"\)(\s*mode\s*([0-9]+))?.*
! Touchstone port assignment:
! Touchstone port 1 = CST MWS port Zmin ("") mode 1
! Touchstone port 2 = CST MWS port Zmin ("") mode 2
! Touchstone port 3 = CST MWS port Zmax ("") mode 1
! Touchstone port 4 = CST MWS port Zmax ("") mode 2
! S-Parameters are not renormalized. Unphysical impedance of 0 will be written to the file.
# GHz S MA R 0
75                     0.0325068         118.201                0               0         0.112392         124.442                0               0
                       0.0341893        -61.0972                0               0         0.992544         35.0222                0               0
                        0.112392         124.443                0               0        0.0325193         118.213                0               0
                        0.992542         35.0216                0               0        0.0341935        -61.1484                0               0
75.045                 0.0348238         117.672                0               0         0.116144         123.739                0               0
                        0.034711        -62.3353                0               0         0.992015         34.3486                0               0
                        0.116144         123.739                0               0        0.0348364         117.683                0               0
                        0.992013          34.348                0               0        0.0347154        -62.3848                0               0
75.09                  0.0375146         117.148                0               0         0.119473         122.945                0               0
                       0.0350823        -63.7513                0               0         0.991501         33.5872                0               0
                        0.119473         122.946                0               0        0.0375274         117.157                0               0
                          0.9915         33.5866                0               0         0.035087        -63.7992                0               0
75.135                  0.040574         116.606                0               0         0.122382         122.061                0               0
                       0.0353056        -65.3532                0               0          0.99101         32.7384                0               0
                        0.122382         122.061                0               0        0.0405871         116.614                0               0
                        0.991009         32.7379                0               0        0.0353106        -65.3996                0               0
75.18                  0.0439957         116.028                0               0         0.124874         121.084                0               0
                       0.0353839        -67.1479                0               0         0.990545         31.8031                0               0
                        0.124875         121.084                0               0         0.044009         116.035                0               0
                        0.990544         31.8026                0               0        0.0353891        -67.1926                0               0
75.225                 0.0477721         115.397                0               0         0.126957         120.016                0               0
                       0.0353206        -69.1413                0               0         0.990108         30.7824                0               0
                        0.126957         120.017                0               0        0.0477857         115.403                0               0
                        0.990107         30.7819                0               0         0.035326        -69.1844                0               0
75.27                  0.0518941           114.7                0               0         0.128636         118.859                0               0
                       0.0351199        -71.3391                0               0         0.989697         29.6777                0               0
                        0.128636          118.86                0               0        0.0519081         114.705                0               0
                        0.989696         29.6772                0               0        0.0351255        -71.3804                0               0
75.315                 0.0563513         113.925                0               0          0.12992         117.617                0               0
                       0.0347865         -73.747                0               0          0.98931         28.4909                0               0
                         0.12992         117.617                0               0        0.0563656         113.929                0               0
                        0.989309         28.4903                0               0        0.0347923        -73.7863                0               0
75.36                   0.061131         113.066                0               0         0.130819         116.292                0               0
                        0.034326        -76.3711                0               0         0.988942         27.2239                0               0
                        0.130819         116.293                0               0        0.0611458         113.069                0               0
                        0.988941         27.2234                0               0        0.0343319        -76.4083                0               0
75.405                 0.0662188         112.118                0               0         0.131344          114.89                0               0
                       0.0337443        -79.2183                0               0         0.988586         25.8793                0               0
                        0.131343          114.89                0               0         0.066234          112.12                0               0
                        0.988585         25.8787                0               0        0.0337502        -79.2534                0               0
75.45                   0.071598         111.078                0               0         0.131506         113.414                0               0
                       0.0330486        -82.2971                0               0         0.988235         24.4597                0               0
                        0.131505         113.415                0               0        0.0716137         111.079                0               0
                        0.988234         24.4591                0               0        0.0330545        -82.3299                0               0
75.495                 0.0772498         109.946                0               0         0.131319         111.871                0               0
                       0.0322471        -85.6173                0               0         0.987882         22.9681                0               0
                        0.131318         111.871                0               0         0.077266         109.947                0               0
                        0.987881         22.9675                0               0        0.0322529        -85.6476                0               0
75.54                  0.0831531         108.724                0               0         0.130797         110.265                0               0
                        0.031349        -89.1911                0               0         0.987517         21.4078                0               0
                        0.130796         110.265                0               0        0.0831699         108.723                0               0
                        0.987517         21.4071                0               0        0.0313546        -89.2188                0               0
75.585                 0.0892846         107.412                0               0         0.129957         108.602                0               0
                       0.0303652        -93.0334                0               0         0.987134         19.7822                0               0
                        0.129956         108.602                0               0        0.0893019         107.412                0               0
                        0.987134         19.7815                0               0        0.0303705        -93.0584                0               0
75.63                  0.0956189         106.016                0               0         0.128816         106.888                0               0
                        0.029308        -97.1623                0               0         0.986725         18.0951                0               0
                        0.128815         106.888                0               0        0.0956368         106.015                0               0
                        0.986725         18.0944                0               0        0.0293129        -97.1844                0               0
75.675                  0.102129         104.539                0               0         0.127394         105.128                0               0
                       0.0281915        -101.599                0               0         0.986284         16.3503                0               0
                        0.127392         105.129                0               0         0.102147         104.537                0               0
                        0.986284         16.3497                0               0        0.0281959        -101.618                0               0
75.72                   0.108785         102.986                0               0         0.125709         103.329                0               0
                       0.0270319         -106.37                0               0         0.985805         14.5521                0               0
                        0.125707          103.33                0               0         0.108804         102.983                0               0
                        0.985805         14.5514                0               0        0.0270356        -106.386                0               0
75.765                  0.115557         101.361                0               0         0.123783         101.496                0               0
                       0.0258475        -111.504                0               0         0.985285         12.7045                0               0
                        0.123782         101.497                0               0         0.115577         101.359                0               0
                        0.985286         12.7038                0               0        0.0258502        -111.516                0               0
75.81                   0.122414         99.6711                0               0         0.121639         99.6345                0               0
                       0.0246587        -117.033                0               0         0.984723         10.8119                0               0
                        0.121638          99.635                0               0         0.122434         99.6681                0               0
                        0.984724         10.8112                0               0        0.0246604        -117.042                0               0
75.855                  0.129323         97.9214                0               0           0.1193         97.7498                0               0
                       0.0234887        -122.992                0               0         0.984117         8.87875                0               0
                        0.119299         97.7503                0               0         0.129343          97.918                0               0
                        0.984119         8.87806                0               0        0.0234889        -122.997                0               0
75.9                    0.136251         96.1178                0               0         0.116789         95.8473                0               0
                       0.0223627        -129.413                0               0         0.983471         6.90946                0               0
                        0.116787         95.8478                0               0         0.136273          96.114                0               0
                        0.983472         6.90877                0               0        0.0223613        -129.414                0               0
75.945                  0.143168         94.2663                0               0         0.114129         93.9321                0               0
                       0.0213084        -136.321                0               0         0.982787         4.90849                0               0
                        0.114128         93.9326                0               0          0.14319         94.2622                0               0
                        0.982789          4.9078                0               0        0.0213051        -136.319                0               0
75.99                    0.15004         92.3727                0               0         0.111347         92.0093                0               0
                       0.0203548        -143.728                0               0          0.98207         2.88029                0               0
                        0.111346         92.0097                0               0         0.150062         92.3684                0               0
                        0.982072          2.8796                0               0        0.0203493        -143.723                0               0
76.035                  0.156837         90.4429                0               0         0.108464         90.0836                0               0
                       0.0195312        -151.622                0               0         0.981326         0.82925                0               0
                        0.108463          90.084                0               0          0.15686         90.4383                0               0
                        0.981328        0.828558                0               0        0.0195232        -151.615                0               0
76.08                    0.16353         88.4823                0               0         0.105505           88.16                0               0
                       0.0188653        -159.953                0               0         0.980561         -1.2403                0               0
                        0.105504         88.1603                0               0         0.163554         88.4775                0               0
                        0.980564        -1.24099                0               0        0.0188546        -159.946                0               0
76.125                   0.17009         86.4963                0               0         0.102493         86.2432                0               0
                       0.0183805        -168.635                0               0         0.979782        -3.32411                0               0
                        0.102492         86.2435                0               0         0.170114         86.4912                0               0
                        0.979786         -3.3248                0               0         0.018367        -168.629                0               0
76.17                   0.176491         84.4898                0               0        0.0994492         84.3383                0               0
                       0.0180932        -177.535                0               0         0.978995        -5.41806                0               0
                       0.0994489         84.3386                0               0         0.176515         84.4845                0               0
                        0.978999        -5.41874                0               0        0.0180768        -177.534                0               0
76.215                  0.182707         82.4676                0               0        0.0963955         82.4506                0               0
                       0.0180099         173.505                0               0         0.978204        -7.51814                0               0
                       0.0963954         82.4508                0               0         0.182732         82.4621                0               0
                        0.978208        -7.51883                0               0        0.0179908         173.501                0               0
76.26                   0.188715         80.4339                0               0        0.0933515         80.5854                0               0
                       0.0181264         164.656                0               0         0.977411         -9.6205                0               0
                       0.0933515         80.5856                0               0         0.188741         80.4282                0               0
                        0.977416        -9.62119                0               0        0.0181049         164.643                0               0
76.305                  0.194494         78.3927                0               0        0.0903359         78.7489                0               0
                       0.0184282         156.071                0               0         0.976615        -11.7214                0               0
                       0.0903359         78.7489                0               0          0.19452         78.3869                0               0
                        0.976619        -11.7222                0               0        0.0184047         156.049                0               0
76.35                   0.200022         76.3476                0               0        0.0873655         76.9474                0               0
                       0.0188926         147.872                0               0         0.975809        -13.8175                0               0
                       0.0873655         76.9474                0               0         0.200049         76.3416                0               0
                        0.975814        -13.8182                0               0        0.0188673          147.84                0               0
76.395                  0.205281          74.302                0               0        0.0844561         75.1882                0               0
                       0.0194914         140.135                0               0         0.974985        -15.9053                0               0
                        0.084456         75.1881                0               0         0.205308         74.2958                0               0
                         0.97499         -15.906                0               0        0.0194648         140.095                0               0
76.44                   0.210251         72.2587                0               0        0.0816215          73.479                0               0
                       0.0201947         132.898                0               0         0.974126        -17.9818                0               0
