! TOUCHSTONE file generated by CST MICROWAVE STUDIO
! Date and time: Mon Jun 21 17:07:13 2021
! Project name: HIPS_d_sweep.cst
! Parameters = {a=0.735; b=0.393; d=22.8342; fmax=120; fmin=75; phi=0; theta=0}
! Header version: 2018
! Port assignment regex: !\s*Touchstone port\s*([0-9]+)\s*=\s*(CST MWS port|CST DS port)\s*([0-9]+|Zmin|Zmax)\s*\(\"(.*)\"\)(\s*mode\s*([0-9]+))?.*
! Touchstone port assignment:
! Touchstone port 1 = CST MWS port Zmin ("") mode 1
! Touchstone port 2 = CST MWS port Zmin ("") mode 2
! Touchstone port 3 = CST MWS port Zmax ("") mode 1
! Touchstone port 4 = CST MWS port Zmax ("") mode 2
! S-Parameters are not renormalized. Unphysical impedance of 0 will be written to the file.
# GHz S MA R 0
75                      0.204056          77.669                0               0        0.0759026         78.8487                0               0
                       0.0180821         138.122                0               0         0.975853        -12.5517                0               0
                       0.0759021         78.8501                0               0         0.204012          77.638                0               0
                        0.975845        -12.5514                0               0        0.0182644         138.409                0               0
75.045                  0.205269         76.9974                0               0        0.0789986         78.2277                0               0
                       0.0188702         138.631                0               0         0.976454         -13.199                0               0
                       0.0789983         78.2293                0               0         0.205215         76.9686                0               0
                        0.976446        -13.1987                0               0        0.0190533         138.893                0               0
75.09                   0.206566         76.2492                0               0        0.0819745         77.4997                0               0
                       0.0196353         138.756                0               0         0.976493        -13.9356                0               0
                       0.0819743         77.5014                0               0         0.206506         76.2216                0               0
                        0.976485        -13.9352                0               0        0.0198187         138.998                0               0
75.135                  0.207963         75.4233                0               0        0.0847761         76.6725                0               0
                       0.0203771         138.488                0               0         0.976099         -14.762                0               0
                        0.084776         76.6742                0               0           0.2079          75.396                0               0
                        0.976091        -14.7616                0               0        0.0205604         138.714                0               0
75.18                   0.209472         74.5195                0               0        0.0873513         75.7548                0               0
                        0.021098         137.822                0               0         0.975392        -15.6777                0               0
                       0.0873513         75.7563                0               0         0.209408          74.492                0               0
                        0.975384        -15.6773                0               0        0.0212808         138.036                0               0
75.225                  0.211103         73.5381                0               0        0.0896524         74.7558                0               0
                        0.021803         136.759                0               0         0.974478        -16.6811                0               0
                       0.0896523         74.7572                0               0         0.211041         73.5099                0               0
                         0.97447        -16.6807                0               0        0.0219847         136.963                0               0
75.27                    0.21286         72.4799                0               0        0.0916386         73.6849                0               0
                       0.0224986         135.305                0               0         0.973451        -17.7698                0               0
                       0.0916385         73.6862                0               0         0.212801         72.4505                0               0
                        0.973443        -17.7694                0               0        0.0226789         135.504                0               0
75.315                  0.214745         71.3457                0               0        0.0932785         72.5512                0               0
                       0.0231928         133.477                0               0         0.972388        -18.9407                0               0
                       0.0932783         72.5523                0               0         0.214691         71.3151                0               0
                         0.97238        -18.9403                0               0         0.023371         133.672                0               0
75.36                   0.216755         70.1369                0               0        0.0945512         71.3629                0               0
                       0.0238932         131.297                0               0          0.97135        -20.1903                0               0
                       0.0945508         71.3639                0               0         0.216707          70.105                0               0
                        0.971342        -20.1898                0               0        0.0240688         131.491                0               0
75.405                  0.218882         68.8548                0               0        0.0954467         70.1275                0               0
                        0.024607         128.793                0               0         0.970385        -21.5147                0               0
                       0.0954462         70.1284                0               0         0.218838         68.8217                0               0
                        0.970377        -21.5142                0               0        0.0247795         128.987                0               0
75.45                   0.221112         67.5008                0               0        0.0959662         68.8513                0               0
                         0.02534         125.999                0               0         0.969526          -22.91                0               0
                       0.0959656         68.8521                0               0         0.221073         67.4666                0               0
                        0.969518        -22.9096                0               0        0.0255087         126.193                0               0
75.495                  0.223427         66.0765                0               0        0.0961209         67.5393                0               0
                       0.0260958          122.95                0               0         0.968793        -24.3722                0               0
                       0.0961201           67.54                0               0          0.22339         66.0414                0               0
                        0.968785        -24.3717                0               0        0.0262602         123.146                0               0
75.54                   0.225803         64.5835                0               0        0.0959303         66.1952                0               0
                        0.026876         119.685                0               0         0.968197        -25.8973                0               0
                       0.0959295          66.196                0               0         0.225768         64.5478                0               0
                        0.968189        -25.8968                0               0        0.0270355         119.882                0               0
75.585                  0.228213         63.0238                0               0        0.0954207          64.822                0               0
                       0.0276795         116.242                0               0         0.967737        -27.4813                0               0
                       0.0954199         64.8228                0               0         0.228177         62.9877                0               0
                        0.967729        -27.4808                0               0        0.0278336          116.44                0               0
75.63                   0.230623         61.3995                0               0        0.0946228         63.4214                0               0
                       0.0285033         112.658                0               0         0.967405        -29.1205                0               0
                        0.094622         63.4223                0               0         0.230585         61.3635                0               0
                        0.967397          -29.12                0               0        0.0286514         112.856                0               0
75.675                  0.232998         59.7135                0               0        0.0935698         61.9946                0               0
                       0.0293421         108.967                0               0         0.967189        -30.8113                0               0
                       0.0935691         61.9955                0               0         0.232956         59.6779                0               0
                         0.96718        -30.8107                0               0         0.029484         109.164                0               0
75.72                   0.235298          57.969                0               0        0.0922959         60.5419                0               0
                       0.0301894           105.2                0               0         0.967068        -32.5503                0               0
                       0.0922952          60.543                0               0         0.235252         57.9343                0               0
                        0.967059        -32.5497                0               0        0.0303248         105.395                0               0
75.765                  0.237485         56.1702                0               0        0.0908343         59.0637                0               0
                       0.0310377         101.385                0               0          0.96702        -34.3343                0               0
                       0.0908337         59.0649                0               0         0.237435         56.1366                0               0
                        0.967011        -34.3337                0               0        0.0311663         101.578                0               0
75.81                    0.23952         54.3218                0               0        0.0892164         57.5599                0               0
                       0.0318788         97.5452                0               0         0.967022        -36.1602                0               0
                        0.089216         57.5611                0               0         0.239465         54.2897                0               0
                        0.967013        -36.1597                0               0        0.0320006         97.7352                0               0
75.855                  0.241365         52.4294                0               0        0.0874709         56.0303                0               0
                       0.0327047          93.702                0               0          0.96705        -38.0253                0               0
                       0.0874705         56.0315                0               0         0.241307         52.3987                0               0
                         0.96704        -38.0248                0               0        0.0328196         93.8882                0               0
75.9                    0.242986          50.499                0               0        0.0856232         54.4749                0               0
                       0.0335078         89.8717                0               0         0.967081        -39.9269                0               0
                       0.0856229         54.4762                0               0         0.242927         50.4696                0               0
                        0.967071        -39.9263                0               0         0.033616         90.0534                0               0
75.945                  0.244357         48.5371                0               0        0.0836952         52.8939                0               0
                       0.0342813         86.0676                0               0         0.967095        -41.8624                0               0
                        0.083695         52.8951                0               0         0.244299         48.5087                0               0
                        0.967085        -41.8618                0               0        0.0343828         86.2443                0               0
75.99                   0.245455         46.5501                0               0        0.0817055         51.2874                0               0
                       0.0350193         82.3001                0               0         0.967078        -43.8294                0               0
                       0.0817054         51.2886                0               0         0.245399         46.5221                0               0
                        0.967068        -43.8288                0               0        0.0351144         82.4714                0               0
76.035                  0.246266          44.544                0               0        0.0796692         49.6562                0               0
                       0.0357172         78.5765                0               0         0.967023        -45.8254                0               0
                       0.0796692         49.6573                0               0         0.246214         44.5158                0               0
                        0.967013        -45.8248                0               0        0.0358059          78.742                0               0
76.08                   0.246781         42.5242                0               0        0.0775984         48.0012                0               0
                       0.0363711         74.9017                0               0          0.96693         -47.848                0               0
                       0.0775984         48.0021                0               0         0.246735          42.495                0               0
                        0.966921        -47.8473                0               0        0.0364538         75.0611                0               0
76.125                  0.246999          40.495                0               0        0.0755024         46.3236                0               0
                       0.0369785         71.2786                0               0         0.966811        -49.8943                0               0
                       0.0755024         46.3244                0               0         0.246958         40.4639                0               0
                        0.966802        -49.8937                0               0        0.0370554         71.4316                0               0
76.17                   0.246921         38.4594                0               0        0.0733884         44.6253                0               0
                       0.0375377         67.7082                0               0         0.966687        -51.9614                0               0
                       0.0733884         44.6259                0               0         0.246884         38.4256                0               0
                        0.966679        -51.9608                0               0        0.0376091         67.8546                0               0
76.215                  0.246551         36.4192                0               0        0.0712617         42.9085                0               0
                       0.0380477         64.1904                0               0         0.966592        -54.0455                0               0
                       0.0712617         42.9089                0               0         0.246518         36.3821                0               0
                        0.966584        -54.0449                0               0        0.0381138           64.33                0               0
76.26                   0.245894         34.3747                0               0        0.0691264         41.1761                0               0
                       0.0385079         60.7243                0               0         0.966565        -56.1421                0               0
                       0.0691263         41.1763                0               0         0.245863          34.334                0               0
                        0.966558        -56.1414                0               0         0.038569         60.8569                0               0
76.305                  0.244952         32.3256                0               0        0.0669857         39.4319                0               0
                        0.038918          57.309                0               0         0.966649        -58.2457                0               0
                       0.0669855         39.4319                0               0         0.244921         32.2811                0               0
                        0.966643         -58.245                0               0        0.0389742         57.4344                0               0
76.35                   0.243725         30.2709                0               0        0.0648427         37.6805                0               0
                       0.0392775         53.9441                0               0         0.966882          -60.35                0               0
                       0.0648425         37.6803                0               0         0.243694         30.2229                0               0
                        0.966877        -60.3493                0               0        0.0393291         54.0619                0               0
76.395                   0.24221         28.2099                0               0        0.0627012         35.9277                0               0
                       0.0395854         50.6303                0               0         0.967287        -62.4478                0               0
                       0.0627009         35.9273                0               0         0.242178         28.1588                0               0
                        0.967283         -62.447                0               0        0.0396326         50.7402                0               0
76.44                     0.2404         26.1424                0               0        0.0605658         34.1811                0               0
                       0.0398398         47.3698                0               0         0.967862         -64.532                0               0
