! TOUCHSTONE file generated by CST MICROWAVE STUDIO
! Date and time: Mon Jun 21 17:07:23 2021
! Project name: HIPS_d_sweep.cst
! Parameters = {a=0.735; b=0.393; d=23.7387; fmax=120; fmin=75; phi=0; theta=0}
! Header version: 2018
! Port assignment regex: !\s*Touchstone port\s*([0-9]+)\s*=\s*(CST MWS port|CST DS port)\s*([0-9]+|Zmin|Zmax)\s*\(\"(.*)\"\)(\s*mode\s*([0-9]+))?.*
! Touchstone port assignment:
! Touchstone port 1 = CST MWS port Zmin ("") mode 1
! Touchstone port 2 = CST MWS port Zmin ("") mode 2
! Touchstone port 3 = CST MWS port Zmax ("") mode 1
! Touchstone port 4 = CST MWS port Zmax ("") mode 2
! S-Parameters are not renormalized. Unphysical impedance of 0 will be written to the file.
# GHz S MA R 0
75                     0.0866776        -25.9941                0               0        0.0281601         -21.679                0               0
                       0.0276647        -21.6841                0               0         0.995459         -116.54                0               0
                       0.0281592        -21.6794                0               0        0.0866115        -26.0128                0               0
                        0.995454        -116.538                0               0        0.0276835        -21.2607                0               0
75.045                 0.0840752        -26.6333                0               0        0.0319509        -22.7661                0               0
                       0.0281473        -21.4731                0               0         0.995988        -117.383                0               0
                       0.0319495        -22.7663                0               0        0.0840164        -26.6529                0               0
                         0.99597        -117.381                0               0        0.0281672        -21.0525                0               0
75.09                  0.0810954        -27.3448                0               0        0.0354542        -23.9736                0               0
                       0.0286192        -21.7278                0               0         0.996158        -118.264                0               0
                       0.0354525        -23.9738                0               0        0.0810397         -27.366                0               0
                        0.996134        -118.261                0               0        0.0286409        -21.3117                0               0
75.135                 0.0777361        -28.1323                0               0        0.0386323        -25.2782                0               0
                       0.0290231        -22.3917                0               0         0.996097        -119.188                0               0
                       0.0386304        -25.2784                0               0        0.0776807        -28.1556                0               0
                        0.996072        -119.184                0               0        0.0290463         -21.981                0               0
75.18                  0.0739958        -28.9979                0               0        0.0414539        -26.6655                0               0
                       0.0293186        -23.3952                0               0         0.995954        -120.161                0               0
                        0.041452        -26.6658                0               0        0.0739384        -29.0242                0               0
                        0.995932        -120.157                0               0        0.0293426        -22.9899                0               0
75.225                 0.0698734        -29.9428                0               0        0.0438947        -28.1265                0               0
                       0.0294806        -24.6714                0               0         0.995877        -121.193                0               0
                        0.043893        -28.1269                0               0        0.0698126        -29.9728                0               0
                        0.995862         -121.19                0               0        0.0295047        -24.2706                0               0
75.27                  0.0653684        -30.9664                0               0        0.0459379        -29.6548                0               0
                        0.029496        -26.1641                0               0         0.995986        -122.296                0               0
                       0.0459362        -29.6554                0               0        0.0653036        -31.0011                0               0
                        0.995978        -122.293                0               0        0.0295194        -25.7662                0               0
75.315                 0.0604814        -32.0663                0               0        0.0475735        -31.2461                0               0
                       0.0293597        -27.8296                0               0         0.996329        -123.483                0               0
                        0.047572        -31.2468                0               0        0.0604125        -32.1068                0               0
                        0.996325        -123.481                0               0         0.029382        -27.4324                0               0
75.36                  0.0552141        -33.2375                0               0        0.0487988        -32.8971                0               0
                        0.029072        -29.6362                0               0          0.99686        -124.766                0               0
                       0.0487975        -32.8977                0               0        0.0551415        -33.2854                0               0
                        0.996857        -124.764                0               0        0.0290928        -29.2375                0               0
75.405                   0.04957        -34.4712                0               0        0.0496171        -34.6051                0               0
                       0.0286357        -31.5628                0               0         0.997456        -126.152                0               0
                       0.0496159        -34.6058                0               0        0.0494946        -34.5284                0               0
                        0.997452        -126.151                0               0        0.0286547        -31.1602                0               0
75.45                  0.0435547         -35.752                0               0        0.0500373        -36.3682                0               0
                        0.028055        -33.5964                0               0         0.997969        -127.642                0               0
                       0.0500361        -36.3689                0               0        0.0434776        -35.8216                0               0
                        0.997964        -127.641                0               0        0.0280723        -33.1875                0               0
75.495                 0.0371763        -37.0526                0               0        0.0500727        -38.1849                0               0
                       0.0273351        -35.7306                0               0         0.998284        -129.229                0               0
                       0.0500717        -38.1857                0               0        0.0370986        -37.1396                0               0
                        0.998278        -129.227                0               0        0.0273505         -35.313                0               0
75.54                  0.0304459        -38.3198                0               0        0.0497406         -40.054                0               0
                       0.0264807        -37.9641                0               0         0.998353        -130.903                0               0
                       0.0497396        -40.0548                0               0        0.0303688        -38.4327                0               0
                        0.998349        -130.901                0               0        0.0264942        -37.5351                0               0
75.585                 0.0233785        -39.4331                0               0        0.0490608        -41.9748                0               0
                       0.0254967        -40.2996                0               0         0.998197        -132.654                0               0
                       0.0490597        -41.9756                0               0        0.0233029        -39.5889                0               0
                        0.998197        -132.652                0               0        0.0255085        -39.8566                0               0
75.63                  0.0159942         -40.042                0               0         0.048055        -43.9468                0               0
                       0.0243882        -42.7435                0               0         0.997882        -134.473                0               0
                        0.048054        -43.9476                0               0        0.0159203        -40.2814                0               0
                        0.997886        -134.471                0               0        0.0243979        -42.2833                0               0
75.675                0.00832873        -38.4742                0               0        0.0467462        -45.9699                0               0
                       0.0231598        -45.3054                0               0         0.997492        -136.351                0               0
                       0.0467451        -45.9708                0               0        0.0082542        -38.9411                0               0
                          0.9975         -136.35                0               0        0.0231674        -44.8244                0               0
75.72                 0.00107233          26.781                0               0        0.0451579        -48.0444                0               0
                       0.0218167        -47.9982                0               0         0.997107        -138.283                0               0
                       0.0451568        -48.0454                0               0      0.000978113         28.9856                0               0
                        0.997118        -138.281                0               0         0.021822        -47.4922                0               0
75.765                0.00800188         123.095                0               0        0.0433135        -50.1711                0               0
                       0.0203645        -50.8395                0               0         0.996792        -140.263                0               0
                       0.0433125        -50.1723                0               0       0.00804905         123.761                0               0
                        0.996804        -140.261                0               0        0.0203671        -50.3031                0               0
75.81                  0.0164146         124.867                0               0        0.0412364        -52.3513                0               0
                       0.0188094         -53.853                0               0         0.996593        -142.287                0               0
                       0.0412354        -52.3526                0               0        0.0164645           125.2                0               0
                        0.996606        -142.285                0               0        0.0188089        -53.2792                0               0
75.855                 0.0250409         124.027                0               0        0.0389492        -54.5869                0               0
                       0.0171584        -57.0717                0               0         0.996537        -144.351                0               0
                       0.0389483        -54.5885                0               0        0.0250911         124.255                0               0
                         0.99655        -144.349                0               0        0.0171543        -56.4513                0               0
75.9                   0.0338307         122.516                0               0        0.0364739        -56.8808                0               0
                       0.0154199         -60.544                0               0         0.996633        -146.451                0               0
                       0.0364732        -56.8826                0               0        0.0338822         122.694                0               0
                        0.996645        -146.449                0               0        0.0154115        -59.8646                0               0
75.945                 0.0427473         120.722                0               0        0.0338319        -59.2367                0               0
                       0.0136035        -64.3455                0               0         0.996873        -148.583                0               0
                       0.0338313        -59.2388                0               0        0.0428018         120.869                0               0
                        0.996883        -148.581                0               0          0.01359        -63.5892                0               0
75.99                  0.0517565         118.776                0               0        0.0310438          -61.66                0               0
                       0.0117211        -68.6022                0               0         0.997239        -150.745                0               0
                       0.0310435        -61.6626                0               0        0.0518162         118.901                0               0
                        0.997247        -150.743                0               0        0.0117013        -67.7426                0               0
76.035                 0.0608252         116.736                0               0        0.0281301        -64.1586                0               0
                      0.00978748        -73.5432                0               0           0.9977        -152.932                0               0
                         0.02813        -64.1618                0               0        0.0608922         116.846                0               0
                        0.997706         -152.93                0               0       0.00975964        -72.5391                0               0
76.08                  0.0699218         114.636                0               0        0.0251105        -66.7436                0               0
                      0.00782284        -79.6305                0               0         0.998219         -155.14                0               0
                       0.0251108        -66.7474                0               0        0.0699982         114.734                0               0
                        0.998223        -155.138                0               0       0.00778412         -78.414                0               0
76.125                  0.079016         112.495                0               0        0.0220051        -69.4322                0               0
                      0.00586007        -87.9409                0               0         0.998753        -157.367                0               0
                       0.0220057        -69.4368                0               0        0.0791035         112.582                0               0
                        0.998755        -157.365                0               0       0.00580511        -86.3949                0               0
76.17                  0.0880788         110.326                0               0        0.0188338         -72.252                0               0
                      0.00397262        -101.529                0               0         0.999254        -159.608                0               0
                       0.0188348        -72.2575                0               0        0.0881783         110.405                0               0
                        0.999255        -159.607                0               0       0.00388967        -99.4806                0               0
76.215                 0.0970819         108.138                0               0         0.015617        -75.2514                0               0
                      0.00242015        -130.857                0               0         0.999674        -161.861                0               0
                       0.0156183        -75.2582                0               0        0.0971936          108.21                0               0
                        0.999673        -161.859                0               0       0.00228497        -128.785                0               0
76.26                   0.105997         105.937                0               0        0.0123756        -78.5257                0               0
                      0.00215987         172.045                0               0          0.99996         -164.12                0               0
                       0.0123772        -78.5342                0               0          0.10612         106.004                0               0
                         0.99996        -164.118                0               0       0.00201804         170.249                0               0
76.305                  0.114796         103.728                0               0       0.00913146        -82.2977                0               0
                      0.00347254         134.852                0               0                1        -166.383                0               0
                      0.00913336        -82.3089                0               0         0.114929         103.791                0               0
                               1        -166.381                0               0       0.00339644         132.644                0               0
76.35                   0.123447         101.514                0               0       0.00590921        -87.2562                0               0
                      0.00525828         118.472                0               0         0.999934        -168.646                0               0
                      0.00591141        -87.2719                0               0         0.123587         101.574                0               0
                        0.999934        -168.644                0               0        0.0052174         116.904                0               0
76.395                  0.131919         99.2973                0               0       0.00275026        -97.1768                0               0
                      0.00712921         108.924                0               0         0.999525        -170.904                0               0
                       0.0027528        -97.2021                0               0         0.132061          99.355                0               0
                        0.999526        -170.903                0               0        0.0071073         107.767                0               0
76.44                   0.140173         97.0778                0               0      0.000772627         146.232                0               0
                      0.00898761         102.019                0               0         0.998791        -173.155                0               0
