! TOUCHSTONE file generated by CST MICROWAVE STUDIO
! Date and time: Mon Jun 21 17:06:50 2021
! Project name: HIPS_d_sweep.cst
! Parameters = {a=0.735; b=0.393; d=19.9698; fmax=120; fmin=75; phi=0; theta=0}
! Header version: 2018
! Port assignment regex: !\s*Touchstone port\s*([0-9]+)\s*=\s*(CST MWS port|CST DS port)\s*([0-9]+|Zmin|Zmax)\s*\(\"(.*)\"\)(\s*mode\s*([0-9]+))?.*
! Touchstone port assignment:
! Touchstone port 1 = CST MWS port Zmin ("") mode 1
! Touchstone port 2 = CST MWS port Zmin ("") mode 2
! Touchstone port 3 = CST MWS port Zmax ("") mode 1
! Touchstone port 4 = CST MWS port Zmax ("") mode 2
! S-Parameters are not renormalized. Unphysical impedance of 0 will be written to the file.
# GHz S MA R 0
75                      0.227263         53.2026                0               0         0.250192         53.0083                0               0
                       0.0632697         125.465                0               0         0.939017        -38.0596                0               0
                        0.250192         53.0082                0               0         0.227326         53.2265                0               0
                        0.939017        -38.0596                0               0        0.0630482         125.429                0               0
75.045                  0.227007         52.7072                0               0         0.253233         52.3855                0               0
                       0.0641854         124.581                0               0         0.939145        -38.6401                0               0
                        0.253233         52.3853                0               0         0.227071         52.7304                0               0
                        0.939146        -38.6401                0               0        0.0639643         124.545                0               0
75.09                   0.226776         52.1266                0               0         0.256005         51.7204                0               0
                       0.0650379         123.555                0               0         0.938892        -39.2952                0               0
                        0.256005         51.7202                0               0         0.226841         52.1492                0               0
                        0.938893        -39.2952                0               0        0.0648177         123.519                0               0
75.135                  0.226585         51.4655                0               0         0.258496         51.0083                0               0
                       0.0658351         122.379                0               0         0.938355        -40.0261                0               0
                        0.258495          51.008                0               0         0.226651         51.4873                0               0
                        0.938356        -40.0261                0               0        0.0656163         122.342                0               0
75.18                   0.226442         50.7285                0               0         0.260697         50.2448                0               0
                        0.066586         121.047                0               0         0.937625        -40.8328                0               0
                        0.260696         50.2446                0               0         0.226508         50.7495                0               0
                        0.937626        -40.8327                0               0        0.0663691         121.008                0               0
75.225                  0.226349         49.9201                0               0         0.262604         49.4264                0               0
                       0.0673008         119.557                0               0         0.936786        -41.7146                0               0
                        0.262603         49.4261                0               0         0.226415         49.9402                0               0
                        0.936786        -41.7146                0               0        0.0670861         119.516                0               0
75.27                   0.226304         49.0443                0               0         0.264217         48.5498                0               0
                       0.0679895         117.907                0               0         0.935911        -42.6702                0               0
                        0.264216         48.5496                0               0         0.226369         49.0635                0               0
                        0.935911        -42.6702                0               0        0.0677774         117.864                0               0
75.315                  0.226301         48.1049                0               0         0.265541         47.6129                0               0
                       0.0686618           116.1                0               0         0.935063        -43.6974                0               0
                         0.26554         47.6127                0               0         0.226365         48.1231                0               0
                        0.935063        -43.6974                0               0        0.0684524         116.054                0               0
75.36                   0.226329         47.1052                0               0         0.266583         46.6142                0               0
                       0.0693262         114.138                0               0         0.934293        -44.7939                0               0
                        0.266582          46.614                0               0         0.226393         47.1222                0               0
                        0.934293        -44.7939                0               0        0.0691197          114.09                0               0
75.405                  0.226376         46.0479                0               0         0.267354          45.553                0               0
                       0.0699896          112.03                0               0         0.933641        -45.9568                0               0
                        0.267354         45.5529                0               0          0.22644         46.0638                0               0
                        0.933641        -45.9568                0               0        0.0697862         111.978                0               0
75.45                   0.226428         44.9355                0               0         0.267868         44.4296                0               0
                       0.0706572         109.781                0               0         0.933134        -47.1831                0               0
                        0.267867         44.4295                0               0         0.226492         44.9502                0               0
                        0.933134        -47.1831                0               0         0.070457         109.727                0               0
75.495                  0.226469         43.7703                0               0         0.268138         43.2449                0               0
                       0.0713323         107.402                0               0          0.93279        -48.4696                0               0
                        0.268138         43.2449                0               0         0.226533         43.7836                0               0
                         0.93279        -48.4696                0               0        0.0711353         107.344                0               0
75.54                   0.226482          42.554                0               0         0.268182         42.0008                0               0
                        0.072016         104.902                0               0         0.932617        -49.8131                0               0
                        0.268182         42.0008                0               0         0.226544         42.5659                0               0
                        0.932617        -49.8132                0               0        0.0718223         104.841                0               0
75.585                  0.226446         41.2885                0               0         0.268016         40.6996                0               0
                       0.0727074         102.292                0               0         0.932615        -51.2105                0               0
                        0.268016         40.6996                0               0         0.226508         41.2989                0               0
                        0.932615        -51.2105                0               0        0.0725171         102.227                0               0
75.63                   0.226344         39.9754                0               0         0.267657         39.3442                0               0
                       0.0734042         99.5821                0               0         0.932774        -52.6586                0               0
                        0.267657         39.3441                0               0         0.226406         39.9843                0               0
                        0.932774        -52.6586                0               0        0.0732174         99.5139                0               0
75.675                  0.226155         38.6164                0               0         0.267122         37.9378                0               0
                       0.0741022         96.7843                0               0         0.933081        -54.1544                0               0
                        0.267122         37.9378                0               0         0.226216         38.6238                0               0
                        0.933081        -54.1544                0               0        0.0739189         96.7126                0               0
75.72                    0.22586         37.2134                0               0         0.266428         36.4842                0               0
                       0.0747962         93.9094                0               0         0.933515        -55.6949                0               0
                        0.266428         36.4841                0               0          0.22592         37.2191                0               0
                        0.933515        -55.6949                0               0        0.0746168         93.8342                0               0
75.765                  0.225438         35.7683                0               0         0.265591          34.987                0               0
                       0.0754803         90.9681                0               0         0.934053        -57.2773                0               0
                        0.265591         34.9869                0               0         0.225497         35.7722                0               0
                        0.934054        -57.2773                0               0        0.0753048         90.8896                0               0
75.81                    0.22487         34.2831                0               0         0.264627         33.4501                0               0
                       0.0761481         87.9709                0               0          0.93467         -58.899                0               0
                        0.264626           33.45                0               0         0.224928         34.2853                0               0
                        0.934671         -58.899                0               0        0.0759768         87.8891                0               0
75.855                  0.224139         32.7604                0               0          0.26355         31.8771                0               0
                       0.0767932         84.9278                0               0         0.935339        -60.5572                0               0
                        0.263549          31.877                0               0         0.224196         32.7607                0               0
                        0.935339        -60.5571                0               0        0.0766264         84.8428                0               0
75.9                    0.223228         31.2029                0               0         0.262375         30.2717                0               0
                       0.0774095         81.8479                0               0         0.936034        -62.2493                0               0
                        0.262374         30.2716                0               0         0.223284         31.2013                0               0
                        0.936034        -62.2493                0               0        0.0772476         81.7599                0               0
75.945                  0.222122         29.6135                0               0         0.261114         28.6372                0               0
                        0.077992         78.7398                0               0         0.936732        -63.9728                0               0
                        0.261114          28.637                0               0         0.222178         29.6099                0               0
                        0.936732        -63.9728                0               0        0.0778352          78.649                0               0
75.99                    0.22081         27.9957                0               0         0.259782         26.9763                0               0
                       0.0785363         75.6113                0               0         0.937415        -65.7251                0               0
                        0.259782         26.9762                0               0         0.220864           27.99                0               0
                        0.937415         -65.725                0               0        0.0783849         75.5179                0               0
76.035                  0.219282         26.3528                0               0         0.258389         25.2916                0               0
                       0.0790396         72.4691                0               0         0.938073        -67.5032                0               0
                        0.258389         25.2915                0               0         0.219335         26.3451                0               0
                        0.938073        -67.5031                0               0        0.0788941         72.3733                0               0
76.08                   0.217533         24.6888                0               0         0.256947         23.5851                0               0
                       0.0795006         69.3191                0               0         0.938705        -69.3041                0               0
                        0.256946          23.585                0               0         0.217584         24.6788                0               0
                        0.938706         -69.304                0               0        0.0793611          69.221                0               0
76.125                  0.215559         23.0075                0               0         0.255466         21.8581                0               0
                       0.0799194          66.166                0               0         0.939326        -71.1242                0               0
                        0.255465          21.858                0               0         0.215609         22.9953                0               0
                        0.939327        -71.1242                0               0        0.0797862         66.0659                0               0
76.17                   0.213363         21.3128                0               0         0.253957         20.1115                0               0
                       0.0802978         63.0135                0               0         0.939965        -72.9594                0               0
                        0.253956         20.1114                0               0         0.213412         21.2982                0               0
                        0.939966        -72.9594                0               0         0.080171         62.9116                0               0
76.215                  0.210949         19.6085                0               0         0.252429         18.3456                0               0
                       0.0806391         59.8646                0               0         0.940671        -74.8047                0               0
                        0.252429         18.3456                0               0         0.210996         19.5916                0               0
                        0.940672        -74.8047                0               0        0.0805188         59.7611                0               0
76.26                   0.208324         17.8983                0               0         0.250894         16.5604                0               0
                       0.0809475         56.7215                0               0         0.941508        -76.6543                0               0
                        0.250894         16.5603                0               0         0.208371         17.8789                0               0
                        0.941509        -76.6543                0               0        0.0808337         56.6165                0               0
76.305                    0.2055         16.1855                0               0         0.249362         14.7555                0               0
                       0.0812283         53.5862                0               0         0.942555        -78.5016                0               0
                        0.249361         14.7554                0               0         0.205545         16.1634                0               0
                        0.942556        -78.5016                0               0        0.0811208         53.4799                0               0
76.35                   0.202485         14.4729                0               0         0.247843         12.9307                0               0
                       0.0814861         50.4609                0               0         0.943893        -80.3398                0               0
                        0.247843         12.9307                0               0         0.202529         14.4481                0               0
                        0.943893        -80.3398                0               0        0.0813846         50.3535                0               0
76.395                  0.199291         12.7632                0               0         0.246352         11.0867                0               0
                       0.0817246         47.3489                0               0         0.945587        -82.1633                0               0
                        0.246352         11.0866                0               0         0.199333         12.7355                0               0
                        0.945588        -82.1633                0               0        0.0816287         47.2403                0               0
76.44                   0.195925         11.0585                0               0         0.244901           9.225                0               0
                       0.0819442         44.2545                0               0         0.947662        -83.9691                0               0
