! TOUCHSTONE file generated by CST MICROWAVE STUDIO
! Date and time: Mon Jun 21 17:06:57 2021
! Project name: HIPS_d_sweep.cst
! Parameters = {a=0.735; b=0.393; d=20.8744; fmax=120; fmin=75; phi=0; theta=0}
! Header version: 2018
! Port assignment regex: !\s*Touchstone port\s*([0-9]+)\s*=\s*(CST MWS port|CST DS port)\s*([0-9]+|Zmin|Zmax)\s*\(\"(.*)\"\)(\s*mode\s*([0-9]+))?.*
! Touchstone port assignment:
! Touchstone port 1 = CST MWS port Zmin ("") mode 1
! Touchstone port 2 = CST MWS port Zmin ("") mode 2
! Touchstone port 3 = CST MWS port Zmax ("") mode 1
! Touchstone port 4 = CST MWS port Zmax ("") mode 2
! S-Parameters are not renormalized. Unphysical impedance of 0 will be written to the file.
# GHz S MA R 0
75                      0.024302         94.0446                0               0         0.216122        -53.5273                0               0
                       0.0598511        -57.4803                0               0         0.974228        -143.176                0               0
                        0.216121        -53.5277                0               0         0.024369         93.5063                0               0
                        0.974228        -143.178                0               0        0.0598084         -57.583                0               0
75.045                 0.0262915         95.2572                0               0         0.219501        -54.2095                0               0
                       0.0602594          -58.69                0               0         0.974211        -143.816                0               0
                          0.2195        -54.2098                0               0         0.026352         94.7514                0               0
                        0.974214        -143.818                0               0        0.0602156        -58.7927                0               0
75.09                  0.0285422         96.5792                0               0         0.222513        -54.9649                0               0
                       0.0605253        -60.0192                0               0         0.973866        -144.531                0               0
                        0.222511        -54.9653                0               0        0.0285946         96.1068                0               0
                        0.973869        -144.533                0               0        0.0604811        -60.1222                0               0
75.135                 0.0310708         97.9192                0               0         0.225149        -55.7979                0               0
                       0.0606504        -61.4822                0               0         0.973273        -145.324                0               0
                        0.225147        -55.7982                0               0        0.0311143         97.4803                0               0
                        0.973276        -145.326                0               0        0.0606065        -61.5856                0               0
75.18                  0.0338918         99.2022                0               0         0.227406        -56.7111                0               0
                       0.0606383        -63.0916                0               0         0.972509        -146.194                0               0
                        0.227404        -56.7114                0               0        0.0339259         98.7964                0               0
                        0.972512        -146.196                0               0        0.0605953        -63.1957                0               0
75.225                 0.0370163          100.37                0               0         0.229284        -57.7062                0               0
                       0.0604941         -64.858                0               0         0.971649        -147.143                0               0
                        0.229283        -57.7065                0               0        0.0370411         99.9962                0               0
                         0.97165        -147.145                0               0        0.0604525         -64.963                0               0
75.27                  0.0404515          101.38                0               0         0.230788        -58.7835                0               0
                       0.0602237        -66.7903                0               0         0.970756         -148.17                0               0
                        0.230786        -58.7839                0               0        0.0404673         101.037                0               0
                        0.970756        -148.172                0               0         0.060184        -66.8962                0               0
75.315                 0.0442006         102.204                0               0         0.231922        -59.9422                0               0
                        0.059834        -68.8955                0               0         0.969887        -149.273                0               0
                        0.231921        -59.9425                0               0        0.0442078         101.889                0               0
                        0.969887        -149.276                0               0        0.0597965        -69.0024                0               0
75.36                  0.0482622         102.824                0               0         0.232696        -61.1804                0               0
                       0.0593318        -71.1788                0               0          0.96909        -150.451                0               0
                        0.232694        -61.1807                0               0        0.0482616         102.536                0               0
                        0.969088        -150.454                0               0        0.0592968         -71.287                0               0
75.405                 0.0526308         103.234                0               0         0.233119        -62.4952                0               0
                       0.0587244        -73.6441                0               0         0.968399        -151.703                0               0
                        0.233117        -62.4956                0               0        0.0526231         102.969                0               0
                        0.968397        -151.706                0               0         0.058692        -73.7538                0               0
75.45                  0.0572968         103.433                0               0         0.233202        -63.8831                0               0
                       0.0580187        -76.2941                0               0         0.967842        -153.024                0               0
                          0.2332        -63.8834                0               0        0.0572828          103.19                0               0
                        0.967838        -153.028                0               0        0.0579891        -76.4054                0               0
75.495                 0.0622467         103.427                0               0         0.232958        -65.3397                0               0
                        0.057222        -79.1301                0               0         0.967431        -154.414                0               0
                        0.232957          -65.34                0               0         0.062227         103.203                0               0
                        0.967427        -154.417                0               0        0.0571954        -79.2433                0               0
75.54                  0.0674634         103.223                0               0         0.232402        -66.8602                0               0
                       0.0563416        -82.1527                0               0         0.967174        -155.868                0               0
                          0.2324        -66.8606                0               0        0.0674387         103.016                0               0
                        0.967169        -155.872                0               0         0.056318         -82.268                0               0
75.585                 0.0729266         102.834                0               0         0.231546        -68.4396                0               0
                       0.0553849        -85.3616                0               0         0.967063        -157.385                0               0
                        0.231544          -68.44                0               0        0.0728975         102.642                0               0
                        0.967058        -157.388                0               0        0.0553645        -85.4793                0               0
75.63                  0.0786134         102.273                0               0         0.230407        -70.0724                0               0
                       0.0543597        -88.7562                0               0         0.967087         -158.96                0               0
                        0.230405        -70.0728                0               0        0.0785804         102.095                0               0
                        0.967081        -158.963                0               0        0.0543426        -88.8766                0               0
75.675                 0.0844987         101.554                0               0            0.229        -71.7533                0               0
                       0.0532743        -92.3354                0               0         0.967223         -160.59                0               0
                        0.228998        -71.7536                0               0        0.0844622         101.387                0               0
                        0.967217        -160.593                0               0        0.0532606        -92.4585                0               0
75.72                  0.0905559         100.691                0               0         0.227342        -73.4768                0               0
                       0.0521376        -96.0976                0               0         0.967444        -162.271                0               0
                         0.22734        -73.4771                0               0        0.0905162         100.535                0               0
                        0.967438        -162.274                0               0        0.0521275        -96.2238                0               0
75.765                 0.0967572         99.6992                0               0         0.225449        -75.2377                0               0
                       0.0509592        -100.041                0               0         0.967716        -164.001                0               0
                        0.225447         -75.238                0               0        0.0967146         99.5529                0               0
                        0.967711        -164.004                0               0         0.050953        -100.171                0               0
75.81                   0.103075         98.5922                0               0         0.223339        -77.0312                0               0
                       0.0497496        -104.166                0               0         0.968003        -165.774                0               0
                        0.223337        -77.0315                0               0          0.10303         98.4544                0               0
                        0.967999        -165.777                0               0        0.0497475        -104.298                0               0
75.855                  0.109481         97.3836                0               0          0.22103        -78.8527                0               0
                       0.0485202        -108.468                0               0         0.968267        -167.588                0               0
                        0.221028        -78.8529                0               0         0.109433         97.2535                0               0
                        0.968264         -167.59                0               0        0.0485226        -108.604                0               0
75.9                    0.115948         96.0859                0               0         0.218541        -80.6979                0               0
                       0.0472832        -112.949                0               0          0.96847        -169.438                0               0
                        0.218539        -80.6982                0               0         0.115898         95.9628                0               0
                        0.968469         -169.44                0               0        0.0472903        -113.087                0               0
75.945                   0.12245         94.7107                0               0         0.215891        -82.5633                0               0
                       0.0460518        -117.605                0               0         0.968578        -171.318                0               0
                        0.215889        -82.5635                0               0         0.122399         94.5941                0               0
                        0.968579         -171.32                0               0        0.0460641        -117.746                0               0
75.99                   0.128963         93.2688                0               0           0.2131        -84.4456                0               0
                         0.04484        -122.436                0               0         0.968565        -173.226                0               0
                        0.213098        -84.4458                0               0          0.12891         93.1581                0               0
                        0.968568        -173.228                0               0        0.0448578         -122.58                0               0
76.035                  0.135463         91.7695                0               0         0.210189        -86.3419                0               0
                       0.0436627         -127.44                0               0         0.968412        -175.155                0               0
                        0.210187        -86.3421                0               0         0.135409         91.6642                0               0
                        0.968418        -175.157                0               0        0.0436863        -127.584                0               0
76.08                   0.141926         90.2212                0               0          0.20718        -88.2497                0               0
                       0.0425353        -132.612                0               0         0.968115        -177.101                0               0
                        0.207178        -88.2499                0               0         0.141871         90.1209                0               0
                        0.968122        -177.103                0               0         0.042565        -132.757                0               0
76.125                  0.148331         88.6311                0               0         0.204096        -90.1666                0               0
                       0.0414738        -137.948                0               0         0.967685        -179.059                0               0
                        0.204093        -90.1669                0               0         0.148275         88.5354                0               0
                        0.967693         -179.06                0               0        0.0415097        -138.091                0               0
76.17                   0.154657         87.0053                0               0          0.20096        -92.0902                0               0
                       0.0404942        -143.437                0               0          0.96715         178.976                0               0
                        0.200958        -92.0905                0               0         0.154601          86.914                0               0
                        0.967157         178.975                0               0        0.0405363        -143.579                0               0
76.215                  0.160882         85.3492                0               0         0.197797        -94.0176                0               0
                       0.0396121        -149.066                0               0         0.966554         177.009                0               0
                        0.197795        -94.0179                0               0         0.160825         85.2617                0               0
                        0.966558         177.007                0               0        0.0396603        -149.204                0               0
76.26                   0.166983         83.6668                0               0         0.194632        -95.9453                0               0
                       0.0388418        -154.815                0               0         0.965949         175.041                0               0
                         0.19463        -95.9456                0               0         0.166926          83.583                0               0
                        0.965948         175.039                0               0        0.0388959        -154.948                0               0
76.305                  0.172937         81.9619                0               0         0.191488        -97.8686                0               0
                       0.0381954        -160.656                0               0         0.965391         173.077                0               0
                        0.191486        -97.8689                0               0         0.172881         81.8814                0               0
                        0.965384         173.074                0               0        0.0382548        -160.782                0               0
76.35                   0.178721         80.2371                0               0         0.188386        -99.7817                0               0
                       0.0376809        -166.555                0               0         0.964926         171.117                0               0
                        0.188385        -99.7821                0               0         0.178664         80.1597                0               0
                        0.964912         171.114                0               0        0.0377453        -166.673                0               0
76.395                  0.184307         78.4948                0               0         0.185346        -101.677                0               0
                       0.0373017        -172.471                0               0         0.964574         169.162                0               0
                        0.185344        -101.678                0               0         0.184251         78.4203                0               0
                        0.964553         169.159                0               0        0.0373703         -172.58                0               0
76.44                    0.18967         76.7371                0               0         0.182379        -103.547                0               0
                       0.0370543        -178.358                0               0         0.964324         167.213                0               0
