! TOUCHSTONE file generated by CST MICROWAVE STUDIO
! Date and time: Mon Jun 21 17:07:07 2021
! Project name: HIPS_d_sweep.cst
! Parameters = {a=0.735; b=0.393; d=21.9799; fmax=120; fmin=75; phi=0; theta=0}
! Header version: 2018
! Port assignment regex: !\s*Touchstone port\s*([0-9]+)\s*=\s*(CST MWS port|CST DS port)\s*([0-9]+|Zmin|Zmax)\s*\(\"(.*)\"\)(\s*mode\s*([0-9]+))?.*
! Touchstone port assignment:
! Touchstone port 1 = CST MWS port Zmin ("") mode 1
! Touchstone port 2 = CST MWS port Zmin ("") mode 2
! Touchstone port 3 = CST MWS port Zmax ("") mode 1
! Touchstone port 4 = CST MWS port Zmax ("") mode 2
! S-Parameters are not renormalized. Unphysical impedance of 0 will be written to the file.
# GHz S MA R 0
75                      0.176968         1.32384                0               0         0.140223        -177.139                0               0
                       0.0598747         23.9112                0               0         0.972342         88.7601                0               0
                        0.140223        -177.139                0               0         0.176923         1.42249                0               0
                        0.972336         88.7627                0               0        0.0598877         24.0389                0               0
75.045                  0.175044        0.668864                0               0         0.143209         -178.09                0               0
                       0.0606129         22.9985                0               0          0.97393         88.0778                0               0
                        0.143209         -178.09                0               0         0.174998         0.76905                0               0
                        0.973925         88.0804                0               0        0.0606243         23.1259                0               0
75.09                   0.172859      -0.0293413                0               0         0.146106        -179.064                0               0
                       0.0612846         22.0291                0               0         0.975004         87.3274                0               0
                        0.146106        -179.063                0               0         0.172813        0.072556                0               0
                        0.975001         87.3299                0               0        0.0612943          22.156                0               0
75.135                   0.17041       -0.775052                0               0         0.148882         179.935                0               0
                       0.0618814         20.9918                0               0          0.97564         86.5048                0               0
                        0.148881         179.936                0               0         0.170364       -0.671246                0               0
                        0.975637         86.5072                0               0        0.0618894         21.1179                0               0
75.18                   0.167695         -1.5722                0               0         0.151504         178.901                0               0
                       0.0623961         19.8748                0               0         0.975917         85.6069                0               0
                        0.151503         178.902                0               0         0.167649        -1.46627                0               0
                        0.975915         85.6094                0               0        0.0624024         20.0001                0               0
75.225                  0.164711        -2.42433                0               0         0.153938         177.829                0               0
                       0.0628232         18.6664                0               0         0.975919         84.6318                0               0
                        0.153937          177.83                0               0         0.164665        -2.31602                0               0
                        0.975917         84.6343                0               0        0.0628276         18.7907                0               0
75.27                   0.161457        -3.33453                0               0         0.156152         176.712                0               0
                       0.0631584         17.3551                0               0         0.975728         83.5781                0               0
                        0.156152         176.712                0               0         0.161411        -3.22357                0               0
                        0.975726         83.5806                0               0         0.063161         17.4783                0               0
75.315                   0.15793        -4.30544                0               0         0.158115         175.543                0               0
                       0.0633993           15.93                0               0         0.975424         82.4455                0               0
                        0.158115         175.543                0               0         0.157885         -4.1915                0               0
                        0.975422         82.4481                0               0        0.0634002         16.0522                0               0
75.36                   0.154131        -5.33916                0               0           0.1598         174.315                0               0
                       0.0635448         14.3818                0               0         0.975083         81.2345                0               0
                        0.159799         174.315                0               0         0.154086         -5.2219                0               0
                        0.975079         81.2372                0               0         0.063544         14.5028                0               0
75.405                  0.150056        -6.43727                0               0         0.161182         173.021                0               0
                       0.0635949         12.7024                0               0         0.974768         79.9464                0               0
                        0.161182         173.021                0               0         0.150011         -6.3163                0               0
                        0.974764         79.9491                0               0        0.0635923         12.8224                0               0
75.45                   0.145703        -7.60078                0               0         0.162246         171.655                0               0
                       0.0635502         10.8858                0               0         0.974538         78.5831                0               0
                        0.162246         171.655                0               0         0.145659        -7.47564                0               0
                        0.974533         78.5859                0               0        0.0635458         11.0048                0               0
75.495                   0.14107        -8.83009                0               0         0.162979          170.21                0               0
                       0.0634116         8.92795                0               0         0.974438         77.1472                0               0
                         0.16298          170.21                0               0         0.141027        -8.70027                0               0
                        0.974432           77.15                0               0        0.0634054         9.04601                0               0
75.54                   0.136156        -10.1249                0               0         0.163377         168.683                0               0
                       0.0631799         6.82688                0               0         0.974502         75.6415                0               0
                        0.163378         168.683                0               0         0.136113         -9.9898                0               0
                        0.974496         75.6444                0               0        0.0631719         6.94417                0               0
75.585                  0.130957        -11.4842                0               0         0.163439          167.07                0               0
                       0.0628556         4.58275                0               0         0.974755         74.0694                0               0
                         0.16344          167.07                0               0         0.130915        -11.3431                0               0
                        0.974748         74.0723                0               0        0.0628456         4.69939                0               0
75.63                   0.125471         -12.906                0               0         0.163174          165.37                0               0
                       0.0624384         2.19773                0               0         0.975206         72.4345                0               0
                        0.163175          165.37                0               0          0.12543        -12.7582                0               0
                        0.975199         72.4374                0               0        0.0624264         2.31385                0               0
75.675                  0.119698        -14.3874                0               0         0.162592         163.583                0               0
                       0.0619276       -0.324146                0               0         0.975859         70.7405                0               0
                        0.162593         163.583                0               0         0.119658        -14.2319                0               0
                        0.975852         70.7434                0               0        0.0619136       -0.208429                0               0
75.72                   0.113637        -15.9243                0               0         0.161709         161.713                0               0
                       0.0613218        -2.97714                0               0         0.976704         68.9912                0               0
                        0.161711         161.713                0               0         0.113598          -15.76                0               0
                        0.976696         68.9942                0               0        0.0613056        -2.86172                0               0
75.765                   0.10729        -17.5109                0               0         0.160545         159.762                0               0
                       0.0606194        -5.75401                0               0         0.977723         67.1905                0               0
                        0.160547         159.762                0               0         0.107252        -17.3364                0               0
                        0.977716         67.1935                0               0         0.060601        -5.63879                0               0
75.81                    0.10066        -19.1396                0               0         0.159122         157.738                0               0
                       0.0598185        -8.64619                0               0         0.978891         65.3423                0               0
                        0.159123         157.738                0               0         0.100623        -18.9532                0               0
                        0.978885         65.3453                0               0        0.0597979        -8.53109                0               0
75.855                 0.0937521           -20.8                0               0         0.157461         155.646                0               0
                       0.0589176         -11.644                0               0         0.980176         63.4504                0               0
                        0.157462         155.646                0               0        0.0937158        -20.5995                0               0
                         0.98017         63.4534                0               0        0.0588948         -11.529                0               0
75.9                   0.0865748        -22.4781                0               0         0.155586         153.497                0               0
                        0.057916         -14.737                0               0         0.981541         61.5185                0               0
                        0.155587         153.497                0               0        0.0865397        -22.2608                0               0
                        0.981536         61.5216                0               0         0.057891         -14.622                0               0
75.945                 0.0791397        -24.1546                0               0         0.153521         151.298                0               0
                       0.0568137         -17.914                0               0         0.982943         59.5505                0               0
                        0.153522         151.298                0               0        0.0791061        -23.9169                0               0
                        0.982939         59.5536                0               0        0.0567866        -17.7991                0               0
75.99                  0.0714621         -25.802                0               0         0.151288         149.061                0               0
                        0.055612        -21.1636                0               0         0.984338         57.5499                0               0
                        0.151288         149.061                0               0        0.0714303        -25.5391                0               0
                        0.984334          57.553                0               0        0.0555829        -21.0487                0               0
76.035                 0.0635613        -27.3799                0               0         0.148908         146.795                0               0
                       0.0543138        -24.4741                0               0         0.985679         55.5203                0               0
                        0.148909         146.795                0               0        0.0635319        -27.0849                0               0
                        0.985676         55.5235                0               0        0.0542829        -24.3594                0               0
76.08                  0.0554613         -28.825                0               0         0.146404          144.51                0               0
                       0.0529235        -27.8342                0               0         0.986919         53.4653                0               0
                        0.146404          144.51                0               0        0.0554351        -28.4879                0               0
                        0.986917         53.4685                0               0        0.0528909        -27.7197                0               0
76.125                 0.0471916        -30.0312                0               0         0.143793         142.218                0               0
                        0.051447         -31.233                0               0         0.988012         51.3884                0               0
                        0.143794         142.218                0               0        0.0471703        -29.6367                0               0
                        0.988011         51.3916                0               0        0.0514128        -31.1189                0               0
76.17                  0.0387897        -30.8033                0               0         0.141095         139.927                0               0
                       0.0498915        -34.6605                0               0         0.988913         49.2929                0               0
                        0.141096         139.927                0               0        0.0387756        -30.3259                0               0
                        0.988912         49.2961                0               0         0.049856        -34.5469                0               0
76.215                 0.0303064        -30.7323                0               0         0.138326         137.647                0               0
                       0.0482656        -38.1075                0               0         0.989579         47.1822                0               0
                        0.138327         137.648                0               0        0.0303045        -30.1256                0               0
                        0.989579         47.1855                0               0         0.048229        -37.9947                0               0
76.26                  0.0218272        -28.7865                0               0         0.135502         135.388                0               0
                       0.0465787        -41.5663                0               0         0.989972         45.0598                0               0
                        0.135503         135.388                0               0        0.0218478        -27.9541                0               0
                        0.989972         45.0631                0               0        0.0465412        -41.4545                0               0
76.305                 0.0135699        -21.4762                0               0         0.132637         133.156                0               0
                       0.0448409        -45.0305                0               0         0.990058         42.9288                0               0
                        0.132638         133.157                0               0        0.0136418        -20.1873                0               0
                        0.990057         42.9321                0               0        0.0448025          -44.92                0               0
76.35                 0.00669994         9.41134                0               0         0.129743         130.961                0               0
                       0.0430622        -48.4954                0               0         0.989808         40.7926                0               0
                        0.129744         130.961                0               0       0.00692456          11.214                0               0
                        0.989806         40.7959                0               0        0.0430233        -48.3865                0               0
76.395                0.00770934         81.5447                0               0         0.126833         128.809                0               0
                       0.0412529         -51.958                0               0         0.989199         38.6543                0               0
                        0.126834         128.809                0               0       0.00797708         80.4619                0               0
                        0.989196         38.6577                0               0        0.0412135        -51.8511                0               0
76.44                   0.015035         104.454                0               0         0.123916         126.706                0               0
                       0.0394227        -55.4172                0               0         0.988215         36.5172                0               0
