! TOUCHSTONE file generated by CST MICROWAVE STUDIO
! Date and time: Mon Jun 21 17:06:18 2021
! Project name: HIPS_d_sweep.cst
! Parameters = {a=0.735; b=0.393; d=16.1005; fmax=120; fmin=75; phi=0; theta=0}
! Header version: 2018
! Port assignment regex: !\s*Touchstone port\s*([0-9]+)\s*=\s*(CST MWS port|CST DS port)\s*([0-9]+|Zmin|Zmax)\s*\(\"(.*)\"\)(\s*mode\s*([0-9]+))?.*
! Touchstone port assignment:
! Touchstone port 1 = CST MWS port Zmin ("") mode 1
! Touchstone port 2 = CST MWS port Zmin ("") mode 2
! Touchstone port 3 = CST MWS port Zmax ("") mode 1
! Touchstone port 4 = CST MWS port Zmax ("") mode 2
! S-Parameters are not renormalized. Unphysical impedance of 0 will be written to the file.
# GHz S MA R 0
75                     0.0858621         21.0847                0               0         0.507128         144.684                0               0
                        0.123808        -23.0848                0               0         0.848601         53.6689                0               0
                        0.507129         144.684                0               0        0.0858265          21.101                0               0
                        0.848601         53.6722                0               0         0.123823        -23.0705                0               0
75.045                 0.0855136         21.5546                0               0         0.509665         144.116                0               0
                        0.123799        -23.9056                0               0         0.847445         53.1443                0               0
                        0.509667         144.116                0               0        0.0854775         21.5709                0               0
                        0.847441         53.1478                0               0         0.123814        -23.8911                0               0
75.09                  0.0850636         22.0503                0               0         0.511897         143.503                0               0
                        0.123717        -24.8417                0               0         0.846337         52.5724                0               0
                          0.5119         143.504                0               0        0.0850274         22.0667                0               0
                        0.846329         52.5759                0               0         0.123732        -24.8271                0               0
75.135                 0.0845163         22.5755                0               0         0.513834         142.842                0               0
                        0.123569        -25.8936                0               0         0.845297         51.9506                0               0
                        0.513837         142.843                0               0        0.0844802         22.5924                0               0
                        0.845289         51.9541                0               0         0.123585         -25.879                0               0
75.18                  0.0838766         23.1352                0               0         0.515489         142.128                0               0
                        0.123362        -27.0614                0               0         0.844348         51.2768                0               0
                        0.515492         142.129                0               0        0.0838407         23.1527                0               0
                        0.844341         51.2804                0               0         0.123378        -27.0466                0               0
75.225                 0.0831499         23.7351                0               0         0.516878          141.36                0               0
                        0.123102        -28.3446                0               0         0.843509         50.5494                0               0
                         0.51688          141.36                0               0        0.0831144         23.7533                0               0
                        0.843503          50.553                0               0         0.123117        -28.3296                0               0
75.27                  0.0823428         24.3818                0               0         0.518016         140.534                0               0
                        0.122791        -29.7423                0               0         0.842796         49.7671                0               0
                        0.518018         140.534                0               0        0.0823079         24.4008                0               0
                        0.842792         49.7706                0               0         0.122807        -29.7271                0               0
75.315                 0.0814629          25.083                0               0         0.518923         139.648                0               0
                        0.122436        -31.2532                0               0         0.842223         48.9292                0               0
                        0.518925         139.648                0               0        0.0814286         25.1028                0               0
                        0.842221         48.9326                0               0         0.122452        -31.2378                0               0
75.36                   0.080519         25.8471                0               0         0.519615         138.703                0               0
                        0.122037        -32.8757                0               0         0.841799         48.0352                0               0
                        0.519616         138.703                0               0        0.0804853         25.8678                0               0
                          0.8418         48.0386                0               0         0.122053        -32.8601                0               0
75.405                 0.0795214         26.6831                0               0          0.52011         137.697                0               0
                        0.121597         -34.608                0               0         0.841532         47.0854                0               0
                         0.52011         137.697                0               0        0.0794884         26.7047                0               0
                        0.841534         47.0888                0               0         0.121613        -34.5921                0               0
75.45                  0.0784823         27.6011                0               0         0.520419         136.632                0               0
                        0.121117        -36.4478                0               0         0.841422         46.0807                0               0
                         0.52042         136.632                0               0        0.0784499         27.6235                0               0
                        0.841426          46.084                0               0         0.121133        -36.4317                0               0
75.495                 0.0774156          28.611                0               0         0.520557         135.508                0               0
                        0.120597        -38.3926                0               0          0.84147         45.0222                0               0
                        0.520557         135.508                0               0        0.0773839         28.6344                0               0
                        0.841474         45.0255                0               0         0.120614        -38.3762                0               0
75.54                  0.0763378         29.7234                0               0          0.52053         134.328                0               0
                        0.120038        -40.4398                0               0         0.841669         43.9117                0               0
                         0.52053         134.327                0               0        0.0763067         29.7477                0               0
                        0.841673          43.915                0               0         0.120054        -40.4232                0               0
75.585                 0.0752675         30.9481                0               0         0.520344         133.093                0               0
                        0.119439        -42.5865                0               0         0.842013         42.7515                0               0
                        0.520344         133.092                0               0        0.0752371         30.9734                0               0
                        0.842016         42.7548                0               0         0.119455        -42.5695                0               0
75.63                  0.0742259         32.2941                0               0         0.520003         131.806                0               0
                          0.1188        -44.8294                0               0          0.84249         41.5441                0               0
                        0.520003         131.806                0               0        0.0741961         32.3205                0               0
                        0.842492         41.5475                0               0         0.118816        -44.8121                0               0
75.675                 0.0732367          33.769                0               0         0.519506         130.471                0               0
                         0.11812        -47.1652                0               0         0.843089         40.2926                0               0
                        0.519507         130.471                0               0        0.0732075         33.7963                0               0
                         0.84309          40.296                0               0         0.118137        -47.1476                0               0
75.72                  0.0723258         35.3773                0               0         0.518852         129.091                0               0
                        0.117399        -49.5902                0               0         0.843796         39.0001                0               0
                        0.518854         129.091                0               0        0.0722972         35.4058                0               0
                        0.843795         39.0036                0               0         0.117416        -49.5723                0               0
75.765                 0.0715213         37.1205                0               0         0.518039          127.67                0               0
                        0.116638        -52.1007                0               0         0.844597         37.6702                0               0
                        0.518042         127.671                0               0        0.0714934         37.1501                0               0
                        0.844595         37.6738                0               0         0.116654        -52.0824                0               0
75.81                  0.0708522         38.9952                0               0         0.517065         126.214                0               0
                        0.115835        -54.6928                0               0          0.84548         36.3064                0               0
                        0.517068         126.214                0               0        0.0708252          39.026                0               0
                        0.845476         36.3101                0               0         0.115851        -54.6741                0               0
75.855                 0.0703485         40.9927                0               0         0.515926         124.725                0               0
                        0.114993        -57.3623                0               0         0.846431         34.9123                0               0
                        0.515931         124.726                0               0        0.0703223         41.0247                0               0
                        0.846426         34.9161                0               0         0.115008        -57.3433                0               0
75.9                    0.070039         43.0982                0               0         0.514623          123.21                0               0
                        0.114112         -60.105                0               0          0.84744         33.4914                0               0
                         0.51463         123.211                0               0         0.070014         43.1314                0               0
                        0.847434         33.4953                0               0         0.114127        -60.0856                0               0
75.945                 0.0699508         45.2905                0               0         0.513159         121.672                0               0
                        0.113194        -62.9165                0               0         0.848494         32.0472                0               0
                        0.513167         121.673                0               0        0.0699271         45.3248                0               0
                        0.848488         32.0511                0               0         0.113209        -62.8967                0               0
75.99                  0.0701077         47.5429                0               0         0.511539         120.116                0               0
                        0.112243        -65.7924                0               0         0.849587         30.5829                0               0
                        0.511548         120.118                0               0        0.0700854         47.5782                0               0
                        0.849581         30.5869                0               0         0.112258        -65.7721                0               0
76.035                 0.0705285         49.8238                0               0         0.509772         118.547                0               0
                        0.111262        -68.7282                0               0         0.850711         29.1016                0               0
                        0.509782         118.549                0               0        0.0705079         49.8598                0               0
                        0.850705         29.1055                0               0         0.111276        -68.7075                0               0
76.08                  0.0712264         52.0987                0               0         0.507871         116.968                0               0
                        0.110255        -71.7193                0               0         0.851858          27.606                0               0
                        0.507882         116.969                0               0        0.0712076         52.1351                0               0
                        0.851853         27.6099                0               0         0.110269        -71.6981                0               0
76.125                  0.072208         54.3323                0               0         0.505854         115.383                0               0
                        0.109226         -74.761                0               0         0.853025         26.0987                0               0
                        0.505863         115.384                0               0        0.0721912          54.369                0               0
                        0.853021         26.1025                0               0         0.109241        -74.7393                0               0
76.17                  0.0734734          56.491                0               0         0.503738         113.794                0               0
                        0.108183        -77.8487                0               0         0.854207         24.5818                0               0
                        0.503746         113.795                0               0        0.0734586         56.5275                0               0
                        0.854204         24.5855                0               0         0.108197        -77.8266                0               0
76.215                 0.0750161         58.5445                0               0         0.501545         112.203                0               0
                        0.107131        -80.9777                0               0         0.855399         23.0574                0               0
                        0.501551         112.204                0               0        0.0750032         58.5806                0               0
                        0.855397          23.061                0               0         0.107144        -80.9551                0               0
76.26                   0.076824         60.4676                0               0         0.499295         110.612                0               0
                        0.106075        -84.1432                0               0         0.856597         21.5272                0               0
                          0.4993         110.612                0               0        0.0768128         60.5032                0               0
                        0.856596         21.5307                0               0         0.106088        -84.1201                0               0
76.305                 0.0788803         62.2413                0               0         0.497009          109.02                0               0
                        0.105023        -87.3404                0               0         0.857797          19.993                0               0
                        0.497011          109.02                0               0        0.0788707         62.2761                0               0
                        0.857797         19.9963                0               0         0.105036        -87.3168                0               0
76.35                  0.0811647         63.8524                0               0         0.494704         107.429                0               0
                        0.103981        -90.5641                0               0         0.858993         18.4561                0               0
                        0.494704         107.429                0               0        0.0811564         63.8863                0               0
                        0.858993         18.4593                0               0         0.103993        -90.5401                0               0
76.395                 0.0836547         65.2934                0               0         0.492395         105.839                0               0
                        0.102954        -93.8094                0               0         0.860179         16.9181                0               0
                        0.492393         105.838                0               0        0.0836476         65.3265                0               0
                         0.86018         16.9213                0               0         0.102965         -93.785                0               0
76.44                  0.0863264         66.5617                0               0         0.490093         104.249                0               0
                        0.101947        -97.0709                0               0         0.861346         15.3806                0               0
