! TOUCHSTONE file generated by CST MICROWAVE STUDIO
! Date and time: Mon Jun 21 17:06:36 2021
! Project name: HIPS_d_sweep.cst
! Parameters = {a=0.735; b=0.393; d=17.9095; fmax=120; fmin=75; phi=0; theta=0}
! Header version: 2018
! Port assignment regex: !\s*Touchstone port\s*([0-9]+)\s*=\s*(CST MWS port|CST DS port)\s*([0-9]+|Zmin|Zmax)\s*\(\"(.*)\"\)(\s*mode\s*([0-9]+))?.*
! Touchstone port assignment:
! Touchstone port 1 = CST MWS port Zmin ("") mode 1
! Touchstone port 2 = CST MWS port Zmin ("") mode 2
! Touchstone port 3 = CST MWS port Zmax ("") mode 1
! Touchstone port 4 = CST MWS port Zmax ("") mode 2
! S-Parameters are not renormalized. Unphysical impedance of 0 will be written to the file.
# GHz S MA R 0
75                     0.0733471          81.656                0               0         0.398922        -68.4765                0               0
                       0.0894863        -85.6213                0               0         0.909657        -157.463                0               0
                        0.398922        -68.4766                0               0        0.0732032         81.8369                0               0
                        0.909656        -157.463                0               0        0.0896017        -85.6009                0               0
75.045                 0.0745296         81.4397                0               0         0.401521        -69.0362                0               0
                       0.0895954        -86.6507                0               0         0.908471        -158.006                0               0
                        0.401521        -69.0362                0               0        0.0743872         81.6178                0               0
                         0.90847        -158.006                0               0        0.0897109          -86.63                0               0
75.09                  0.0758984         81.3082                0               0         0.403794        -69.6672                0               0
                       0.0896123        -87.8449                0               0         0.907371        -158.618                0               0
                        0.403793        -69.6672                0               0        0.0757581         81.4835                0               0
                         0.90737        -158.618                0               0        0.0897281        -87.8237                0               0
75.135                  0.077452         81.2472                0               0         0.405744        -70.3693                0               0
                       0.0895439        -89.2006                0               0         0.906372          -159.3                0               0
                        0.405743        -70.3693                0               0        0.0773144         81.4194                0               0
                        0.906371          -159.3                0               0        0.0896599        -89.1787                0               0
75.18                  0.0791903         81.2416                0               0         0.407376         -71.142                0               0
                        0.089396        -90.7149                0               0         0.905486        -160.049                0               0
                        0.407376         -71.142                0               0        0.0790558         81.4108                0               0
                        0.905484        -160.049                0               0        0.0895121        -90.6921                0               0
75.225                 0.0811138         81.2766                0               0         0.408696        -71.9844                0               0
                       0.0891735        -92.3854                0               0         0.904718        -160.867                0               0
                        0.408695        -71.9844                0               0         0.080983         81.4425                0               0
                        0.904717        -160.867                0               0        0.0892894        -92.3616                0               0
75.27                  0.0832235         81.3371                0               0         0.409709         -72.895                0               0
                        0.088881          -94.21                0               0         0.904074        -161.751                0               0
                        0.409708         -72.895                0               0        0.0830966         81.4997                0               0
                        0.904072        -161.751                0               0        0.0889965        -94.1851                0               0
75.315                 0.0855201         81.4087                0               0         0.410422        -73.8722                0               0
                       0.0885227        -96.1869                0               0         0.903552        -162.701                0               0
                        0.410422        -73.8722                0               0        0.0853976         81.5677                0               0
                         0.90355          -162.7                0               0        0.0886376        -96.1608                0               0
75.36                  0.0880038         81.4775                0               0         0.410843        -74.9139                0               0
                       0.0881032        -98.3144                0               0         0.903152        -163.714                0               0
                        0.410842        -74.9139                0               0        0.0878859         81.6329                0               0
                         0.90315        -163.714                0               0        0.0882173        -98.2871                0               0
75.405                 0.0906741         81.5306                0               0         0.410978        -76.0179                0               0
                       0.0876269        -100.591                0               0         0.902868        -164.789                0               0
                        0.410977        -76.0179                0               0         0.090561         81.6822                0               0
                        0.902866        -164.789                0               0        0.0877399        -100.562                0               0
75.45                  0.0935291         81.5561                0               0         0.410837        -77.1815                0               0
                       0.0870988        -103.014                0               0         0.902694        -165.924                0               0
                        0.410836        -77.1816                0               0        0.0934209         81.7039                0               0
                        0.902692        -165.924                0               0        0.0872105        -102.984                0               0
75.495                 0.0965655         81.5434                0               0         0.410427        -78.4021                0               0
                        0.086524        -105.582                0               0         0.902621        -167.117                0               0
                        0.410426        -78.4021                0               0        0.0964624         81.6871                0               0
                         0.90262        -167.117                0               0        0.0866343         -105.55                0               0
75.54                  0.0997784          81.483                0               0         0.409759        -79.6764                0               0
                       0.0859082        -108.291                0               0         0.902641        -168.365                0               0
                        0.409759        -79.6764                0               0        0.0996804         81.6225                0               0
                        0.902641        -168.365                0               0        0.0860169        -108.258                0               0
75.585                  0.103161          81.367                0               0         0.408845        -81.0014                0               0
                       0.0852577         -111.14                0               0         0.902746        -169.665                0               0
                        0.408844        -81.0014                0               0         0.103068         81.5022                0               0
                        0.902745        -169.665                0               0        0.0853646        -111.106                0               0
75.63                   0.106705         81.1888                0               0         0.407694        -82.3736                0               0
                       0.0845791        -114.124                0               0         0.902924        -171.016                0               0
                        0.407693        -82.3736                0               0         0.106618         81.3197                0               0
                        0.902924        -171.015                0               0        0.0846838        -114.088                0               0
75.675                  0.110401         80.9432                0               0          0.40632        -83.7897                0               0
                       0.0838792        -117.238                0               0         0.903167        -172.413                0               0
                        0.406319        -83.7896                0               0         0.110318         81.0698                0               0
                        0.903167        -172.413                0               0        0.0839817        -117.201                0               0
75.72                   0.114235         80.6266                0               0         0.404736        -85.2459                0               0
                       0.0831655        -120.479                0               0         0.903467        -173.854                0               0
                        0.404736        -85.2458                0               0         0.114157         80.7488                0               0
                        0.903467        -173.854                0               0        0.0832655        -120.439                0               0
75.765                  0.118194         80.2364                0               0         0.402957        -86.7386                0               0
                       0.0824455        -123.839                0               0         0.903816        -175.336                0               0
                        0.402957        -86.7386                0               0          0.11812         80.3543                0               0
                        0.903815        -175.336                0               0        0.0825428        -123.798                0               0
75.81                   0.122262         79.7716                0               0         0.400997        -88.2642                0               0
                       0.0817269        -127.312                0               0         0.904205        -176.855                0               0
                        0.400997        -88.2641                0               0         0.122193         79.8851                0               0
                        0.904204        -176.855                0               0        0.0818213        -127.269                0               0
75.855                  0.126423         79.2321                0               0         0.398874        -89.8187                0               0
                       0.0810176        -130.891                0               0         0.904628        -178.409                0               0
                        0.398874        -89.8186                0               0         0.126359         79.3413                0               0
                        0.904627        -178.408                0               0        0.0811089        -130.847                0               0
75.9                    0.130658         78.6189                0               0         0.396603        -91.3985                0               0
                       0.0803251        -134.568                0               0         0.905079        -179.993                0               0
                        0.396603        -91.3985                0               0         0.130598         78.7239                0               0
                        0.905079        -179.993                0               0        0.0804131        -134.522                0               0
75.945                   0.13495          77.934                0               0         0.394203        -92.9998                0               0
                       0.0796571        -138.335                0               0         0.905553         178.395                0               0
                        0.394203        -92.9998                0               0         0.134893         78.0348                0               0
                        0.905552         178.395                0               0        0.0797416        -138.287                0               0
75.99                   0.139277         77.1801                0               0         0.391689        -94.6188                0               0
                       0.0790207        -142.181                0               0         0.906043         176.758                0               0
                         0.39169        -94.6189                0               0         0.139224         77.2769                0               0
                        0.906042         176.759                0               0        0.0791016        -142.132                0               0
76.035                   0.14362         76.3604                0               0         0.389082        -96.2519                0               0
                       0.0784226        -146.097                0               0         0.906544         175.101                0               0
                        0.389082         -96.252                0               0         0.143571         76.4533                0               0
                        0.906543         175.101                0               0        0.0784999        -146.047                0               0
76.08                    0.14796          75.479                0               0         0.386397        -97.8955                0               0
                       0.0778693        -150.073                0               0         0.907049         173.427                0               0
                        0.386397        -97.8956                0               0         0.147915         75.5681                0               0
                        0.907049         173.427                0               0        0.0779427        -150.022                0               0
76.125                  0.152278         74.5401                0               0         0.383654        -99.5459                0               0
                       0.0773663        -154.099                0               0         0.907551         171.739                0               0
                        0.383654         -99.546                0               0         0.152235         74.6254                0               0
                        0.907552         171.739                0               0        0.0774359        -154.046                0               0
76.17                   0.156553         73.5481                0               0         0.380869          -101.2                0               0
                       0.0769188        -158.162                0               0         0.908044          170.04                0               0
                        0.380869          -101.2                0               0         0.156514         73.6299                0               0
                        0.908045          170.04                0               0        0.0769846         -158.11                0               0
76.215                  0.160769          72.508                0               0         0.378059        -102.854                0               0
                       0.0765311        -162.254                0               0         0.908519         168.334                0               0
                        0.378059        -102.854                0               0         0.160732         72.5862                0               0
                        0.908519         168.333                0               0        0.0765931          -162.2                0               0
76.26                   0.164908         71.4243                0               0         0.375241        -104.505                0               0
                       0.0762068        -166.361                0               0         0.908968         166.623                0               0
                        0.375241        -104.506                0               0         0.164874         71.4993                0               0
                        0.908968         166.623                0               0         0.076265        -166.307                0               0
76.305                  0.168954         70.3021                0               0         0.372431        -106.151                0               0
                       0.0759484        -170.473                0               0         0.909384         164.912                0               0
                        0.372431        -106.151                0               0         0.168922         70.3738                0               0
                        0.909383         164.912                0               0        0.0760029        -170.419                0               0
76.35                   0.172891          69.146                0               0         0.369645        -107.788                0               0
                       0.0757578        -174.578                0               0         0.909764         163.203                0               0
                        0.369644        -107.789                0               0         0.172861         69.2145                0               0
                         0.90976         163.204                0               0        0.0758087        -174.524                0               0
76.395                  0.176705         67.9607                0               0         0.366898        -109.415                0               0
                       0.0756354        -178.664                0               0         0.910105         161.499                0               0
                        0.366896        -109.415                0               0         0.176676         68.0262                0               0
                          0.9101           161.5                0               0        0.0756829        -178.611                0               0
76.44                   0.180382         66.7507                0               0         0.364204        -111.029                0               0
                       0.0755805         177.279                0               0         0.910416         159.802                0               0
