! TOUCHSTONE file generated by CST MICROWAVE STUDIO
! Date and time: Mon Jun 21 17:06:24 2021
! Project name: HIPS_d_sweep.cst
! Parameters = {a=0.735; b=0.393; d=16.7538; fmax=120; fmin=75; phi=0; theta=0}
! Header version: 2018
! Port assignment regex: !\s*Touchstone port\s*([0-9]+)\s*=\s*(CST MWS port|CST DS port)\s*([0-9]+|Zmin|Zmax)\s*\(\"(.*)\"\)(\s*mode\s*([0-9]+))?.*
! Touchstone port assignment:
! Touchstone port 1 = CST MWS port Zmin ("") mode 1
! Touchstone port 2 = CST MWS port Zmin ("") mode 2
! Touchstone port 3 = CST MWS port Zmax ("") mode 1
! Touchstone port 4 = CST MWS port Zmax ("") mode 2
! S-Parameters are not renormalized. Unphysical impedance of 0 will be written to the file.
# GHz S MA R 0
75                       0.17382         63.3758                0               0         0.443997         66.3967                0               0
                       0.0905257         170.447                0               0         0.874337        -22.9192                0               0
                        0.443997         66.3968                0               0         0.173743         63.4166                0               0
                        0.874334        -22.9195                0               0        0.0906462         170.471                0               0
75.045                  0.173663         62.9411                0               0          0.44636         65.8871                0               0
                        0.090891         169.507                0               0         0.873182        -23.4862                0               0
                        0.446361         65.8872                0               0         0.173586          62.982                0               0
                        0.873187        -23.4866                0               0        0.0910113         169.531                0               0
75.09                   0.173695         62.4804                0               0          0.44844         65.3402                0               0
                       0.0912622         168.395                0               0         0.871956        -24.0564                0               0
                        0.448441         65.3403                0               0         0.173617         62.5214                0               0
                        0.871961        -24.0569                0               0        0.0913829          168.42                0               0
75.135                  0.173899         61.9915                0               0         0.450241         64.7504                0               0
                       0.0916374         167.119                0               0         0.871006        -24.6397                0               0
                        0.450241         64.7505                0               0         0.173821         62.0328                0               0
                        0.871003          -24.64                0               0        0.0917589         167.145                0               0
75.18                   0.174259         61.4728                0               0          0.45177         64.1124                0               0
                       0.0920147         165.687                0               0         0.870605        -25.2621                0               0
                         0.45177         64.1125                0               0         0.174181         61.5143                0               0
                        0.870594        -25.2616                0               0        0.0921373         165.714                0               0
75.225                  0.174761         60.9226                0               0         0.453038         63.4211                0               0
                       0.0923932         164.107                0               0         0.870732        -25.9576                0               0
                        0.453037         63.4211                0               0         0.174682         60.9645                0               0
                        0.870722        -25.9559                0               0        0.0925168         164.136                0               0
75.27                   0.175389         60.3397                0               0         0.454057         62.6716                0               0
                        0.092772         162.386                0               0         0.871068        -26.7483                0               0
                        0.454056         62.6716                0               0          0.17531         60.3819                0               0
                        0.871068        -26.7459                0               0        0.0928968         162.416                0               0
75.315                  0.176131         59.7228                0               0         0.454837           61.86                0               0
                       0.0931512         160.531                0               0         0.871248        -27.6351                0               0
                        0.454834           61.86                0               0         0.176052         59.7653                0               0
                        0.871258        -27.6326                0               0        0.0932771         160.563                0               0
75.36                   0.176973         59.0712                0               0         0.455384         60.9827                0               0
                        0.093531         158.549                0               0         0.871076        -28.6051                0               0
                        0.455381         60.9827                0               0         0.176894          59.114                0               0
                        0.871092        -28.6031                0               0        0.0936577         158.583                0               0
75.405                  0.177902         58.3842                0               0         0.455698         60.0376                0               0
                       0.0939121         156.447                0               0          0.87054         -29.644                0               0
                        0.455694         60.0376                0               0         0.177822         58.4273                0               0
                        0.870556        -29.6426                0               0        0.0940397         156.482                0               0
75.45                   0.178905         57.6613                0               0         0.455771         59.0239                0               0
                       0.0942959          154.23                0               0         0.869726         -30.741                0               0
                        0.455768          59.024                0               0         0.178826         57.7049                0               0
                        0.869739        -30.7402                0               0         0.094424         154.267                0               0
75.495                  0.179971         56.9026                0               0          0.45559         57.9431                0               0
                       0.0946839         151.906                0               0         0.868749        -31.8894                0               0
                        0.455588         57.9432                0               0         0.179891         56.9465                0               0
                        0.868757         -31.889                0               0        0.0948126         151.944                0               0
75.54                   0.181086         56.1082                0               0         0.455136         56.7993                0               0
                       0.0950784          149.48                0               0         0.867717        -33.0847                0               0
                        0.455135         56.7994                0               0         0.181007         56.1525                0               0
                        0.867719        -33.0847                0               0        0.0952075          149.52                0               0
75.585                  0.182241         55.2784                0               0         0.454395         55.5996                0               0
                       0.0954819         146.959                0               0         0.866719        -34.3238                0               0
                        0.454396         55.5996                0               0         0.182161         55.3231                0               0
                        0.866716        -34.3241                0               0        0.0956113         147.001                0               0
75.63                   0.183423         54.4138                0               0         0.453369         54.3538                0               0
                       0.0958973          144.35                0               0         0.865824        -35.6043                0               0
                        0.453371         54.3537                0               0         0.183343         54.4589                0               0
                        0.865818        -35.6047                0               0        0.0960269         144.394                0               0
75.675                  0.184621         53.5153                0               0         0.452081         53.0732                0               0
                       0.0963277         141.658                0               0         0.865085        -36.9233                0               0
                        0.452084         53.0729                0               0         0.184541         53.5608                0               0
                        0.865075         -36.924                0               0        0.0964575         141.705                0               0
75.72                   0.185824          52.584                0               0         0.450583         51.7687                0               0
                       0.0967764         138.892                0               0         0.864535        -38.2784                0               0
                        0.450587         51.7681                0               0         0.185745         52.6299                0               0
                        0.864523        -38.2792                0               0        0.0969065         138.941                0               0
75.765                  0.187022          51.621                0               0         0.448948         50.4486                0               0
                       0.0972468         136.058                0               0         0.864197        -39.6667                0               0
                        0.448952         50.4478                0               0         0.186942         51.6674                0               0
                        0.864185        -39.6675                0               0        0.0973772         136.109                0               0
75.81                   0.188203         50.6278                0               0         0.447254          49.118                0               0
                       0.0977423         133.163                0               0         0.864082        -41.0854                0               0
                        0.447257         49.1169                0               0         0.188123         50.6747                0               0
                        0.864069        -41.0862                0               0         0.097873         133.216                0               0
75.855                  0.189356         49.6059                0               0          0.44557         47.7779                0               0
                       0.0982657         130.215                0               0          0.86419        -42.5315                0               0
                        0.445572         47.7767                0               0         0.189277         49.6535                0               0
                        0.864177        -42.5324                0               0        0.0983969          130.27                0               0
75.9                    0.190471         48.5573                0               0         0.443946         46.4272                0               0
                       0.0988196         127.221                0               0         0.864512        -44.0022                0               0
                        0.443946          46.426                0               0         0.190392         48.6054                0               0
                          0.8645         -44.003                0               0        0.0989513         127.279                0               0
75.945                  0.191537         47.4836                0               0         0.442407         45.0635                0               0
                       0.0994058         124.191                0               0         0.865035        -45.4945                0               0
                        0.442407         45.0624                0               0         0.191458         47.5323                0               0
                        0.865025        -45.4953                0               0         0.099538         124.251                0               0
75.99                   0.192543         46.3869                0               0         0.440961         43.6846                0               0
                        0.100025         121.131                0               0         0.865738        -47.0057                0               0
                         0.44096         43.6837                0               0         0.192464         46.4363                0               0
                        0.865728        -47.0064                0               0         0.100158         121.194                0               0
76.035                  0.193478         45.2694                0               0         0.439599         42.2891                0               0
                        0.100677         118.051                0               0         0.866594        -48.5331                0               0
                        0.439598         42.2884                0               0         0.193399         45.3194                0               0
                        0.866586        -48.5337                0               0          0.10081         118.117                0               0
76.08                   0.194331         44.1331                0               0         0.438307         40.8765                0               0
                        0.101359         114.959                0               0         0.867576        -50.0742                0               0
                        0.438305          40.876                0               0         0.194252         44.1838                0               0
                        0.867569        -50.0748                0               0         0.101493         115.027                0               0
76.125                   0.19509         42.9802                0               0         0.437064         39.4476                0               0
                         0.10207         111.862                0               0         0.868651        -51.6265                0               0
                        0.437063         39.4473                0               0         0.195011         43.0318                0               0
                        0.868645         -51.627                0               0         0.102204         111.934                0               0
76.17                   0.195745         41.8132                0               0          0.43585         38.0038                0               0
                        0.102802         108.769                0               0         0.869784        -53.1877                0               0
                         0.43585         38.0036                0               0         0.195666         41.8655                0               0
                         0.86978        -53.1882                0               0         0.102937         108.844                0               0
76.215                  0.196284         40.6343                0               0         0.434649         36.5472                0               0
                        0.103551         105.687                0               0         0.870942        -54.7557                0               0
                        0.434648         36.5471                0               0         0.196206         40.6874                0               0
                        0.870938        -54.7561                0               0         0.103686         105.764                0               0
76.26                   0.196697         39.4458                0               0         0.433443         35.0803                0               0
                        0.104308         102.623                0               0         0.872087        -56.3283                0               0
                        0.433443         35.0803                0               0         0.196619         39.4997                0               0
                        0.872085        -56.3286                0               0         0.104442         102.703                0               0
76.305                  0.196973         38.2502                0               0         0.432219         33.6058                0               0
                        0.105062         99.5824                0               0         0.873185        -57.9035                0               0
                         0.43222         33.6059                0               0         0.196895         38.3049                0               0
                        0.873183        -57.9038                0               0         0.105197         99.6649                0               0
76.35                   0.197103         37.0498                0               0         0.430969         32.1269                0               0
                        0.105805         96.5702                0               0           0.8742        -59.4793                0               0
                        0.430969          32.127                0               0         0.197025         37.1053                0               0
                        0.874198        -59.4795                0               0         0.105939         96.6554                0               0
76.395                  0.197077         35.8471                0               0         0.429684         30.6463                0               0
                        0.106523         93.5909                0               0         0.875097        -61.0538                0               0
                        0.429685         30.6465                0               0         0.196999         35.9035                0               0
                        0.875095         -61.054                0               0         0.106657         93.6787                0               0
76.44                   0.196887         34.6447                0               0         0.428359         29.1674                0               0
                        0.107206         90.6477                0               0         0.875843        -62.6252                0               0
