! TOUCHSTONE file generated by CST MICROWAVE STUDIO
! Date and time: Mon Jun 21 17:06:27 2021
! Project name: HIPS_d_sweep.cst
! Parameters = {a=0.735; b=0.393; d=17.005; fmax=120; fmin=75; phi=0; theta=0}
! Header version: 2018
! Port assignment regex: !\s*Touchstone port\s*([0-9]+)\s*=\s*(CST MWS port|CST DS port)\s*([0-9]+|Zmin|Zmax)\s*\(\"(.*)\"\)(\s*mode\s*([0-9]+))?.*
! Touchstone port assignment:
! Touchstone port 1 = CST MWS port Zmin ("") mode 1
! Touchstone port 2 = CST MWS port Zmin ("") mode 2
! Touchstone port 3 = CST MWS port Zmax ("") mode 1
! Touchstone port 4 = CST MWS port Zmax ("") mode 2
! S-Parameters are not renormalized. Unphysical impedance of 0 will be written to the file.
# GHz S MA R 0
75                      0.199516         42.9317                0               0         0.425153          39.085                0               0
                        0.102618         107.888                0               0          0.87688        -52.2434                0               0
                        0.425152          39.085                0               0         0.199494         42.9378                0               0
                        0.876875        -52.2437                0               0         0.102619         107.894                0               0
75.045                  0.198618         42.5698                0               0         0.427807         38.5968                0               0
                        0.103051          107.08                0               0         0.875615        -52.7528                0               0
                        0.427806         38.5967                0               0         0.198594         42.5755                0               0
                         0.87561         -52.753                0               0         0.103052         107.085                0               0
75.09                   0.197801         42.1614                0               0         0.430187         38.0416                0               0
                         0.10352         106.137                0               0         0.874515        -53.3317                0               0
                        0.430186         38.0416                0               0         0.197776         42.1666                0               0
                         0.87451         -53.332                0               0         0.103522         106.143                0               0
75.135                  0.197055         41.7064                0               0         0.432307          37.422                0               0
                        0.104019         105.062                0               0         0.873564        -53.9784                0               0
                        0.432306          37.422                0               0          0.19703         41.7112                0               0
                        0.873559        -53.9786                0               0         0.104021         105.068                0               0
75.18                   0.196371         41.2051                0               0         0.434176         36.7401                0               0
                        0.104539         103.856                0               0         0.872747        -54.6908                0               0
                        0.434175         36.7401                0               0         0.196345         41.2095                0               0
                        0.872742        -54.6911                0               0         0.104543         103.861                0               0
75.225                  0.195738         40.6578                0               0         0.435806         35.9982                0               0
                        0.105077         102.523                0               0         0.872052        -55.4672                0               0
                        0.435805         35.9981                0               0         0.195711         40.6616                0               0
                        0.872047        -55.4674                0               0         0.105082         102.527                0               0
75.27                   0.195143         40.0649                0               0         0.437206         35.1982                0               0
                        0.105626         101.065                0               0         0.871468        -56.3054                0               0
                        0.437205         35.1982                0               0         0.195115         40.0682                0               0
                        0.871463        -56.3057                0               0         0.105633         101.069                0               0
75.315                  0.194577         39.4272                0               0         0.438386         34.3423                0               0
                        0.106185         99.4864                0               0         0.870984        -57.2037                0               0
                        0.438385         34.3422                0               0         0.194548         39.4299                0               0
                        0.870979         -57.204                0               0         0.106193         99.4904                0               0
75.36                   0.194027         38.7455                0               0         0.439356         33.4322                0               0
                        0.106749         97.7929                0               0         0.870594        -58.1601                0               0
                        0.439355         33.4321                0               0         0.193997         38.7476                0               0
                         0.87059        -58.1604                0               0         0.106758         97.7964                0               0
75.405                  0.193482          38.021                0               0         0.440125         32.4698                0               0
                        0.107316         95.9891                0               0         0.870292        -59.1726                0               0
                        0.440124         32.4697                0               0         0.193452         38.0224                0               0
                        0.870287        -59.1728                0               0         0.107327         95.9922                0               0
75.45                   0.192932         37.2548                0               0         0.440703         31.4569                0               0
                        0.107884         94.0806                0               0         0.870072        -60.2392                0               0
                        0.440702         31.4568                0               0           0.1929         37.2555                0               0
                        0.870067        -60.2394                0               0         0.107897         94.0832                0               0
75.495                  0.192363         36.4485                0               0           0.4411         30.3951                0               0
                        0.108454          92.073                0               0         0.869931        -61.3577                0               0
                        0.441099         30.3951                0               0          0.19233         36.4483                0               0
                        0.869926        -61.3579                0               0         0.108468         92.0752                0               0
75.54                   0.191766         35.6036                0               0         0.441326         29.2863                0               0
                        0.109023         89.9724                0               0         0.869867         -62.526                0               0
                        0.441325         29.2862                0               0         0.191732         35.6025                0               0
                        0.869863        -62.5262                0               0         0.109038         89.9741                0               0
75.585                   0.19113         34.7217                0               0         0.441393         28.1319                0               0
                        0.109591         87.7848                0               0         0.869881        -63.7418                0               0
                        0.441392         28.1318                0               0         0.191094         34.7197                0               0
                        0.869876         -63.742                0               0         0.109608         87.7861                0               0
75.63                   0.190444         33.8049                0               0         0.441311         26.9338                0               0
                        0.110158         85.5166                0               0         0.869972        -65.0029                0               0
                         0.44131         26.9337                0               0         0.190407         33.8019                0               0
                        0.869967         -65.003                0               0         0.110177         85.5175                0               0
75.675                  0.189698         32.8551                0               0         0.441093         25.6937                0               0
                        0.110724         83.1741                0               0          0.87014        -66.3066                0               0
                        0.441092         25.6936                0               0         0.189659         32.8511                0               0
                        0.870135        -66.3067                0               0         0.110744         83.1746                0               0
75.72                   0.188882         31.8745                0               0         0.440751         24.4133                0               0
                        0.111286         80.7636                0               0         0.870388        -67.6505                0               0
                         0.44075         24.4133                0               0         0.188842         31.8694                0               0
                        0.870383        -67.6506                0               0         0.111308         80.7636                0               0
75.765                  0.187988         30.8652                0               0         0.440297         23.0947                0               0
                        0.111846         78.2915                0               0         0.870717        -69.0318                0               0
                        0.440296         23.0946                0               0         0.187946          30.859                0               0
                        0.870711        -69.0319                0               0         0.111869         78.2911                0               0
75.81                   0.187007         29.8298                0               0         0.439744         21.7397                0               0
                        0.112401         75.7639                0               0         0.871126        -70.4478                0               0
                        0.439743         21.7397                0               0         0.186962         29.8224                0               0
                        0.871121        -70.4479                0               0         0.112426         75.7631                0               0
75.855                  0.185929         28.7707                0               0         0.439105         20.3507                0               0
                        0.112949         73.1872                0               0         0.871618        -71.8955                0               0
                        0.439104         20.3506                0               0         0.185883         28.7621                0               0
                        0.871612        -71.8955                0               0         0.112977          73.186                0               0
75.9                    0.184749         27.6905                0               0         0.438392         18.9298                0               0
                        0.113489         70.5674                0               0         0.872189        -73.3718                0               0
                        0.438391         18.9298                0               0         0.184701         27.6806                0               0
                        0.872183        -73.3719                0               0         0.113518         70.5658                0               0
75.945                   0.18346          26.592                0               0         0.437618         17.4797                0               0
                        0.114017         67.9105                0               0         0.872837        -74.8738                0               0
                        0.437617         17.4796                0               0          0.18341         26.5808                0               0
                        0.872831        -74.8738                0               0         0.114048         67.9085                0               0
75.99                   0.182054          25.478                0               0         0.436794         16.0029                0               0
                         0.11453         65.2221                0               0         0.873558        -76.3982                0               0
                        0.436793         16.0028                0               0         0.182002         25.4654                0               0
                        0.873552        -76.3982                0               0         0.114564         65.2198                0               0
76.035                  0.180526         24.3514                0               0         0.435929         14.5022                0               0
                        0.115025          62.508                0               0         0.874344        -77.9419                0               0
                        0.435928         14.5021                0               0         0.180473         24.3374                0               0
                        0.874338        -77.9419                0               0         0.115061         62.5052                0               0
76.08                   0.178873         23.2154                0               0         0.435033         12.9806                0               0
                        0.115496         59.7734                0               0         0.875185        -79.5016                0               0
                        0.435032         12.9805                0               0         0.178817         23.1999                0               0
                        0.875179        -79.5017                0               0         0.115534         59.7703                0               0
76.125                   0.17709         22.0733                0               0         0.434113         11.4412                0               0
                         0.11594         57.0235                0               0          0.87607        -81.0744                0               0
                        0.434112         11.4411                0               0         0.177032         22.0562                0               0
                        0.876064        -81.0744                0               0          0.11598         57.0201                0               0
76.17                   0.175174         20.9285                0               0         0.433174          9.8871                0               0
                        0.116351         54.2632                0               0         0.876982         -82.657                0               0
                        0.433173         9.88702                0               0         0.175113         20.9098                0               0
                        0.876976        -82.6571                0               0         0.116393         54.2596                0               0
76.215                  0.173122         19.7846                0               0         0.432219          8.3215                0               0
                        0.116723         51.4973                0               0         0.877905        -84.2467                0               0
                        0.432218         8.32141                0               0         0.173059         19.7642                0               0
                        0.877899        -84.2467                0               0         0.116767         51.4934                0               0
76.26                   0.170935         18.6452                0               0         0.431249         6.74756                0               0
                        0.117051         48.7302                0               0         0.878818        -85.8406                0               0
                        0.431248         6.74747                0               0         0.170869         18.6231                0               0
                        0.878812        -85.8406                0               0         0.117098         48.7261                0               0
76.305                  0.168611         17.5146                0               0         0.430264          5.1684                0               0
                        0.117329         45.9661                0               0         0.879699        -87.4362                0               0
                        0.430263          5.1683                0               0         0.168543         17.4907                0               0
                        0.879694        -87.4362                0               0         0.117378         45.9618                0               0
76.35                   0.166151         16.3967                0               0         0.429262         3.58703                0               0
                        0.117552          43.209                0               0         0.880525        -89.0311                0               0
                        0.429261         3.58694                0               0          0.16608         16.3709                0               0
                         0.88052        -89.0311                0               0         0.117603         43.2046                0               0
76.395                  0.163558          15.296                0               0         0.428238         2.00633                0               0
                        0.117714         40.4627                0               0         0.881272        -90.6232                0               0
                        0.428237         2.00623                0               0         0.163485         15.2684                0               0
                        0.881267        -90.6231                0               0         0.117767         40.4581                0               0
76.44                   0.160835         14.2172                0               0         0.427187        0.428981                0               0
                         0.11781         37.7306                0               0         0.881915        -92.2105                0               0
