! TOUCHSTONE file generated by CST MICROWAVE STUDIO
! Date and time: Mon Jun 21 17:07:08 2021
! Project name: HIPS_d_sweep.cst
! Parameters = {a=0.735; b=0.393; d=22.0804; fmax=120; fmin=75; phi=0; theta=0}
! Header version: 2018
! Port assignment regex: !\s*Touchstone port\s*([0-9]+)\s*=\s*(CST MWS port|CST DS port)\s*([0-9]+|Zmin|Zmax)\s*\(\"(.*)\"\)(\s*mode\s*([0-9]+))?.*
! Touchstone port assignment:
! Touchstone port 1 = CST MWS port Zmin ("") mode 1
! Touchstone port 2 = CST MWS port Zmin ("") mode 2
! Touchstone port 3 = CST MWS port Zmax ("") mode 1
! Touchstone port 4 = CST MWS port Zmax ("") mode 2
! S-Parameters are not renormalized. Unphysical impedance of 0 will be written to the file.
# GHz S MA R 0
75                      0.139284        -9.79341                0               0         0.136606         170.346                0               0
                       0.0580183          6.3912                0               0         0.979062         77.0263                0               0
                        0.136605         170.345                0               0         0.139271        -9.73996                0               0
                        0.979068          77.025                0               0        0.0581311         6.75771                0               0
75.045                  0.137043        -10.3132                0               0          0.14014         169.517                0               0
                       0.0586739         5.64852                0               0          0.97937         76.3617                0               0
                         0.14014         169.518                0               0         0.137028        -10.2588                0               0
                         0.97939         76.3623                0               0         0.058786         6.01332                0               0
75.09                   0.134506          -10.89                0               0          0.14348          168.65                0               0
                       0.0592393         4.79585                0               0         0.979375         75.6166                0               0
                         0.14348          168.65                0               0          0.13449        -10.8344                0               0
                        0.979398         75.6178                0               0        0.0593506         5.15922                0               0
75.135                  0.131674        -11.5288                0               0         0.146579         167.731                0               0
                       0.0597098          3.8192                0               0         0.979183          74.789                0               0
                        0.146579         167.731                0               0         0.131657        -11.4719                0               0
                        0.979202         74.7899                0               0        0.0598204          4.1816                0               0
75.18                   0.128546        -12.2339                0               0         0.149394          166.75                0               0
                       0.0600824         2.70639                0               0          0.97889         73.8781                0               0
                        0.149394          166.75                0               0         0.128529        -12.1754                0               0
                        0.978903         73.8781                0               0         0.060192         3.06849                0               0
75.225                  0.125122        -13.0084                0               0         0.151888         165.697                0               0
                       0.0603547         1.44754                0               0         0.978582         72.8838                0               0
                        0.151888         165.697                0               0         0.125104         -12.948                0               0
                        0.978588         72.8826                0               0         0.060463         1.81012                0               0
75.27                     0.1214        -13.8545                0               0         0.154034         164.563                0               0
                        0.060525       0.0352488                0               0         0.978332         71.8072                0               0
                        0.154033         164.563                0               0         0.121381        -13.7919                0               0
                        0.978331         71.8045                0               0        0.0606316        0.399236                0               0
75.315                  0.117378        -14.7732                0               0         0.155812         163.341                0               0
                       0.0605919        -1.53521                0               0         0.978197         70.6496                0               0
                        0.155811          163.34                0               0         0.117359         -14.708                0               0
                        0.978191         70.6457                0               0        0.0606964        -1.16878                0               0
75.36                   0.113053        -15.7643                0               0         0.157212         162.026                0               0
                       0.0605539        -3.26592                0               0         0.978218         69.4131                0               0
                        0.157211         162.025                0               0         0.113034        -15.6961                0               0
                        0.978209         69.4082                0               0        0.0606558        -2.89593                0               0
75.405                  0.108422        -16.8262                0               0         0.158233         160.616                0               0
                       0.0604094        -5.15638                0               0         0.978422            68.1                0               0
                        0.158232         160.615                0               0         0.108403        -16.7545                0               0
                        0.978412         68.0944                0               0         0.060508        -4.78166                0               0
75.45                   0.103482        -17.9555                0               0         0.158882         159.112                0               0
                       0.0601567        -7.20374                0               0          0.97882         66.7128                0               0
                         0.15888         159.111                0               0         0.103463        -17.8796                0               0
                        0.978809          66.707                0               0        0.0602514        -6.82307                0               0
75.495                 0.0982308        -19.1467                0               0          0.15917         157.515                0               0
                       0.0597939        -9.40304                0               0         0.979406         65.2542                0               0
                        0.159169         157.514                0               0        0.0982112        -19.0658                0               0
                        0.979397         65.2487                0               0        0.0598842        -9.01518                0               0
75.54                  0.0926665        -20.3916                0               0         0.159116         155.832                0               0
                       0.0593195        -11.7476                0               0         0.980165         63.7271                0               0
                        0.159114         155.831                0               0        0.0926471        -20.3048                0               0
                        0.980158         63.7222                0               0        0.0594047        -11.3513                0               0
75.585                 0.0867899        -21.6785                0               0         0.158739         154.067                0               0
                       0.0587322        -14.2292                0               0         0.981066         62.1344                0               0
                        0.158738         154.067                0               0        0.0867709        -21.5846                0               0
                        0.981062         62.1306                0               0        0.0588118        -13.8232                0               0
75.63                  0.0806047        -22.9911                0               0         0.158064         152.229                0               0
                       0.0580317        -16.8388                0               0          0.98207         60.4791                0               0
                        0.158064         152.229                0               0        0.0805863        -22.8886                0               0
                         0.98207         60.4765                0               0        0.0581051        -16.4218                0               0
75.675                 0.0741175        -24.3068                0               0         0.157115         150.326                0               0
                       0.0572182        -19.5668                0               0         0.983129         58.7643                0               0
                        0.157114         150.325                0               0           0.0741        -24.1936                0               0
                        0.983133          58.763                0               0         0.057285        -19.1377                0               0
75.72                  0.0673393        -25.5933                0               0         0.155913         148.365                0               0
                       0.0562933        -22.4038                0               0         0.984191         56.9934                0               0
                        0.155913         148.365                0               0         0.067323        -25.4668                0               0
                        0.984199         56.9933                0               0        0.0563529        -21.9611                0               0
75.765                 0.0602855        -26.8037                0               0         0.154482         146.355                0               0
                       0.0552594        -25.3405                0               0         0.985201         55.1697                0               0
                        0.154482         146.355                0               0        0.0602709        -26.6602                0               0
                        0.985214         55.1705                0               0        0.0553113        -24.8831                0               0
75.81                  0.0529766        -27.8665                0               0         0.152842         144.304                0               0
                         0.05412        -28.3689                0               0         0.986107          53.297                0               0
                        0.152841         144.304                0               0        0.0529644        -27.7005                0               0
                        0.986124         53.2985                0               0        0.0541638        -27.8954                0               0
75.855                 0.0454388        -28.6643                0               0         0.151008         142.218                0               0
                       0.0528794        -31.4823                0               0         0.986867         51.3794                0               0
                        0.151007         142.218                0               0        0.0454299        -28.4677                0               0
                        0.986885         51.3809                0               0        0.0529146        -30.9914                0               0
75.9                    0.037706        -28.9866                0               0         0.148995         140.103                0               0
                       0.0515425         -34.676                0               0         0.987449         49.4211                0               0
                        0.148994         140.103                0               0         0.037702        -28.7458                0               0
                        0.987466         49.4222                0               0        0.0515686        -34.1662                0               0
75.945                 0.0298252        -28.4037                0               0         0.146812         137.964                0               0
                       0.0501144        -37.9477                0               0         0.987846         47.4267                0               0
                        0.146812         137.965                0               0        0.0298291        -28.0949                0               0
                        0.987857         47.4268                0               0        0.0501309        -37.4172                0               0
75.99                  0.0218793        -25.8672                0               0         0.144468         135.805                0               0
                       0.0486007        -41.2976                0               0         0.988072         45.4007                0               0
                        0.144467         135.805                0               0        0.0218969        -25.4427                0               0
                        0.988073         45.3994                0               0         0.048607        -40.7446                0               0
76.035                 0.0140873         -18.034                0               0         0.141964         133.626                0               0
                       0.0470066        -44.7294                0               0         0.988173         43.3474                0               0
                        0.141963         133.626                0               0        0.0141341        -17.3895                0               0
                         0.98816         43.3447                0               0        0.0470021        -44.1518                0               0
76.08                 0.00752928         10.2979                0               0         0.139305         131.428                0               0
                        0.045338        -48.2503                0               0         0.988222          41.271                0               0
                        0.139304         131.428                0               0       0.00765243         11.1591                0               0
                        0.988194         41.2669                0               0         0.045322        -47.6458                0               0
76.125                0.00775473         76.8228                0               0         0.136493         129.206                0               0
                       0.0436013        -51.8717                0               0         0.988313         39.1749                0               0
                        0.136492         129.206                0               0       0.00790867         76.2891                0               0
                        0.988273         39.1701                0               0        0.0435728        -51.2373                0               0
76.17                  0.0146449         103.782                0               0         0.133535         126.957                0               0
                        0.041804        -55.6091                0               0         0.988546         37.0625                0               0
                        0.133534         126.957                0               0        0.0147449         103.232                0               0
                        0.988502         37.0575                0               0         0.041762        -54.9417                0               0
76.215                 0.0228996          111.33                0               0         0.130446         124.672                0               0
                       0.0399561         -59.482                0               0         0.989011         34.9369                0               0
                        0.130445         124.672                0               0        0.0229746         110.933                0               0
                        0.988972         34.9326                0               0        0.0398993        -58.7782                0               0
76.26                  0.0315176         113.807                0               0         0.127252         122.346                0               0
                        0.038071        -63.5126                0               0         0.989765         32.8016                0               0
                        0.127251         122.346                0               0        0.0315796         113.503                0               0
                         0.98974         32.7986                0               0        0.0379976        -62.7687                0               0
76.305                 0.0402877         114.387                0               0         0.123993         119.973                0               0
                       0.0361654         -67.723                0               0         0.990807         30.6607                0               0
                        0.123993         119.973                0               0        0.0403417         114.141                0               0
                        0.990805         30.6595                0               0        0.0360736        -66.9353                0               0
76.35                  0.0491198         114.062                0               0         0.120721         117.559                0               0
                       0.0342594        -72.1307                0               0         0.992076         28.5194                0               0
                         0.12072         117.559                0               0        0.0491682         113.855                0               0
                        0.992097         28.5199                0               0        0.0341471        -71.2959                0               0
76.395                 0.0579488         113.229                0               0         0.117486          115.12                0               0
                       0.0323738        -76.7429                0               0         0.993442         26.3829                0               0
                        0.117485         115.121                0               0        0.0579931         113.049                0               0
                        0.993485          26.385                0               0        0.0322388        -75.8586                0               0
76.44                  0.0667144         112.068                0               0          0.11433         112.687                0               0
                       0.0305261        -81.5534                0               0         0.994731         24.2564                0               0
