! TOUCHSTONE file generated by CST MICROWAVE STUDIO
! Date and time: Mon Jun 21 17:06:50 2021
! Project name: HIPS_d_sweep.cst
! Parameters = {a=0.735; b=0.393; d=20.1206; fmax=120; fmin=75; phi=0; theta=0}
! Header version: 2018
! Port assignment regex: !\s*Touchstone port\s*([0-9]+)\s*=\s*(CST MWS port|CST DS port)\s*([0-9]+|Zmin|Zmax)\s*\(\"(.*)\"\)(\s*mode\s*([0-9]+))?.*
! Touchstone port assignment:
! Touchstone port 1 = CST MWS port Zmin ("") mode 1
! Touchstone port 2 = CST MWS port Zmin ("") mode 2
! Touchstone port 3 = CST MWS port Zmax ("") mode 1
! Touchstone port 4 = CST MWS port Zmax ("") mode 2
! S-Parameters are not renormalized. Unphysical impedance of 0 will be written to the file.
# GHz S MA R 0
75                       0.23086         37.4364                0               0         0.242819         37.1754                0               0
                       0.0715694         91.2956                0               0         0.939474        -55.2695                0               0
                        0.242818         37.1755                0               0         0.230903         37.4121                0               0
                        0.939478        -55.2703                0               0        0.0714959         91.2319                0               0
75.045                  0.230185         36.9174                0               0         0.245909         36.4565                0               0
                       0.0725093         90.4085                0               0         0.940089        -55.8752                0               0
                         0.24591          36.456                0               0         0.230229         36.8931                0               0
                        0.940093        -55.8761                0               0        0.0724352         90.3446                0               0
75.09                   0.229382         36.3359                0               0         0.248808         35.7229                0               0
                       0.0733838         89.4433                0               0         0.940191        -56.5459                0               0
                        0.248811          35.722                0               0         0.229426         36.3117                0               0
                        0.940195        -56.5468                0               0        0.0733091         89.3791                0               0
75.135                  0.228466           35.69                0               0         0.251485         34.9688                0               0
                       0.0741904         88.3882                0               0          0.93987        -57.2851                0               0
                        0.251489         34.9679                0               0         0.228511         35.6657                0               0
                        0.939874         -57.286                0               0        0.0741151         88.3237                0               0
75.18                    0.22745         34.9784                0               0         0.253914         34.1878                0               0
                       0.0749293         87.2318                0               0         0.939221        -58.0953                0               0
                        0.253918          34.187                0               0         0.227497         34.9542                0               0
                        0.939226        -58.0962                0               0        0.0748534         87.1668                0               0
75.225                  0.226349         34.2009                0               0         0.256074         33.3726                0               0
                       0.0756034         85.9629                0               0         0.938343         -58.978                0               0
                        0.256077          33.372                0               0         0.226395         34.1767                0               0
                        0.938348        -58.9789                0               0        0.0755269         85.8975                0               0
75.27                    0.22517         33.3578                0               0         0.257948         32.5157                0               0
                       0.0762184         84.5717                0               0         0.937329        -59.9336                0               0
                        0.257949         32.5154                0               0         0.225218         33.3336                0               0
                        0.937334        -59.9344                0               0        0.0761413         84.5057                0               0
75.315                  0.223922           32.45                0               0         0.259528         31.6094                0               0
                       0.0767824         83.0498                0               0         0.936268        -60.9616                0               0
                        0.259528         31.6095                0               0          0.22397         32.4257                0               0
                        0.936273        -60.9624                0               0        0.0767047          82.983                0               0
75.36                   0.222608         31.4786                0               0         0.260814         30.6464                0               0
                       0.0773054         81.3912                0               0         0.935241        -62.0606                0               0
                        0.260811         30.6468                0               0         0.222657         31.4542                0               0
                        0.935246        -62.0614                0               0        0.0772272         81.3235                0               0
75.405                   0.22123         30.4453                0               0         0.261811           29.62                0               0
                       0.0777986         79.5922                0               0         0.934318        -63.2287                0               0
                        0.261805         29.6206                0               0         0.221279         30.4209                0               0
                        0.934323        -63.2294                0               0        0.0777199         79.5235                0               0
75.45                   0.219785         29.3518                0               0         0.262534         28.5247                0               0
                       0.0782736          77.652                0               0          0.93356        -64.4631                0               0
                        0.262525         28.5254                0               0         0.219834         29.3273                0               0
                        0.933564        -64.4638                0               0        0.0781943         77.5822                0               0
75.495                  0.218268         28.2001                0               0            0.263         27.3559                0               0
                        0.078741         75.5725                0               0         0.933012        -65.7607                0               0
                        0.262989         27.3567                0               0         0.218318         28.1755                0               0
                        0.933016        -65.7614                0               0        0.0786612         75.5015                0               0
75.54                   0.216674          26.992                0               0         0.263234         26.1111                0               0
                       0.0792102         73.3582                0               0         0.932712        -67.1182                0               0
                        0.263222         26.1117                0               0         0.216725         26.9673                0               0
                        0.932716        -67.1189                0               0        0.0791299         73.2857                0               0
75.585                  0.214993         25.7295                0               0         0.263262         24.7888                0               0
                       0.0796882         71.0157                0               0         0.932682        -68.5319                0               0
                        0.263248         24.7894                0               0         0.215045         25.7047                0               0
                        0.932686        -68.5326                0               0        0.0796075         70.9417                0               0
75.63                   0.213215         24.4148                0               0         0.263109         23.3896                0               0
                       0.0801793         68.5536                0               0         0.932937        -69.9981                0               0
                        0.263095         23.3901                0               0         0.213267         24.3898                0               0
                         0.93294        -69.9988                0               0        0.0800983         68.4777                0               0
75.675                  0.211326         23.0498                0               0         0.262802         21.9154                0               0
                       0.0806849         65.9814                0               0         0.933478        -71.5132                0               0
                        0.262788         21.9157                0               0         0.211379         23.0247                0               0
                        0.933482        -71.5139                0               0        0.0806036         65.9037                0               0
75.72                   0.209314         21.6366                0               0         0.262362         20.3694                0               0
                       0.0812031         63.3097                0               0         0.934302        -73.0736                0               0
                         0.26235         20.3696                0               0         0.209368         21.6113                0               0
                        0.934305        -73.0743                0               0        0.0811217           63.23                0               0
75.765                  0.207164         20.1774                0               0         0.261811         18.7559                0               0
                       0.0817292         60.5495                0               0         0.935393        -74.6756                0               0
                          0.2618          18.756                0               0         0.207219          20.152                0               0
                        0.935397        -74.6764                0               0        0.0816478         60.4677                0               0
75.81                   0.204861         18.6746                0               0         0.261164         17.0803                0               0
                       0.0822561         57.7117                0               0         0.936731         -76.316                0               0
                        0.261155         17.0803                0               0         0.204917          18.649                0               0
                        0.936735        -76.3168                0               0        0.0821747         57.6276                0               0
75.855                   0.20239         17.1306                0               0         0.260434         15.3484                0               0
                       0.0827743         54.8068                0               0          0.93829        -77.9914                0               0
                        0.260428         15.3484                0               0         0.202448         17.1048                0               0
                        0.938294        -77.9923                0               0         0.082693         54.7205                0               0
75.9                    0.199737         15.5482                0               0         0.259631         13.5665                0               0
                       0.0832728         51.8453                0               0         0.940039        -79.6989                0               0
                        0.259627         13.5665                0               0         0.199795         15.5222                0               0
                        0.940044        -79.6998                0               0        0.0831919         51.7565                0               0
75.945                  0.196886         13.9305                0               0         0.258758         11.7411                0               0
                       0.0837397         48.8368                0               0         0.941943        -81.4356                0               0
                        0.258757         11.7412                0               0         0.196945         13.9042                0               0
                        0.941948        -81.4365                0               0        0.0836592         48.7455                0               0
75.99                   0.193825         12.2807                0               0         0.257819         9.87867                0               0
                       0.0841623         45.7905                0               0         0.943964        -83.1986                0               0
                         0.25782         9.87884                0               0         0.193885         12.2542                0               0
                         0.94397        -83.1996                0               0        0.0840824         45.6967                0               0
76.035                   0.19054         10.6027                0               0         0.256814         7.98574                0               0
                       0.0845285         42.7153                0               0         0.946063        -84.9853                0               0
                        0.256818         7.98601                0               0         0.190602          10.576                0               0
                        0.946069        -84.9863                0               0        0.0844493         42.6188                0               0
76.08                   0.187023         8.90087                0               0         0.255741         6.06856                0               0
                       0.0848262         39.6192                0               0         0.948197        -86.7932                0               0
                        0.255747         6.06894                0               0         0.187085         8.87383                0               0
                        0.948204        -86.7942                0               0        0.0847478         39.5201                0               0
76.125                  0.183263         7.17987                0               0         0.254599         4.13316                0               0
                       0.0850446         36.5102                0               0         0.950324        -88.6197                0               0
                        0.254607         4.13363                0               0         0.183326          7.1525                0               0
                        0.950332        -88.6208                0               0        0.0849672         36.4083                0               0
76.17                   0.179255         5.44513                0               0         0.253383         2.18527                0               0
                       0.0851742         33.3954                0               0         0.952403        -90.4625                0               0
                        0.253392          2.1858                0               0         0.179319          5.4174                0               0
                        0.952411        -90.4636                0               0        0.0850979         33.2907                0               0
76.215                  0.174996         3.70268                0               0         0.252091        0.230303                0               0
                       0.0852071         30.2819                0               0         0.954391        -92.3191                0               0
                        0.252101        0.230889                0               0          0.17506         3.67453                0               0
                        0.954399        -92.3203                0               0        0.0851321         30.1743                0               0
76.26                   0.170484         1.95919                0               0         0.250719        -1.72663                0               0
                       0.0851373         27.1759                0               0         0.956248        -94.1872                0               0
                         0.25073        -1.72603                0               0         0.170549          1.9306                0               0
                        0.956256        -94.1884                0               0        0.0850637         27.0655                0               0
76.305                  0.165722        0.222107                0               0         0.249266        -3.68076                0               0
                       0.0849606         24.0837                0               0         0.957933        -96.0643                0               0
                        0.249276        -3.68017                0               0         0.165788        0.193026                0               0
                        0.957941        -96.0655                0               0        0.0848884         23.9704                0               0
76.35                   0.160717        -1.50036                0               0         0.247729        -5.62764                0               0
                       0.0846747         21.0106                0               0         0.959409         -97.948                0               0
                        0.247739        -5.62708                0               0         0.160783        -1.52999                0               0
                        0.959418        -97.9492                0               0        0.0846041         20.8944                0               0
76.395                  0.155477        -3.19917                0               0         0.246109         -7.5631                0               0
                       0.0842791         17.9618                0               0         0.960642        -99.8358                0               0
                        0.246118         -7.5626                0               0         0.155543        -3.22939                0               0
                         0.96065         -99.837                0               0        0.0842102         17.8425                0               0
76.44                   0.150015        -4.86436                0               0         0.244405        -9.48329                0               0
                       0.0837753         14.9416                0               0         0.961598        -101.725                0               0
