! TOUCHSTONE file generated by CST MICROWAVE STUDIO
! Date and time: Mon Jun 21 17:06:47 2021
! Project name: HIPS_d_sweep.cst
! Parameters = {a=0.735; b=0.393; d=19.4673; fmax=120; fmin=75; phi=0; theta=0}
! Header version: 2018
! Port assignment regex: !\s*Touchstone port\s*([0-9]+)\s*=\s*(CST MWS port|CST DS port)\s*([0-9]+|Zmin|Zmax)\s*\(\"(.*)\"\)(\s*mode\s*([0-9]+))?.*
! Touchstone port assignment:
! Touchstone port 1 = CST MWS port Zmin ("") mode 1
! Touchstone port 2 = CST MWS port Zmin ("") mode 2
! Touchstone port 3 = CST MWS port Zmax ("") mode 1
! Touchstone port 4 = CST MWS port Zmax ("") mode 2
! S-Parameters are not renormalized. Unphysical impedance of 0 will be written to the file.
# GHz S MA R 0
75                       0.08128         95.8301                0               0         0.301945         109.527                0               0
                       0.0695873        -90.4932                0               0         0.947303         20.6545                0               0
                        0.301945         109.527                0               0        0.0812539         95.7683                0               0
                        0.947302         20.6553                0               0        0.0696058        -90.5893                0               0
75.045                 0.0827448          95.413                0               0         0.305113         108.906                0               0
                       0.0699189         -91.703                0               0         0.947069         20.1794                0               0
                        0.305113         108.906                0               0        0.0827179         95.3515                0               0
                         0.94706         20.1796                0               0        0.0699387         -91.799                0               0
75.09                  0.0844892         94.9837                0               0         0.307828         108.221                0               0
                       0.0701188        -93.0627                0               0         0.946333         19.5803                0               0
                        0.307828         108.221                0               0        0.0844616         94.9227                0               0
                        0.946322         19.5802                0               0        0.0701399        -93.1588                0               0
75.135                  0.086507         94.5445                0               0         0.310109         107.467                0               0
                       0.0701956        -94.5811                0               0         0.945347         18.8673                0               0
                        0.310109         107.468                0               0        0.0864785         94.4843                0               0
                        0.945336          18.867                0               0        0.0702181        -94.6773                0               0
75.18                  0.0887911         94.0952                0               0         0.311979         106.641                0               0
                       0.0701589        -96.2649                0               0         0.944289         18.0509                0               0
                        0.311979         106.641                0               0        0.0887617         94.0359                0               0
                         0.94428         18.0505                0               0        0.0701828        -96.3613                0               0
75.225                  0.091334         93.6331                0               0         0.313459         105.742                0               0
                       0.0700182        -98.1193                0               0         0.943277         17.1415                0               0
                         0.31346         105.742                0               0        0.0913036         93.5749                0               0
                         0.94327         17.1413                0               0        0.0700437         -98.216                0               0
75.27                  0.0941275          93.154                0               0         0.314574         104.769                0               0
                       0.0697832        -100.148                0               0         0.942379         16.1488                0               0
                        0.314574         104.769                0               0         0.094096         93.0969                0               0
                        0.942374         16.1488                0               0        0.0698105        -100.245                0               0
75.315                 0.0971631         92.6523                0               0         0.315342         103.723                0               0
                       0.0694633        -102.354                0               0          0.94163         15.0814                0               0
                        0.315342         103.723                0               0        0.0971306         92.5963                0               0
                        0.941627         15.0815                0               0        0.0694925        -102.451                0               0
75.36                   0.100432         92.1217                0               0         0.315785         102.607                0               0
                       0.0690675        -104.737                0               0         0.941037         13.9464                0               0
                        0.315784         102.607                0               0         0.100398         92.0668                0               0
                        0.941035         13.9467                0               0        0.0690989        -104.835                0               0
75.405                  0.103923         91.5556                0               0         0.315917         101.423                0               0
                       0.0686045        -107.299                0               0         0.940588         12.7498                0               0
                        0.315917         101.423                0               0         0.103888         91.5018                0               0
                        0.940585         12.7504                0               0        0.0686383        -107.397                0               0
75.45                   0.107627         90.9476                0               0         0.315754         100.175                0               0
                       0.0680825        -110.037                0               0         0.940259         11.4965                0               0
                        0.315754         100.175                0               0         0.107591         90.8949                0               0
                        0.940256         11.4972                0               0         0.068119        -110.136                0               0
75.495                  0.111531         90.2917                0               0         0.315309         98.8654                0               0
                       0.0675097         -112.95                0               0          0.94002           10.19                0               0
                        0.315309         98.8656                0               0         0.111493         90.2401                0               0
                        0.940016         10.1908                0               0        0.0675491         -113.05                0               0
75.54                   0.115621         89.5825                0               0         0.314593         97.4991                0               0
                        0.066894        -116.035                0               0          0.93984         8.83275                0               0
                        0.314593         97.4993                0               0         0.115582          89.532                0               0
                        0.939835         8.83364                0               0        0.0669366        -116.135                0               0
75.585                  0.119882         88.8157                0               0         0.313616         96.0798                0               0
                       0.0662432        -119.288                0               0         0.939692         7.42638                0               0
                        0.313616           96.08                0               0         0.119842         88.7662                0               0
                        0.939687         7.42726                0               0        0.0662892        -119.388                0               0
75.63                   0.124297         87.9877                0               0         0.312389         94.6115                0               0
                       0.0655653        -122.705                0               0         0.939557         5.97168                0               0
                        0.312388         94.6117                0               0         0.124256         87.9392                0               0
                        0.939552          5.9725                0               0         0.065615        -122.805                0               0
75.675                  0.128848         87.0963                0               0         0.310922         93.0982                0               0
                       0.0648687        -126.279                0               0         0.939428          4.4689                0               0
                        0.310922         93.0984                0               0         0.128805         87.0486                0               0
                        0.939424         4.46966                0               0        0.0649221        -126.379                0               0
75.72                   0.133515         86.1401                0               0         0.309228         91.5438                0               0
                       0.0641618        -130.004                0               0         0.939313         2.91815                0               0
                        0.309228          91.544                0               0         0.133471         86.0934                0               0
                         0.93931         2.91886                0               0        0.0642192        -130.104                0               0
75.765                  0.138275         85.1193                0               0          0.30732         89.9523                0               0
                       0.0634537        -133.874                0               0         0.939238         1.31977                0               0
                         0.30732         89.9525                0               0          0.13823         85.0733                0               0
                        0.939236         1.32046                0               0        0.0635152        -133.973                0               0
75.81                   0.143107         84.0349                0               0         0.305214         88.3277                0               0
                       0.0627538        -137.879                0               0          0.93925       -0.325206                0               0
                        0.305214         88.3278                0               0          0.14306         83.9897                0               0
                        0.939248       -0.324498                0               0        0.0628195        -137.977                0               0
75.855                  0.147987          82.889                0               0         0.302929         86.6738                0               0
                       0.0620721        -142.011                0               0         0.939408        -2.01453                0               0
                        0.302929         86.6739                0               0         0.147939         82.8444                0               0
                        0.939403         -2.0138                0               0         0.062142        -142.108                0               0
75.9                    0.152891         81.6847                0               0         0.300486         84.9946                0               0
                       0.0614188         -146.26                0               0          0.93979        -3.74431                0               0
                        0.300486         84.9947                0               0         0.152842         81.6408                0               0
                        0.939779        -3.74366                0               0         0.061493        -146.355                0               0
75.945                  0.157795         80.4259                0               0         0.297908         83.2945                0               0
                       0.0608047        -150.614                0               0         0.940494        -5.50849                0               0
                        0.297907         83.2946                0               0         0.157746         80.3826                0               0
                         0.94047        -5.50821                0               0        0.0608831        -150.707                0               0
75.99                   0.162678         79.1171                0               0         0.295221         81.5778                0               0
                       0.0602402        -155.062                0               0         0.941672        -7.29713                0               0
                         0.29522         81.5778                0               0         0.162627         79.0744                0               0
                        0.941627        -7.29815                0               0        0.0603228        -155.152                0               0
76.035                  0.167518         77.7633                0               0         0.292454         79.8493                0               0
                       0.0597358         -159.59                0               0          0.94367        -9.08619                0               0
                        0.292453         79.8493                0               0         0.167466         77.7211                0               0
                        0.943599        -9.09169                0               0        0.0598225        -159.678                0               0
76.08                   0.172293         76.3697                0               0         0.289637         78.1141                0               0
                       0.0593014        -164.184                0               0         0.947097        -10.7417                0               0
                        0.289636         78.1141                0               0          0.17224         76.3279                0               0
                        0.947199        -10.7632                0               0        0.0593922        -164.269                0               0
76.125                  0.176987         74.9415                0               0         0.286801         76.3775                0               0
                       0.0589459        -168.829                0               0         0.940195        -12.2223                0               0
                        0.286801         76.3775                0               0         0.176932            74.9                0               0
                        0.940267        -12.1946                0               0        0.0590406        -168.909                0               0
76.17                    0.18158         73.4837                0               0         0.283981         74.6447                0               0
                       0.0586767        -173.507                0               0         0.939654        -14.4593                0               0
                         0.28398         74.6447                0               0         0.181525         73.4425                0               0
                        0.939648        -14.4586                0               0        0.0587751        -173.584                0               0
76.215                  0.186058         72.0008                0               0         0.281211         72.9202                0               0
                       0.0584989        -178.202                0               0         0.941986        -16.3991                0               0
                         0.28121         72.9204                0               0         0.186002         71.9598                0               0
                        0.942022        -16.3977                0               0        0.0586009        -178.274                0               0
76.26                   0.190405         70.4969                0               0         0.278526         71.2072                0               0
                       0.0584152         177.105                0               0         0.943747        -18.2674                0               0
                        0.278526         71.2075                0               0         0.190347         70.4561                0               0
                         0.94378        -18.2653                0               0        0.0585205         177.038                0               0
76.305                  0.194605         68.9754                0               0         0.275963         69.5054                0               0
                       0.0584249         172.433                0               0         0.945081        -20.1098                0               0
                        0.275963         69.5059                0               0         0.194546         68.9348                0               0
                        0.945104        -20.1076                0               0        0.0585332         172.371                0               0
76.35                   0.198643         67.4389                0               0         0.273546         67.8095                0               0
                       0.0585234         167.798                0               0         0.946047        -21.9356                0               0
                        0.273546         67.8103                0               0         0.198583         67.3984                0               0
                        0.946061        -21.9334                0               0        0.0586345         167.741                0               0
76.395                    0.2025         65.8894                0               0         0.271266         66.1081                0               0
                       0.0587025         163.218                0               0         0.946644        -23.7474                0               0
                        0.271268         66.1091                0               0         0.202439         65.8489                0               0
                        0.946652        -23.7455                0               0         0.058816         163.166                0               0
76.44                   0.206159         64.3282                0               0         0.269053         64.3879                0               0
                       0.0589499         158.707                0               0         0.946859        -25.5462                0               0
