! TOUCHSTONE file generated by CST MICROWAVE STUDIO
! Date and time: Mon Jun 21 17:07:45 2021
! Project name: HIPS_d_sweep.cst
! Parameters = {a=0.735; b=0.393; d=26; fmax=120; fmin=75; phi=0; theta=0}
! Header version: 2018
! Port assignment regex: !\s*Touchstone port\s*([0-9]+)\s*=\s*(CST MWS port|CST DS port)\s*([0-9]+|Zmin|Zmax)\s*\(\"(.*)\"\)(\s*mode\s*([0-9]+))?.*
! Touchstone port assignment:
! Touchstone port 1 = CST MWS port Zmin ("") mode 1
! Touchstone port 2 = CST MWS port Zmin ("") mode 2
! Touchstone port 3 = CST MWS port Zmax ("") mode 1
! Touchstone port 4 = CST MWS port Zmax ("") mode 2
! S-Parameters are not renormalized. Unphysical impedance of 0 will be written to the file.
# GHz S MA R 0
75                      0.226133          67.214                0               0         0.122404        -115.563                0               0
                       0.0463505         30.4663                0               0         0.965263        -21.4865                0               0
                        0.122404        -115.563                0               0         0.226102           67.35                0               0
                        0.965262        -21.4871                0               0        0.0464926         30.3768                0               0
75.045                  0.227117         66.5418                0               0         0.118174        -116.384                0               0
                       0.0453589         30.1943                0               0         0.965645        -22.2266                0               0
                        0.118174        -116.384                0               0         0.227088         66.6779                0               0
                        0.965645        -22.2271                0               0        0.0454995         30.0989                0               0
75.09                   0.228206         65.7645                0               0         0.114248         -117.33                0               0
                       0.0444774         29.7595                0               0         0.965863         -23.062                0               0
                        0.114249        -117.329                0               0         0.228176         65.9009                0               0
                        0.965862        -23.0626                0               0        0.0446166         29.6587                0               0
75.135                  0.229402         64.8838                0               0         0.110686        -118.382                0               0
                       0.0437037         29.1668                0               0          0.96595        -23.9926                0               0
                        0.110687        -118.383                0               0         0.229371         65.0206                0               0
                        0.965949        -23.9931                0               0        0.0438417         29.0611                0               0
75.18                   0.230702          63.902                0               0         0.107526        -119.529                0               0
                       0.0430338         28.4194                0               0         0.965934        -25.0174                0               0
                        0.107528         -119.53                0               0         0.230669         64.0392                0               0
                        0.965934        -25.0179                0               0        0.0431708         28.3093                0               0
75.225                  0.232094         62.8215                0               0         0.104788         -120.76                0               0
                       0.0424624         27.5188                0               0         0.965841        -26.1352                0               0
                        0.104791        -120.761                0               0          0.23206         62.9591                0               0
                        0.965841        -26.1358                0               0        0.0425985         27.4051                0               0
75.27                   0.233563          61.645                0               0         0.102477        -122.068                0               0
                        0.041983         26.4655                0               0          0.96569        -27.3444                0               0
                         0.10248        -122.069                0               0         0.233528         61.7829                0               0
                        0.965691         -27.345                0               0        0.0421183         26.3489                0               0
75.315                  0.235088         60.3749                0               0         0.100587        -123.449                0               0
                       0.0415881         25.2586                0               0         0.965498        -28.6431                0               0
                         0.10059        -123.449                0               0         0.235052         60.5132                0               0
                        0.965498        -28.6436                0               0        0.0417229         25.1399                0               0
75.36                   0.236643         59.0142                0               0        0.0991031        -124.898                0               0
                       0.0412693         23.8966                0               0         0.965276        -30.0288                0               0
                       0.0991062        -124.898                0               0         0.236606         59.1528                0               0
                        0.965277        -30.0294                0               0        0.0414037         23.7767                0               0
75.405                  0.238198         57.5657                0               0        0.0980064        -126.412                0               0
                       0.0410175         22.3776                0               0         0.965034        -31.4989                0               0
                       0.0980092        -126.413                0               0         0.238162         57.7047                0               0
                        0.965035        -31.4995                0               0        0.0411517         22.2572                0               0
75.45                   0.239723         56.0324                0               0        0.0972747        -127.989                0               0
                       0.0408228         20.6995                0               0          0.96478        -33.0505                0               0
                       0.0972771        -127.989                0               0         0.239687         56.1718                0               0
                         0.96478        -33.0511                0               0         0.040957         20.5796                0               0
75.495                  0.241182         54.4176                0               0         0.096885        -129.625                0               0
                       0.0406748         18.8607                0               0         0.964518        -34.6805                0               0
                        0.096887        -129.625                0               0         0.241147         54.5574                0               0
                        0.964518        -34.6811                0               0        0.0408092         18.7419                0               0
75.54                    0.24254         52.7248                0               0        0.0968151        -131.317                0               0
                       0.0405626         16.8598                0               0         0.964253        -36.3854                0               0
                       0.0968165        -131.317                0               0         0.242507          52.865                0               0
                        0.964254         -36.386                0               0        0.0406974         16.7429                0               0
75.585                  0.243763         50.9577                0               0        0.0970437        -133.061                0               0
                       0.0404752         14.6963                0               0          0.96399        -38.1616                0               0
                       0.0970447        -133.061                0               0          0.24373         51.0984                0               0
                         0.96399        -38.1622                0               0        0.0406106         14.5821                0               0
75.63                   0.244816         49.1203                0               0        0.0975514        -134.852                0               0
                       0.0404014         12.3705                0               0         0.963732        -40.0054                0               0
                       0.0975521        -134.852                0               0         0.244783         49.2617                0               0
                        0.963732        -40.0059                0               0        0.0405375         12.2598                0               0
75.675                  0.245664         47.2169                0               0        0.0983207        -136.688                0               0
                       0.0403302         9.88357                0               0         0.963485        -41.9129                0               0
                       0.0983211        -136.687                0               0         0.245632         47.3589                0               0
                        0.963485        -41.9134                0               0        0.0404672         9.77696                0               0
75.72                   0.246277         45.2519                0               0        0.0993358        -138.562                0               0
                       0.0402511         7.23743                0               0         0.963255        -43.8802                0               0
                        0.099336        -138.562                0               0         0.246245         45.3947                0               0
                        0.963254        -43.8807                0               0         0.040389         7.13558                0               0
75.765                  0.246626         43.2298                0               0         0.100583        -140.473                0               0
                        0.040154         4.43464                0               0         0.963049        -45.9033                0               0
                        0.100583        -140.472                0               0         0.246594         43.3735                0               0
                        0.963048        -45.9038                0               0        0.0402929         4.33817                0               0
75.81                   0.246684         41.1554                0               0         0.102049        -142.414                0               0
                       0.0400298         1.47813                0               0         0.962877         -47.978                0               0
                        0.102049        -142.414                0               0         0.246651            41.3                0               0
                        0.962876        -47.9785                0               0        0.0401698         1.38765                0               0
75.855                  0.246429         39.0333                0               0         0.103722        -144.384                0               0
                       0.0398705        -1.62903                0               0         0.962747        -50.1004                0               0
                        0.103722        -144.384                0               0         0.246396          39.179                0               0
                        0.962746        -50.1009                0               0        0.0400115        -1.71292                0               0
75.9                    0.245841          36.868                0               0         0.105592        -146.379                0               0
                       0.0396688        -4.88395                0               0         0.962671        -52.2664                0               0
                        0.105592        -146.378                0               0         0.245807         37.0149                0               0
                        0.962669        -52.2669                0               0        0.0398107        -4.96064                0               0
75.945                  0.244903         34.6642                0               0         0.107647        -148.394                0               0
                       0.0394189        -8.28421                0               0         0.962658        -54.4719                0               0
                        0.107647        -148.394                0               0         0.244868         34.8124                0               0
                        0.962656        -54.4724                0               0        0.0395617        -8.35308                0               0
75.99                   0.243601         32.4263                0               0         0.109877        -150.428                0               0
                        0.039116        -11.8281                0               0         0.962718         -56.713                0               0
                        0.109877        -150.428                0               0         0.243565         32.5759                0               0
                        0.962716        -56.7134                0               0        0.0392595        -11.8886                0               0
76.035                  0.241924         30.1587                0               0         0.112269        -152.479                0               0
                       0.0387565        -15.5151                0               0          0.96286        -58.9856                0               0
                        0.112269        -152.478                0               0         0.241888         30.3097                0               0
                        0.962857        -58.9861                0               0        0.0389004        -15.5664                0               0
76.08                   0.239863         27.8655                0               0         0.114812        -154.543                0               0
                       0.0383378        -19.3455                0               0         0.963089        -61.2859                0               0
                        0.114812        -154.543                0               0         0.239826         28.0181                0               0
                        0.963086        -61.2864                0               0        0.0384821         -19.387                0               0
76.125                  0.237411          25.551                0               0         0.117492         -156.62                0               0
                       0.0378587        -23.3213                0               0         0.963407        -63.6099                0               0
                        0.117492         -156.62                0               0         0.237374         25.7054                0               0
                        0.963404        -63.6104                0               0        0.0380029        -23.3523                0               0
76.17                   0.234563         23.2195                0               0         0.120294        -158.709                0               0
                       0.0373186        -27.4455                0               0         0.963812        -65.9538                0               0
                        0.120294        -158.709                0               0         0.234527         23.3757                0               0
                        0.963809        -65.9543                0               0        0.0374624        -27.4653                0               0
76.215                  0.231317         20.8753                0               0         0.123201        -160.809                0               0
                       0.0367182         -31.723                0               0         0.964299        -68.3138                0               0
                        0.123201        -160.809                0               0         0.231281         21.0335                0               0
                        0.964295        -68.3143                0               0        0.0368613        -31.7306                0               0
76.26                   0.227673         18.5226                0               0         0.126197         -162.92                0               0
                       0.0360593        -36.1595                0               0         0.964855        -70.6861                0               0
                        0.126197         -162.92                0               0         0.227638          18.683                0               0
                        0.964852        -70.6866                0               0        0.0362013        -36.1542                0               0
76.305                  0.223633         16.1662                0               0         0.129264        -165.042                0               0
                        0.035345        -40.7624                0               0         0.965467        -73.0671                0               0
                        0.129264        -165.042                0               0         0.223599         16.3289                0               0
                        0.965463        -73.0676                0               0        0.0354853        -40.7432                0               0
76.35                   0.219204         13.8106                0               0         0.132384        -167.176                0               0
                       0.0345798        -45.5398                0               0         0.966117        -75.4532                0               0
                        0.132383        -167.176                0               0          0.21917         13.9759                0               0
                        0.966113        -75.4537                0               0        0.0347179        -45.5058                0               0
76.395                  0.214396         11.4604                0               0         0.135539         -169.32                0               0
                       0.0337699        -50.5006                0               0          0.96679        -77.8409                0               0
                        0.135539         -169.32                0               0         0.214362         11.6286                0               0
                        0.966786        -77.8414                0               0        0.0339052        -50.4507                0               0
76.44                   0.209224         9.12018                0               0         0.138715        -171.475                0               0
                        0.032924        -55.6538                0               0         0.967474        -80.2269                0               0
