! TOUCHSTONE file generated by CST MICROWAVE STUDIO
! Date and time: Mon Jun 21 17:06:46 2021
! Project name: HIPS_d_sweep.cst
! Parameters = {a=0.735; b=0.393; d=19.3166; fmax=120; fmin=75; phi=0; theta=0}
! Header version: 2018
! Port assignment regex: !\s*Touchstone port\s*([0-9]+)\s*=\s*(CST MWS port|CST DS port)\s*([0-9]+|Zmin|Zmax)\s*\(\"(.*)\"\)(\s*mode\s*([0-9]+))?.*
! Touchstone port assignment:
! Touchstone port 1 = CST MWS port Zmin ("") mode 1
! Touchstone port 2 = CST MWS port Zmin ("") mode 2
! Touchstone port 3 = CST MWS port Zmax ("") mode 1
! Touchstone port 4 = CST MWS port Zmax ("") mode 2
! S-Parameters are not renormalized. Unphysical impedance of 0 will be written to the file.
# GHz S MA R 0
75                     0.0291034         56.7084                0               0         0.316521         128.427                0               0
                       0.0827674        -53.5773                0               0         0.944519         38.5906                0               0
                        0.316522         128.426                0               0        0.0292547         56.7354                0               0
                         0.94452         38.5919                0               0        0.0827161        -53.4923                0               0
75.045                 0.0300132         59.3481                0               0         0.319554         127.779                0               0
                       0.0830095        -54.6556                0               0         0.943906         38.0192                0               0
                         0.31956          127.78                0               0         0.030166         59.3595                0               0
                        0.943905         38.0206                0               0        0.0829562        -54.5707                0               0
75.09                  0.0310932         62.1757                0               0         0.322252         127.071                0               0
                       0.0831331        -55.8585                0               0         0.943115         37.3652                0               0
                        0.322259         127.071                0               0        0.0312471         62.1705                0               0
                        0.943114         37.3665                0               0        0.0830778        -55.7737                0               0
75.135                 0.0323692         65.1336                0               0         0.324608         126.296                0               0
                        0.083142        -57.1942                0               0         0.942235         36.6301                0               0
                        0.324616         126.297                0               0        0.0325238         65.1116                0               0
                        0.942233         36.6314                0               0        0.0830846        -57.1094                0               0
75.18                  0.0338673         68.1582                0               0         0.326623         125.452                0               0
                       0.0830408        -58.6699                0               0          0.94134          35.816                0               0
                        0.326629         125.452                0               0         0.034022         68.1199                0               0
                        0.941339         35.8174                0               0        0.0829814         -58.585                0               0
75.225                 0.0356121         71.1835                0               0         0.328298         124.535                0               0
                       0.0828347        -60.2916                0               0         0.940493         34.9258                0               0
                        0.328301         124.535                0               0        0.0357663           71.13                0               0
                        0.940493         34.9271                0               0         0.082773        -60.2065                0               0
75.27                  0.0376262         74.1447                0               0         0.329637         123.544                0               0
                       0.0825287        -62.0643                0               0          0.93974         33.9621                0               0
                        0.329637         123.544                0               0        0.0377793         74.0777                0               0
                        0.939741         33.9635                0               0        0.0824647        -61.9788                0               0
75.315                 0.0399283          76.982                0               0         0.330648         122.477                0               0
                       0.0821282        -63.9915                0               0         0.939118         32.9282                0               0
                        0.330646         122.477                0               0        0.0400798         76.9035                0               0
                        0.939119         32.9296                0               0        0.0820615        -63.9056                0               0
75.36                   0.042533         79.6435                0               0         0.331339         121.335                0               0
                       0.0816381        -66.0759                0               0         0.938648         31.8272                0               0
                        0.331335         121.335                0               0        0.0426824         79.5557                0               0
                         0.93865         31.8286                0               0        0.0815686        -65.9894                0               0
75.405                 0.0454502         82.0871                0               0          0.33172         120.119                0               0
                       0.0810631        -68.3189                0               0         0.938344         30.6622                0               0
                        0.331715         120.118                0               0        0.0455972         81.9921                0               0
                        0.938346         30.6636                0               0        0.0809904        -68.2317                0               0
75.45                  0.0486848         84.2814                0               0         0.331801         118.831                0               0
                       0.0804078        -70.7206                0               0         0.938207         29.4362                0               0
                        0.331796          118.83                0               0        0.0488291         84.1812                0               0
                        0.938209         29.4376                0               0        0.0803316        -70.6326                0               0
75.495                 0.0522365         86.2052                0               0         0.331592         117.473                0               0
                       0.0796762        -73.2803                0               0          0.93823         28.1522                0               0
                        0.331588         117.473                0               0         0.052378         86.1016                0               0
                        0.938232         28.1536                0               0        0.0795962        -73.1914                0               0
75.54                  0.0560999         87.8469                0               0         0.331104         116.051                0               0
                       0.0788726         -75.996                0               0         0.938401         26.8129                0               0
                        0.331101         116.051                0               0        0.0562386         87.7415                0               0
                        0.938402         26.8143                0               0        0.0787884         -75.906                0               0
75.585                 0.0602645         89.2028                0               0         0.330346         114.567                0               0
                       0.0780011        -78.8645                0               0         0.938699         25.4208                0               0
                        0.330346         114.567                0               0        0.0604005         89.0967                0               0
                        0.938699         25.4223                0               0        0.0779123        -78.7735                0               0
75.63                  0.0647148         90.2759                0               0         0.329328         113.027                0               0
                       0.0770658        -81.8818                0               0         0.939097         23.9784                0               0
                        0.329332         113.028                0               0        0.0648482         90.1702                0               0
                        0.939097         23.9798                0               0        0.0769722        -81.7898                0               0
75.675                 0.0694304         91.0746                0               0         0.328062         111.437                0               0
                       0.0760716        -85.0431                0               0         0.939567         22.4878                0               0
                         0.32807         111.438                0               0        0.0695613         90.9698                0               0
                        0.939565         22.4891                0               0        0.0759728        -84.9499                0               0
75.72                  0.0743862         91.6114                0               0         0.326558         109.802                0               0
                       0.0750235        -88.3423                0               0         0.940075         20.9508                0               0
                        0.326568         109.803                0               0        0.0745148         91.5081                0               0
                        0.940072         20.9521                0               0        0.0749192        -88.2482                0               0
75.765                 0.0795529         91.9019                0               0         0.324826         108.128                0               0
                       0.0739275         -91.773                0               0         0.940586         19.3692                0               0
                        0.324839         108.129                0               0        0.0796794         91.8004                0               0
                        0.940583         19.3705                0               0        0.0738176        -91.6781                0               0
75.81                   0.084898         91.9642                0               0         0.322878         106.421                0               0
                       0.0727904         -95.328                0               0         0.941066         17.7445                0               0
                        0.322894         106.422                0               0        0.0850224         91.8647                0               0
                        0.941063         17.7458                0               0        0.0726746        -95.2325                0               0
75.855                 0.0903866         91.8181                0               0         0.320727         104.687                0               0
                       0.0716199             -99                0               0         0.941482         16.0781                0               0
                        0.320745         104.689                0               0         0.090509         91.7207                0               0
                        0.941478         16.0793                0               0        0.0714981        -98.9041                0               0
75.9                   0.0959829         91.4843                0               0         0.318388         102.931                0               0
                       0.0704247        -102.781                0               0         0.941804          14.371                0               0
                        0.318405         102.933                0               0        0.0961034         91.3891                0               0
                          0.9418         14.3722                0               0        0.0702968        -102.685                0               0
75.945                  0.101652          90.984                0               0         0.315875          101.16                0               0
                       0.0692142        -106.665                0               0         0.942008         12.6246                0               0
                         0.31589         101.162                0               0         0.101771          90.891                0               0
                        0.942005         12.6258                0               0        0.0690801        -106.569                0               0
75.99                   0.107362         90.3381                0               0         0.313204         99.3773                0               0
                       0.0679988        -110.644                0               0          0.94208         10.8401                0               0
                        0.313215         99.3785                0               0         0.107479         90.2473                0               0
                        0.942078         10.8413                0               0        0.0678585        -110.549                0               0
76.035                  0.113085         89.5661                0               0         0.310393         97.5874                0               0
                       0.0667893        -114.712                0               0         0.942018         9.01931                0               0
                          0.3104         97.5882                0               0           0.1132         89.4775                0               0
                        0.942018         9.02063                0               0        0.0666428        -114.619                0               0
76.08                   0.118798          88.686                0               0         0.307463         95.7935                0               0
                       0.0655971        -118.865                0               0         0.941831         7.16504                0               0
                        0.307463         95.7937                0               0         0.118911         88.5997                0               0
                        0.941834         7.16651                0               0        0.0654444        -118.773                0               0
76.125                  0.124486         87.7135                0               0         0.304434         93.9978                0               0
                       0.0644338          -123.1                0               0         0.941544         5.28166                0               0
                        0.304426         93.9972                0               0         0.124598         87.6292                0               0
                         0.94155         5.28334                0               0        0.0642749        -123.011                0               0
76.17                   0.130139         86.6611                0               0          0.30133         92.2011                0               0
                       0.0633108        -127.414                0               0         0.941192         3.37608                0               0
                        0.301314         92.1997                0               0          0.13025         86.5788                0               0
                        0.941201         3.37804                0               0        0.0631457        -127.328                0               0
76.215                  0.135755         85.5388                0               0         0.298177         90.4032                0               0
                       0.0622401         -131.81                0               0         0.940814         1.45881                0               0
                        0.298154         90.4011                0               0         0.135864         85.4584                0               0
                        0.940827         1.46109                0               0        0.0620689        -131.728                0               0
76.26                   0.141336         84.3539                0               0         0.295006         88.6025                0               0
                        0.061234        -136.288                0               0         0.940451       -0.455122                0               0
                        0.294976         88.5997                0               0         0.141444         84.2752                0               0
                        0.940468       -0.452567                0               0        0.0610565        -136.211                0               0
76.305                  0.146886         83.1117                0               0         0.291848         86.7966                0               0
                       0.0603056        -140.853                0               0         0.940153        -2.34599                0               0
                        0.291816         86.7933                0               0         0.146993         83.0345                0               0
                        0.940172        -2.34327                0               0        0.0601219         -140.78                0               0
76.35                   0.152413         81.8175                0               0         0.288742         84.9827                0               0
                       0.0594701        -145.505                0               0         0.940017        -4.19113                0               0
                        0.288711         84.9793                0               0         0.152519         81.7415                0               0
                        0.940038        -4.18847                0               0        0.0592801        -145.439                0               0
76.395                  0.157924         80.4779                0               0         0.285726         83.1594                0               0
                        0.058745        -150.243                0               0         0.940264         -5.9716                0               0
                        0.285702         83.1565                0               0          0.15803         80.4031                0               0
                        0.940284        -5.96928                0               0        0.0585485        -150.183                0               0
76.44                   0.163417         79.1038                0               0         0.282838          81.328                0               0
                       0.0581494        -155.054                0               0         0.941253        -7.68663                0               0
