! TOUCHSTONE file generated by CST MICROWAVE STUDIO
! Date and time: Mon Jun 21 17:07:09 2021
! Project name: HIPS_d_sweep.cst
! Parameters = {a=0.735; b=0.393; d=22.2814; fmax=120; fmin=75; phi=0; theta=0}
! Header version: 2018
! Port assignment regex: !\s*Touchstone port\s*([0-9]+)\s*=\s*(CST MWS port|CST DS port)\s*([0-9]+|Zmin|Zmax)\s*\(\"(.*)\"\)(\s*mode\s*([0-9]+))?.*
! Touchstone port assignment:
! Touchstone port 1 = CST MWS port Zmin ("") mode 1
! Touchstone port 2 = CST MWS port Zmin ("") mode 2
! Touchstone port 3 = CST MWS port Zmax ("") mode 1
! Touchstone port 4 = CST MWS port Zmax ("") mode 2
! S-Parameters are not renormalized. Unphysical impedance of 0 will be written to the file.
# GHz S MA R 0
75                     0.0458192        -29.3051                0               0         0.124869         144.131                0               0
                         0.04688         -29.634                0               0         0.990007         53.1355                0               0
                        0.124869          144.13                0               0         0.045783        -29.6043                0               0
                        0.990008         53.1377                0               0        0.0468712        -30.0239                0               0
75.045                 0.0434122        -29.2163                0               0         0.128655         143.383                0               0
                       0.0474312        -30.5673                0               0         0.989608         52.4639                0               0
                        0.128656         143.382                0               0        0.0433741        -29.5314                0               0
                         0.98961         52.4661                0               0        0.0474247        -30.9538                0               0
75.09                   0.040647        -29.0894                0               0         0.132035         142.557                0               0
                       0.0478436        -31.6609                0               0         0.989256         51.7045                0               0
                        0.132035         142.556                0               0        0.0406063        -29.4253                0               0
                        0.989258         51.7067                0               0        0.0478396        -32.0453                0               0
75.135                 0.0375292        -28.8738                0               0         0.135011         141.645                0               0
                       0.0481185         -32.917                0               0         0.988956         50.8582                0               0
                        0.135011         141.644                0               0        0.0374852        -29.2366                0               0
                        0.988958         50.8604                0               0        0.0481175        -33.3007                0               0
75.18                  0.0340664        -28.4903                0               0         0.137589         140.642                0               0
                       0.0482575        -34.3373                0               0          0.98871         49.9261                0               0
                         0.13759         140.641                0               0        0.0340178        -28.8888                0               0
                        0.988712         49.9283                0               0        0.0482598        -34.7215                0               0
75.225                 0.0302698         -27.809                0               0         0.139776         139.545                0               0
                       0.0482621        -35.9224                0               0         0.988519         48.9094                0               0
                        0.139777         139.545                0               0         0.030215        -28.2552                0               0
                        0.988523         48.9116                0               0        0.0482681        -36.3084                0               0
75.27                  0.0261575        -26.6003                0               0         0.141579         138.355                0               0
                       0.0481336        -37.6725                0               0         0.988383         47.8097                0               0
                        0.141579         138.355                0               0         0.026094        -27.1126                0               0
                        0.988387         47.8119                0               0        0.0481436        -38.0615                0               0
75.315                  0.021762        -24.4209                0               0         0.143005         137.073                0               0
                       0.0478733        -39.5873                0               0         0.988297         46.6285                0               0
                        0.143005         137.073                0               0        0.0216855        -25.0273                0               0
                        0.988302         46.6307                0               0        0.0478878        -39.9805                0               0
75.36                  0.0171517        -20.3024                0               0         0.144062         135.702                0               0
                       0.0474828        -41.6663                0               0         0.988259         45.3679                0               0
                        0.144062         135.702                0               0        0.0170544        -21.0472                0               0
                        0.988263         45.3701                0               0        0.0475021         -42.065                0               0
75.405                 0.0125021        -11.7711                0               0         0.144758         134.245                0               0
                       0.0469636         -43.909                0               0          0.98826         44.0298                0               0
                        0.144758         134.245                0               0        0.0123685        -12.7063                0               0
                        0.988265          44.032                0               0        0.0469882        -44.3144                0               0
75.45                 0.00840546         8.39541                0               0         0.145101         132.707                0               0
                       0.0463177         -46.315                0               0         0.988295         42.6167                0               0
                        0.145101         132.706                0               0       0.00820645         7.43001                0               0
                          0.9883         42.6189                0               0         0.046348        -46.7285                0               0
75.495                0.00694137         51.0896                0               0           0.1451         131.093                0               0
                       0.0455474         -48.884                0               0         0.988356         41.1311                0               0
                          0.1451         131.091                0               0       0.00670129         51.4349                0               0
                         0.98836         41.1334                0               0        0.0455839        -49.3068                0               0
75.54                  0.0099965         87.5829                0               0         0.144764         129.407                0               0
                       0.0446557        -51.6162                0               0         0.988433          39.576                0               0
                        0.144765         129.406                0               0       0.00983379         88.6321                0               0
                        0.988437         39.5783                0               0         0.044699        -52.0498                0               0
75.585                 0.0153887         102.945                0               0         0.144106         127.657                0               0
                       0.0436465        -54.5125                0               0         0.988517         37.9544                0               0
                        0.144107         127.655                0               0        0.0152858         103.771                0               0
                        0.988521         37.9567                0               0        0.0436972        -54.9582                0               0
75.63                  0.0216658         109.386                0               0         0.143138         125.846                0               0
                       0.0425243        -57.5743                0               0         0.988599         36.2698                0               0
                        0.143138         125.844                0               0         0.021595         110.004                0               0
                        0.988602          36.272                0               0        0.0425832        -58.0338                0               0
75.675                 0.0284201         112.234                0               0         0.141872         123.982                0               0
                       0.0412951        -60.8045                0               0         0.988669         34.5256                0               0
                        0.141873          123.98                0               0        0.0283683         112.715                0               0
                        0.988672         34.5279                0               0        0.0413628        -61.2792                0               0
75.72                  0.0355084         113.354                0               0         0.140326          122.07                0               0
                       0.0399659        -64.2072                0               0         0.988718         32.7258                0               0
                        0.140327         122.067                0               0         0.035469         113.742                0               0
                        0.988722         32.7281                0               0        0.0400431        -64.6989                0               0
75.765                 0.0428588         113.512                0               0         0.138517         120.115                0               0
                       0.0385448        -67.7884                0               0         0.988738         30.8744                0               0
                        0.138517         120.112                0               0        0.0428282         113.835                0               0
                        0.988741         30.8767                0               0        0.0386324        -68.2986                0               0
75.81                  0.0504229         113.076                0               0         0.136462         118.122                0               0
                       0.0370414        -71.5562                0               0         0.988719         28.9756                0               0
                        0.136463          118.12                0               0         0.050399         113.351                0               0
                        0.988723         28.9779                0               0        0.0371404        -72.0869                0               0
75.855                 0.0581612         112.242                0               0         0.134184         116.099                0               0
                       0.0354669        -75.5219                0               0         0.988656         27.0338                0               0
                        0.134184         116.097                0               0        0.0581424         112.481                0               0
                         0.98866         27.0361                0               0        0.0355781        -76.0746                0               0
75.9                   0.0660373         111.127                0               0         0.131704         114.048                0               0
                       0.0338335           -79.7                0               0         0.988541         25.0535                0               0
                        0.131704         114.047                0               0        0.0660228         111.336                0               0
                        0.988545         25.0557                0               0         0.033958        -80.2764                0               0
75.945                 0.0740162         109.803                0               0         0.129044         111.976                0               0
                       0.0321552        -84.1093                0               0          0.98837         23.0392                0               0
                        0.129044         111.975                0               0        0.0740053          109.99                0               0
                        0.988374         23.0414                0               0        0.0322942        -84.7107                0               0
75.99                  0.0820637         108.321                0               0         0.126228         109.887                0               0
                       0.0304474        -88.7735                0               0         0.988139         20.9956                0               0
                        0.126228         109.887                0               0         0.082056         108.488                0               0
                        0.988144         20.9978                0               0        0.0306021        -89.4009                0               0
76.035                 0.0901459         106.715                0               0         0.123282         107.787                0               0
                       0.0287271        -93.7222                0               0         0.987846         18.9272                0               0
                        0.123281         107.786                0               0        0.0901409         106.866                0               0
                        0.987852         18.9295                0               0        0.0288987        -94.3758                0               0
76.08                  0.0982292         105.011                0               0         0.120228         105.678                0               0
                       0.0270129        -98.9913                0               0         0.987491         16.8387                0               0
                        0.120227         105.678                0               0        0.0982267         105.149                0               0
                        0.987496          16.841                0               0        0.0272029        -99.6702                0               0
76.125                  0.106281          103.23                0               0         0.117092         103.568                0               0
                       0.0253254        -104.624                0               0         0.987074         14.7346                0               0
                        0.117091         103.568                0               0         0.106281         103.356                0               0
                         0.98708         14.7369                0               0        0.0255352        -105.325                0               0
76.17                    0.11427         101.387                0               0         0.113896          101.46                0               0
                        0.023687        -110.668                0               0         0.986598         12.6192                0               0
                        0.113895          101.46                0               0         0.114272         101.503                0               0
                        0.986604         12.6216                0               0        0.0239181        -111.387                0               0
76.215                  0.122166         99.4963                0               0         0.110664         99.3598                0               0
                       0.0221224        -117.178                0               0         0.986066         10.4967                0               0
                        0.110663           99.36                0               0          0.12217          99.604                0               0
                        0.986072         10.4991                0               0        0.0223761        -117.905                0               0
76.26                   0.129941         97.5686                0               0         0.107416         97.2727                0               0
                       0.0206585        -124.206                0               0         0.985483         8.37118                0               0
                        0.107416         97.2728                0               0         0.129946         97.6687                0               0
                        0.985488         8.37357                0               0        0.0209358        -124.927                0               0
76.305                  0.137566         95.6133                0               0         0.104174         95.2047                0               0
                       0.0193241        -131.796                0               0         0.984854         6.24632                0               0
                        0.104175         95.2047                0               0         0.137574         95.7066                0               0
                        0.984858         6.24875                0               0        0.0196255        -132.491                0               0
76.35                   0.145019         93.6384                0               0         0.100956         93.1622                0               0
                       0.0181493        -139.972                0               0         0.984184         4.12572                0               0
                        0.100957          93.162                0               0         0.145028         93.7255                0               0
                        0.984188         4.12817                0               0        0.0184744        -140.613                0               0
76.395                  0.152275         91.6506                0               0        0.0977786         91.1521                0               0
                       0.0171635        -148.716                0               0         0.983476         2.01268                0               0
                       0.0977801         91.1518                0               0         0.152286         91.7323                0               0
                         0.98348         2.01514                0               0        0.0175106        -149.271                0               0
76.44                   0.159314         89.6559                0               0        0.0946574         89.1819                0               0
                       0.0163926        -157.953                0               0         0.982734      -0.0897479                0               0
