! TOUCHSTONE file generated by CST MICROWAVE STUDIO
! Date and time: Mon Jun 21 17:06:58 2021
! Project name: HIPS_d_sweep.cst
! Parameters = {a=0.735; b=0.393; d=21.0251; fmax=120; fmin=75; phi=0; theta=0}
! Header version: 2018
! Port assignment regex: !\s*Touchstone port\s*([0-9]+)\s*=\s*(CST MWS port|CST DS port)\s*([0-9]+|Zmin|Zmax)\s*\(\"(.*)\"\)(\s*mode\s*([0-9]+))?.*
! Touchstone port assignment:
! Touchstone port 1 = CST MWS port Zmin ("") mode 1
! Touchstone port 2 = CST MWS port Zmin ("") mode 2
! Touchstone port 3 = CST MWS port Zmax ("") mode 1
! Touchstone port 4 = CST MWS port Zmax ("") mode 2
! S-Parameters are not renormalized. Unphysical impedance of 0 will be written to the file.
# GHz S MA R 0
75                     0.0938952         103.454                0               0         0.201237        -72.4114                0               0
                       0.0464054        -95.8965                0               0         0.973926        -161.203                0               0
                        0.201236         -72.411                0               0        0.0939424         103.348                0               0
                        0.973926        -161.202                0               0        0.0463451        -95.8403                0               0
75.045                 0.0956164         102.984                0               0         0.204379        -73.1557                0               0
                       0.0469361        -97.5266                0               0         0.973696        -161.833                0               0
                        0.204378        -73.1553                0               0         0.095669         102.874                0               0
                        0.973696        -161.832                0               0        0.0468733        -97.4655                0               0
75.09                  0.0976481         102.373                0               0         0.207248        -73.9274                0               0
                       0.0473236         -99.181                0               0         0.973156        -162.543                0               0
                        0.207247        -73.9271                0               0        0.0977033         102.265                0               0
                        0.973156        -162.542                0               0        0.0472584         -99.119                0               0
75.135                 0.0999929         101.649                0               0         0.209807        -74.7351                0               0
                       0.0475565        -100.903                0               0         0.972378        -163.333                0               0
                        0.209806        -74.7348                0               0         0.100048         101.545                0               0
                        0.972378        -163.332                0               0        0.0474897        -100.843                0               0
75.18                   0.102647         100.836                0               0         0.212027        -75.5877                0               0
                       0.0476324        -102.734                0               0         0.971432        -164.203                0               0
                        0.212026        -75.5873                0               0         0.102699         100.738                0               0
                        0.971432        -164.202                0               0        0.0475653        -102.678                0               0
75.225                  0.105601         99.9517                0               0         0.213885        -76.4939                0               0
                       0.0475579        -104.716                0               0         0.970384        -165.154                0               0
                        0.213884        -76.4935                0               0         0.105649         99.8606                0               0
                        0.970384        -165.153                0               0        0.0474919        -104.665                0               0
75.27                   0.108842         99.0112                0               0         0.215365         -77.462                0               0
                       0.0473469        -106.884                0               0         0.969292        -166.183                0               0
                        0.215364        -77.4616                0               0         0.108886         98.9268                0               0
                        0.969292        -166.182                0               0        0.0472833        -106.838                0               0
75.315                  0.112357         98.0244                0               0          0.21646        -78.4994                0               0
                        0.047019        -109.267                0               0          0.96821         -167.29                0               0
                        0.216459         -78.499                0               0         0.112394         97.9463                0               0
                         0.96821        -167.289                0               0        0.0469584        -109.226                0               0
75.36                   0.116127         96.9979                0               0         0.217171         -79.612                0               0
                       0.0465965        -111.889                0               0         0.967184        -168.472                0               0
                         0.21717        -79.6116                0               0          0.11616         96.9255                0               0
                        0.967184        -168.471                0               0        0.0465391        -111.851                0               0
75.405                  0.120136         95.9352                0               0         0.217506        -80.8043                0               0
                        0.046103        -114.765                0               0          0.96625        -169.726                0               0
                        0.217504        -80.8039                0               0         0.120164         95.8681                0               0
                         0.96625        -169.725                0               0        0.0460485         -114.73                0               0
75.45                   0.124367          94.838                0               0         0.217478        -82.0787                0               0
                       0.0455617        -117.905                0               0         0.965438         -171.05                0               0
                        0.217477        -82.0783                0               0         0.124391         94.7756                0               0
                        0.965438        -171.049                0               0        0.0455095        -117.873                0               0
75.495                  0.128801         93.7061                0               0         0.217107        -83.4359                0               0
                        0.044994        -121.314                0               0          0.96477         -172.44                0               0
                        0.217106        -83.4355                0               0         0.128822         93.6479                0               0
                         0.96477        -172.439                0               0        0.0449434        -121.283                0               0
75.54                   0.133419         92.5383                0               0         0.216416        -84.8744                0               0
                       0.0444195         -124.99                0               0         0.964259        -173.894                0               0
                        0.216415        -84.8741                0               0         0.133439          92.484                0               0
                        0.964259        -173.893                0               0        0.0443694        -124.961                0               0
75.585                  0.138203         91.3329                0               0         0.215427        -86.3912                0               0
                       0.0438551        -128.929                0               0         0.963913        -175.407                0               0
                        0.215426        -86.3908                0               0         0.138223          91.282                0               0
                        0.963913        -175.406                0               0        0.0438048        -128.902                0               0
75.63                   0.143133         90.0875                0               0         0.214167        -87.9813                0               0
                       0.0433154        -133.122                0               0         0.963729        -176.977                0               0
                        0.214166         -87.981                0               0         0.143153         90.0398                0               0
                        0.963729        -176.976                0               0        0.0432641        -133.096                0               0
75.675                  0.148188         88.7999                0               0          0.21266        -89.6385                0               0
                       0.0428125        -137.555                0               0         0.963701        -178.599                0               0
                        0.212659        -89.6381                0               0         0.148209         88.7553                0               0
                        0.963701        -178.598                0               0        0.0427597        -137.532                0               0
75.72                   0.153346         87.4681                0               0         0.210932        -91.3553                0               0
                       0.0423563        -142.213                0               0         0.963816         179.731                0               0
                        0.210931         -91.355                0               0         0.153369         87.4263                0               0
                        0.963816         179.732                0               0        0.0423018        -142.193                0               0
75.765                  0.158585         86.0901                0               0         0.209007        -93.1236                0               0
                       0.0419548        -147.075                0               0         0.964056         178.017                0               0
                        0.209006        -93.1232                0               0          0.15861          86.051                0               0
                        0.964056         178.018                0               0        0.0418984         -147.06                0               0
75.81                   0.163879         84.6645                0               0         0.206907        -94.9343                0               0
                       0.0416138        -152.121                0               0         0.964398         176.262                0               0
                        0.206906         -94.934                0               0         0.163907          84.628                0               0
                        0.964398         176.263                0               0        0.0415557         -152.11                0               0
75.855                  0.169204         83.1903                0               0         0.204655        -96.7785                0               0
                       0.0413371        -157.325                0               0         0.964817          174.47                0               0
                        0.204654        -96.7782                0               0         0.169233         83.1563                0               0
                        0.964816         174.471                0               0        0.0412776        -157.318                0               0
75.9                     0.17453          81.667                0               0          0.20227        -98.6468                0               0
                        0.041127        -162.659                0               0         0.965283         172.645                0               0
                        0.202269        -98.6465                0               0         0.174562         81.6356                0               0
                        0.965282         172.646                0               0        0.0410665        -162.657                0               0
75.945                   0.17983         80.0949                0               0         0.199772         -100.53                0               0
                       0.0409836        -168.096                0               0         0.965764         170.791                0               0
                        0.199771         -100.53                0               0         0.179863         80.0659                0               0
                        0.965763         170.792                0               0        0.0409226        -168.098                0               0
75.99                   0.185071         78.4747                0               0         0.197181         -102.42                0               0
                       0.0409056        -173.604                0               0         0.966229         168.912                0               0
                         0.19718         -102.42                0               0         0.185106         78.4482                0               0
                        0.966229         168.913                0               0        0.0408446        -173.611                0               0
76.035                  0.190223         76.8079                0               0         0.194513        -104.308                0               0
                         0.04089        -179.154                0               0         0.966645         167.011                0               0
                        0.194512        -104.307                0               0         0.190258          76.784                0               0
                        0.966644         167.012                0               0        0.0408296        -179.165                0               0
76.08                   0.195253         75.0965                0               0         0.191787        -106.186                0               0
                       0.0409325         175.284                0               0         0.966979         165.091                0               0
                        0.191786        -106.185                0               0         0.195288         75.0752                0               0
                        0.966978         165.092                0               0        0.0408732          175.27                0               0
76.125                  0.200128         73.3434                0               0         0.189018        -108.047                0               0
                       0.0410275         169.739                0               0         0.967198         163.158                0               0
                        0.189017        -108.047                0               0         0.200163         73.3247                0               0
                        0.967196         163.159                0               0        0.0409697         169.722                0               0
76.17                   0.204817         71.5519                0               0         0.186221        -109.885                0               0
                       0.0411686         164.237                0               0         0.967271         161.213                0               0
                         0.18622        -109.885                0               0          0.20485         71.5359                0               0
                         0.96727         161.214                0               0        0.0411127         164.218                0               0
76.215                  0.209286         69.7258                0               0         0.183412        -111.695                0               0
                       0.0413488         158.802                0               0         0.967171          159.26                0               0
                        0.183411        -111.695                0               0         0.209317         69.7127                0               0
                        0.967169         159.261                0               0         0.041295         158.783                0               0
76.26                   0.213506         67.8698                0               0         0.180605        -113.471                0               0
                       0.0415607         153.456                0               0          0.96687         157.303                0               0
                        0.180604        -113.471                0               0         0.213535         67.8596                0               0
                        0.966868         157.304                0               0        0.0415093         153.437                0               0
76.305                   0.21745         65.9886                0               0         0.177812         -115.21                0               0
                        0.041797         148.218                0               0         0.966345         155.344                0               0
                        0.177811         -115.21                0               0         0.217476         65.9815                0               0
                        0.966343         155.345                0               0        0.0417481         148.199                0               0
76.35                   0.221092         64.0876                0               0         0.175046        -116.908                0               0
                       0.0420508         143.103                0               0         0.965577         153.387                0               0
                        0.175045        -116.908                0               0         0.221114         64.0836                0               0
                        0.965575         153.388                0               0        0.0420043         143.085                0               0
76.395                   0.22441         62.1722                0               0         0.172318        -118.563                0               0
                       0.0423154         138.123                0               0         0.964548         151.434                0               0
                        0.172317        -118.563                0               0         0.224428         62.1715                0               0
                        0.964545         151.435                0               0        0.0422712         138.106                0               0
76.44                   0.227387         60.2483                0               0         0.169639        -120.172                0               0
                       0.0425848         133.288                0               0         0.963245         149.489                0               0
