! TOUCHSTONE file generated by CST MICROWAVE STUDIO
! Date and time: Mon Jun 21 17:07:33 2021
! Project name: HIPS_d_sweep.cst
! Parameters = {a=0.735; b=0.393; d=24.8442; fmax=120; fmin=75; phi=0; theta=0}
! Header version: 2018
! Port assignment regex: !\s*Touchstone port\s*([0-9]+)\s*=\s*(CST MWS port|CST DS port)\s*([0-9]+|Zmin|Zmax)\s*\(\"(.*)\"\)(\s*mode\s*([0-9]+))?.*
! Touchstone port assignment:
! Touchstone port 1 = CST MWS port Zmin ("") mode 1
! Touchstone port 2 = CST MWS port Zmin ("") mode 2
! Touchstone port 3 = CST MWS port Zmax ("") mode 1
! Touchstone port 4 = CST MWS port Zmax ("") mode 2
! S-Parameters are not renormalized. Unphysical impedance of 0 will be written to the file.
# GHz S MA R 0
75                      0.236583         24.1704                0               0        0.0453878         15.4664                0               0
                       0.0313836         4.02609                0               0         0.970051         114.534                0               0
                        0.045388         15.4643                0               0         0.236562         24.2027                0               0
                        0.970042         114.534                0               0        0.0313519         4.21417                0               0
75.045                  0.235462            23.5                0               0         0.041567         13.9187                0               0
                       0.0312064         5.28433                0               0         0.970505         113.831                0               0
                       0.0415686         13.9178                0               0          0.23544         23.5322                0               0
                        0.970498         113.831                0               0        0.0311775         5.47654                0               0
75.09                   0.234171         22.7271                0               0        0.0380475         12.2153                0               0
                       0.0310525         6.21821                0               0         0.970962         113.031                0               0
                       0.0380496          12.215                0               0          0.23415         22.7592                0               0
                        0.970957         113.031                0               0        0.0310259         6.41448                0               0
75.135                  0.232708         21.8552                0               0        0.0348639         10.3684                0               0
                       0.0309162         6.84927                0               0         0.971433         112.136                0               0
                       0.0348659          10.368                0               0         0.232686         21.8871                0               0
                        0.971428         112.136                0               0        0.0308917         7.04951                0               0
75.18                   0.231064         20.8871                0               0        0.0320401         8.40217                0               0
                       0.0307913         7.19467                0               0         0.971924         111.148                0               0
                       0.0320417         8.40125                0               0         0.231043         20.9189                0               0
                        0.971918         111.148                0               0        0.0307686          7.3988                0               0
75.225                   0.22923         19.8256                0               0        0.0295899         6.35461                0               0
                       0.0306707          7.2681                0               0          0.97244          110.07                0               0
                       0.0295911         6.35271                0               0         0.229208         19.8572                0               0
                        0.972433          110.07                0               0        0.0306496         7.47609                0               0
75.27                   0.227191         18.6729                0               0         0.027518          4.2765                0               0
                       0.0305469          7.0805                0               0         0.972985         108.903                0               0
                       0.0275189         4.27342                0               0          0.22717         18.7043                0               0
                        0.972978         108.903                0               0        0.0305271         7.29237                0               0
75.315                  0.224934         17.4313                0               0        0.0258216          2.2284                0               0
                       0.0304116         6.64076                0               0         0.973563         107.649                0               0
                       0.0258224         2.22417                0               0         0.224914         17.4624                0               0
                        0.973555          107.65                0               0        0.0303929         6.85658                0               0
75.36                   0.222443         16.1027                0               0        0.0244921        0.274428                0               0
                       0.0302561         5.95623                0               0         0.974176         106.311                0               0
                       0.0244929        0.269293                0               0         0.222423         16.1335                0               0
                        0.974168         106.312                0               0        0.0302382         6.17617                0               0
75.405                    0.2197         14.6892                0               0        0.0235168        -1.52631                0               0
                       0.0300713         5.03328                0               0         0.974828         104.891                0               0
                       0.0235178        -1.53196                0               0          0.21968         14.7197                0               0
                         0.97482         104.891                0               0        0.0300539          5.2576                0               0
75.45                   0.216687         13.1928                0               0        0.0228815        -3.12913                0               0
                       0.0298476         3.87772                0               0         0.975522         103.389                0               0
                       0.0228827        -3.13484                0               0         0.216668          13.223                0               0
                        0.975514         103.389                0               0        0.0298306         4.10678                0               0
75.495                  0.213386         11.6156                0               0        0.0225712        -4.51139                0               0
                       0.0295754         2.49516                0               0          0.97626         101.809                0               0
                       0.0225726        -4.51672                0               0         0.213368         11.6455                0               0
                        0.976253          101.81                0               0        0.0295585         2.72943                0               0
75.54                    0.20978            9.96                0               0        0.0225719        -5.67621                0               0
                       0.0292452        0.891278                0               0         0.977045         100.154                0               0
                       0.0225735        -5.68084                0               0         0.209763         9.98951                0               0
                        0.977039         100.154                0               0        0.0292281         1.13137                0               0
75.585                  0.205851         8.22857                0               0        0.0228707        -6.65109                0               0
                       0.0288477       -0.927934                0               0         0.977879         98.4246                0               0
                       0.0228725        -6.65483                0               0         0.205835         8.25768                0               0
                        0.977874         98.4247                0               0        0.0288301        -0.68128                0               0
75.63                   0.201585         6.42417                0               0        0.0234559        -7.48204                0               0
                       0.0283742        -2.95614                0               0         0.978763         96.6252                0               0
                       0.0234578        -7.48485                0               0          0.20157         6.45286                0               0
                        0.978758         96.6253                0               0        0.0283558        -2.70203                0               0
75.675                  0.196968         4.55003                0               0        0.0243168        -8.22515                0               0
                       0.0278169         -5.1867                0               0         0.979695         94.7586                0               0
                       0.0243186         -8.2271                0               0         0.196954         4.57826                0               0
                        0.979691         94.7587                0               0        0.0277974        -4.92406                0               0
75.72                   0.191988         2.60974                0               0        0.0254431        -8.93795                0               0
                       0.0271693        -7.61286                0               0         0.980675         92.8284                0               0
                       0.0254447        -8.93919                0               0         0.191976         2.63748                0               0
                        0.980672         92.8285                0               0        0.0271483        -7.34044                0               0
75.765                  0.186638        0.607274                0               0        0.0268251         -9.6726                0               0
                       0.0264261        -10.2281                0               0         0.981697         90.8382                0               0
                       0.0268264        -9.67332                0               0         0.186627         0.63449                0               0
                        0.981695         90.8383                0               0        0.0264034        -9.94447                0               0
75.81                   0.180912          -1.453                0               0        0.0284529        -10.4716                0               0
                       0.0255839        -13.0269                0               0         0.982757         88.7921                0               0
                       0.0284538         -10.472                0               0         0.180903        -1.42636                0               0
                        0.982754         88.7922                0               0        0.0255592        -12.7303                0               0
75.855                   0.17481        -3.56637                0               0         0.030317        -11.3664                0               0
                       0.0246411        -16.0051                0               0         0.983845         86.6943                0               0
                       0.0303174        -11.3666                0               0         0.174803        -3.54035                0               0
                        0.983842         86.6944                0               0         0.024614        -15.6935                0               0
75.9                    0.168334         -5.7278                0               0        0.0324077        -12.3774                0               0
                       0.0235975        -19.1612                0               0         0.984951         84.5492                0               0
                       0.0324077        -12.3776                0               0         0.168329        -5.70246                0               0
                        0.984948         84.5494                0               0        0.0235677        -18.8323                0               0
75.945                  0.161491        -7.93201                0               0        0.0347154        -13.5157                0               0
                       0.0224549        -22.4979                0               0         0.986062         82.3614                0               0
                       0.0347149        -13.5159                0               0         0.161488        -7.90743                0               0
                         0.98606         82.3615                0               0         0.022422        -22.1489                0               0
75.99                   0.154292        -10.1736                0               0        0.0372299        -14.7848                0               0
                       0.0212165        -26.0231                0               0         0.987165         80.1354                0               0
                       0.0372291        -14.7851                0               0          0.15429        -10.1498                0               0
                        0.987163         80.1355                0               0          0.02118        -25.6507                0               0
76.035                   0.14675        -12.4469                0               0        0.0399404        -16.1829                0               0
                       0.0198865         -29.753                0               0         0.988245         77.8758                0               0
                       0.0399394        -16.1831                0               0          0.14675        -12.4241                0               0
                        0.988243         77.8759                0               0         0.019846        -29.3531                0               0
76.08                   0.138882        -14.7465                0               0        0.0428342        -17.7042                0               0
                       0.0184704        -33.7153                0               0         0.989287         75.5872                0               0
                       0.0428332        -17.7043                0               0         0.138885        -14.7247                0               0
                        0.989285         75.5872                0               0        0.0184252         -33.283                0               0
76.125                  0.130708        -17.0669                0               0        0.0458962        -19.3408                0               0
                       0.0169745        -37.9546                0               0         0.990276         73.2739                0               0
                       0.0458956        -19.3405                0               0         0.130713        -17.0463                0               0
                        0.990275         73.2739                0               0        0.0169239        -37.4837                0               0
76.17                   0.122249        -19.4027                0               0        0.0491074        -21.0836                0               0
                       0.0154058        -42.5417                0               0         0.991201         70.9402                0               0
                       0.0491073        -21.0828                0               0         0.122256        -19.3834                0               0
                        0.991201         70.9402                0               0         0.015349        -42.0243                0               0
76.215                  0.113527        -21.7487                0               0         0.052443         -22.924                0               0
                       0.0137727        -47.5897                0               0         0.992052           68.59                0               0
                       0.0524438        -22.9225                0               0         0.113537         -21.731                0               0
                        0.992054           68.59                0               0        0.0137085         -47.016                0               0
76.26                   0.104563        -24.0996                0               0        0.0558709        -24.8549                0               0
                       0.0120856         -53.285                0               0         0.992827          66.227                0               0
                       0.0558726        -24.8527                0               0         0.104575        -24.0837                0               0
                        0.992831         66.2269                0               0        0.0120125        -52.6426                0               0
76.305                 0.0953785          -26.45                0               0        0.0593482        -26.8717                0               0
                       0.0103594        -59.9501                0               0         0.993528         63.8544                0               0
                       0.0593509        -26.8688                0               0        0.0953936        -26.4362                0               0
                        0.993533         63.8543                0               0        0.0102752        -59.2247                0               0
76.35                  0.0859934        -28.7941                0               0        0.0628179         -28.972                0               0
                      0.00861889        -68.1799                0               0         0.994166         61.4752                0               0
                       0.0628213        -28.9689                0               0        0.0860112        -28.7831                0               0
                        0.994172         61.4751                0               0       0.00852056        -67.3601                0               0
76.395                 0.0764259        -31.1258                0               0        0.0662009        -31.1539                0               0
                       0.0069133         -79.154                0               0         0.994761         59.0923                0               0
                       0.0662041        -31.1515                0               0        0.0764465        -31.1182                0               0
                        0.994766         59.0921                0               0       0.00679624        -78.2544                0               0
76.44                  0.0666937        -33.4382                0               0         0.069382         -33.403                0               0
                      0.00535702        -95.3009                0               0         0.995342         56.7083                0               0
