! TOUCHSTONE file generated by CST MICROWAVE STUDIO
! Date and time: Mon Jun 21 17:06:32 2021
! Project name: HIPS_d_sweep.cst
! Parameters = {a=0.735; b=0.393; d=17.5578; fmax=120; fmin=75; phi=0; theta=0}
! Header version: 2018
! Port assignment regex: !\s*Touchstone port\s*([0-9]+)\s*=\s*(CST MWS port|CST DS port)\s*([0-9]+|Zmin|Zmax)\s*\(\"(.*)\"\)(\s*mode\s*([0-9]+))?.*
! Touchstone port assignment:
! Touchstone port 1 = CST MWS port Zmin ("") mode 1
! Touchstone port 2 = CST MWS port Zmin ("") mode 2
! Touchstone port 3 = CST MWS port Zmax ("") mode 1
! Touchstone port 4 = CST MWS port Zmax ("") mode 2
! S-Parameters are not renormalized. Unphysical impedance of 0 will be written to the file.
# GHz S MA R 0
75                     0.0970148         5.76248                0               0         0.421368        -24.4951                0               0
                        0.114579        -6.03512                0               0         0.894376        -116.145                0               0
                        0.421369        -24.4949                0               0        0.0969151          5.7256                0               0
                        0.894376        -116.146                0               0         0.114675        -5.97587                0               0
75.045                 0.0959766         6.02111                0               0         0.424255        -25.1009                0               0
                        0.114877        -6.91463                0               0         0.894021        -116.663                0               0
                        0.424254        -25.1008                0               0         0.095877         5.98428                0               0
                        0.894019        -116.664                0               0         0.114973        -6.85564                0               0
75.09                  0.0947069         6.28961                0               0         0.426845        -25.7605                0               0
                        0.115049        -7.89861                0               0         0.893361        -117.256                0               0
                        0.426843        -25.7604                0               0        0.0946066         6.25284                0               0
                        0.893359        -117.257                0               0         0.115145        -7.83996                0               0
75.135                  0.093227         6.57051                0               0         0.429139        -26.4769                0               0
                        0.115108        -8.99251                0               0         0.892502        -117.922                0               0
                        0.429137        -26.4768                0               0        0.0931256         6.53377                0               0
                        0.892499        -117.923                0               0         0.115203        -8.93428                0               0
75.18                  0.0915562         6.86893                0               0         0.431144        -27.2528                0               0
                        0.115065        -10.2005                0               0         0.891536        -118.661                0               0
                        0.431142        -27.2527                0               0        0.0914535         6.83215                0               0
                        0.891534        -118.662                0               0         0.115159        -10.1427                0               0
75.225                 0.0897122         7.19222                0               0         0.432867        -28.0904                0               0
                        0.114932        -11.5253                0               0         0.890549         -119.47                0               0
                        0.432865        -28.0903                0               0        0.0896078         7.15532                0               0
                        0.890547        -119.471                0               0         0.115025        -11.4682                0               0
75.27                  0.0877109         7.54987                0               0         0.434317        -28.9914                0               0
                         0.11472        -12.9687                0               0         0.889608        -120.348                0               0
                        0.434316        -28.9913                0               0        0.0876046         7.51277                0               0
                        0.889607        -120.349                0               0         0.114812        -12.9122                0               0
75.315                 0.0855671         7.95345                0               0         0.435507        -29.9568                0               0
                        0.114441        -14.5313                0               0         0.888772        -121.292                0               0
                        0.435507        -29.9567                0               0        0.0854587         7.91609                0               0
                        0.888771        -121.292                0               0         0.114531        -14.4754                0               0
75.36                  0.0832949         8.41676                0               0         0.436449        -30.9873                0               0
                        0.114102        -16.2126                0               0         0.888083        -122.297                0               0
                         0.43645         -30.987                0               0        0.0831845          8.3791                0               0
                        0.888083        -122.298                0               0         0.114191        -16.1575                0               0
75.405                 0.0809085         8.95599                0               0         0.437154        -32.0826                0               0
                        0.113711        -18.0116                0               0         0.887574        -123.361                0               0
                        0.437156        -32.0823                0               0        0.0807958         8.91802                0               0
                        0.887575        -123.362                0               0         0.113799        -17.9573                0               0
75.45                  0.0784223         9.59004                0               0         0.437636        -33.2421                0               0
                        0.113274        -19.9265                0               0         0.887265        -124.481                0               0
                        0.437639        -33.2418                0               0        0.0783073         9.55179                0               0
                        0.887266        -124.481                0               0          0.11336        -19.8729                0               0
75.495                 0.0758518         10.3409                0               0         0.437907        -34.4647                0               0
                        0.112795        -21.9547                0               0         0.887167        -125.652                0               0
                         0.43791        -34.4643                0               0        0.0757344         10.3024                0               0
                        0.887169        -125.653                0               0         0.112879        -21.9019                0               0
75.54                  0.0732144         11.2339                0               0         0.437977        -35.7485                0               0
                        0.112276        -24.0934                0               0         0.887283        -126.873                0               0
                        0.437981        -35.7481                0               0        0.0730945         11.1955                0               0
                        0.887285        -126.874                0               0         0.112359        -24.0414                0               0
75.585                 0.0705301         12.2985                0               0         0.437857        -37.0913                0               0
                        0.111719        -26.3393                0               0         0.887607        -128.139                0               0
                        0.437861        -37.0909                0               0        0.0704075         12.2603                0               0
                        0.887609         -128.14                0               0         0.111801        -26.2882                0               0
75.63                  0.0678224         13.5681                0               0         0.437555        -38.4905                0               0
                        0.111124         -28.689                0               0         0.888129        -129.449                0               0
                        0.437558          -38.49                0               0         0.067697         13.5307                0               0
                        0.888131         -129.45                0               0         0.111205        -28.6387                0               0
75.675                 0.0651193         15.0807                0               0         0.437079        -39.9428                0               0
                         0.11049        -31.1385                0               0         0.888832        -130.799                0               0
                        0.437082        -39.9424                0               0         0.064991         15.0445                0               0
                        0.888833          -130.8                0               0         0.110569         -31.089                0               0
75.72                  0.0624548         16.8779                0               0         0.436434        -41.4449                0               0
                        0.109815        -33.6837                0               0         0.889696        -132.187                0               0
                        0.436437        -41.4445                0               0        0.0623234         16.8438                0               0
                        0.889696        -132.188                0               0         0.109893         -33.635                0               0
75.765                 0.0598698         19.0043                0               0         0.435626        -42.9928                0               0
                        0.109096        -36.3204                0               0         0.890696        -133.611                0               0
                        0.435628        -42.9925                0               0        0.0597352         18.9735                0               0
                        0.890696        -133.612                0               0         0.109173        -36.2726                0               0
75.81                  0.0574135         21.5047                0               0         0.434658        -44.5827                0               0
                        0.108331        -39.0441                0               0         0.891807        -135.069                0               0
                        0.434658        -44.5825                0               0        0.0572756         21.4787                0               0
                        0.891806         -135.07                0               0         0.108407        -38.9971                0               0
75.855                 0.0551441         24.4197                0               0         0.433533        -46.2103                0               0
                        0.107516        -41.8501                0               0         0.893001        -136.558                0               0
                        0.433532        -46.2101                0               0         0.055003         24.4003                0               0
                           0.893        -136.559                0               0         0.107591        -41.8041                0               0
75.9                   0.0531292         27.7783                0               0         0.432253        -47.8711                0               0
                        0.106649        -44.7337                0               0          0.89425        -138.078                0               0
                        0.432251        -47.8711                0               0        0.0529851         27.7677                0               0
                        0.894247        -138.079                0               0         0.106722        -44.6886                0               0
75.945                 0.0514441         31.5887                0               0         0.430819        -49.5607                0               0
                        0.105726        -47.6899                0               0         0.895524        -139.626                0               0
                        0.430816        -49.5608                0               0        0.0512976         31.5894                0               0
                         0.89552        -139.627                0               0         0.105799        -47.6458                0               0
75.99                  0.0501691         35.8263                0               0         0.429234        -51.2746                0               0
                        0.104745        -50.7137                0               0         0.896796          -141.2                0               0
                         0.42923        -51.2748                0               0        0.0500208         35.8408                0               0
                        0.896792        -141.201                0               0         0.104817        -50.6706                0               0
76.035                 0.0493829         40.4242                0               0         0.427499        -53.0082                0               0
                        0.103704        -53.7998                0               0         0.898039          -142.8                0               0
                        0.427494        -53.0084                0               0        0.0492339         40.4545                0               0
                        0.898035        -142.801                0               0         0.103776        -53.7578                0               0
76.08                  0.0491547         45.2692                0               0         0.425616        -54.7569                0               0
                        0.102603        -56.9431                0               0          0.89923        -144.424                0               0
                        0.425611        -54.7572                0               0        0.0490065         45.3166                0               0
                        0.899225        -144.425                0               0         0.102674        -56.9023                0               0
76.125                 0.0495356         50.2093                0               0         0.423589        -56.5162                0               0
                        0.101441        -60.1382                0               0         0.900348         -146.07                0               0
                        0.423583        -56.5166                0               0        0.0493896         50.2738                0               0
                        0.900343        -146.071                0               0         0.101511        -60.0986                0               0
76.17                  0.0505505         55.0727                0               0          0.42142        -58.2819                0               0
                        0.100218        -63.3799                0               0         0.901377        -147.737                0               0
                        0.421414        -58.2823                0               0        0.0504081         55.1531                0               0
                        0.901372        -147.738                0               0         0.100287        -63.3415                0               0
76.215                 0.0521954         59.6944                0               0         0.419115        -60.0497                0               0
                       0.0989362        -66.6627                0               0         0.902306        -149.423                0               0
                        0.419109          -60.05                0               0        0.0520579         59.7884                0               0
                        0.902301        -149.424                0               0        0.0990053        -66.6257                0               0
76.26                   0.054439         63.9395                0               0         0.416678        -61.8155                0               0
                       0.0975986        -69.9814                0               0          0.90313        -151.126                0               0
                        0.416673        -61.8157                0               0        0.0543073          64.044                0               0
                        0.903126        -151.127                0               0        0.0976672        -69.9459                0               0
76.305                 0.0572284         67.7173                0               0         0.414117        -63.5754                0               0
                       0.0962084         -73.331                0               0         0.903851        -152.844                0               0
                        0.414113        -63.5754                0               0        0.0571029         67.8293                0               0
                        0.903847        -152.845                0               0        0.0962767        -73.2971                0               0
76.35                  0.0604966         70.9828                0               0         0.411439        -65.3258                0               0
                       0.0947704        -76.7065                0               0         0.904478        -154.574                0               0
                        0.411436        -65.3256                0               0        0.0603774         71.0995                0               0
                        0.904474        -154.575                0               0        0.0948384        -76.6742                0               0
76.395                 0.0641696         73.7291                0               0         0.408654        -67.0633                0               0
                         0.09329        -80.1031                0               0         0.905022        -156.313                0               0
                        0.408652        -67.0628                0               0        0.0640566         73.8482                0               0
                        0.905018        -156.314                0               0        0.0933577        -80.0724                0               0
76.44                  0.0681723         75.9762                0               0          0.40577        -68.7845                0               0
                       0.0917734        -83.5161                0               0         0.905498        -158.056                0               0
