! TOUCHSTONE file generated by CST MICROWAVE STUDIO
! Date and time: Mon Jun 21 17:07:29 2021
! Project name: HIPS_d_sweep.cst
! Parameters = {a=0.735; b=0.393; d=24.4925; fmax=120; fmin=75; phi=0; theta=0}
! Header version: 2018
! Port assignment regex: !\s*Touchstone port\s*([0-9]+)\s*=\s*(CST MWS port|CST DS port)\s*([0-9]+|Zmin|Zmax)\s*\(\"(.*)\"\)(\s*mode\s*([0-9]+))?.*
! Touchstone port assignment:
! Touchstone port 1 = CST MWS port Zmin ("") mode 1
! Touchstone port 2 = CST MWS port Zmin ("") mode 2
! Touchstone port 3 = CST MWS port Zmax ("") mode 1
! Touchstone port 4 = CST MWS port Zmax ("") mode 2
! S-Parameters are not renormalized. Unphysical impedance of 0 will be written to the file.
# GHz S MA R 0
75                      0.234363          64.105                0               0        0.0289067          50.875                0               0
                        0.028772          50.562                0               0         0.971287         154.319                0               0
                       0.0289051         50.8799                0               0         0.234377         64.1118                0               0
                        0.971294         154.318                0               0        0.0287486         50.7646                0               0
75.045                  0.234906         63.4473                0               0        0.0250609         48.2717                0               0
                       0.0283038         51.6527                0               0         0.971383         153.624                0               0
                       0.0250592          48.278                0               0          0.23492         63.4541                0               0
                        0.971391         153.622                0               0        0.0282835         51.8604                0               0
75.09                   0.235608         62.6875                0               0        0.0215987         45.0243                0               0
                       0.0279544         52.5057                0               0         0.971314         152.836                0               0
                       0.0215969         45.0317                0               0         0.235623         62.6943                0               0
                        0.971322         152.835                0               0         0.027937         52.7174                0               0
75.135                  0.236441         61.8302                0               0        0.0185528         41.0525                0               0
                       0.0277187         53.1204                0               0         0.971134         151.957                0               0
                        0.018551         41.0607                0               0         0.236455          61.837                0               0
                        0.971142         151.956                0               0         0.027704          53.335                0               0
75.18                   0.237379         60.8791                0               0        0.0159449         36.2992                0               0
                       0.0275902         53.4953                0               0         0.970889         150.988                0               0
                       0.0159428         36.3077                0               0         0.237393         60.8858                0               0
                        0.970897         150.987                0               0        0.0275779         53.7118                0               0
75.225                  0.238398         59.8377                0               0        0.0137843         30.7688                0               0
                       0.0275611         53.6286                0               0         0.970616         149.932                0               0
                       0.0137821         30.7772                0               0         0.238411         59.8443                0               0
                        0.970624         149.931                0               0        0.0275509         53.8459                0               0
75.27                   0.239475         58.7088                0               0        0.0120661         24.5834                0               0
                       0.0276224         53.5185                0               0         0.970346         148.789                0               0
                       0.0120638         24.5912                0               0         0.239488         58.7154                0               0
                        0.970354         148.788                0               0         0.027614         53.7358                0               0
75.315                  0.240588         57.4954                0               0        0.0107686         18.0319                0               0
                       0.0277646         53.1644                0               0         0.970099         147.563                0               0
                       0.0107663         18.0387                0               0         0.240602         57.5019                0               0
                        0.970106         147.562                0               0        0.0277577         53.3807                0               0
75.36                   0.241714         56.1998                0               0        0.0098515         11.5696                0               0
                       0.0279773         52.5667                0               0         0.969889         146.255                0               0
                      0.00984916         11.5752                0               0         0.241728         56.2064                0               0
                        0.969896         146.254                0               0        0.0279716         52.7815                0               0
75.405                  0.242831         54.8246                0               0       0.00925994         5.73158                0               0
                       0.0282494         51.7277                0               0         0.969724         144.869                0               0
                      0.00925766         5.73601                0               0         0.242845         54.8311                0               0
                         0.96973         144.868                0               0        0.0282446         51.9406                0               0
75.45                   0.243913          53.372                0               0       0.00893464        0.989198                0               0
                       0.0285693         50.6518                0               0         0.969604         143.406                0               0
                      0.00893245        0.992864                0               0         0.243928         53.3785                0               0
                         0.96961         143.405                0               0        0.0285652         50.8624                0               0
75.495                  0.244936         51.8444                0               0       0.00882415        -2.36688                0               0
                       0.0289252         49.3453                0               0         0.969528          141.87                0               0
                      0.00882206        -2.36352                0               0         0.244952         51.8509                0               0
                        0.969533         141.869                0               0        0.0289214         49.5532                0               0
75.54                   0.245874         50.2442                0               0       0.00889367        -4.26472                0               0
                       0.0293047         47.8162                0               0         0.969487         140.264                0               0
                      0.00889168        -4.26125                0               0          0.24589         50.2507                0               0
                        0.969491         140.263                0               0         0.029301         48.0215                0               0
75.585                    0.2467          48.574                0               0       0.00912721        -4.82259                0               0
                       0.0296957          46.075                0               0         0.969472         138.591                0               0
                      0.00912533        -4.81872                0               0         0.246716         48.5805                0               0
                        0.969476          138.59                0               0        0.0296918         46.2776                0               0
75.63                   0.247386         46.8365                0               0        0.0095239        -4.29234                0               0
                       0.0300858         44.1333                0               0         0.969473         136.854                0               0
                      0.00952215        -4.28798                0               0         0.247403         46.8429                0               0
                        0.969476         136.852                0               0        0.0300815         44.3332                0               0
75.675                  0.247903         45.0347                0               0        0.0100913        -2.99699                0               0
                       0.0304634         42.0044                0               0         0.969478         135.056                0               0
                       0.0100897        -2.99222                0               0         0.247921          45.041                0               0
                         0.96948         135.055                0               0        0.0304584         42.2018                0               0
75.72                   0.248226         43.1719                0               0        0.0108389        -1.27022                0               0
                       0.0308171         39.7026                0               0         0.969476         133.201                0               0
                       0.0108374        -1.26521                0               0         0.248244         43.1782                0               0
                        0.969478         133.199                0               0        0.0308114         39.8976                0               0
75.765                  0.248324         41.2516                0               0        0.0117729        0.594293                0               0
                       0.0311366         37.2427                0               0         0.969462         131.292                0               0
                       0.0117716        0.599327                0               0         0.248343         41.2578                0               0
                        0.969464         131.291                0               0          0.03113         37.4356                0               0
75.81                   0.248173         39.2779                0               0        0.0128945         2.37407                0               0
                       0.0314126         34.6401                0               0         0.969431         129.334                0               0
                       0.0128933         2.37892                0               0         0.248193          39.284                0               0
                        0.969433         129.332                0               0        0.0314049          34.831                0               0
75.855                  0.247748         37.2549                0               0        0.0141998         3.92564                0               0
                        0.031637         31.9098                0               0         0.969385         127.329                0               0
                       0.0141988         3.93018                0               0         0.247768          37.261                0               0
                        0.969387         127.327                0               0         0.031628          32.099                0               0
75.9                    0.247027         35.1873                0               0        0.0156812         5.17443                0               0
                        0.031803         29.0664                0               0         0.969331         125.282                0               0
                       0.0156802         5.17857                0               0         0.247047         35.1932                0               0
                        0.969333         125.281                0               0        0.0317927         29.2541                0               0
75.945                  0.245989         33.0798                0               0        0.0173286         6.09634                0               0
                        0.031905         26.1234                0               0         0.969282         123.197                0               0
                       0.0173278         6.10007                0               0          0.24601         33.0856                0               0
                        0.969286         123.195                0               0        0.0318933           26.31                0               0
75.99                    0.24462         30.9373                0               0         0.019131         6.69918                0               0
                       0.0319391         23.0935                0               0          0.96926         121.078                0               0
                       0.0191304         6.70252                0               0         0.244641          30.943                0               0
                        0.969265         121.076                0               0        0.0319258         23.2791                0               0
76.035                  0.242907         28.7649                0               0        0.0210773         7.00803                0               0
                       0.0319023         19.9875                0               0         0.969291         118.929                0               0
                       0.0210767         7.01102                0               0         0.242929         28.7705                0               0
                        0.969297         118.927                0               0        0.0318873         20.1726                0               0
76.08                   0.240842         26.5676                0               0        0.0231561         7.05527                0               0
                       0.0317927         16.8149                0               0         0.969406         116.754                0               0
                       0.0231556         7.05797                0               0         0.240864         26.5731                0               0
                        0.969414         116.753                0               0        0.0317761         16.9997                0               0
76.125                  0.238421         24.3501                0               0        0.0253564         6.87457                0               0
                       0.0316094         13.5834                0               0         0.969641         114.558                0               0
                        0.025356         6.87704                0               0         0.238444         24.3556                0               0
                        0.969649         114.557                0               0         0.031591         13.7683                0               0
76.17                   0.235645         22.1171                0               0        0.0276669         6.49748                0               0
                       0.0313521         10.2989                0               0          0.97003         112.345                0               0
                       0.0276666         6.49979                0               0         0.235668         22.1225                0               0
                        0.970039         112.343                0               0        0.0313319         10.4841                0               0
76.215                  0.232517         19.8726                0               0         0.030076         5.95188                0               0
                       0.0310209         6.96574                0               0         0.970603         110.119                0               0
                       0.0300757         5.95408                0               0         0.232541         19.8779                0               0
                        0.970612         110.117                0               0        0.0309988         7.15163                0               0
76.26                   0.229043         17.6201                0               0         0.032571         5.26116                0               0
                        0.030616         3.58654                0               0         0.971384         107.884                0               0
                       0.0325708          5.2633                0               0         0.229068         17.6253                0               0
                        0.971393         107.882                0               0         0.030592         3.77348                0               0
76.305                  0.225233         15.3627                0               0        0.0351383         4.44407                0               0
                        0.030138        0.162725                0               0         0.972382         105.643                0               0
                       0.0351382         4.44618                0               0         0.225259         15.3678                0               0
                        0.972391         105.642                0               0         0.030112        0.351067                0               0
76.35                   0.221096         13.1027                0               0        0.0377629         3.51472                0               0
                        0.029587        -3.30542                0               0         0.973589         103.401                0               0
                       0.0377627         3.51682                0               0         0.221123         13.1078                0               0
                        0.973597           103.4                0               0         0.029559         -3.1153                0               0
76.395                  0.216643         10.8422                0               0        0.0404279         2.48269                0               0
                       0.0289631        -6.81837                0               0         0.974978          101.16                0               0
                       0.0404278         2.48479                0               0         0.216671         10.8471                0               0
                        0.974985         101.158                0               0         0.028933        -6.62609                0               0
76.44                   0.211884         8.58269                0               0        0.0431154         1.35328                0               0
                       0.0282661         -10.377                0               0         0.976498         98.9221                0               0
