! TOUCHSTONE file generated by CST MICROWAVE STUDIO
! Date and time: Mon Jun 21 17:06:45 2021
! Project name: HIPS_d_sweep.cst
! Parameters = {a=0.735; b=0.393; d=19.1156; fmax=120; fmin=75; phi=0; theta=0}
! Header version: 2018
! Port assignment regex: !\s*Touchstone port\s*([0-9]+)\s*=\s*(CST MWS port|CST DS port)\s*([0-9]+|Zmin|Zmax)\s*\(\"(.*)\"\)(\s*mode\s*([0-9]+))?.*
! Touchstone port assignment:
! Touchstone port 1 = CST MWS port Zmin ("") mode 1
! Touchstone port 2 = CST MWS port Zmin ("") mode 2
! Touchstone port 3 = CST MWS port Zmax ("") mode 1
! Touchstone port 4 = CST MWS port Zmax ("") mode 2
! S-Parameters are not renormalized. Unphysical impedance of 0 will be written to the file.
# GHz S MA R 0
75                     0.0876384        -5.73455                0               0         0.328046         153.932                0               0
                       0.0965247        -10.2797                0               0         0.935626         62.3606                0               0
                        0.328046         153.932                0               0        0.0875256        -5.83521                0               0
                        0.935623         62.3627                0               0        0.0965877        -10.2853                0               0
75.045                 0.0859803        -5.51412                0               0         0.331202         153.308                0               0
                       0.0968802         -11.156                0               0         0.934625         61.7787                0               0
                        0.331202         153.308                0               0         0.085865        -5.61593                0               0
                        0.934623         61.7808                0               0        0.0969433        -11.1617                0               0
75.09                  0.0840959        -5.30199                0               0         0.334045         152.607                0               0
                       0.0971066        -12.1783                0               0          0.93376         61.1228                0               0
                        0.334045         152.607                0               0         0.083978        -5.40521                0               0
                        0.933758          61.125                0               0        0.0971707        -12.1839                0               0
75.135                 0.0819903        -5.08679                0               0         0.336581         151.829                0               0
                       0.0972254        -13.3466                0               0         0.933026         60.3938                0               0
                        0.336581         151.829                0               0        0.0818696        -5.19169                0               0
                        0.933024          60.396                0               0        0.0972908        -13.3517                0               0
75.18                  0.0796686        -4.85466                0               0         0.338815         150.975                0               0
                       0.0972532        -14.6579                0               0          0.93242         59.5926                0               0
                        0.338815         150.975                0               0        0.0795448        -4.96151                0               0
                        0.932417         59.5947                0               0        0.0973199        -14.6623                0               0
75.225                 0.0771363        -4.58869                0               0         0.340752         150.045                0               0
                       0.0972012         -16.108                0               0         0.931937         58.7201                0               0
                        0.340752         150.045                0               0        0.0770091        -4.69775                0               0
                        0.931933         58.7223                0               0         0.097269        -16.1116                0               0
75.27                  0.0743999        -4.26808                0               0         0.342398          149.04                0               0
                        0.097076        -17.6922                0               0         0.931574         57.7778                0               0
                        0.342398          149.04                0               0         0.074269        -4.37962                0               0
                        0.931569           57.78                0               0        0.0971445         -17.695                0               0
75.315                 0.0714672        -3.86712                0               0         0.343758         147.962                0               0
                         0.09688         -19.406                0               0         0.931327          56.767                0               0
                        0.343758         147.962                0               0        0.0713322        -3.98135                0               0
                        0.931322         56.7692                0               0        0.0969491        -19.4081                0               0
75.36                  0.0683484        -3.35366                0               0         0.344836         146.812                0               0
                       0.0966129        -21.2454                0               0         0.931193         55.6894                0               0
                        0.344836         146.812                0               0        0.0682089        -3.47075                0               0
                        0.931188         55.6915                0               0        0.0966825        -21.2469                0               0
75.405                 0.0650566        -2.68721                0               0         0.345639         145.592                0               0
                       0.0962726        -23.2073                0               0         0.931168         54.5467                0               0
                        0.345639         145.592                0               0        0.0649121        -2.80719                0               0
                        0.931163         54.5488                0               0        0.0963428        -23.2083                0               0
75.45                  0.0616092        -1.81622                0               0          0.34617         144.305                0               0
                       0.0958563        -25.2892                0               0         0.931248         53.3409                0               0
                        0.346171         144.305                0               0        0.0614592        -1.93897                0               0
                        0.931243          53.343                0               0        0.0959269        -25.2898                0               0
75.495                 0.0580298        -0.67461                0               0         0.346436         142.952                0               0
                       0.0953607        -27.4893                0               0         0.931428         52.0742                0               0
                        0.346437         142.952                0               0        0.0578736       -0.799682                0               0
                        0.931424         52.0764                0               0         0.095432        -27.4894                0               0
75.54                  0.0543502        0.822917                0               0         0.346443         141.536                0               0
                       0.0947836        -29.8059                0               0         0.931704         50.7489                0               0
                        0.346443         141.536                0               0        0.0541871        0.696488                0               0
                          0.9317         50.7511                0               0        0.0948555        -29.8056                0               0
75.585                 0.0506141         2.78661                0               0         0.346196         140.059                0               0
                       0.0941234        -32.2376                0               0          0.93207         49.3676                0               0
                        0.346196         140.059                0               0        0.0504434         2.66063                0               0
                        0.932067         49.3698                0               0        0.0941959        -32.2367                0               0
75.63                  0.0468815         5.35802                0               0         0.345702         138.526                0               0
                       0.0933794        -34.7825                0               0         0.932519          47.933                0               0
                        0.345702         138.526                0               0        0.0467026         5.23566                0               0
                        0.932517         47.9352                0               0        0.0934526         -34.781                0               0
75.675                 0.0432356         8.71484                0               0         0.344969         136.939                0               0
                       0.0925523        -37.4386                0               0         0.933045         46.4478                0               0
                        0.344969         136.939                0               0        0.0430479         8.60141                0               0
                        0.933044           46.45                0               0         0.092626        -37.4364                0               0
75.72                  0.0397912         13.0682                0               0         0.344006         135.302                0               0
                       0.0916437        -40.2033                0               0         0.933641         44.9151                0               0
                        0.344006         135.302                0               0        0.0395947         12.9722                0               0
                         0.93364         44.9173                0               0        0.0917178        -40.2003                0               0
75.765                 0.0367041         18.6397                0               0          0.34282         133.618                0               0
                       0.0906562        -43.0735                0               0         0.934297          43.338                0               0
                        0.342821         133.618                0               0        0.0364997         18.5736                0               0
                        0.934297         43.3402                0               0        0.0907305        -43.0695                0               0
75.81                   0.034176         25.5947                0               0         0.341424          131.89                0               0
                       0.0895931        -46.0456                0               0         0.935005         41.7198                0               0
                        0.341424          131.89                0               0        0.0339666         25.5749                0               0
                        0.935005          41.722                0               0        0.0896675        -46.0406                0               0
75.855                 0.0324452         33.9166                0               0         0.339827         130.124                0               0
                       0.0884586        -49.1156                0               0         0.935756         40.0637                0               0
                        0.339827         130.124                0               0        0.0322358         33.9598                0               0
                        0.935756          40.066                0               0        0.0885329        -49.1095                0               0
75.9                   0.0317461          43.257                0               0         0.338041         128.322                0               0
                       0.0872575        -52.2792                0               0         0.936539         38.3732                0               0
                        0.338041         128.322                0               0        0.0315442         43.3727                0               0
                        0.936539         38.3755                0               0        0.0873316        -52.2718                0               0
75.945                   0.03224         52.9063                0               0         0.336079          126.49                0               0
                       0.0859952        -55.5319                0               0         0.937345         36.6518                0               0
                        0.336079          126.49                0               0        0.0320537          53.089                0               0
                        0.937345         36.6541                0               0        0.0860688        -55.5232                0               0
75.99                  0.0339545         62.0143                0               0         0.333955         124.631                0               0
                       0.0846775        -58.8691                0               0         0.938163          34.903                0               0
                        0.333955         124.631                0               0          0.03379         62.2441                0               0
                        0.938164         34.9053                0               0        0.0847506         -58.859                0               0
76.035                 0.0367822          69.932                0               0         0.331682         122.749                0               0
                       0.0833108        -62.2865                0               0         0.938985         33.1303                0               0
                        0.331682         122.749                0               0        0.0366422         70.1844                0               0
                        0.938986         33.1326                0               0        0.0833833        -62.2749                0               0
76.08                  0.0405372         76.3839                0               0         0.329275         120.849                0               0
                       0.0819021        -65.7798                0               0         0.939801         31.3372                0               0
                        0.329276         120.849                0               0        0.0404211          76.639                0               0
                        0.939802         31.3395                0               0        0.0819738        -65.7667                0               0
76.125                 0.0450189         81.4011                0               0          0.32675         118.936                0               0
                       0.0804587        -69.3452                0               0         0.940601         29.5273                0               0
                         0.32675         118.936                0               0        0.0449244         81.6467                0               0
                        0.940603         29.5296                0               0        0.0805294        -69.3304                0               0
76.17                  0.0500498         85.1685                0               0         0.324121         117.012                0               0
                       0.0789883        -72.9791                0               0         0.941378          27.704                0               0
                        0.324121         117.012                0               0        0.0499739         85.3987                0               0
                        0.941381         27.7063                0               0        0.0790579        -72.9626                0               0
76.215                 0.0554866         87.9097                0               0         0.321405         115.084                0               0
                       0.0774991        -76.6784                0               0         0.942126         25.8707                0               0
                        0.321405         115.084                0               0        0.0554264         88.1227                0               0
                        0.942128          25.873                0               0        0.0775675        -76.6601                0               0
76.26                  0.0612173         89.8313                0               0         0.318616         113.154                0               0
                       0.0759997          -80.44                0               0         0.942837         24.0309                0               0
                        0.318617         113.154                0               0        0.0611702         90.0274                0               0
                         0.94284         24.0332                0               0        0.0760667        -80.4198                0               0
76.305                 0.0671546         91.1049                0               0         0.315772         111.226                0               0
                        0.074499        -84.2611                0               0         0.943507         22.1877                0               0
                        0.315773         111.226                0               0        0.0671185         91.2851                0               0
                         0.94351           22.19                0               0        0.0745645         -84.239                0               0
76.35                  0.0732295         91.8665                0               0         0.312889         109.305                0               0
                       0.0730063        -88.1384                0               0         0.944131         20.3445                0               0
                        0.312889         109.305                0               0        0.0732026         92.0324                0               0
                        0.944135         20.3468                0               0        0.0730701        -88.1142                0               0
76.395                 0.0793865         92.2224                0               0         0.309982         107.393                0               0
                        0.071531        -92.0679                0               0         0.944706         18.5041                0               0
                        0.309982         107.393                0               0        0.0793672         92.3755                0               0
                         0.94471         18.5064                0               0        0.0715929        -92.0418                0               0
76.44                  0.0855792         92.2553                0               0         0.307068         105.495                0               0
                       0.0700822        -96.0448                0               0         0.945228         16.6696                0               0
