! TOUCHSTONE file generated by CST MICROWAVE STUDIO
! Date and time: Mon Jun 21 17:06:28 2021
! Project name: HIPS_d_sweep.cst
! Parameters = {a=0.735; b=0.393; d=17.1055; fmax=120; fmin=75; phi=0; theta=0}
! Header version: 2018
! Port assignment regex: !\s*Touchstone port\s*([0-9]+)\s*=\s*(CST MWS port|CST DS port)\s*([0-9]+|Zmin|Zmax)\s*\(\"(.*)\"\)(\s*mode\s*([0-9]+))?.*
! Touchstone port assignment:
! Touchstone port 1 = CST MWS port Zmin ("") mode 1
! Touchstone port 2 = CST MWS port Zmin ("") mode 2
! Touchstone port 3 = CST MWS port Zmax ("") mode 1
! Touchstone port 4 = CST MWS port Zmax ("") mode 2
! S-Parameters are not renormalized. Unphysical impedance of 0 will be written to the file.
# GHz S MA R 0
75                      0.195985         34.3462                0               0         0.422294         28.2019                0               0
                        0.108467         85.9673                0               0         0.878344         -63.835                0               0
                        0.422295         28.2018                0               0          0.19602         34.3105                0               0
                        0.878346        -63.8345                0               0         0.108408         85.9148                0               0
75.045                  0.194967          34.092                0               0         0.425273         27.7006                0               0
                        0.109231         85.1962                0               0         0.878333        -64.3054                0               0
                        0.425276         27.7002                0               0         0.195002         34.0562                0               0
                        0.878336        -64.3049                0               0         0.109173         85.1438                0               0
75.09                   0.193912         33.7524                0               0         0.427868         27.1335                0               0
                        0.109845         84.3072                0               0         0.877747         -64.862                0               0
                        0.427872         27.1329                0               0         0.193947         33.7165                0               0
                        0.877751        -64.8615                0               0         0.109788         84.2548                0               0
75.135                  0.192839         33.3378                0               0         0.430119         26.5007                0               0
                        0.110341         83.2899                0               0         0.876809        -65.5038                0               0
                        0.430123         26.5001                0               0         0.192874         33.3019                0               0
                        0.876812        -65.5033                0               0         0.110284         83.2376                0               0
75.18                    0.19176         32.8576                0               0         0.432064         25.8032                0               0
                        0.110752         82.1393                0               0         0.875704        -66.2272                0               0
                        0.432067         25.8027                0               0         0.191795         32.8216                0               0
                        0.875707        -66.2267                0               0         0.110696         82.0869                0               0
75.225                  0.190678         32.3195                0               0         0.433737         25.0425                0               0
                        0.111112         80.8547                0               0         0.874578        -67.0267                0               0
                         0.43374         25.0421                0               0         0.190712         32.2835                0               0
                        0.874581        -67.0262                0               0         0.111055         80.8021                0               0
75.27                    0.18959         31.7305                0               0         0.435171         24.2206                0               0
                        0.111448         79.4398                0               0         0.873539         -67.896                0               0
                        0.435173         24.2205                0               0         0.189625         31.6944                0               0
                        0.873541        -67.8954                0               0         0.111391         79.3868                0               0
75.315                  0.188493          31.096                0               0         0.436394         23.3401                0               0
                        0.111787          77.901                0               0         0.872658        -68.8282                0               0
                        0.436394           23.34                0               0         0.188528         31.0599                0               0
                         0.87266        -68.8277                0               0          0.11173         77.8475                0               0
75.36                    0.18738         30.4208                0               0         0.437428         22.4033                0               0
                        0.112146          76.247                0               0         0.871977         -69.817                0               0
                        0.437428         22.4034                0               0         0.187414         30.3846                0               0
                        0.871978        -69.8165                0               0         0.112089          76.193                0               0
75.405                  0.186243         29.7086                0               0         0.438294          21.413                0               0
                        0.112539         74.4876                0               0         0.871513        -70.8564                0               0
                        0.438293         21.4132                0               0         0.186276         29.6724                0               0
                        0.871514        -70.8558                0               0         0.112482         74.4331                0               0
75.45                   0.185072         28.9628                0               0         0.439008          20.372                0               0
                        0.112972         72.6327                0               0         0.871266         -71.941                0               0
                        0.439006         20.3723                0               0         0.185105         28.9266                0               0
                        0.871266        -71.9405                0               0         0.112916         72.5779                0               0
75.495                  0.183858          28.186                0               0         0.439582          19.283                0               0
                        0.113449         70.6926                0               0         0.871218        -73.0664                0               0
                         0.43958         19.2832                0               0         0.183891         28.1497                0               0
                        0.871219        -73.0658                0               0         0.113394         70.6374                0               0
75.54                   0.182591         27.3805                0               0         0.440026         18.1485                0               0
                        0.113966         68.6764                0               0         0.871343        -74.2287                0               0
                        0.440024         18.1487                0               0         0.182624         27.3441                0               0
                        0.871344        -74.2281                0               0         0.113912          68.621                0               0
75.585                  0.181262         26.5483                0               0         0.440346          16.971                0               0
                        0.114518         66.5928                0               0         0.871605         -75.425                0               0
                        0.440346         16.9711                0               0         0.181294         26.5118                0               0
                        0.871606        -75.4244                0               0         0.114465         66.5374                0               0
75.63                   0.179859         25.6909                0               0         0.440547         15.7529                0               0
                        0.115096         64.4496                0               0         0.871963        -76.6532                0               0
                        0.440548         15.7529                0               0         0.179891         25.6544                0               0
                        0.871965        -76.6527                0               0         0.115044         64.3944                0               0
75.675                  0.178373         24.8101                0               0          0.44063         14.4962                0               0
                        0.115687         62.2534                0               0         0.872372        -77.9122                0               0
                        0.440632         14.4961                0               0         0.178405         24.7735                0               0
                        0.872374        -77.9116                0               0         0.115636         62.1985                0               0
75.72                   0.176795         23.9069                0               0         0.440594         13.2027                0               0
                        0.116278         60.0098                0               0         0.872788        -79.2014                0               0
                        0.440598         13.2024                0               0         0.176826         23.8703                0               0
                         0.87279        -79.2007                0               0         0.116228         59.9554                0               0
75.765                  0.175113         22.9827                0               0         0.440439         11.8739                0               0
                        0.116852         57.7236                0               0         0.873166        -80.5214                0               0
                        0.440446         11.8736                0               0         0.175145          22.946                0               0
                        0.873168        -80.5207                0               0         0.116802         57.6698                0               0
75.81                    0.17332         22.0385                0               0         0.440163         10.5112                0               0
                        0.117389         55.3978                0               0         0.873471        -81.8737                0               0
                        0.440172         10.5107                0               0         0.173351         22.0017                0               0
                        0.873474        -81.8729                0               0         0.117339         55.3446                0               0
75.855                  0.171407         21.0751                0               0         0.439764          9.1152                0               0
                        0.117868         53.0339                0               0          0.87368        -83.2606                0               0
                        0.439774         9.11476                0               0         0.171438         21.0383                0               0
                        0.873683        -83.2598                0               0         0.117818         52.9814                0               0
75.9                    0.169367         20.0936                0               0          0.43924         7.68664                0               0
                        0.118266          50.631                0               0         0.873791        -84.6851                0               0
                        0.439253         7.68621                0               0         0.169397         20.0566                0               0
                        0.873793        -84.6843                0               0         0.118215          50.579                0               0
75.945                  0.167194         19.0946                0               0         0.438594         6.22568                0               0
                        0.118561         48.1847                0               0         0.873826        -86.1505                0               0
                        0.438608         6.22533                0               0         0.167223         19.0576                0               0
                        0.873827        -86.1496                0               0         0.118508         48.1329                0               0
75.99                   0.164883         18.0791                0               0         0.437829         4.73232                0               0
                        0.118732          45.686                0               0         0.873843        -87.6591                0               0
                        0.437845          4.7321                0               0         0.164913          18.042                0               0
                        0.873844        -87.6582                0               0         0.118677         45.6339                0               0
76.035                  0.162435         17.0482                0               0         0.436956         3.20648                0               0
                        0.118771         43.1212                0               0         0.873931        -89.2118                0               0
                        0.436972         3.20643                0               0         0.162464          17.011                0               0
                        0.873931        -89.2109                0               0         0.118714          43.068                0               0
76.08                    0.15985         16.0036                0               0         0.435991         1.64824                0               0
                        0.118686         40.4728                0               0         0.874199        -90.8063                0               0
                        0.436006         1.64838                0               0         0.159878         15.9662                0               0
                        0.874198        -90.8054                0               0         0.118628         40.4178                0               0
76.125                  0.157133         14.9476                0               0         0.434955       0.0582554                0               0
                        0.118517         37.7256                0               0         0.874752        -92.4365                0               0
                        0.434969        0.058579                0               0         0.157161           14.91                0               0
                         0.87475        -92.4356                0               0          0.11846         37.6682                0               0
76.17                   0.154291         13.8841                0               0         0.433876        -1.56182                0               0
                        0.118327         34.8764                0               0         0.875664        -94.0927                0               0
                        0.433889        -1.56136                0               0         0.154318         13.8463                0               0
                        0.875662         -94.092                0               0         0.118273         34.8167                0               0
76.215                  0.151331         12.8184                0               0         0.432787        -3.20887                0               0
                        0.118188         31.9435                0               0         0.876951        -95.7633                0               0
                        0.432797        -3.20833                0               0         0.151357         12.7804                0               0
                        0.876949        -95.7626                0               0         0.118138          31.882                0               0
76.26                   0.148263         11.7578                0               0         0.431716        -4.87798                0               0
                        0.118144         28.9657                0               0         0.878562        -97.4363                0               0
                        0.431723        -4.87745                0               0         0.148288         11.7194                0               0
                        0.878561        -97.4357                0               0         0.118101         28.9035                0               0
76.305                  0.145093          10.711                0               0         0.430686        -6.56246                0               0
                        0.118194         25.9892                0               0         0.880391        -99.1021                0               0
                         0.43069        -6.56203                0               0         0.145118         10.6723                0               0
                         0.88039        -99.1015                0               0         0.118155          25.927                0               0
76.35                   0.141827         9.68856                0               0         0.429707        -8.25428                0               0
                         0.11829         23.0504                0               0         0.882302        -100.754                0               0
                        0.429709          -8.254                0               0         0.141851          9.6495                0               0
                        0.882302        -100.754                0               0         0.118254         22.9887                0               0
76.395                  0.138469         8.70162                0               0         0.428772         -9.9449                0               0
                        0.118371         20.1681                0               0         0.884156        -102.389                0               0
                        0.428773        -9.94479                0               0         0.138492         8.66215                0               0
                        0.884156        -102.389                0               0         0.118337         20.1066                0               0
76.44                    0.13502         7.76174                0               0         0.427859        -11.6263                0               0
                        0.118379         17.3455                0               0         0.885829        -104.007                0               0
