! TOUCHSTONE file generated by CST MICROWAVE STUDIO
! Date and time: Mon Jun 21 17:07:35 2021
! Project name: HIPS_d_sweep.cst
! Parameters = {a=0.735; b=0.393; d=24.995; fmax=120; fmin=75; phi=0; theta=0}
! Header version: 2018
! Port assignment regex: !\s*Touchstone port\s*([0-9]+)\s*=\s*(CST MWS port|CST DS port)\s*([0-9]+|Zmin|Zmax)\s*\(\"(.*)\"\)(\s*mode\s*([0-9]+))?.*
! Touchstone port assignment:
! Touchstone port 1 = CST MWS port Zmin ("") mode 1
! Touchstone port 2 = CST MWS port Zmin ("") mode 2
! Touchstone port 3 = CST MWS port Zmax ("") mode 1
! Touchstone port 4 = CST MWS port Zmax ("") mode 2
! S-Parameters are not renormalized. Unphysical impedance of 0 will be written to the file.
# GHz S MA R 0
75                      0.201176         6.86208                0               0         0.053492         2.02886                0               0
                       0.0260905        -17.5971                0               0         0.977753         97.2669                0               0
                       0.0534915         2.03024                0               0          0.20113         6.90766                0               0
                        0.977746         97.2682                0               0        0.0260946        -17.5691                0               0
75.045                  0.199363         6.16008                0               0        0.0493954        0.886962                0               0
                       0.0260205        -16.1359                0               0         0.978337         96.5436                0               0
                       0.0493951        0.888163                0               0         0.199317         6.20653                0               0
                        0.978329          96.545                0               0        0.0260247        -16.1093                0               0
75.09                    0.19728         5.36096                0               0         0.045781       -0.418086                0               0
                       0.0259456         -15.001                0               0         0.978941         95.7248                0               0
                       0.0457804       -0.416485                0               0         0.197234         5.40843                0               0
                        0.978934         95.7262                0               0        0.0259497        -14.9758                0               0
75.135                  0.194919         4.46574                0               0        0.0425916        -1.82443                0               0
                       0.0258558        -14.1886                0               0         0.979568         94.8117                0               0
                       0.0425909        -1.82223                0               0         0.194874         4.51439                0               0
                        0.979561         94.8131                0               0        0.0258597        -14.1645                0               0
75.18                   0.192274         3.47549                0               0        0.0397868        -3.27183                0               0
                       0.0257411        -13.6924                0               0         0.980216         93.8054                0               0
                        0.039786        -3.26918                0               0         0.192229          3.5255                0               0
                        0.980209         93.8069                0               0        0.0257448         -13.669                0               0
75.225                  0.189333         2.39139                0               0        0.0373409        -4.70274                0               0
                       0.0255914        -13.5042                0               0         0.980886         92.7074                0               0
                       0.0373402        -4.70011                0               0         0.189288         2.44294                0               0
                         0.98088         92.7088                0               0         0.025595         -13.481                0               0
75.27                   0.186086         1.21468                0               0         0.035241        -6.06558                0               0
                       0.0253968        -13.6146                0               0          0.98158         91.5188                0               0
                       0.0352406        -6.06364                0               0         0.186042         1.26796                0               0
                        0.981573         91.5202                0               0        0.0254006        -13.5912                0               0
75.315                  0.182522      -0.0532691                0               0        0.0334848        -7.31999                0               0
                       0.0251477        -14.0134                0               0         0.982298          90.241                0               0
                       0.0334847        -7.31958                0               0         0.182479      0.00195249                0               0
                        0.982291         90.2425                0               0        0.0251519        -13.9896                0               0
75.36                   0.178628        -1.41095                0               0        0.0320781        -8.44375                0               0
                       0.0248351        -14.6904                0               0         0.983042         88.8757                0               0
                       0.0320784        -8.44569                0               0         0.178586        -1.35356                0               0
                        0.983036         88.8771                0               0          0.02484         -14.666                0               0
75.405                  0.174393        -2.85666                0               0        0.0310317        -9.43928                0               0
                       0.0244504        -15.6353                0               0         0.983813         87.4245                0               0
                       0.0310323        -9.44419                0               0         0.174353        -2.79685                0               0
                        0.983807          87.426                0               0        0.0244561        -15.6102                0               0
75.45                   0.169806        -4.38851                0               0        0.0303572        -10.3371                0               0
                       0.0239858        -16.8386                0               0         0.984613         85.8895                0               0
                       0.0303579        -10.3452                0               0         0.169767        -4.32599                0               0
                        0.984607          85.891                0               0        0.0239923        -16.8126                0               0
75.495                  0.164856        -6.00434                0               0        0.0300636        -11.1931                0               0
                       0.0234339        -18.2915                0               0         0.985441         84.2729                0               0
                       0.0300641        -11.2043                0               0         0.164819        -5.93878                0               0
                        0.985435         84.2744                0               0        0.0234412        -18.2646                0               0
75.54                   0.159534        -7.70169                0               0        0.0301539        -12.0793                0               0
                       0.0227885        -19.9866                0               0         0.986298         82.5773                0               0
                       0.0301541        -12.0928                0               0         0.159498        -7.63272                0               0
                        0.986292         82.5788                0               0        0.0227963        -19.9585                0               0
75.585                  0.153833        -9.47781                0               0        0.0306235        -13.0686                0               0
                       0.0220438        -21.9182                0               0         0.987181         80.8055                0               0
                       0.0306233        -13.0833                0               0         0.153798        -9.40496                0               0
                        0.987176         80.8069                0               0        0.0220521        -21.8884                0               0
75.63                   0.147747        -11.3296                0               0        0.0314607        -14.2198                0               0
                       0.0211954        -24.0827                0               0         0.988087         78.9607                0               0
                       0.0314601        -14.2346                0               0         0.147714        -11.2523                0               0
                        0.988082         78.9621                0               0        0.0212038        -24.0506                0               0
75.675                  0.141275        -13.2534                0               0        0.0326478        -15.5677                0               0
                       0.0202398        -26.4797                0               0         0.989011         77.0463                0               0
                        0.032647        -15.5815                0               0         0.141243        -13.1711                0               0
                        0.989006         77.0478                0               0        0.0202479        -26.4443                0               0
75.72                   0.134416        -15.2454                0               0        0.0341632        -17.1199                0               0
                       0.0191746        -29.1129                0               0         0.989946         75.0663                0               0
                       0.0341623        -17.1319                0               0         0.134386        -15.1573                0               0
                        0.989941         75.0677                0               0        0.0191821        -29.0726                0               0
75.765                  0.127177        -17.3012                0               0        0.0359836         -18.861                0               0
                       0.0179988        -31.9918                0               0         0.990881         73.0246                0               0
                       0.0359828        -18.8706                0               0         0.127147        -17.2063                0               0
                        0.990877         73.0261                0               0        0.0180054        -31.9447                0               0
75.81                   0.119564         -19.416                0               0        0.0380845        -20.7597                0               0
                       0.0167127        -35.1351                0               0         0.991807         70.9258                0               0
                       0.0380839        -20.7668                0               0         0.119535        -19.3131                0               0
                        0.991803         70.9272                0               0        0.0167184        -35.0786                0               0
75.855                  0.111589        -21.5844                0               0        0.0404412        -22.7779                0               0
                       0.0153185        -38.5753                0               0         0.992709         68.7742                0               0
                       0.0404408        -22.7824                0               0         0.111562        -21.4721                0               0
                        0.992706         68.7757                0               0         0.015323         -38.506                0               0
75.9                     0.10327        -23.8006                0               0        0.0430283        -24.8772                0               0
                       0.0138202        -42.3683                0               0         0.993574         66.5748                0               0
                        0.043028        -24.8794                0               0         0.103244         -23.677                0               0
                        0.993571         66.5762                0               0        0.0138233        -42.2819                0               0
75.945                 0.0946243        -26.0581                0               0        0.0458193        -27.0243                0               0
                       0.0122238        -46.6111                0               0         0.994386         64.3324                0               0
                       0.0458191        -27.0246                0               0        0.0945995        -25.9209                0               0
                        0.994383         64.3338                0               0        0.0122256        -46.5017                0               0
75.99                  0.0856769        -28.3499                0               0        0.0487868        -29.1937                0               0
                       0.0105391        -51.4786                0               0         0.995129          62.052                0               0
                       0.0487865        -29.1927                0               0        0.0856537        -28.1958                0               0
                        0.995126         62.0534                0               0        0.0105393         -51.338                0               0
76.035                 0.0764543        -30.6678                0               0        0.0519019        -31.3691                0               0
                      0.00878028        -57.3083                0               0         0.995786         59.7387                0               0
                       0.0519013        -31.3672                0               0         0.076433        -30.4925                0               0
                        0.995783         59.7401                0               0       0.00877866        -57.1237                0               0
76.08                  0.0669863        -33.0021                0               0        0.0551346        -33.5426                0               0
                      0.00697202        -64.8165                0               0         0.996343         57.3974                0               0
                       0.0551338        -33.5404                0               0        0.0669673        -32.7993                0               0
                        0.996341         57.3988                0               0       0.00696767        -64.5673                0               0
76.125                  0.057305        -35.3404                0               0        0.0584546        -35.7144                0               0
                       0.0051648        -75.7482                0               0         0.996787          55.033                0               0
                       0.0584535        -35.7123                0               0        0.0572886        -35.1006                0               0
                        0.996785         55.0344                0               0       0.00515577        -75.3999                0               0
76.17                  0.0474442        -37.6649                0               0        0.0618319        -37.8911                0               0
                      0.00349925        -95.0646                0               0         0.997108         52.6504                0               0
                       0.0618305        -37.8894                0               0        0.0474309        -37.3724                0               0
                        0.997107         52.6518                0               0       0.00348099        -94.5874                0               0
76.215                 0.0374387         -39.944                0               0        0.0652379        -40.0844                0               0
                      0.00247697        -134.682                0               0           0.9973         50.2542                0               0
                       0.0652363        -40.0833                0               0         0.037429        -39.5707                0               0
                        0.997299         50.2555                0               0       0.00244373         -134.38                0               0
76.26                   0.027324        -42.1082                0               0        0.0686476        -42.3103                0               0
                      0.00300083         177.149                0               0         0.997361         47.8488                0               0
                       0.0686461          -42.31                0               0        0.0273187         -41.594                0               0
                         0.99736         47.8501                0               0       0.00296724          176.86                0               0
76.305                 0.0171361        -43.9346                0               0        0.0720425        -44.5874                0               0
                      0.00461911         151.234                0               0         0.997294         45.4384                0               0
                       0.0720413        -44.5877                0               0        0.0171371         -43.112                0               0
                        0.997293         45.4396                0               0       0.00459345         150.889                0               0
76.35                   0.006916        -43.9114                0               0        0.0754167        -46.9345                0               0
                      0.00659015         137.727                0               0         0.997107          43.027                0               0
                       0.0754159        -46.9351                0               0       0.00693333        -41.8767                0               0
                        0.997106         43.0282                0               0       0.00656963         137.438                0               0
76.395                0.00337621         121.015                0               0        0.0787849        -49.3631                0               0
                      0.00868364         128.982                0               0         0.996814         40.6185                0               0
                       0.0787845        -49.3638                0               0       0.00342319          116.93                0               0
                        0.996812         40.6197                0               0       0.00866626         128.741                0               0
76.44                  0.0135582         124.978                0               0        0.0821828        -51.8611                0               0
                       0.0108257         122.375                0               0         0.996428         38.2168                0               0
