! TOUCHSTONE file generated by CST MICROWAVE STUDIO
! Date and time: Mon Jun 21 17:07:37 2021
! Project name: HIPS_d_sweep.cst
! Parameters = {a=0.735; b=0.393; d=25.196; fmax=120; fmin=75; phi=0; theta=0}
! Header version: 2018
! Port assignment regex: !\s*Touchstone port\s*([0-9]+)\s*=\s*(CST MWS port|CST DS port)\s*([0-9]+|Zmin|Zmax)\s*\(\"(.*)\"\)(\s*mode\s*([0-9]+))?.*
! Touchstone port assignment:
! Touchstone port 1 = CST MWS port Zmin ("") mode 1
! Touchstone port 2 = CST MWS port Zmin ("") mode 2
! Touchstone port 3 = CST MWS port Zmax ("") mode 1
! Touchstone port 4 = CST MWS port Zmax ("") mode 2
! S-Parameters are not renormalized. Unphysical impedance of 0 will be written to the file.
# GHz S MA R 0
75                      0.124485        -16.6341                0               0        0.0679539        -17.3663                0               0
                        0.013462        -56.0314                0               0         0.989805          73.721                0               0
                       0.0679555        -17.3654                0               0          0.12444        -16.5662                0               0
                          0.9898         73.7227                0               0        0.0133881        -55.5769                0               0
75.045                  0.121789        -17.3714                0               0        0.0637048        -18.4275                0               0
                         0.01343        -52.9629                0               0         0.990602         73.0396                0               0
                       0.0637066        -18.4272                0               0         0.121743        -17.3027                0               0
                        0.990598         73.0413                0               0        0.0133621        -52.4851                0               0
75.09                   0.118821        -18.2006                0               0        0.0599373        -19.4441                0               0
                       0.0133917        -50.5354                0               0         0.991165         72.2198                0               0
                       0.0599391         -19.444                0               0         0.118775         -18.131                0               0
                        0.991161         72.2215                0               0        0.0133292        -50.0383                0               0
75.135                  0.115546        -19.1287                0               0        0.0566377        -20.4414                0               0
                       0.0133193        -48.7161                0               0         0.991654         71.2755                0               0
                       0.0566395        -20.4412                0               0         0.115499        -19.0581                0               0
                         0.99165         71.2772                0               0        0.0132614        -48.2018                0               0
75.18                   0.111926        -20.1604                0               0         0.053793        -21.4452                0               0
                       0.0131895        -47.4618                0               0         0.992158         70.2189                0               0
                       0.0537946        -21.4445                0               0          0.11188        -20.0886                0               0
                        0.992154         70.2206                0               0        0.0131356        -46.9305                0               0
75.225                  0.107929        -21.2972                0               0        0.0513902        -22.4806                0               0
                       0.0129835        -46.7263                0               0         0.992713         69.0604                0               0
                       0.0513916        -22.4794                0               0         0.107882        -21.2241                0               0
                         0.99271         69.0621                0               0        0.0129328        -46.1767                0               0
75.27                   0.103523        -22.5373                0               0        0.0494171        -23.5712                0               0
                       0.0126865        -46.4659                0               0         0.993321         67.8081                0               0
                       0.0494183        -23.5696                0               0         0.103477        -22.4626                0               0
                        0.993318         67.8098                0               0        0.0126383        -45.8951                0               0
75.315                 0.0986888        -23.8762                0               0        0.0478617        -24.7375                0               0
                       0.0122869        -46.6425                0               0         0.993962         66.4684                0               0
                       0.0478628        -24.7355                0               0         0.098643        -23.7996                0               0
                        0.993959         66.4701                0               0        0.0122406        -46.0459                0               0
75.36                  0.0934121        -25.3065                0               0        0.0467126        -25.9956                0               0
                        0.011776        -47.2259                0               0         0.994605         65.0459                0               0
                       0.0467135        -25.9933                0               0        0.0933665        -25.2275                0               0
                        0.994603         65.0476                0               0         0.011731         -46.597                0               0
75.405                 0.0876901        -26.8194                0               0        0.0459583        -27.3561                0               0
                       0.0111478        -48.1957                0               0         0.995217         63.5439                0               0
                       0.0459591        -27.3537                0               0        0.0876449        -26.7375                0               0
                        0.995215         63.5456                0               0        0.0111035        -47.5255                0               0
75.45                   0.081529        -28.4052                0               0        0.0455876        -28.8237                0               0
                       0.0103986        -49.5449                0               0         0.995766         61.9644                0               0
                       0.0455883        -28.8213                0               0        0.0814841        -28.3196                0               0
                        0.995764         61.9662                0               0        0.0103544        -48.8214                0               0
75.495                 0.0749425        -30.0543                0               0        0.0455886        -30.3975                0               0
                      0.00952663        -51.2859                0               0          0.99623         60.3089                0               0
                       0.0455892        -30.3953                0               0        0.0748981        -29.9639                0               0
                        0.996228         60.3107                0               0       0.00948192        -50.4917                0               0
75.54                    0.06795        -31.7574                0               0        0.0459489        -32.0716                0               0
                      0.00853209        -53.4616                0               0         0.996595         58.5782                0               0
                       0.0459495        -32.0698                0               0        0.0679064        -31.6609                0               0
                        0.996594           58.58                0               0       0.00848612        -52.5716                0               0
75.585                 0.0605748        -33.5057                0               0        0.0466551        -33.8367                0               0
                      0.00741725        -56.1724                0               0         0.996862          56.773                0               0
                       0.0466557        -33.8352                0               0        0.0605321        -33.4012                0               0
                        0.996861         56.7748                0               0       0.00736904        -55.1477                0               0
75.63                  0.0528415        -35.2906                0               0        0.0476927        -35.6818                0               0
                      0.00618686        -59.6408                0               0          0.99704         54.8943                0               0
                       0.0476933        -35.6806                0               0        0.0528001        -35.1752                0               0
                         0.99704         54.8961                0               0       0.00613492        -58.4167                0               0
75.675                 0.0447753        -37.1014                0               0        0.0490456        -37.5953                0               0
                      0.00484982        -64.3998                0               0         0.997153         52.9438                0               0
                       0.0490462        -37.5945                0               0        0.0447354        -36.9707                0               0
                        0.997152         52.9456                0               0       0.00479152        -62.8577                0               0
75.72                  0.0364011        -38.9209                0               0        0.0506963        -39.5673                0               0
                      0.00342597        -71.9879                0               0         0.997227         50.9237                0               0
                       0.0506969        -39.5667                0               0        0.0363629        -38.7674                0               0
                        0.997227         50.9256                0               0       0.00335556        -69.8856                0               0
75.765                  0.027743        -40.7122                0               0        0.0526256        -41.5895                0               0
                      0.00198586        -88.7169                0               0         0.997296         48.8374                0               0
                       0.0526261         -41.589                0               0        0.0277067        -40.5205                0               0
                        0.997296         48.8393                0               0        0.0018866         -85.644                0               0
75.81                  0.0188249        -42.3664                0               0        0.0548128        -43.6562                0               0
                      0.00107494        -149.047                0               0         0.997387         46.6892                0               0
                       0.0548132        -43.6558                0               0        0.0187909        -42.0987                0               0
                        0.997387         46.6911                0               0      0.000935256        -151.108                0               0
75.855                0.00967211        -43.3501                0               0        0.0572356         -45.764                0               0
                      0.00208801         150.178                0               0         0.997524         44.4844                0               0
                       0.0572359        -45.7635                0               0       0.00964157        -42.8566                0               0
                        0.997525         44.4862                0               0       0.00204822         146.317                0               0
75.9                 0.000479436         4.22219                0               0        0.0598704        -47.9116                0               0
                      0.00380619         133.004                0               0          0.99772          42.229                0               0
                       0.0598707         -47.911                0               0      0.000524672         12.1551                0               0
                        0.997721         42.2308                0               0        0.0038018         130.814                0               0
75.945                0.00926807         127.789                0               0        0.0626923        -50.0994                0               0
                      0.00569068         124.792                0               0         0.997974         39.9298                0               0
                       0.0626924        -50.0987                0               0       0.00930142         127.361                0               0
                        0.997974         39.9316                0               0       0.00570079         123.326                0               0
75.99                   0.018979         126.763                0               0        0.0656751         -52.329                0               0
                      0.00766712         119.173                0               0          0.99827         37.5938                0               0
                       0.0656751        -52.3281                0               0        0.0190086         126.568                0               0
                        0.998271         37.5956                0               0       0.00768559         118.087                0               0
76.035                 0.0288206         124.881                0               0        0.0687917        -54.6022                0               0
                      0.00971004          114.59                0               0         0.998582         35.2283                0               0
                       0.0687916        -54.6012                0               0        0.0288476         124.764                0               0
                        0.998583         35.2301                0               0       0.00973441         113.734                0               0
76.08                  0.0387568         122.753                0               0         0.072014        -56.9213                0               0
                       0.0118031         110.495                0               0         0.998868         32.8402                0               0
                       0.0720139        -56.9201                0               0        0.0387812         122.674                0               0
                        0.998869          32.842                0               0        0.0118322         109.792                0               0
76.125                 0.0487495         120.499                0               0        0.0753135        -59.2881                0               0
                        0.013932         106.651                0               0         0.999079         30.4362                0               0
                       0.0753133        -59.2867                0               0        0.0487715         120.443                0               0
                         0.99908          30.438                0               0        0.0139653         106.056                0               0
76.17                  0.0587576         118.162                0               0        0.0786611        -61.7038                0               0
                       0.0160832         102.939                0               0         0.999159         28.0226                0               0
                       0.0786608        -61.7023                0               0        0.0587771         118.121                0               0
                         0.99916         28.0243                0               0        0.0161203         102.425                0               0
76.215                 0.0687369         115.761                0               0        0.0820274         -64.169                0               0
                       0.0182425         99.2954                0               0         0.999051         25.6049                0               0
                       0.0820272        -64.1674                0               0        0.0687539         115.731                0               0
                        0.999052         25.6066                0               0        0.0182833          98.843                0               0
76.26                  0.0786408          113.31                0               0        0.0853836        -66.6831                0               0
                       0.0203955         95.6832                0               0         0.998696         23.1883                0               0
                       0.0853834        -66.6815                0               0        0.0786551         113.288                0               0
                        0.998697         23.1899                0               0        0.0204399         95.2797                0               0
76.305                 0.0884207         110.818                0               0        0.0887011        -69.2448                0               0
                       0.0225272         92.0814                0               0         0.998042         20.7773                0               0
                       0.0887011        -69.2432                0               0        0.0884322         110.802                0               0
                        0.998043         20.7788                0               0        0.0225752         91.7173                0               0
76.35                  0.0980275         108.295                0               0        0.0919525        -71.8517                0               0
                       0.0246224         88.4781                0               0          0.99704         18.3758                0               0
                       0.0919526        -71.8502                0               0        0.0980361         108.284                0               0
                        0.997041         18.3773                0               0        0.0246739         88.1464                0               0
76.395                  0.107412         105.749                0               0        0.0951118        -74.5006                0               0
                       0.0266652         84.8676                0               0         0.995651         15.9874                0               0
                       0.0951121        -74.4992                0               0         0.107418         105.742                0               0
                        0.995652         15.9889                0               0        0.0267203          84.563                0               0
76.44                   0.116528         103.188                0               0        0.0981548        -77.1873                0               0
                       0.0286403         81.2483                0               0         0.993844         13.6151                0               0
