! TOUCHSTONE file generated by CST MICROWAVE STUDIO
! Date and time: Mon Jun 21 17:07:10 2021
! Project name: HIPS_d_sweep.cst
! Parameters = {a=0.735; b=0.393; d=22.3819; fmax=120; fmin=75; phi=0; theta=0}
! Header version: 2018
! Port assignment regex: !\s*Touchstone port\s*([0-9]+)\s*=\s*(CST MWS port|CST DS port)\s*([0-9]+|Zmin|Zmax)\s*\(\"(.*)\"\)(\s*mode\s*([0-9]+))?.*
! Touchstone port assignment:
! Touchstone port 1 = CST MWS port Zmin ("") mode 1
! Touchstone port 2 = CST MWS port Zmin ("") mode 2
! Touchstone port 3 = CST MWS port Zmax ("") mode 1
! Touchstone port 4 = CST MWS port Zmax ("") mode 2
! S-Parameters are not renormalized. Unphysical impedance of 0 will be written to the file.
# GHz S MA R 0
75                    0.00762915          94.519                0               0         0.116954         130.955                0               0
                       0.0386873        -50.1354                0               0         0.992355         41.0718                0               0
                        0.116954         130.955                0               0       0.00768961         94.2327                0               0
                        0.992354         41.0727                0               0        0.0386762        -49.8676                0               0
75.045                0.00970669         101.907                0               0         0.120707          130.21                0               0
                       0.0393486         -51.908                0               0         0.991789         40.3903                0               0
                        0.120706         130.211                0               0       0.00976286         101.638                0               0
                        0.991788         40.3908                0               0        0.0394108        -51.6191                0               0
75.09                  0.0122628         106.851                0               0         0.124049         129.389                0               0
                        0.039886         -53.456                0               0         0.991295          39.625                0               0
                        0.124047          129.39                0               0        0.0123153         106.615                0               0
                        0.991294         39.6254                0               0          0.03997        -53.1145                0               0
75.135                 0.0152534         110.122                0               0         0.126979         128.486                0               0
                        0.040216        -54.8955                0               0         0.990864         38.7754                0               0
                        0.126978         128.488                0               0        0.0153029          109.92                0               0
                        0.990864         38.7758                0               0        0.0402817        -54.5204                0               0
75.18                  0.0186495         112.264                0               0         0.129502         127.498                0               0
                         0.04031        -56.3624                0               0         0.990488         37.8415                0               0
                          0.1295         127.499                0               0        0.0186965          112.09                0               0
                        0.990487          37.842                0               0        0.0403424         -55.988                0               0
75.225                 0.0224305         113.623                0               0          0.13162         126.423                0               0
                       0.0401842        -57.9649                0               0         0.990156         36.8235                0               0
                        0.131619         126.424                0               0        0.0224753         113.474                0               0
                        0.990156         36.8241                0               0        0.0401871        -57.6158                0               0
75.27                  0.0265804         114.419                0               0          0.13334         125.261                0               0
                       0.0398749        -59.7681                0               0         0.989862         35.7223                0               0
                        0.133338         125.262                0               0        0.0266234          114.29                0               0
                        0.989861          35.723                0               0        0.0398584        -59.4534                0               0
75.315                 0.0310853         114.793                0               0         0.134667         124.013                0               0
                       0.0394186        -61.8021                0               0         0.989595          34.539                0               0
                        0.134667         124.013                0               0        0.0311267         114.681                0               0
                        0.989594         34.5398                0               0        0.0393919        -61.5194                0               0
75.36                  0.0359316         114.836                0               0         0.135612         122.681                0               0
                       0.0388433        -64.0757                0               0         0.989348         33.2752                0               0
                        0.135611         122.681                0               0        0.0359716         114.738                0               0
                        0.989348         33.2761                0               0        0.0388121         -63.817                0               0
75.405                 0.0411054          114.61                0               0         0.136182         121.268                0               0
                       0.0381672        -66.5881                0               0         0.989114         31.9331                0               0
                        0.136181         121.268                0               0        0.0411442         114.523                0               0
                        0.989113         31.9341                0               0         0.038134        -66.3438                0               0
75.45                  0.0465916         114.158                0               0         0.136388         119.778                0               0
                       0.0374006        -69.3356                0               0         0.988885         30.5151                0               0
                        0.136388         119.778                0               0        0.0466294         114.081                0               0
                        0.988884         30.5162                0               0        0.0373656         -69.097                0               0
75.495                 0.0523736          113.51                0               0         0.136243         118.215                0               0
                        0.036549        -72.3153                0               0         0.988654          29.024                0               0
                        0.136243         118.215                0               0        0.0524107         113.441                0               0
                        0.988653         29.0251                0               0        0.0365111        -72.0754                0               0
75.54                   0.058433         112.689                0               0         0.135761         116.584                0               0
                       0.0356146        -75.5271                0               0         0.988415         27.4631                0               0
                        0.135761         116.584                0               0        0.0584695         112.627                0               0
                        0.988414         27.4642                0               0        0.0355724        -75.2804                0               0
75.585                  0.064749         111.713                0               0         0.134956          114.89                0               0
                       0.0345989        -78.9737                0               0         0.988162         25.8359                0               0
                        0.134955          114.89                0               0        0.0647849         111.657                0               0
                        0.988161         25.8369                0               0         0.034551        -78.7167                0               0
75.63                  0.0712985         110.598                0               0         0.133845         113.139                0               0
                       0.0335041        -82.6611                0               0          0.98789         24.1461                0               0
                        0.133845         113.139                0               0         0.071334         110.547                0               0
                         0.98789         24.1471                0               0        0.0334492        -82.3919                0               0
75.675                 0.0780559         109.356                0               0         0.132447         111.336                0               0
                       0.0323337        -86.5994                0               0         0.987595         22.3979                0               0
                        0.132446         111.336                0               0        0.0780911          109.31                0               0
                        0.987595         22.3988                0               0         0.032271        -86.3172                0               0
75.72                  0.0849936         107.998                0               0          0.13078         109.487                0               0
                       0.0310935        -90.8023                0               0         0.987272         20.5955                0               0
                        0.130779         109.487                0               0        0.0850284         107.956                0               0
                        0.987272         20.5963                0               0        0.0310226        -90.5075                0               0
75.765                 0.0920815         106.535                0               0         0.128865         107.599                0               0
                       0.0297925        -95.2884                0               0         0.986917         18.7432                0               0
                        0.128864           107.6                0               0        0.0921161         106.496                0               0
                        0.986917          18.744                0               0        0.0297132        -94.9821                0               0
75.81                  0.0992882         104.977                0               0         0.126725         105.678                0               0
                       0.0284432        -100.081                0               0         0.986527         16.8456                0               0
                        0.126724         105.678                0               0        0.0993224         104.942                0               0
                        0.986528         16.8464                0               0        0.0283554        -99.7654                0               0
75.855                  0.106581         103.335                0               0         0.124381         103.729                0               0
                       0.0270616        -105.209                0               0         0.986099         14.9073                0               0
                         0.12438          103.73                0               0         0.106615         103.302                0               0
                          0.9861          14.908                0               0        0.0269656        -104.887                0               0
75.9                    0.113926         101.617                0               0         0.121858          101.76                0               0
                        0.025668        -110.707                0               0          0.98563         12.9327                0               0
                        0.121857          101.76                0               0          0.11396         101.586                0               0
                        0.985632         12.9334                0               0        0.0255636        -110.382                0               0
75.945                  0.121291         99.8325                0               0         0.119178         99.7758                0               0
                       0.0242861        -116.615                0               0         0.985119         10.9264                0               0
                        0.119177         99.7759                0               0         0.121324         99.8047                0               0
                         0.98512         10.9272                0               0        0.0241735        -116.291                0               0
75.99                   0.128642         97.9915                0               0         0.116365         97.7828                0               0
                       0.0229437        -122.974                0               0         0.984562         8.89288                0               0
                        0.116364         97.7829                0               0         0.128675         97.9658                0               0
                        0.984564          8.8937                0               0        0.0228226        -122.656                0               0
76.035                  0.135948         96.1024                0               0         0.113443         95.7871                0               0
                       0.0216715        -129.824                0               0         0.983959         6.83641                0               0
                        0.113441          95.787                0               0          0.13598         96.0786                0               0
                        0.983961         6.83728                0               0        0.0215418         -129.52                0               0
76.08                    0.14318         94.1734                0               0         0.110433         93.7944                0               0
                       0.0205026        -137.196                0               0          0.98331         4.76119                0               0
                        0.110432         93.7943                0               0         0.143211         94.1513                0               0
                        0.983312         4.76211                0               0        0.0203642        -136.912                0               0
76.125                  0.150308         92.2122                0               0         0.107359         91.8106                0               0
                       0.0194711        -145.099                0               0         0.982615         2.67124                0               0
                        0.107358         91.8104                0               0         0.150339         92.1918                0               0
                        0.982617         2.67222                0               0        0.0193241        -144.845                0               0
76.17                   0.157307         90.2259                0               0         0.104242         89.8412                0               0
                       0.0186095        -153.505                0               0         0.981875         0.57044                0               0
                        0.104241         89.8408                0               0         0.157338          90.207                0               0
                        0.981877        0.571457                0               0        0.0184544        -153.292                0               0
76.215                  0.164153         88.2208                0               0         0.101103         87.8915                0               0
                       0.0179463        -162.341                0               0         0.981095        -1.53749                0               0
                        0.101102          87.891                0               0         0.164183         88.2032                0               0
                        0.981097        -1.53645                0               0        0.0177839        -162.179                0               0
76.26                   0.170821         86.2023                0               0        0.0979606         85.9663                0               0
                       0.0175016        -171.478                0               0         0.980278        -3.64891                0               0
                       0.0979596         85.9657                0               0         0.170851         86.1861                0               0
                        0.980281        -3.64788                0               0        0.0173333        -171.377                0               0
76.305                  0.177288         84.1752                0               0        0.0948351         84.0702                0               0
                        0.017284         179.255                0               0         0.979434        -5.76022                0               0
                        0.094834         84.0695                0               0         0.177318         84.1602                0               0
                        0.979437        -5.75923                0               0         0.017112         179.289                0               0
76.35                   0.183532         82.1432                0               0        0.0917454         82.2071                0               0
                       0.0172888         170.051                0               0          0.97857        -7.86769                0               0
                       0.0917443         82.2063                0               0         0.183562         82.1293                0               0
                        0.978574        -7.86676                0               0        0.0171154         170.016                0               0
76.395                  0.189529         80.1094                0               0        0.0887115           80.38                0               0
                       0.0174981         161.091                0               0         0.977699        -9.96733                0               0
                       0.0887104         80.3792                0               0         0.189559         80.0966                0               0
                        0.977704        -9.96646                0               0         0.017326         160.991                0               0
76.44                   0.195255          78.076                0               0        0.0857552         78.5914                0               0
                       0.0178834         152.518                0               0         0.976829        -12.0546                0               0
